!Hittite Microwave Corporation								
!20 Alpha Rd								
!Chelmsford, MA 01824								
!Tel: 978-250-3343								
!Fax: 978-250-3373
!Device: HMC-C019, DC - 20 GHz GaAs MMIC SPsT Non-Reflective Switch Module
!Misc: Bias: +5VDC, ISOLATION STATE	
!
# GHZ S DB R 50.0
 0.010000	 -16.60	  -0.45	 -88.94	 -35.29	 -85.58	 -13.09	 -16.76	  -0.37
 0.159950	 -17.00	  -6.84	-111.92	 -74.66	-114.36	  62.43	 -17.13	  -6.46
 0.309900	 -17.04	 -12.15	-115.89	-143.38	-116.64	  89.93	 -17.15	 -11.23
 0.459850	 -17.03	 -18.03	-119.30	 177.46	-111.84	 -38.83	 -17.08	 -16.50
 0.609800	 -16.93	 -23.31	-113.21	  74.32	-118.75	  44.90	 -17.04	 -21.94
 0.759750	 -17.00	 -29.38	-118.36	 135.96	-112.30	 135.55	 -17.03	 -27.72
 0.909700	 -17.00	 -35.23	-108.77	  73.45	-112.43	 124.12	 -16.96	 -33.46
 1.059650	 -17.00	 -41.86	-109.93	  24.79	-112.94	  52.01	 -16.91	 -39.24
 1.209600	 -17.05	 -47.89	-107.55	  48.38	-110.98	  68.65	 -16.85	 -45.59
 1.359550	 -17.10	 -54.11	-114.79	  47.98	-111.74	  96.90	 -16.80	 -51.86
 1.509500	 -17.13	 -60.66	-122.93	  46.24	-118.09	  63.72	 -16.80	 -58.19
 1.659450	 -17.16	 -66.57	-100.60	 122.61	-100.48	 121.84	 -16.77	 -64.82
 1.809400	 -17.15	 -72.94	 -99.39	  38.38	-100.36	  53.17	 -16.72	 -71.46
 1.959350	 -17.12	 -79.59	-112.30	 -18.09	-112.46	  37.29	 -16.68	 -78.26
 2.109300	 -17.05	 -85.98	-114.56	  90.86	-115.02	  38.59	 -16.62	 -85.21
 2.259250	 -16.98	 -92.81	-104.46	  37.74	-109.15	  73.99	 -16.60	 -92.26
 2.409200	 -16.93	 -99.83	-111.08	  29.72	-106.94	  -8.24	 -16.58	 -99.52
 2.559150	 -16.84	-106.81	-103.31	 -34.14	-102.32	 -41.98	 -16.52	-106.74
 2.709100	 -16.78	-114.25	-102.06	 -63.85	-102.28	 -69.99	 -16.47	-114.02
 2.859050	 -16.68	-121.56	-101.26	 -79.68	-101.52	 -69.18	 -16.40	-121.77
 3.009000	 -16.55	-128.97	-101.94	 -77.33	-101.84	 -73.36	 -16.32	-129.63
 3.158950	 -16.53	-136.72	-101.61	 -78.52	-101.00	 -83.04	 -16.26	-137.29
 3.308900	 -16.42	-143.75	 -99.48	 -90.89	 -99.94	 -84.16	 -16.18	-145.02
 3.458850	 -16.28	-151.60	-100.24	 -89.03	 -99.81	-114.17	 -16.04	-152.86
 3.608800	 -16.20	-158.92	 -99.03	-118.01	 -98.93	-104.45	 -15.91	-160.70
 3.758750	 -16.05	-166.64	 -98.67	-128.66	 -98.09	-128.39	 -15.83	-168.85
 3.908700	 -15.93	-174.62	 -98.96	-136.67	 -97.34	-133.54	 -15.71	-176.72
 4.058650	 -15.80	 177.92	 -96.98	-150.55	 -97.12	-148.69	 -15.59	 175.52
 4.208600	 -15.64	 169.93	 -96.95	-156.86	 -97.54	-154.58	 -15.43	 167.55
 4.358550	 -15.50	 162.11	 -96.67	-164.00	 -96.07	-164.11	 -15.28	 159.63
 4.508500	 -15.33	 154.75	 -95.45	 179.63	 -95.88	-178.79	 -15.16	 151.56
 4.658450	 -15.19	 146.89	 -94.53	 174.16	 -95.08	 172.59	 -15.00	 143.64
 4.808400	 -15.07	 139.48	 -93.88	 160.40	 -93.79	 159.36	 -14.86	 135.93
 4.958350	 -14.92	 131.96	 -93.71	 149.11	 -93.64	 146.97	 -14.71	 127.96
 5.108300	 -14.81	 124.32	 -92.68	 136.23	 -92.56	 136.76	 -14.54	 120.19
 5.258250	 -14.68	 117.10	 -91.83	 123.82	 -91.36	 123.18	 -14.40	 112.42
 5.408200	 -14.57	 109.69	 -91.27	 110.78	 -91.28	 110.54	 -14.26	 104.64
 5.558150	 -14.51	 102.34	 -91.09	 100.80	 -91.20	 100.11	 -14.14	  97.08
 5.708100	 -14.41	  95.06	 -90.43	  85.64	 -90.08	  85.93	 -14.01	  89.56
 5.858050	 -14.33	  87.58	 -89.94	  76.76	 -89.59	  77.34	 -13.88	  81.93
 6.008000	 -14.29	  80.47	 -89.52	  64.76	 -89.49	  61.82	 -13.78	  74.40
 6.157950	 -14.23	  73.42	 -89.10	  54.11	 -88.84	  54.03	 -13.70	  66.67
 6.307900	 -14.21	  66.18	 -88.45	  42.38	 -88.22	  39.98	 -13.62	  59.14
 6.457850	 -14.20	  59.06	 -88.33	  28.29	 -88.06	  29.06	 -13.57	  51.63
 6.607800	 -14.18	  51.84	 -87.67	  17.04	 -87.81	  18.93	 -13.51	  43.93
 6.757750	 -14.20	  44.68	 -87.13	   5.81	 -87.07	   7.46	 -13.47	  36.32
 6.907700	 -14.22	  37.63	 -86.70	  -5.35	 -86.82	  -5.64	 -13.45	  28.64
 7.057650	 -14.28	  30.42	 -86.41	 -17.86	 -86.62	 -17.26	 -13.44	  20.95
 7.207600	 -14.37	  23.29	 -85.88	 -29.28	 -85.85	 -28.99	 -13.45	  13.21
 7.357550	 -14.46	  16.00	 -85.43	 -41.07	 -85.55	 -42.19	 -13.45	   5.43
 7.507500	 -14.60	   8.48	 -85.21	 -52.24	 -85.15	 -53.55	 -13.48	  -2.45
 7.657450	 -14.74	   1.25	 -84.56	 -64.36	 -84.80	 -64.87	 -13.53	 -10.47
 7.807400	 -14.91	  -6.36	 -84.24	 -77.37	 -84.37	 -76.75	 -13.59	 -18.54
 7.957350	 -15.13	 -14.19	 -83.78	 -89.17	 -83.78	 -90.25	 -13.68	 -26.64
 8.107300	 -15.32	 -21.84	 -83.36	-102.20	 -83.41	-101.65	 -13.74	 -34.96
 8.257250	 -15.57	 -30.07	 -83.15	-114.01	 -83.03	-114.13	 -13.83	 -43.49
 8.407200	 -15.84	 -38.26	 -82.62	-126.47	 -82.51	-126.99	 -13.90	 -52.14
 8.557150	 -16.07	 -47.02	 -82.14	-139.97	 -82.11	-139.86	 -13.98	 -60.66
 8.707100	 -16.34	 -55.70	 -81.86	-152.37	 -81.86	-152.58	 -14.08	 -69.49
 8.857050	 -16.59	 -64.47	 -81.49	-165.13	 -81.44	-164.22	 -14.15	 -78.34
 9.007000	 -16.84	 -73.92	 -81.19	-177.65	 -81.21	-177.56	 -14.23	 -87.17
 9.156950	 -17.11	 -83.11	 -80.76	 170.06	 -80.89	 170.29	 -14.30	 -96.17
 9.306900	 -17.32	 -92.70	 -80.43	 157.84	 -80.47	 157.03	 -14.39	-105.28
 9.456850	 -17.55	-102.67	 -80.14	 143.93	 -80.21	 144.58	 -14.46	-114.47
 9.606800	 -17.77	-112.58	 -79.92	 130.26	 -79.80	 130.95	 -14.53	-123.60
 9.756750	 -17.86	-122.47	 -79.66	 117.16	 -79.77	 117.27	 -14.57	-132.90
 9.906700	 -18.07	-132.69	 -79.49	 104.54	 -79.47	 104.30	 -14.59	-142.15
10.056650	 -18.15	-142.78	 -79.30	  91.91	 -79.41	  91.48	 -14.61	-151.48
10.206600	 -18.15	-152.85	 -79.29	  80.09	 -79.29	  78.93	 -14.61	-160.76
10.356550	 -18.36	-162.52	 -78.95	  66.91	 -79.04	  66.51	 -14.60	-169.91
10.506500	 -18.27	-173.48	 -78.81	  54.03	 -78.90	  54.52	 -14.60	-179.01
10.656450	 -18.29	 177.04	 -78.54	  41.44	 -78.56	  41.49	 -14.55	 172.07
10.806400	 -18.27	 167.36	 -78.44	  29.28	 -78.40	  28.88	 -14.54	 163.19
10.956350	 -18.10	 156.87	 -78.34	  15.77	 -78.26	  15.60	 -14.50	 154.38
11.106300	 -18.03	 149.08	 -78.04	   3.54	 -78.07	   3.59	 -14.45	 145.74
11.256250	 -17.93	 139.96	 -77.99	  -9.90	 -77.99	  -9.22	 -14.43	 137.26
11.406200	 -17.93	 131.75	 -77.85	 -22.44	 -77.75	 -23.06	 -14.41	 129.05
11.556150	 -17.84	 123.82	 -77.61	 -35.64	 -77.79	 -35.44	 -14.41	 120.94
11.706100	 -17.87	 116.13	 -77.66	 -48.85	 -77.69	 -48.70	 -14.39	 113.12
11.856050	 -17.90	 108.82	 -77.61	 -61.45	 -77.58	 -61.56	 -14.40	 105.52
12.006000	 -17.93	 101.77	 -77.71	 -73.71	 -77.68	 -74.08	 -14.46	  97.96
12.155950	 -18.08	  95.25	 -77.68	 -87.28	 -77.67	 -86.85	 -14.55	  90.61
12.305900	 -18.22	  88.97	 -77.75	 -99.50	 -77.80	 -99.39	 -14.69	  83.49
12.455850	 -18.42	  83.40	 -77.76	-110.61	 -77.79	-111.50	 -14.83	  76.70
12.605800	 -18.78	  78.10	 -77.96	-122.77	 -77.90	-123.02	 -14.98	  69.67
12.755750	 -19.15	  73.33	 -77.91	-133.15	 -78.00	-133.53	 -15.16	  63.18
12.905700	 -19.70	  69.09	 -77.97	-145.43	 -78.00	-143.99	 -15.47	  56.96
13.055650	 -20.32	  65.04	 -77.91	-155.65	 -78.00	-155.17	 -15.83	  50.68
13.205600	 -21.05	  62.12	 -77.82	-166.55	 -77.89	-166.42	 -16.21	  44.92
13.355550	 -21.92	  59.80	 -77.63	-176.53	 -77.66	-176.21	 -16.65	  39.47
13.505500	 -22.84	  58.76	 -77.44	 172.36	 -77.48	 172.39	 -17.15	  33.84
13.655450	 -23.87	  59.83	 -77.27	 161.16	 -77.36	 161.14	 -17.81	  29.03
13.805400	 -24.89	  63.23	 -77.12	 150.36	 -77.06	 151.10	 -18.62	  24.62
13.955350	 -25.72	  69.59	 -76.82	 139.55	 -76.88	 138.83	 -19.44	  21.29
14.105300	 -26.08	  78.28	 -76.49	 127.42	 -76.55	 127.62	 -20.42	  18.79
14.255250	 -25.81	  88.05	 -76.34	 115.26	 -76.39	 115.07	 -21.58	  16.97
14.405200	 -24.84	  95.37	 -76.05	 103.11	 -76.09	 103.26	 -22.85	  17.70
14.555150	 -23.62	 100.63	 -75.89	  91.05	 -75.93	  91.04	 -24.20	  22.08
14.705100	 -22.24	 102.66	 -75.65	  79.01	 -75.77	  78.98	 -25.28	  29.80
14.855050	 -20.90	 102.10	 -75.59	  66.55	 -75.61	  66.65	 -25.72	  41.03
15.005000	 -19.67	 100.49	 -75.44	  55.03	 -75.47	  54.77	 -25.37	  53.15
15.154950	 -18.49	  97.28	 -75.35	  42.77	 -75.39	  42.99	 -24.19	  62.48
15.304900	 -17.46	  93.22	 -75.12	  32.28	 -75.13	  30.94	 -22.70	  67.87
15.454850	 -16.46	  88.63	 -75.03	  20.13	 -75.09	  19.78	 -21.20	  69.25
15.604799	 -15.53	  83.71	 -74.82	   8.05	 -74.84	   8.39	 -19.79	  68.46
15.754750	 -14.71	  78.61	 -74.58	  -3.42	 -74.71	  -3.46	 -18.59	  65.83
15.904700	 -13.93	  73.08	 -74.46	 -14.77	 -74.42	 -14.62	 -17.44	  62.48
16.054650	 -13.19	  67.58	 -74.15	 -26.54	 -74.29	 -26.09	 -16.44	  58.44
16.204600	 -12.54	  62.06	 -73.98	 -37.83	 -74.01	 -38.00	 -15.55	  53.63
16.354550	 -11.93	  56.53	 -73.78	 -49.45	 -73.82	 -49.62	 -14.75	  48.28
16.504500	 -11.38	  50.63	 -73.57	 -61.37	 -73.56	 -61.71	 -14.05	  42.72
16.654450	 -10.88	  45.13	 -73.27	 -73.00	 -73.32	 -73.13	 -13.42	  36.99
16.804400	 -10.41	  39.53	 -73.04	 -84.78	 -73.09	 -84.43	 -12.84	  30.92
16.954350	 -10.02	  33.67	 -72.76	 -96.14	 -72.79	 -96.23	 -12.32	  24.71
17.104300	  -9.65	  28.13	 -72.44	-108.06	 -72.49	-107.51	 -11.86	  18.30
17.254250	  -9.30	  22.43	 -72.12	-120.11	 -72.09	-119.50	 -11.44	  11.88
17.404201	  -9.05	  16.67	 -71.74	-131.84	 -71.71	-131.17	 -11.06	   5.27
17.554149	  -8.81	  11.05	 -71.33	-143.47	 -71.41	-143.18	 -10.70	  -1.56
17.704100	  -8.59	   5.14	 -70.89	-155.77	 -70.88	-155.53	 -10.39	  -8.44
17.854050	  -8.45	  -0.63	 -70.45	-168.14	 -70.44	-167.89	 -10.10	 -15.46
18.004001	  -8.32	  -6.62	 -70.02	 179.56	 -69.93	 179.52	  -9.84	 -22.43
18.153949	  -8.21	 -13.00	 -69.50	 166.37	 -69.45	 166.40	  -9.60	 -29.69
18.303900	  -8.15	 -19.18	 -68.99	 153.11	 -68.92	 152.66	  -9.38	 -36.92
18.453850	  -8.09	 -25.72	 -68.50	 138.77	 -68.39	 138.47	  -9.18	 -44.25
18.603801	  -8.07	 -32.55	 -68.14	 124.24	 -68.01	 123.99	  -9.01	 -51.77
18.753749	  -8.05	 -39.22	 -67.71	 109.79	 -67.59	 109.27	  -8.85	 -59.24
18.903699	  -8.03	 -46.40	 -67.29	  94.90	 -67.21	  94.30	  -8.70	 -66.99
19.053650	  -8.06	 -53.67	 -66.97	  79.56	 -66.89	  79.06	  -8.56	 -74.65
19.203600	  -8.06	 -60.80	 -66.73	  63.93	 -66.68	  63.43	  -8.42	 -82.47
19.353551	  -8.05	 -68.62	 -66.58	  48.79	 -66.55	  47.70	  -8.33	 -90.25
19.503499	  -8.10	 -76.09	 -66.53	  33.29	 -66.50	  32.16	  -8.24	 -98.39
19.653450	  -8.07	 -83.71	 -66.46	  18.54	 -66.52	  17.75	  -8.13	-106.45
19.803400	  -8.09	 -91.82	 -66.44	   3.93	 -66.55	   3.21	  -8.05	-114.43
19.953351	  -8.11	 -99.26	 -66.45	  -9.90	 -66.58	 -11.32	  -7.99	-122.52
20.103299	  -8.09	-107.25	 -66.46	 -23.54	 -66.60	 -25.15	  -7.92	-130.80
20.253250	  -8.13	-115.19	 -66.56	 -37.37	 -66.64	 -38.77	  -7.86	-139.09
20.403200	  -8.14	-122.76	 -66.51	 -50.62	 -66.61	 -51.43	  -7.81	-147.46
20.553150	  -8.16	-130.85	 -66.36	 -63.22	 -66.54	 -64.21	  -7.76	-155.75
20.703101	  -8.24	-138.61	 -66.22	 -75.99	 -66.47	 -76.93	  -7.74	-164.16
20.853049	  -8.25	-146.40	 -66.02	 -89.21	 -66.34	 -89.56	  -7.70	-172.58
21.003000	  -8.30	-154.55	 -65.81	-102.38	 -66.09	-102.57	  -7.67	 179.03
21.152950	  -8.42	-162.24	 -65.48	-115.40	 -65.69	-115.10	  -7.64	 170.63
21.302901	  -8.45	-170.24	 -65.02	-128.42	 -65.30	-127.99	  -7.62	 162.29
21.452849	  -8.55	-178.38	 -64.57	-141.92	 -64.89	-141.60	  -7.61	 153.88
21.602800	  -8.69	 173.80	 -64.01	-156.16	 -64.35	-155.71	  -7.59	 145.50
21.752750	  -8.76	 165.71	 -63.53	-170.83	 -63.67	-170.00	  -7.60	 137.26
21.902701	  -8.91	 157.51	 -62.85	 173.39	 -63.02	 174.80	  -7.61	 128.97
22.052651	  -9.09	 149.48	 -62.18	 156.54	 -62.41	 157.83	  -7.62	 120.68
22.202599	  -9.17	 141.29	 -61.56	 138.25	 -61.70	 139.75	  -7.65	 112.48
22.352550	  -9.38	 133.07	 -61.03	 118.74	 -61.14	 120.66	  -7.68	 104.33
22.502500	  -9.54	 124.94	 -60.78	  98.31	 -60.86	  99.83	  -7.73	  96.20
22.652451	  -9.68	 116.89	 -60.73	  76.78	 -60.81	  78.77	  -7.79	  88.15
22.802399	  -9.90	 108.95	 -61.00	  55.50	 -61.00	  57.51	  -7.85	  80.00
22.952350	 -10.09	 101.22	 -61.53	  35.40	 -61.50	  37.43	  -7.94	  72.05
23.102300	 -10.34	  93.61	 -62.15	  16.77	 -62.14	  18.75	  -8.06	  64.20
23.252251	 -10.60	  86.34	 -62.86	  -0.82	 -62.84	   0.93	  -8.21	  56.05
23.402199	 -10.93	  79.49	 -63.58	 -17.39	 -63.48	 -16.09	  -8.36	  47.93
23.552150	 -11.32	  72.58	 -64.24	 -32.56	 -64.14	 -30.87	  -8.56	  39.70
23.702100	 -11.78	  66.57	 -64.81	 -47.10	 -64.73	 -45.53	  -8.81	  31.64
23.852050	 -12.31	  61.02	 -65.30	 -61.47	 -65.15	 -60.18	  -9.13	  23.16
24.002001	 -13.03	  55.77	 -65.73	 -74.92	 -65.58	 -74.46	  -9.48	  14.40
24.151949	 -13.81	  51.89	 -66.03	 -89.13	 -65.90	 -88.17	  -9.89	   5.55
24.301900	 -14.78	  49.23	 -66.26	-102.47	 -66.08	-101.95	 -10.39	  -3.87
24.451850	 -16.05	  47.42	 -66.24	-116.52	 -66.14	-115.95	 -10.97	 -13.74
24.601801	 -17.18	  49.15	 -66.34	-130.04	 -66.10	-130.14	 -11.70	 -24.63
24.751749	 -18.48	  55.63	 -66.18	-144.39	 -66.06	-144.12	 -12.47	 -36.63
24.901700	 -19.42	  65.91	 -65.96	-159.69	 -65.94	-159.36	 -13.35	 -49.22
25.051650	 -19.21	  78.84	 -65.54	-175.30	 -65.53	-175.36	 -14.41	 -64.30
25.201601	 -17.95	  89.83	 -65.15	 168.28	 -65.13	 168.00	 -15.48	 -81.68
25.351551	 -16.27	  96.19	 -64.57	 150.30	 -64.57	 150.22	 -16.49	-103.07
25.501499	 -14.53	  97.99	 -63.92	 130.04	 -63.96	 129.88	 -16.95	-128.19
25.651450	 -12.94	  96.59	 -63.24	 107.47	 -63.27	 107.51	 -16.63	-154.30
25.801400	 -11.51	  93.32	 -62.69	  81.66	 -62.75	  82.10	 -15.58	-178.59
25.951351	 -10.28	  88.88	 -62.53	  52.45	 -62.63	  52.72	 -14.17	 161.08
26.101299	  -9.22	  83.67	 -63.11	  20.42	 -63.18	  21.22	 -12.72	 144.04
26.251250	  -8.28	  77.66	 -64.39	 -12.35	 -64.50	 -10.72	 -11.31	 129.20
26.401200	  -7.47	  71.43	 -66.56	 -37.59	 -66.56	 -35.42	 -10.07	 116.25
26.551151	  -6.76	  65.01	 -68.50	 -60.75	 -68.54	 -59.36	  -8.96	 104.17
26.701099	  -6.11	  58.23	 -70.46	 -82.16	 -70.45	 -80.09	  -8.00	  93.25
26.851049	  -5.58	  51.37	 -72.62	-101.95	 -72.43	 -98.83	  -7.16	  82.97
27.001000	  -5.08	  44.67	 -74.43	-119.93	 -74.24	-117.50	  -6.43	  73.09
27.150950	  -4.64	  37.81	 -76.04	-136.49	 -75.87	-134.49	  -5.80	  63.58
27.300901	  -4.29	  31.11	 -77.62	-152.40	 -77.48	-152.09	  -5.27	  54.36
27.450849	  -3.94	  24.29	 -79.17	-169.41	 -78.73	-167.24	  -4.82	  45.58
27.600800	  -3.65	  17.72	 -80.37	 174.29	 -79.76	 176.91	  -4.43	  36.94
27.750750	  -3.40	  11.27	 -81.44	 161.34	 -81.32	 162.72	  -4.10	  28.56
27.900701	  -3.17	   4.72	 -82.71	 145.11	 -82.38	 146.62	  -3.82	  20.33
28.050649	  -2.98	  -1.59	 -83.48	 132.68	 -83.10	 132.46	  -3.58	  12.21
28.200600	  -2.81	  -7.86	 -83.25	 122.44	 -82.80	 119.11	  -3.38	   4.22
28.350550	  -2.65	 -14.26	 -81.96	 100.29	 -81.77	  97.67	  -3.22	  -3.64
28.500500	  -2.52	 -20.65	 -83.15	  74.43	 -82.63	  71.12	  -3.08	 -11.35
28.650451	  -2.42	 -26.74	 -84.21	  59.18	 -83.48	  55.62	  -2.95	 -19.06
28.800399	  -2.29	 -33.21	 -83.51	  45.17	 -83.36	  41.40	  -2.83	 -26.95
28.950350	  -2.24	 -39.92	 -80.66	  29.83	 -80.94	  29.35	  -2.72	 -34.87
29.100300	  -2.16	 -46.15	 -81.59	  -5.72	 -81.22	  -7.91	  -2.64	 -42.81
29.250251	  -2.07	 -52.96	 -80.17	 -31.16	 -80.03	 -34.12	  -2.58	 -50.96
29.400199	  -2.07	 -59.89	 -79.32	 -67.68	 -78.97	 -69.73	  -2.54	 -59.14
29.550150	  -2.00	 -67.00	 -79.66	-104.06	 -79.67	-107.55	  -2.50	 -67.51
29.700100	  -1.97	 -74.38	 -80.87	-139.78	 -80.83	-141.85	  -2.49	 -76.09
29.850051	  -1.95	 -81.96	 -83.00	-168.85	 -82.67	-171.18	  -2.47	 -84.91
30.000001	  -1.92	 -89.92	 -85.12	 169.24	 -85.03	 166.07	  -2.48	 -93.77
