!Hittite Microwave Corp.								
!Automated Network Analyzer Program								
!With 2 Voltage Loops								
!Hittite Microwave Corporation								
!20 Alpha Road								
!Chelmsford, MA 01824								
!Tel: 978-250-3343								
!Fax: 978-250-3373								
!Device: HMC-C004, 30kHz-6 GHz, Wideband Driver Amplifier Module								
!Misc: Vdd = +12V, Idd = 195 mA, Room Temperature								
!								
# GHZ S DB R 50								

0.00003	-0.21	-10.12	-33.88	-21.92	-84.94	22.8	-0.03	-9.85
0.00003	-0.22	-10.25	-33.64	-21.44	-82.87	-60.94	-0.02	-9.99
0.000031	-0.23	-10.38	-33.5	-20.35	-85.08	87.38	-0.02	-10.13
0.000031	-0.23	-10.53	-33.22	-19.68	-80.07	-78.51	-0.03	-10.29
0.000032	-0.24	-10.68	-33.01	-20.31	-77.9	-87.73	-0.03	-10.45
0.000032	-0.25	-10.82	-32.8	-20.47	-89.08	-81.8	-0.03	-10.6
0.000033	-0.26	-10.97	-32.46	-19.3	-75.43	7.1	-0.02	-10.82
0.000033	-0.26	-11.15	-32.24	-18.12	-82.23	-159.38	-0.03	-10.93
0.000034	-0.27	-11.32	-31.88	-18.23	-89.84	-27.22	-0.03	-11.1
0.000034	-0.28	-11.47	-31.7	-17.58	-85.87	-11.31	-0.03	-11.21
0.000035	-0.28	-11.64	-31.5	-17.33	-84.61	-12.04	-0.04	-11.42
0.000035	-0.29	-11.81	-31.12	-16.26	-77.23	31.25	-0.03	-11.61
0.000036	-0.3	-11.94	-30.99	-16.48	-88.47	119.67	-0.03	-11.76
0.000037	-0.3	-12.14	-30.64	-16.45	-88.69	24.5	-0.03	-11.95
0.000037	-0.32	-12.32	-30.37	-15.93	-80.87	83.74	-0.03	-12.12
0.000038	-0.33	-12.44	-30.11	-15.09	-91.99	-149.15	-0.04	-12.26
0.000038	-0.33	-12.6	-29.88	-14.6	-87.36	81.54	-0.04	-12.5
0.000039	-0.34	-12.79	-29.66	-13.83	-79.07	129.79	-0.04	-12.66
0.000039	-0.35	-12.99	-29.32	-14.08	-74.19	-76.61	-0.04	-12.82
0.00004	-0.36	-13.13	-29.14	-13.47	-93.4	-127.87	-0.05	-13.05
0.000041	-0.37	-13.32	-28.74	-13.52	-80.64	-95.51	-0.04	-13.25
0.000041	-0.37	-13.5	-28.5	-12.81	-90.08	-1.95	-0.04	-13.44
0.000042	-0.39	-13.72	-28.2	-12.25	-81.26	-158.39	-0.04	-13.63
0.000043	-0.4	-13.9	-27.97	-12.33	-81.51	117.92	-0.05	-13.84
0.000043	-0.41	-14.14	-27.64	-11.96	-76.09	-119.21	-0.05	-14.07
0.000044	-0.42	-14.25	-27.39	-11.55	-79.32	90.68	-0.04	-14.25
0.000045	-0.43	-14.5	-27.02	-11.17	-84.71	9.5	-0.04	-14.42
0.000045	-0.44	-14.66	-26.81	-10.9	-80.96	150	-0.05	-14.67
0.000046	-0.46	-14.88	-26.46	-10.46	-86.36	24.34	-0.05	-14.88
0.000047	-0.47	-15.1	-26.23	-9.93	-84.79	104.29	-0.04	-15.15
0.000047	-0.48	-15.29	-25.94	-9.64	-91.34	160.94	-0.05	-15.35
0.000048	-0.49	-15.51	-25.62	-9.18	-86.11	-46.62	-0.06	-15.59
0.000049	-0.5	-15.7	-25.33	-8.84	-74.18	-178.53	-0.05	-15.79
0.00005	-0.51	-15.89	-25.08	-9.03	-76.28	-156.08	-0.05	-16.03
0.00005	-0.53	-16.15	-24.74	-8.71	-86.46	-109.37	-0.06	-16.35
0.000051	-0.54	-16.36	-24.42	-8.24	-69.13	-44.54	-0.05	-16.55
0.000052	-0.56	-16.57	-24.13	-7.93	-81.57	106.51	-0.06	-16.79
0.000053	-0.57	-16.79	-23.86	-7.71	-86.74	-76.94	-0.07	-17.03
0.000054	-0.59	-17.02	-23.51	-7.5	-78.06	-73.94	-0.06	-17.31
0.000054	-0.6	-17.24	-23.22	-7.25	-80.88	-56.17	-0.07	-17.55
0.000055	-0.62	-17.45	-22.95	-7.28	-79.55	-39.74	-0.06	-17.85
0.000056	-0.64	-17.7	-22.62	-7.13	-81.93	43.41	-0.07	-18.15
0.000057	-0.65	-17.96	-22.31	-6.61	-79.53	170.56	-0.07	-18.39
0.000058	-0.67	-18.15	-21.94	-6.94	-80.6	-148.98	-0.07	-18.63
0.000059	-0.69	-18.44	-21.71	-6.19	-85.34	100.42	-0.07	-18.92
0.00006	-0.7	-18.66	-21.4	-6.33	-81.94	45.88	-0.07	-19.2
0.000061	-0.73	-18.9	-21.07	-6.2	-74.53	121.19	-0.09	-19.49
0.000061	-0.74	-19.12	-20.71	-6.14	-78.28	-149.39	-0.08	-19.78
0.000062	-0.76	-19.38	-20.43	-6.01	-83.9	-13.91	-0.08	-20.1
0.000063	-0.78	-19.67	-20.1	-6.02	-76.89	-113	-0.08	-20.42
0.000064	-0.81	-19.89	-19.8	-5.79	-78.58	56.83	-0.08	-20.68
0.000065	-0.82	-20.13	-19.47	-5.73	-85.13	-161.15	-0.08	-20.98
0.000066	-0.84	-20.45	-19.12	-5.89	-85.4	179.8	-0.09	-21.33
0.000067	-0.86	-20.66	-18.77	-5.95	-84.08	36.79	-0.09	-21.6
0.000068	-0.89	-20.95	-18.5	-5.9	-104.61	-168.92	-0.1	-21.94
0.000069	-0.92	-21.17	-18.19	-5.82	-104.81	-127.41	-0.1	-22.34
0.000071	-0.93	-21.48	-17.85	-5.86	-85.8	97.77	-0.09	-22.63
0.000072	-0.96	-21.75	-17.54	-5.82	-87.85	174.29	-0.1	-23
0.000073	-0.99	-22.04	-17.19	-5.87	-78.66	-4.13	-0.1	-23.33
0.000074	-1.01	-22.25	-16.85	-5.83	-88.19	-171.28	-0.12	-23.7
0.000075	-1.04	-22.56	-16.52	-5.98	-81.74	-33.44	-0.11	-24.05
0.000076	-1.07	-22.85	-16.2	-5.95	-94.44	126.76	-0.11	-24.39
0.000077	-1.09	-23.14	-15.9	-6.12	-82.85	-140.4	-0.11	-24.76
0.000078	-1.11	-23.36	-15.56	-6.09	-82.51	-153.72	-0.12	-25.15
0.00008	-1.15	-23.69	-15.23	-6.3	-74.8	39.73	-0.13	-25.57
0.000081	-1.17	-24	-14.9	-6.62	-79.47	-66.45	-0.13	-25.9
0.000082	-1.2	-24.25	-14.59	-6.56	-82.16	6.56	-0.13	-26.26
0.000083	-1.23	-24.52	-14.22	-6.86	-75.88	30.69	-0.13	-26.74
0.000085	-1.27	-24.83	-13.92	-7.12	-83.96	138.5	-0.14	-27.13
0.000086	-1.3	-25.08	-13.58	-7.34	-90.87	-56.33	-0.14	-27.5
0.000087	-1.33	-25.44	-13.25	-7.54	-74.04	-114.04	-0.15	-27.93
0.000089	-1.36	-25.74	-12.95	-7.74	-85.4	-37.36	-0.15	-28.36
0.00009	-1.4	-26.05	-12.59	-7.93	-77.31	22.38	-0.15	-28.8
0.000091	-1.43	-26.35	-12.26	-8.35	-75.43	-10.57	-0.16	-29.23
0.000093	-1.46	-26.64	-11.93	-8.64	-83.73	-79.85	-0.16	-29.71
0.000094	-1.5	-26.9	-11.61	-8.85	-75.7	-169.8	-0.17	-30.15
0.000096	-1.54	-27.29	-11.26	-9.27	-79.51	5.08	-0.18	-30.58
0.000097	-1.58	-27.56	-11	-9.5	-78.03	-93.21	-0.17	-31.03
0.000099	-1.61	-27.84	-10.61	-10.01	-89.05	39.12	-0.18	-31.48
0.0001	-1.65	-28.16	-10.29	-10.38	-83.19	113.55	-0.2	-31.98
0.000102	-1.69	-28.46	-9.95	-10.74	-72.67	-124.08	-0.2	-32.44
0.000103	-1.74	-28.77	-9.61	-11.11	-84.68	33.26	-0.2	-32.88
0.000105	-1.77	-29.09	-9.28	-11.77	-83.01	141.99	-0.21	-33.48
0.000106	-1.82	-29.45	-8.96	-12.12	-81.73	-156.32	-0.22	-33.99
0.000108	-1.86	-29.72	-8.64	-12.51	-83.46	-111.83	-0.22	-34.45
0.00011	-1.91	-30.01	-8.31	-13.08	-83.41	-160.59	-0.23	-35.02
0.000111	-1.95	-30.32	-7.98	-13.54	-80.61	112.14	-0.24	-35.52
0.000113	-1.99	-30.64	-7.65	-14.09	-79.77	161.3	-0.25	-36.09
0.000115	-2.03	-30.96	-7.33	-14.57	-79.24	127.84	-0.25	-36.66
0.000117	-2.08	-31.26	-6.96	-15.13	-81.35	-142.14	-0.27	-37.19
0.000118	-2.13	-31.61	-6.65	-15.67	-80.44	-116.87	-0.27	-37.77
0.00012	-2.18	-31.9	-6.34	-16.25	-79.22	-106.78	-0.29	-38.34
0.000122	-2.23	-32.24	-6.02	-16.92	-81.87	62.95	-0.29	-38.93
0.000124	-2.29	-32.49	-5.69	-17.42	-79.73	-79.21	-0.31	-39.51
0.000126	-2.33	-32.87	-5.37	-18.07	-76.46	-40.44	-0.31	-40.16
0.000128	-2.38	-33.16	-5.05	-18.77	-84.81	53.35	-0.32	-40.7
0.00013	-2.44	-33.47	-4.7	-19.32	-90.06	-3.73	-0.34	-41.35
0.000132	-2.49	-33.78	-4.39	-19.95	-76.73	-177.27	-0.35	-41.91
0.000134	-2.55	-34.12	-4.08	-20.8	-96.71	-172.31	-0.37	-42.54
0.000136	-2.61	-34.4	-3.74	-21.41	-81.62	109.28	-0.38	-43.17
0.000138	-2.66	-34.72	-3.42	-22.12	-79.72	179.25	-0.4	-43.83
0.00014	-2.72	-35.03	-3.1	-22.87	-78.22	-42.43	-0.42	-44.48
0.000142	-2.78	-35.29	-2.78	-23.63	-86.13	-170.77	-0.43	-45.21
0.000144	-2.83	-35.65	-2.44	-24.35	-77.11	-89.78	-0.44	-45.89
0.000147	-2.9	-35.93	-2.13	-25.16	-87.88	-152.2	-0.46	-46.57
0.000149	-2.95	-36.22	-1.79	-25.87	-83.4	169.81	-0.48	-47.23
0.000151	-3.01	-36.56	-1.47	-26.68	-78.32	124.49	-0.51	-47.92
0.000154	-3.08	-36.82	-1.15	-27.6	-84.6	-53.56	-0.51	-48.65
0.000156	-3.14	-37.14	-0.82	-28.45	-85.59	-124.84	-0.54	-49.46
0.000158	-3.21	-37.39	-0.5	-29.25	-90.31	59.35	-0.56	-50.07
0.000161	-3.27	-37.75	-0.17	-30.16	-80.86	-81.72	-0.59	-50.73
0.000163	-3.34	-38.01	0.15	-31.1	-88.03	-130.84	-0.61	-51.54
0.000166	-3.41	-38.33	0.48	-32.06	-82.14	-9.45	-0.64	-52.35
0.000168	-3.46	-38.61	0.82	-32.89	-80.22	-143.92	-0.67	-53.06
0.000171	-3.54	-38.84	1.15	-33.89	-85.78	-162.46	-0.69	-53.78
0.000173	-3.62	-39.21	1.48	-34.93	-89.43	160.9	-0.72	-54.6
0.000176	-3.68	-39.42	1.82	-35.96	-92.63	-171.62	-0.75	-55.36
0.000179	-3.76	-39.7	2.16	-36.96	-84.37	-145.45	-0.79	-56.18
0.000182	-3.83	-39.99	2.51	-38.05	-80.12	126.25	-0.82	-56.93
0.000184	-3.9	-40.3	2.85	-39.18	-80.82	-40.31	-0.86	-57.7
0.000187	-3.98	-40.59	3.2	-40.24	-90.99	-79.65	-0.9	-58.5
0.00019	-4.04	-40.77	3.57	-41.36	-81.55	-96.21	-0.94	-59.33
0.000193	-4.12	-41.02	3.93	-42.63	-81.37	150.48	-0.97	-60.1
0.000196	-4.2	-41.27	4.28	-44	-79.38	-48.26	-1.03	-60.92
0.000199	-4.27	-41.61	4.66	-45.41	-83.57	68.97	-1.06	-61.73
0.000202	-4.36	-41.77	5.05	-46.84	-82.41	-168.83	-1.11	-62.52
0.000205	-4.43	-42.08	5.45	-48.43	-83.04	116.75	-1.16	-63.32
0.000208	-4.51	-42.29	5.84	-50.02	-79.06	-102.05	-1.21	-64.08
0.000211	-4.58	-42.53	6.26	-51.85	-95.56	121.87	-1.27	-64.89
0.000215	-4.67	-42.8	6.67	-53.78	-81.43	-49.69	-1.31	-65.66
0.000218	-4.75	-43.04	7.11	-56	-89.94	140.29	-1.37	-66.42
0.000221	-4.84	-43.19	7.53	-58.42	-84.84	-24.27	-1.43	-67.27
0.000225	-4.91	-43.47	7.96	-61.08	-84.54	-85.91	-1.49	-68.02
0.000228	-5	-43.71	8.37	-64.05	-98.5	73.14	-1.54	-68.77
0.000232	-5.08	-43.91	8.76	-67.32	-94.76	-137.92	-1.62	-69.61
0.000235	-5.17	-44.14	9.12	-70.93	-76.7	42.46	-1.67	-70.24
0.000239	-5.25	-44.4	9.42	-74.75	-94.19	-35.87	-1.74	-70.89
0.000243	-5.33	-44.57	9.67	-78.77	-82.11	32.24	-1.8	-71.61
0.000246	-5.42	-44.76	9.86	-82.92	-86.31	-94.32	-1.86	-72.36
0.00025	-5.51	-44.93	9.97	-87.03	-88.33	130.43	-1.92	-72.94
0.000254	-5.59	-45.09	10.02	-91.08	-89.52	-128.68	-1.96	-73.5
0.000258	-5.68	-45.27	10.01	-94.97	-87.32	41.34	-2.03	-74.16
0.000262	-5.77	-45.4	9.94	-98.73	-78.66	164.41	-2.07	-74.72
0.000266	-5.87	-45.59	9.83	-102.2	-88.83	39.85	-2.14	-75.36
0.00027	-5.96	-45.76	9.67	-105.52	-83.38	54.57	-2.2	-75.86
0.000274	-6.05	-45.91	9.44	-108.88	-78.61	-138.5	-2.25	-76.41
0.000278	-6.13	-46.07	7.96	-94.9	-85.03	68.4	-1.95	-76.55
0.000283	-6.22	-46.21	9.24	-111.73	-83.13	41.56	-2.31	-77.56
0.000287	-6.31	-46.39	9	-114.4	-77.73	6.19	-2.34	-78.15
0.000291	-6.41	-46.55	8.76	-116.43	-81.05	-137.22	-2.38	-78.66
0.000296	-6.49	-46.64	8.55	-118.15	-87.63	-70.74	-2.41	-79.19
0.0003	-6.6	-46.73	8.35	-120.12	-83.97	-171.14	-2.43	-79.7
0.000305	-6.69	-46.88	8.12	-121.5	-84.37	93.15	-2.47	-80.25
0.00031	-6.78	-46.93	7.92	-122.63	-82.63	-12.87	-2.49	-80.77
0.000314	-6.87	-47.01	7.73	-123.65	-78.84	179.45	-2.49	-81.4
0.000319	-6.96	-47.2	7.55	-124.52	-93.68	96.92	-2.48	-82.06
0.000324	-7.05	-47.33	7.38	-125.31	-83.02	-149.89	-2.5	-82.61
0.000329	-7.15	-47.4	7.2	-126.06	-80.26	156.44	-2.49	-83.27
0.000334	-7.25	-47.49	7.05	-126.69	-82.39	133.84	-2.5	-83.97
0.000339	-7.34	-47.49	6.9	-127.21	-81.12	115.59	-2.5	-84.61
0.000345	-7.44	-47.68	6.76	-127.67	-80.9	-177.9	-2.49	-85.35
0.00035	-7.54	-47.64	6.63	-128.17	-86.76	-167.24	-2.49	-85.98
0.000355	-7.63	-47.7	6.51	-128.47	-92.09	-178.85	-2.48	-86.72
0.000361	-7.72	-47.76	6.39	-128.77	-85.13	177.9	-2.47	-87.53
0.000366	-7.83	-47.77	6.25	-128.84	-83.59	-136.66	-2.46	-88.31
0.000372	-7.92	-47.77	6.19	-129.33	-90.41	159.45	-2.46	-89.07
0.000378	-8.02	-47.9	6.09	-129.51	-86.83	9.9	-2.45	-89.88
0.000383	-8.11	-47.83	6.01	-129.78	-94.05	161.96	-2.45	-90.77
0.000389	-8.2	-47.99	5.94	-129.88	-89.35	-4.02	-2.44	-91.55
0.000395	-8.31	-47.92	5.83	-130.05	-84.06	-102.48	-2.43	-92.47
0.000401	-8.4	-47.99	5.77	-130.12	-88.44	-142.91	-2.42	-93.32
0.000408	-8.5	-47.94	5.7	-130.22	-91.22	144.87	-2.4	-94.27
0.000414	-8.59	-47.97	5.62	-130.23	-83.36	42.4	-2.39	-95.15
0.00042	-8.7	-47.96	5.56	-130.31	-82.57	30.27	-2.38	-96.05
0.000427	-8.79	-47.95	5.51	-130.43	-81.89	171.81	-2.38	-96.9
0.000433	-8.89	-47.92	5.45	-130.44	-84.15	21.34	-2.38	-97.87
0.00044	-8.98	-47.89	5.4	-130.34	-102	-68.79	-2.37	-98.85
0.000447	-9.08	-47.88	5.34	-130.27	-81.71	144.05	-2.37	-99.76
0.000454	-9.17	-47.84	5.3	-130.15	-94.87	-96.61	-2.36	-100.74
0.00046	-9.27	-47.76	5.25	-130.12	-77.38	62.62	-2.36	-101.72
0.000468	-9.37	-47.69	5.21	-130.09	-90.59	109.05	-2.35	-102.7
0.000475	-9.46	-47.65	5.17	-129.91	-92.35	-49.23	-2.35	-103.67
0.000482	-9.56	-47.56	5.13	-129.74	-77.68	147.02	-2.34	-104.63
0.000489	-9.65	-47.54	5.1	-129.5	-88.93	176.75	-2.35	-105.69
0.000497	-9.75	-47.44	5.06	-129.29	-89.73	122.72	-2.34	-106.68
0.000505	-9.84	-47.36	5.03	-129.02	-80.69	-77.79	-2.34	-107.67
0.000512	-9.93	-47.27	5.01	-128.81	-82.08	-112	-2.34	-108.68
0.00052	-10.03	-47.21	4.98	-128.58	-98.75	61.33	-2.33	-109.68
0.000528	-10.12	-47.1	4.95	-128.15	-95.72	64.51	-2.32	-110.69
0.000536	-10.22	-46.98	4.93	-127.83	-101.5	-63.19	-2.32	-111.84
0.000545	-10.31	-46.85	4.92	-127.42	-82.21	-136.7	-2.32	-112.78
0.000553	-10.4	-46.75	4.91	-127.05	-83.96	-166.09	-2.32	-113.83
0.000562	-10.5	-46.65	4.91	-126.63	-86.15	-102.33	-2.32	-114.85
0.00057	-10.58	-46.47	4.9	-126.08	-84.64	-69.21	-2.3	-115.9
0.000579	-10.68	-46.36	4.9	-125.87	-85.92	25.39	-2.31	-116.97
0.000588	-10.77	-46.25	4.9	-125.2	-89.51	-26.74	-2.32	-118
0.000597	-10.85	-46.12	4.92	-124.65	-85.25	70.74	-2.32	-119
0.000606	-10.95	-45.91	4.93	-124.1	-80.7	-179.28	-2.31	-120.14
0.000615	-11.04	-45.78	4.96	-123.46	-85.09	60.49	-2.31	-121.11
0.000625	-11.13	-45.63	4.98	-122.86	-81.77	57.46	-2.31	-122.15
0.000634	-11.22	-45.42	5.01	-122.17	-88.78	-23.13	-2.3	-123.25
0.000644	-11.31	-45.27	5.05	-121.57	-92.65	173.61	-2.29	-124.37
0.000654	-11.4	-45.11	5.09	-120.88	-86.04	20.88	-2.29	-125.44
0.000664	-11.48	-44.94	5.1	-120.55	-75.38	84.11	-2.3	-126.44
0.000674	-11.57	-44.69	5.2	-119.47	-88.73	-38.91	-2.3	-127.6
0.000685	-11.65	-44.52	5.26	-118.77	-89.68	-154.49	-2.3	-128.67
0.000695	-11.74	-44.33	5.33	-118.09	-86.17	-121.85	-2.3	-129.76
0.000706	-11.83	-44.17	5.43	-117.41	-80.94	86.81	-2.3	-130.84
0.000717	-11.91	-43.94	5.51	-116.6	-86.86	126.5	-2.29	-131.92
0.000728	-12	-43.72	5.61	-115.92	-80.99	-171.58	-2.31	-133.05
0.000739	-12.08	-43.49	5.72	-115.15	-83.48	-110.88	-2.31	-134.17
0.00075	-12.16	-43.26	5.84	-114.51	-88.02	155.93	-2.31	-135.32
0.000762	-12.24	-43.02	5.96	-113.77	-82.2	-110.13	-2.31	-136.42
0.000774	-12.32	-42.82	6.09	-113.09	-82.97	-175.86	-2.31	-137.5
0.000785	-12.4	-42.57	6.23	-112.5	-89.45	-60.34	-2.31	-138.65
0.000798	-12.48	-42.37	6.38	-111.86	-79.24	-31.12	-2.31	-139.76
0.00081	-12.56	-42.11	6.52	-111.25	-84.12	36.57	-2.32	-140.9
0.000822	-12.65	-41.89	6.68	-110.72	-88.68	-73.96	-2.33	-142.01
0.000835	-12.71	-41.63	6.84	-110.16	-86.28	9.46	-2.35	-143.17
0.000848	-12.8	-41.35	7.02	-109.7	-83.3	69.17	-2.34	-144.35
0.000861	-12.88	-41.16	7.19	-109.32	-85.65	-105.45	-2.36	-145.46
0.000874	-12.94	-40.86	7.36	-108.88	-92.11	-171.49	-2.36	-146.6
0.000887	-13.02	-40.58	7.54	-108.55	-89.35	53.76	-2.38	-147.77
0.000901	-13.1	-40.3	7.73	-108.24	-81.77	113.88	-2.38	-148.84
0.000915	-13.16	-40.01	7.91	-107.93	-84.13	77.95	-2.41	-150.06
0.000929	-13.24	-39.81	8.11	-107.71	-87.02	41.32	-2.42	-151.2
0.000943	-13.31	-39.45	8.29	-107.58	-90.42	60.47	-2.43	-152.31
0.000958	-13.38	-39.22	8.49	-107.49	-84.08	103.64	-2.45	-153.42
0.000973	-13.45	-38.94	8.69	-107.37	-81.78	126.34	-2.47	-154.63
0.000988	-13.52	-38.65	8.88	-107.29	-82.77	174.95	-2.49	-155.76
0.001003	-13.59	-38.35	9.06	-107.32	-92.55	121.78	-2.51	-156.92
0.001018	-13.65	-38.07	9.25	-107.21	-85.23	51.9	-2.52	-158.1
0.001034	-13.72	-37.82	9.46	-107.3	-89.27	58.14	-2.55	-159.23
0.00105	-13.79	-37.51	9.65	-107.41	-86.41	75.19	-2.57	-160.43
0.001066	-13.85	-37.19	9.84	-107.59	-88.76	-179.72	-2.61	-161.59
0.001082	-13.92	-36.96	10.03	-107.79	-84.61	122.29	-2.64	-162.74
0.001099	-13.98	-36.61	10.21	-108.01	-77.82	74.02	-2.66	-163.85
0.001116	-14.03	-36.34	10.4	-108.25	-78.63	-10.82	-2.7	-164.98
0.001133	-14.1	-36	10.58	-108.56	-92.89	6.64	-2.74	-166.07
0.00115	-14.16	-35.69	10.76	-108.91	-91.92	67.25	-2.76	-167.3
0.001168	-14.22	-35.41	10.94	-109.19	-81.33	92.38	-2.8	-168.41
0.001186	-14.28	-35.12	11.11	-109.55	-85.84	106.05	-2.84	-169.56
0.001204	-14.33	-34.81	11.29	-109.94	-107.17	97.55	-2.89	-170.69
0.001223	-14.39	-34.49	11.45	-110.4	-93.55	-169.54	-2.94	-171.74
0.001241	-14.45	-34.15	11.61	-110.78	-79.92	100.3	-2.97	-172.78
0.001261	-14.5	-33.89	11.78	-111.2	-80.1	28.11	-3	-173.99
0.00128	-14.56	-33.56	11.93	-111.67	-79.6	44.24	-3.05	-175
0.0013	-14.6	-33.27	12.1	-112.04	-100.7	-5.86	-3.09	-176.13
0.00132	-14.66	-32.97	12.25	-112.62	-88.29	49.95	-3.15	-177.23
0.00134	-14.72	-32.59	12.39	-113.15	-84.23	102.63	-3.2	-178.36
0.00136	-14.76	-32.3	12.54	-113.65	-88.3	-40.58	-3.24	-179.37
0.001381	-14.82	-31.98	12.68	-114.15	-92.06	31.51	-3.29	179.54
0.001403	-14.86	-31.68	12.82	-114.77	-77.89	18.95	-3.36	178.46
0.001424	-14.91	-31.38	12.96	-115.32	-81.86	141.27	-3.41	177.38
0.001446	-14.96	-31.09	13.09	-115.86	-85.99	-32.89	-3.47	176.37
0.001468	-15.01	-30.73	13.23	-116.45	-84.05	95.82	-3.53	175.28
0.001491	-15.05	-30.47	13.36	-117.04	-79.51	74.79	-3.59	174.27
0.001514	-15.09	-30.14	13.49	-117.65	-88.66	8.62	-3.65	173.16
0.001537	-15.13	-29.84	13.61	-118.15	-83.17	-71.27	-3.72	172.2
0.001561	-15.18	-29.54	13.73	-118.79	-91.8	83.07	-3.79	171.14
0.001585	-15.22	-29.22	13.84	-119.43	-83.25	-144.15	-3.84	170.14
0.001609	-15.26	-28.9	13.96	-120.03	-78.57	24.65	-3.92	169.2
0.001634	-15.3	-28.61	14.07	-120.61	-90.59	145.89	-3.98	168.21
0.001659	-15.34	-28.28	14.18	-121.21	-82.74	-63.1	-4.05	167.21
0.001684	-15.38	-27.96	14.28	-121.84	-85.29	129.76	-4.12	166.25
0.00171	-15.42	-27.71	14.39	-122.46	-91.17	50.35	-4.19	165.26
0.001737	-15.46	-27.4	14.49	-123.06	-83.47	27.11	-4.26	164.26
0.001763	-15.49	-27.08	14.59	-123.66	-83.07	71.17	-4.34	163.4
0.00179	-15.53	-26.76	14.68	-124.28	-82.89	92.33	-4.42	162.38
0.001818	-15.57	-26.51	14.78	-124.9	-80.74	15.52	-4.49	161.54
0.001846	-15.6	-26.17	14.87	-125.47	-81.47	135.8	-4.56	160.54
0.001874	-15.64	-25.91	14.97	-126.11	-83.52	25.45	-4.63	159.71
0.001903	-15.67	-25.57	15.05	-126.72	-103.46	-166.42	-4.72	158.81
0.001932	-15.69	-25.31	15.14	-127.35	-83.56	-1.53	-4.8	157.86
0.001962	-15.73	-25.05	15.22	-127.94	-85.98	1.9	-4.88	157.01
0.001992	-15.76	-24.75	15.3	-128.52	-83.92	48.12	-4.95	156.04
0.002023	-15.79	-24.42	15.37	-129.19	-85.33	91.97	-5.03	155.12
0.002054	-15.81	-24.13	15.45	-129.72	-83.7	25.09	-5.12	154.28
0.002086	-15.85	-23.87	15.53	-130.34	-85.38	45.73	-5.2	153.37
0.002118	-15.88	-23.6	15.61	-130.98	-85.99	-62.52	-5.29	152.56
0.00215	-15.9	-23.34	15.68	-131.6	-82.6	-81.6	-5.37	151.69
0.002183	-15.94	-23.03	15.74	-132.18	-82.71	40.15	-5.47	150.83
0.002217	-15.96	-22.76	15.81	-132.74	-82.74	6.79	-5.55	149.97
0.002251	-15.99	-22.5	15.87	-133.38	-86.37	60.68	-5.64	149.11
0.002286	-16.01	-22.21	15.94	-133.9	-79.62	42.34	-5.73	148.33
0.002321	-16.04	-21.95	16	-134.53	-76.7	-35.63	-5.83	147.52
0.002356	-16.06	-21.71	16.06	-135.11	-79.61	-11.27	-5.92	146.69
0.002393	-16.08	-21.39	16.11	-135.65	-83.84	42.97	-6.02	145.88
0.002429	-16.1	-21.13	16.18	-136.2	-80.98	-71.3	-6.12	144.99
0.002467	-16.13	-20.92	16.23	-136.74	-84.67	14.26	-6.22	144.28
0.002505	-16.15	-20.64	16.28	-137.43	-96.71	29.17	-6.33	143.53
0.002543	-16.17	-20.37	16.34	-137.79	-80.92	-23.59	-6.43	142.76
0.002582	-16.19	-20.13	16.36	-138.35	-83.38	-10.65	-6.55	142.27
0.002622	-16.21	-19.93	16.43	-138.96	-83.34	11.29	-6.63	141.63
0.002662	-16.23	-19.64	16.49	-139.28	-78.33	0.27	-6.71	141.01
0.002703	-16.25	-19.37	16.57	-139.95	-96.61	-25.95	-6.77	140.14
0.002745	-16.27	-19.09	16.59	-140.55	-84.73	-78.51	-6.89	139.17
0.002787	-16.29	-18.93	16.65	-141.08	-88.53	38.83	-6.99	138.52
0.00283	-16.3	-18.66	16.69	-141.61	-81.66	-0.6	-7.08	137.8
0.002873	-16.32	-18.44	16.73	-142.15	-94.17	-130.02	-7.19	136.99
0.002917	-16.34	-18.2	16.77	-142.64	-101.22	-84.41	-7.27	136.28
0.002962	-16.36	-18	16.81	-143.15	-105.48	32.03	-7.39	135.59
0.003008	-16.36	-17.78	16.86	-143.75	-83.78	-40.91	-7.5	134.83
0.003054	-16.39	-17.54	16.87	-144.25	-83.9	-1.56	-7.63	134.26
0.003101	-16.4	-17.2	16.9	-144.68	-84.05	8.58	-7.73	133.57
0.003149	-16.41	-17.04	16.96	-145.04	-80.49	-85.68	-7.83	132.99
0.003197	-16.43	-16.9	16.98	-145.6	-78.7	164.47	-7.91	132.32
0.003246	-16.44	-16.68	17.02	-146.06	-90.07	-179.96	-8.05	131.68
0.003296	-16.45	-16.43	17.07	-146.46	-82.83	-35.7	-8.12	131.09
0.003347	-16.48	-16.25	17.1	-147.03	-95.95	-73.74	-8.23	130.2
0.003398	-16.49	-16.05	17.12	-147.51	-85.5	17.99	-8.37	129.51
0.003451	-16.5	-15.84	17.15	-147.87	-82.05	-3.73	-8.5	128.99
