!Hittite Microwave Corporation								
!20 Alpha Road								
!Chelmsford, MA 01824								
!Tel: 978-250-3343								
!Fax: 978-250-3373								
!Device: HMC-C022, 2-20 GHz, Wideband LNA Module								
!Misc: Vdd = +12V, Idd = 75 mA, Room Temperature								
!								
# GHZ S DB R 50								
								
0.05	-0.30564	-9.8467	-20.566	-35.26	-82.967	98.893	-0.0049287	-19.662
0.24975	-1.5057	-41.884	3.5318	-71.895	-66.913	-30.659	-1.1896	-101.84
0.4495	-3.4091	-67.8	12.409	-127.03	-56.721	-107.84	-5.4973	165.3
0.64925	-5.2874	-87.891	12.847	-179.45	-54.221	172.36	-12.598	120.71
0.849	-7.1387	-104.94	14.241	164.78	-55.425	159.32	-8.9881	42.523
1.0488	-8.7058	-119.2	15.201	134.91	-53.086	130.94	-10.356	-19.491
1.2485	-10.069	-132.09	15.413	109.37	-51.926	103.34	-11.467	-60.869
1.4482	-11.274	-144.05	15.195	88.446	-50.776	82.082	-12.109	-93.124
1.648	-12.298	-155.23	15.157	68.66	-50.085	63.609	-12.469	-121.57
1.8478	-13.212	-166.1	14.967	48.189	-48.996	45.974	-12.806	-148.6
2.0475	-13.946	-176.4	15.047	31.31	-48.196	28.317	-13.027	-174.56
2.2472	-14.599	173.33	15.125	13.749	-47.171	10.149	-13.128	159.47
2.447	-15.141	162.83	14.957	-3.7374	-46.546	-5.7565	-13.377	133.07
2.6467	-15.616	152.54	15.155	-19.405	-45.869	-20.641	-13.671	107.69
2.8465	-16.007	141.97	15.231	-37.159	-45.351	-36.442	-13.683	81.951
3.0462	-16.369	130.72	15.039	-54.442	-44.871	-52.162	-13.742	55.098
3.246	-16.782	119.65	15.249	-72.251	-44.384	-69.127	-13.68	28.407
3.4457	-17.111	108.77	15.116	-91.338	-43.7	-82.917	-13.411	2.0537
3.6455	-17.401	97.351	15.163	-106.63	-43.169	-97.581	-13.2	-24.009
3.8453	-17.683	85.879	15.363	-124.28	-42.923	-113.55	-12.988	-48.622
4.045	-17.83	74.828	15.035	-139.87	-42.641	-129.66	-12.857	-73.675
4.2448	-18.096	63.49	15.001	-157.37	-42.464	-145.8	-12.846	-98.281
4.4445	-18.268	53.47	15.184	-175.63	-42.365	-159.76	-12.913	-121.8
4.6442	-18.299	42.758	15.185	168.33	-42.02	-174.99	-12.785	-145.4
4.844	-18.557	32.184	15.153	152.55	-41.817	170.12	-12.817	-169.32
5.0437	-18.713	21.613	15.037	134.1	-41.632	155.01	-12.924	168.11
5.2435	-19.007	10.603	15.065	117.47	-41.424	139.8	-13.114	144.77
5.4433	-19.145	0.26147	15.144	102.59	-41.487	124.87	-13.472	121.13
5.643	-19.12	-9.3802	14.989	84.675	-41.293	108.43	-13.801	98.043
5.8428	-19.237	-18.937	14.907	68.927	-41.098	93.577	-14.163	73.355
6.0425	-19.281	-27.422	14.866	51.75	-40.97	78.304	-14.67	48.067
6.2423	-19.224	-35.68	14.678	33.664	-40.782	63.313	-14.988	22.524
6.442	-19.116	-43.975	14.712	17.617	-40.756	47.188	-15.438	-3.1348
6.6417	-18.867	-52.567	14.758	1.4683	-40.696	30.617	-15.738	-27.152
6.8415	-18.576	-61.86	14.673	-14.511	-40.519	13.859	-15.684	-51.847
7.0412	-18.169	-70.711	14.645	-30.919	-40.307	-2.0497	-15.711	-76.377
7.241	-17.772	-80.222	14.705	-47.22	-40.338	-18.098	-15.73	-99.344
7.4408	-17.372	-89.9	14.606	-64.161	-40.116	-34.572	-15.606	-121.55
7.6405	-16.98	-99.901	14.583	-80.829	-39.967	-50.964	-15.414	-143.23
7.8403	-16.637	-110.11	14.637	-97.536	-39.707	-68.203	-15.267	-165.9
8.04	-16.313	-121.17	14.578	-114.23	-39.427	-85.766	-15.57	171.1
8.2397	-15.929	-131.53	14.548	-130.5	-39.229	-103.27	-16.502	150.82
8.4395	-15.722	-143.49	14.489	-146.83	-39.125	-119.98	-17.603	136.99
8.6393	-15.535	-154.27	14.485	-163.37	-38.869	-136.71	-18.045	125.87
8.839	-15.338	-164.92	14.513	-179.87	-38.553	-153.36	-18.517	110.78
9.0387	-15.127	-175.67	14.514	163.31	-38.167	-170.43	-19.339	95.589
9.2385	-15.014	174.07	14.495	146.54	-37.844	172.12	-20.531	80.071
9.4382	-14.97	163.54	14.483	129.79	-37.581	154.88	-21.996	65.941
9.638	-14.805	152.76	14.453	112.99	-37.263	137.38	-23.798	50.915
9.8378	-14.721	142.34	14.483	96.158	-36.925	120.47	-27.145	37.187
10.037	-14.7	132.17	14.456	79.227	-36.574	103.49	-31.837	36.277
10.237	-14.67	121.25	14.415	62.475	-36.251	87.188	-38.186	67.156
10.437	-14.638	110.83	14.374	45.437	-35.94	70.126	-32.926	122.08
10.637	-14.72	100.71	14.314	28.31	-35.608	52.936	-27.183	125.71
10.837	-15.2	91.532	14.162	11.766	-35.361	36.848	-23.219	111.11
11.036	-15.424	82.246	14.183	-3.5907	-35.07	20.291	-22.452	87.237
11.236	-15.843	71.933	14.287	-20.63	-34.574	3.5187	-23.139	78.818
11.436	-16.335	64.196	14.231	-38.069	-34.238	-12.374	-23.693	70.425
11.635	-16.89	57.337	14.241	-55.195	-33.991	-28.896	-24.165	67.452
11.835	-17.414	52.6	14.269	-72.077	-33.675	-45.516	-24.547	67.022
12.035	-17.72	52.199	14.19	-89.091	-33.415	-62.225	-24.668	70.165
12.235	-17.705	50.214	14.013	-106.59	-33.188	-78.7	-24.169	73.66
12.434	-17.378	48.211	14.006	-123	-32.879	-95.322	-23.09	77.417
12.634	-16.812	42.794	13.948	-139.7	-32.807	-110.54	-21.475	80.25
12.834	-16.295	34.785	14.044	-157.24	-32.632	-127.64	-18.656	76.66
13.034	-15.858	27.43	13.937	-173.37	-32.404	-143.39	-16.224	64.664
13.234	-15.529	18.738	14.099	168.86	-32.51	-159.66	-14.457	50.18
13.433	-15.285	10.597	13.861	150.64	-32.097	-178.26	-12.807	33.486
13.633	-15.223	5.5118	13.058	135.48	-32.089	166.81	-11.491	14.261
13.833	-14.754	-2.3424	13.318	118.63	-32.189	153.34	-10.862	-6.4616
14.032	-14.242	-12.33	13.445	103.08	-32.331	136.76	-10.88	-27.216
14.232	-14.074	-23.679	13.265	89.001	-31.858	122.74	-11.075	-47.224
14.432	-14.219	-35.111	13.589	70.905	-31.566	106.77	-11.295	-67.747
14.632	-14.473	-44.284	13.633	52.63	-31.461	88.92	-11.573	-89.367
14.832	-14.963	-54.191	13.534	36.147	-31.206	72.954	-11.753	-114.26
15.031	-15.509	-60.732	13.506	16.805	-31.295	56.32	-12.004	-143.49
15.231	-15.883	-66.961	13.127	0.36415	-31.589	41.959	-12.74	-176.96
15.431	-15.384	-76.247	13.421	-13.288	-31.28	27.061	-13.787	152.23
15.63	-15.577	-89.614	13.571	-31.817	-30.835	9.3203	-13.793	126.1
15.83	-16.619	-104.17	13.696	-50.352	-30.578	-10.484	-12.581	99.32
16.03	-17.785	-116.04	13.84	-65.457	-30.59	-28.12	-11.22	71.114
16.23	-19.746	-128.25	13.235	-83.113	-30.893	-45.585	-10.103	45.781
16.43	-21.578	-136.94	12.928	-103.12	-31.247	-63.694	-8.948	19.878
16.629	-23.511	-150.24	13.675	-117.55	-31.196	-79.241	-8.6673	-5.1648
16.829	-27.591	-164.54	13.538	-134.61	-31.204	-97.174	-8.2188	-26.339
17.029	-33.414	172.79	13.126	-152.28	-31.253	-114.25	-7.8284	-48.437
17.229	-45.98	84.165	13.445	-172.05	-31.195	-131.74	-7.635	-70.247
17.428	-32.121	-1.8863	13.23	171.16	-31.061	-148.91	-7.6627	-93.045
17.628	-27.904	-24.495	13.074	154.06	-30.848	-167.47	-7.9661	-116.55
17.828	-25.741	-39.471	13.094	134.51	-30.427	172.98	-8.5617	-141.54
18.028	-24.942	-48.685	12.863	116.76	-29.797	150.93	-9.8902	-167.52
18.227	-22.186	-36.618	12.392	99.55	-29.833	117.97	-12.098	170.13
18.427	-16.628	-61.459	11.638	85.637	-33.472	77.299	-16.277	169.69
18.627	-16.949	-109.54	12.488	75.005	-38.448	128.94	-11.039	156.95
18.826	-20.401	-128.31	12.882	54.545	-32.885	109.17	-10.607	113.21
19.026	-22.371	-134.7	12.822	36.283	-31.725	86.854	-10.837	71.865
19.226	-23.441	-140.65	12.902	19.44	-31.124	67.186	-10.61	31.127
19.426	-24.107	-146.91	13.092	1.7075	-30.545	48.653	-10.147	-7.3165
19.625	-25.848	-153.1	13.219	-17.166	-30.274	31.319	-9.8725	-44.166
19.825	-32.169	-171.07	13.081	-36.52	-30.09	15.239	-9.6565	-78.97
20.025	-33.198	-32.115	12.883	-54.605	-29.796	1.2625	-9.6322	-116.97
20.225	-23.883	-56.232	12.795	-69.042	-28.675	-11.894	-10.675	-155.53
20.424	-22.749	-80.143	13.314	-85.774	-27.623	-31.225	-12.145	170.98
20.624	-23.037	-88.574	13.731	-106.49	-27.115	-51.435	-13.682	136.2
20.824	-22.1	-84.494	13.841	-126.2	-26.617	-71.906	-15.785	91.351
21.024	-20.343	-91.387	14.206	-145.55	-26.766	-92.263	-16.26	43.129
21.223	-18.208	-87.77	14.458	-167.06	-26.867	-108.98	-13.985	-9.7996
21.423	-15.095	-88.608	14.262	166.66	-26.825	-120.71	-10.122	-58.556
21.623	-10.276	-98.288	12.716	135.08	-25.064	-140.25	-6.769	-104.2
21.823	-7.5456	-132.01	9.6882	123.59	-23.988	-172.97	-6.1098	-149.86
22.023	-7.4604	-158.03	10.135	113.92	-25.455	159.77	-6.3825	-176.38
22.222	-7.6075	-176.01	10.422	100.3	-27.215	140.6	-5.7228	162.52
22.422	-8.0814	170.23	10.047	86.257	-28.833	118.59	-5.5563	137.63
22.622	-7.4672	159.21	10.017	66.467	-29.723	94.195	-5.482	113.97
22.822	-6.3706	144.46	9.9273	50.519	-32.868	67.646	-6.2218	94.094
23.021	-6.7383	124.87	10.845	44.963	-41.446	109.08	-4.6195	76.271
23.221	-7.6467	111.23	11.011	18.541	-34.826	105.51	-4.0667	40.895
23.421	-8.5654	101.99	10.937	-12.716	-33.328	90.558	-4.529	8.3796
23.62	-7.2853	94.057	11.116	-32.471	-32.724	76.172	-5.695	-34.875
23.82	-9.2807	83.755	9.4685	-42.562	-30.72	57.375	-6.8517	-81.944
24.02	-10.223	75.991	8.5509	-58.45	-29.78	39.871	-6.3769	-140.86
24.22	-11.212	65.007	8.6452	-87.753	-26.682	20.633	-8.7402	158.36
24.42	-12.133	64.598	6.3151	-99.201	-23.937	-11.066	-8.4553	96.394
24.619	-13.206	57.877	7.8652	-90.373	-22.924	-61.219	-13.093	48.564
24.819	-13.737	62.224	9.8567	-116.45	-25.809	-95.039	-18.184	91.671
25.019	-11.463	62.853	9.8986	-142.36	-26.789	-110.02	-12.071	74.658
25.219	-10.531	54.415	9.1713	-162.65	-26.447	-130.31	-10.478	56.96
25.418	-9.5743	49.102	8.7737	176.4	-25.736	-148.5	-10.724	40.205
25.618	-8.2618	40.855	8.5645	160.52	-25.907	-164.1	-11.182	25.257
25.818	-7.0972	28.823	8.1819	147.85	-25.618	176.08	-11.588	13.938
26.017	-6.1657	13.821	8.418	131.85	-24.218	156.26	-12.317	11.094
26.217	-5.669	-8.4873	9.4655	117.18	-22.322	138.07	-11.084	8.5957
26.417	-6.8976	-30.348	10.135	94.574	-23.378	107.87	-10.456	-10.418
26.617	-8.6189	-38.342	9.9629	64.561	-24.355	90.581	-12.096	-22.46
26.816	-9.0321	-46.217	9.3748	41.041	-24.36	78.911	-14.241	-20.764
27.016	-10.237	-59.928	7.787	22.392	-24.697	55.789	-12.333	2.3986
27.216	-12.847	-70.279	7.3921	5.8933	-28.293	45.61	-7.8271	-17.924
27.416	-17.206	-39.828	5.9883	-12.342	-26.34	81.146	-6.1274	-50.215
27.615	-10.035	-45.974	5.8611	-16.075	-21.445	49.608	-7.7197	-83.175
27.815	-9.9907	-78.306	7.1431	-36.465	-20.497	27.314	-10.17	-106.9
28.015	-13.831	-94.058	6.8681	-58.586	-19.132	1.2461	-15.105	-122.85
28.215	-14.24	-81.571	6.4893	-73.946	-19.775	-27.467	-17.894	-105.53
28.415	-12.755	-87.676	6.5917	-92.247	-20.817	-49.634	-17.707	-99.796
28.614	-11.339	-96.653	6.3079	-111.04	-22.462	-73.02	-15.524	-107.3
28.814	-9.3868	-119.42	6.688	-125.31	-25.785	-74.467	-16.417	-152.83
29.014	-9.8202	-142.49	7.1634	-148.27	-24.779	-80.133	-23.985	-173.39
29.213	-10.277	-162.06	7.1279	-171.25	-24.463	-95.547	-27.602	-155.79
29.413	-10.479	-178.89	6.8665	166.78	-24.524	-112.56	-26.966	-178.29
29.613	-11.024	165.89	6.4538	144.66	-24.96	-135.75	-27.339	121.76
29.813	-10.631	155.33	6.1234	122.25	-26.501	-161.34	-24.768	49.097
30.013	-9.8117	141.9	5.4273	97.994	-29.191	173.52	-19.423	-2.3527
30.212	-8.4982	125.71	4.2557	79.222	-32.716	150.6	-15.411	-61.713
30.412	-7.8772	107.59	4.2459	59.812	-32.914	112.44	-15.523	-126.59
30.612	-7.4548	91.784	3.5321	33.516	-29.521	62.704	-16.142	168.96
30.812	-6.5795	75.124	1.6248	9.5577	-24.694	11.874	-16.743	92.922
31.011	-6.3227	54.647	0.23177	-2.2581	-20.616	-40.299	-23.838	1.7616
31.211	-7.2318	37.674	-0.21459	-20.18	-18.391	-75.412	-21.285	139.01
31.411	-8.3281	31.132	-2.5013	-37.687	-17.292	-105.8	-14.403	72.749
31.61	-7.9782	29.823	-2.9735	-48.125	-16.714	-151.37	-12.893	31.685
31.81	-8.8911	23.473	-2.497	-63.445	-19.172	171.55	-18.751	37.153
32.01	-7.5783	26.606	-2.6494	-79.979	-23.95	142.24	-10.766	49.782
32.21	-6.1478	18.893	-3.0228	-90.567	-28.849	148.36	-7.1265	17.027
32.41	-5.264	8.4964	-5.6482	-108.6	-30.546	176.56	-6.2393	-17.467
32.609	-4.9482	-4.8337	-6.4767	-113.62	-31.111	-151.27	-8.2216	-52.862
32.809	-5.1021	-12.856	-3.2769	-125.64	-23.434	-152.79	-13	-45.523
33.009	-5.2027	-19.088	-3.26	-153.98	-18.613	-175.54	-9.9467	-47.789
33.208	-5.2893	-25.063	-4.5167	-177.09	-16.436	161.62	-10.041	-73.981
33.408	-5.3163	-29.996	-5.5477	175.48	-14.689	136.55	-13.076	-98.434
33.608	-5.0637	-34.586	-5.9096	174.14	-14.519	94.841	-29.134	-116.86
33.808	-4.7931	-37.646	-3.746	162.38	-15.495	66.706	-13.176	-14.108
34.007	-3.5284	-44.629	-3.2899	143.85	-17.484	35.09	-9.2704	-51.141
34.207	-3.1499	-56.869	-2.3816	121.68	-21.992	13.575	-8.7923	-82.244
34.407	-3.1914	-66.958	-1.4098	104.41	-27.725	10.489	-9.9899	-109.45
34.607	-3.1995	-75.825	-1.1211	87.564	-30.754	34.564	-12.851	-144.79
34.806	-3.456	-83.25	-0.98791	63.577	-29.018	57.853	-19.407	151.94
35.006	-3.5496	-90.432	-1.2523	40.777	-26.251	52.813	-17.413	46.189
35.206	-3.7995	-96.426	-1.7372	18.898	-24.842	45.664	-11.422	3.9794
35.406	-3.9629	-101.05	-1.7918	1.8529	-23.44	30.988	-7.7396	-22.65
35.605	-3.7253	-107.16	-3.1346	-14.578	-22.838	16.436	-6.0222	-47.278
35.805	-3.8776	-114.57	-3.6532	-37.813	-22.858	0.93252	-4.9593	-64.343
36.005	-3.8132	-120.53	-3.1105	-54.959	-23.083	-19.407	-4.1291	-81.173
36.205	-3.6664	-128.69	-3.9355	-71.225	-25.673	-30.141	-3.7789	-95.976
36.404	-3.9621	-136.58	-4.3839	-93.516	-26.909	-35.81	-3.5964	-109.13
36.604	-4.216	-145.65	-4.811	-112.68	-28.135	-33.781	-3.4166	-123.79
36.804	-4.8656	-153.26	-6.6171	-126.7	-28.909	-29.498	-4.0254	-141.59
37.004	-5.6385	-160.21	-8.0096	-138	-27.878	-25.719	-5.8241	-154.82
37.204	-6.3826	-162.72	-7.3343	-149.97	-25.059	-29.466	-7.9527	-155.81
37.403	-6.7468	-167.93	-6.5151	-166.58	-23.567	-46.381	-8.0296	-151.33
37.603	-7.0198	-169.88	-5.6607	172.87	-23.734	-66.845	-8.2279	-153.79
37.803	-6.9508	-171.57	-5.2046	146.66	-24.95	-82.755	-7.8506	-152.38
38.002	-6.5282	-176.18	-5.3968	119.24	-26.754	-89.222	-6.5212	-153.55
38.202	-6.0698	175.19	-6.126	93.085	-27.905	-92.76	-5.6613	-165
38.402	-6.3245	166.22	-6.8527	69.638	-29.794	-85.364	-5.2126	-175.27
38.602	-6.4054	158.13	-7.5183	49.294	-27.842	-66.689	-4.9813	172.88
38.801	-7.3795	153.1	-7.6106	31.507	-24.67	-74.036	-5.5066	160.77
39.001	-7.2177	157.81	-6.5865	8.9779	-23.473	-89.808	-6.9774	152.94
39.201	-5.8109	152.47	-6.2548	-19.559	-22.913	-98.748	-8.2015	155.16
39.401	-5.2666	142.87	-6.3827	-49.096	-22.456	-101.27	-7.9349	164.64
39.601	-4.8368	131.79	-7.4068	-76.243	-19.799	-104.17	-5.6729	165.96
39.8	-5.5732	123.25	-9.1803	-103.79	-16.703	-125.66	-3.6157	153.71
40	-5.626	123.68	-10.797	-127.65	-15.882	-157.35	-2.6723	136.76
