!Hittite Microwave Corporation								
!20 Alpha Road								
!Chelmsford, MA 01824								
!Tel: 978-250-3343								
!Fax: 978-250-3373								
!Device: HMC-C002, 2-20 GHz, Wideband LNA Module								
!Misc: Vdd = +12V, Idd = 60 mA, Room Temperature								
!								
# GHZ S DB R 50								
								
0.050000001	-0.325901538	-10.71500206	-21.66418648	-38.66765976	-64.63819885	131.0569916	-0.08692883	-20.18107224
0.179749995	-1.000249147	-33.16985703	-3.175526619	-56.4294548	-75.29812622	-21.51768303	-0.590394914	-74.45614624
0.309500009	-2.102519035	-53.71502304	5.729913235	-82.90704346	-65.18763733	-42.36624908	-2.062440872	-132.1800079
0.439249992	-3.404487371	-71.1829071	10.75247097	-118.9820938	-57.041996	-89.43635559	-4.955040932	166.5444336
0.569000006	-4.713528633	-86.11907196	12.73129082	-154.7957611	-53.67699814	-131.0227051	-9.993693352	109.1137619
0.698750019	-5.939074993	-99.8034668	12.21809101	179.8149414	-55.33133316	176.3284454	-13.98018169	90.10272217
0.828499973	-7.260430336	-111.8298569	12.15667057	172.0826569	-55.42412949	-174.7374573	-10.38008785	54.01742554
0.958249986	-8.378399849	-122.6122742	13.73005676	157.1147919	-53.40763092	166.0063934	-9.973501205	-1.551955342
1.088000059	-9.433953285	-132.9408417	14.10211658	139.6139526	-52.51493454	146.654007	-10.70886421	-41.77839661
1.217750072	-10.4043541	-142.7489166	14.23527241	124.484169	-51.85620499	130.2363434	-11.30177784	-72.95251465
1.347500086	-11.31756115	-152.3096313	14.11763382	111.9583664	-51.46414948	116.0574112	-11.73100853	-99.31031036
1.477250099	-12.17434788	-161.2887878	14.02419281	99.4078598	-51.11094666	103.7117767	-11.98636532	-122.7233124
1.607000113	-12.94153786	-170.149292	13.98671436	87.93941498	-50.81512833	89.50177765	-12.12307167	-144.3523254
1.736750007	-13.65760517	-178.8162231	14.0570364	73.49090576	-49.81065369	77.25754547	-12.12739468	-164.4970398
1.86650002	-14.33179283	172.7699432	14.17282295	61.9419899	-49.63121033	66.22078705	-12.05796432	176.3921661
1.996250033	-14.91525745	164.5478058	14.18035984	52.01688004	-49.08023071	54.93571091	-12.01711273	157.9194641
2.125999928	-15.41788101	156.0762482	14.04689503	43.93603134	-48.52143478	47.26527405	-12.01559925	140.3270111
2.255749941	-15.89914227	147.8321838	13.78253555	34.35759354	-48.31211472	37.46319199	-11.99141121	123.9099274
2.385499954	-16.27223396	139.9030914	13.93439579	24.0464325	-48.1414299	26.84268188	-11.76321507	107.9106598
2.515249968	-16.58587265	131.5961609	14.11343002	13.72021103	-47.4503479	17.22278786	-11.54658222	91.38428497
2.644999981	-16.83698273	123.2676163	14.31272125	3.477919817	-47.0511322	9.097687721	-11.40820694	75.02375793
2.774749994	-17.03325081	115.0561066	14.28887081	-5.033354282	-46.81913757	-0.404349476	-11.35639572	58.91928482
2.904500008	-17.18879318	106.6474304	14.14285374	-13.88775063	-46.58514023	-11.25332451	-11.38612366	42.91505432
3.034250021	-17.3621788	98.10271454	13.92461014	-23.08916473	-46.25655746	-20.97563171	-11.51360416	26.98156166
3.164000034	-17.47340775	89.65031433	13.81604195	-33.97628403	-45.67478943	-31.86205673	-11.7460947	10.72721481
3.293750048	-17.56352997	81.047966	13.95104122	-44.02446747	-45.53708649	-39.74104691	-12.14621735	-4.750266552
3.423500061	-17.68177032	72.60562897	13.990242	-54.00302505	-45.36771393	-47.80915451	-12.4424448	-18.01974678
3.553250074	-17.76306725	64.23129272	13.98523045	-62.84603882	-44.89356995	-56.70592117	-12.21975803	-32.60588837
3.683000088	-17.81437302	55.48411942	13.84656525	-72.50293732	-44.56336594	-66.09098053	-12.16802788	-49.72508621
3.812750101	-17.92095757	46.60599899	13.88913059	-82.31044769	-44.22896576	-76.07264709	-12.36098194	-67.35166168
3.942500114	-18.06134796	38.14426041	13.91543198	-92.70941162	-43.97131729	-85.20821381	-12.72521114	-85.10375214
4.072249889	-18.18078995	29.36933708	14.00545788	-102.7629623	-43.7224617	-94.08829498	-13.12396526	-103.4001923
4.201999664	-18.32695198	20.44885826	14.02191067	-112.5427551	-43.54247665	-103.1873474	-13.53775406	-122.678299
4.331749916	-18.49037933	11.73936367	14.09474182	-122.5130997	-43.30426025	-112.1888123	-13.91558552	-142.3411713
4.461499691	-18.66884041	3.281345367	14.03493977	-132.3198547	-43.1351738	-121.4880829	-14.17684555	-161.6414032
4.591249943	-18.86632919	-5.392409801	14.03380394	-142.0774536	-42.95950317	-131.112915	-14.29779243	179.301651
4.720999718	-19.06628418	-13.50779438	14.04820538	-151.7962341	-42.7721405	-140.0144043	-14.33834648	160.2395172
4.850749969	-19.24084091	-21.54925919	14.02697372	-161.6820526	-42.50141907	-149.0780945	-14.35567665	140.6757355
4.980499744	-19.53686142	-29.64875221	14.01626492	-171.477478	-42.27837753	-158.1510925	-14.36969185	120.8077011
5.110249996	-19.90624237	-36.71508026	13.91150475	179.2950592	-42.14598083	-167.003006	-14.30757427	101.1260757
5.239999771	-20.14912224	-43.54707336	13.86261368	169.2672729	-42.0733757	-175.8582611	-14.1268177	82.08964539
5.369750023	-20.37917519	-50.98111343	13.95420265	159.5523071	-42.00968552	174.5686188	-13.87947655	64.04950714
5.499499798	-20.81135368	-58.1884346	14.04139328	149.1539001	-41.8673172	165.6507263	-13.6187439	47.04053497
5.62925005	-21.15530586	-64.94464111	14.01271248	140.2374115	-41.72809982	156.1767731	-13.46158981	30.8253212
5.759000301	-21.37742996	-72.13930511	13.9008112	130.2225037	-41.68029785	146.9719543	-13.45353031	15.01225281
5.888750076	-21.64345551	-78.78380585	13.85479832	120.9213943	-41.66290665	138.7200623	-13.54329586	-0.721304059
6.018500328	-21.98834801	-85.6238327	13.7726984	110.9607773	-41.63618851	129.7753601	-13.73306847	-16.23547363
6.148250103	-22.2508831	-92.79083252	13.79187584	101.7864685	-41.58132172	120.8249054	-14.01661682	-31.44485855
6.278000355	-22.59413528	-99.71952057	13.98150158	92.11497498	-41.15884781	112.1150436	-14.21058846	-44.92857361
6.40775013	-22.88764191	-105.9968719	14.10561752	83.97525024	-40.80948639	103.2470322	-14.1663208	-58.32270432
6.537500381	-23.16038322	-113.3637543	13.84076977	75.06674194	-40.76531601	95.48049164	-14.23405743	-72.06539917
6.667250156	-23.46924591	-120.9369202	13.59537125	65.08026123	-40.69633865	86.05399323	-14.4611578	-86.21757507
6.797000408	-23.61574745	-127.9211884	13.55121136	54.91672134	-40.59379959	76.2567749	-14.87429142	-100.5406113
6.926750183	-23.75968552	-135.3835907	13.60595226	47.49134064	-40.33082199	68.38356781	-15.35713959	-115.4000092
7.056500435	-23.87160873	-143.6441193	13.63052845	39.31521988	-40.09727097	60.81336212	-15.80152988	-131.0834503
7.18625021	-24.0108757	-151.934845	13.68133259	28.59705353	-40.02325058	51.0899086	-16.13362503	-147.9577789
7.315999508	-24.11002541	-160.4244995	13.66456509	17.97443199	-39.71839142	41.91073227	-16.43984604	-164.7237396
7.44574976	-24.21648979	-168.8962097	13.61082745	8.127211571	-39.61394882	32.95944595	-16.78485489	179.027832
7.575500011	-24.28501892	-177.760376	13.48212337	-1.588096499	-39.29011154	24.0432663	-17.25031281	163.5033112
7.705249786	-24.20388222	172.3062134	13.50571537	-11.78853416	-39.09797287	14.17600155	-17.73537636	147.5608215
7.835000038	-23.99734497	162.6333618	13.57859516	-20.9140358	-38.98457336	5.364974976	-18.29244423	130.7070313
7.964749813	-23.78280067	152.8547363	13.64284801	-30.60016441	-38.88586044	-4.505792141	-18.86937904	112.0077133
8.094499588	-23.59448624	142.2003937	13.59267998	-40.56734467	-38.80009079	-13.57107067	-19.65860558	92.36685944
8.22424984	-23.63187408	131.9746094	13.5378685	-50.11452484	-38.41374207	-22.19616508	-20.4666996	75.78139496
8.354000092	-23.53207207	124.1780167	13.54454708	-59.20875168	-38.23954773	-30.62095261	-21.095541	63.05792999
8.483750343	-23.16668892	116.5903702	13.53772449	-68.32212067	-37.82646561	-39.83062363	-21.55725098	54.53283691
8.613499641	-22.68666458	107.1861343	13.58512783	-77.52389526	-37.49447632	-50.1218071	-21.57381821	46.65265656
8.743249893	-22.34278297	98.04670715	13.61906242	-87.18185425	-37.31704712	-60.51438522	-21.74616623	36.18415451
8.873000145	-21.86491394	89.1709671	13.61826801	-96.94052124	-37.14961243	-70.73678589	-22.15328407	24.39527893
9.002750397	-21.45086479	79.72402191	13.60909653	-106.5826263	-36.89773178	-80.46727753	-22.69964218	11.35964775
9.132499695	-21.13385773	71.21615601	13.59147835	-116.1018982	-36.76367188	-90.15998077	-23.15675354	-1.402163029
9.262249947	-20.68909836	62.78839111	13.55302143	-125.6333084	-36.61876297	-99.7842865	-23.49686241	-12.87381649
9.392000198	-20.24703789	54.05660629	13.57615948	-135.5387726	-36.48292542	-110.6195908	-23.77819061	-22.21933174
9.52175045	-19.94909477	45.90654755	13.61673069	-145.3002167	-36.35934067	-119.5006256	-24.33752823	-29.78865242
9.651499748	-19.51010704	37.65574646	13.63732815	-154.7846069	-36.35263062	-127.8702469	-25.30169868	-33.76539993
9.78125	-19.00492668	28.12201309	13.57768345	-164.4868469	-36.37885666	-137.5601044	-26.38708496	-34.10107422
9.911000252	-18.81535721	18.85949516	13.55126381	-174.1943512	-36.0694046	-148.5659637	-27.46917534	-34.53378677
10.0407505	-18.70683861	11.34760475	13.51913834	176.1415558	-35.72153091	-157.5611877	-28.88573456	-33.01347733
10.1704998	-18.36815453	3.298387766	13.53004837	166.5239563	-35.52757645	-166.9710999	-30.13846397	-26.27767754
10.30025005	-18.14422607	-5.218080997	13.49358082	157.0799408	-35.41328049	-176.7177277	-29.69886208	-18.75954247
10.43000031	-18.11521721	-13.13544846	13.45349216	147.5172729	-35.39271545	172.6532593	-28.28544044	-18.90501404
10.55975056	-18.03882599	-20.73851776	13.41679859	137.5821381	-35.02229691	163.796463	-26.80476189	-25.63427353
10.68949986	-17.8709507	-28.7457428	13.44232273	127.9481888	-34.72948074	155.8146057	-25.79456329	-33.83476639
10.81925011	-17.82711601	-37.15922165	13.4634285	118.4573822	-34.68097687	146.7510529	-25.27882576	-40.11132431
10.94900036	-17.9517765	-45.80943298	13.37539577	109.0865021	-34.46424866	138.7337494	-25.21455383	-43.74348831
11.07875061	-18.24280548	-53.83282852	13.3559885	99.35655975	-34.33551788	130.1404877	-25.34257889	-46.31805801
11.20849991	-18.63577271	-61.01578522	13.31525517	89.29934692	-34.36197662	119.3790512	-25.88288879	-49.46310043
11.33825016	-19.05881882	-67.05969238	13.33468437	79.64151001	-34.22975159	109.0396194	-27.19146729	-50.24213791
11.46800041	-19.42723465	-72.0276947	13.3330555	70.04572296	-33.94067764	100.8159714	-28.28211784	-45.90033722
11.59775066	-19.68876648	-78.19419861	13.23983574	60.1799202	-34.00850677	91.17058563	-28.42093849	-43.3637085
11.72749996	-20.3850956	-86.11752319	13.19262028	49.72460556	-34.05212402	79.84693909	-28.47917938	-43.54249954
11.85725021	-21.33102989	-89.2458725	13.25776863	39.29410934	-33.79893112	68.99514008	-27.86279297	-36.91799164
11.98700047	-21.99929047	-89.30387878	13.2607317	29.87077522	-33.58324051	59.5622406	-25.88080215	-33.24386597
12.11675072	-22.45723724	-90.12470245	13.07510853	19.597435	-33.61065292	50.47973633	-24.03227997	-38.50531769
12.24650002	-22.5747776	-89.07978821	12.95776463	9.608210564	-33.45526505	39.25954056	-22.77832413	-46.39188385
12.37625027	-22.03497887	-87.88329315	12.83941269	-0.0319001	-33.42786407	29.70385361	-22.28199768	-57.01235199
12.50600052	-21.43028831	-91.00245667	12.5842886	-8.26436615	-33.55991745	20.6952858	-23.35816193	-68.41664886
12.63575077	-21.03481674	-96.59848785	12.33130074	-16.72289085	-33.62483978	11.88500977	-25.87048912	-65.0943222
12.76550007	-20.69690704	-102.7684631	12.31272697	-24.45685577	-33.5118866	3.974575996	-25.61581802	-50.1092186
12.89525032	-20.83415222	-110.8604431	12.23698997	-32.84605408	-33.47729492	-2.85313344	-24.99945831	-46.02648544
13.02500057	-21.63636017	-117.4643021	12.34407425	-41.18465042	-33.2898941	-10.84025192	-23.17530251	-34.25930786
13.15475082	-22.29176712	-120.1726456	12.61165047	-51.30770874	-32.70095444	-20.27866173	-19.7052002	-38.15200043
13.28450012	-22.34407043	-122.5251923	12.75648499	-60.57908249	-32.38046265	-29.22590065	-17.30190468	-52.30725098
13.41425037	-22.39491272	-126.6815567	12.76059437	-71.29833221	-32.23244858	-38.81054688	-15.89121532	-67.02707672
13.54399967	-22.55880737	-130.0242157	12.89170265	-81.52190399	-32.07344055	-49.05366898	-15.09504795	-80.02368164
13.67374992	-22.69963074	-133.7008057	13.04724884	-91.33003998	-31.96110153	-59.06186295	-14.54176331	-93.01179504
13.80349922	-22.58480263	-136.9254303	13.02667522	-100.6382446	-31.78328896	-69.06027985	-14.22449112	-106.8258514
13.93324947	-22.49190903	-139.7246399	13.04318047	-110.8084106	-31.70235634	-79.01696777	-14.15104103	-120.975975
14.06299973	-22.61123085	-144.4681396	13.06476307	-120.3864212	-31.70155716	-89.18444824	-14.13674831	-135.4689636
14.19274998	-22.87969208	-150.0232086	13.0595808	-130.3766022	-31.6793766	-99.78353882	-14.26753807	-150.5762634
14.32249928	-22.90977859	-153.5415192	12.91512394	-141.4873505	-31.62387276	-109.705101	-14.57854462	-165.6524963
14.45224953	-22.85049438	-157.5764313	12.87415981	-151.6755524	-31.5960598	-119.0396652	-15.00244522	179.5549164
14.58199978	-22.88246155	-165.7325134	12.5542984	-161.9965973	-31.69606972	-128.2740021	-15.39385605	162.9853821
14.71175003	-22.81242561	-176.2084198	12.31276608	-171.4164276	-31.70584488	-137.1089783	-15.70012379	143.2297363
14.84149933	-23.09574699	172.9462128	12.12763405	179.4182892	-31.66807938	-145.6769409	-16.02808762	118.2915573
14.97124958	-24.11743546	161.4084778	12.36941528	170.777359	-31.73635292	-154.1691895	-16.28927422	89.40971375
15.10099983	-25.32886124	148.9967651	12.42762661	161.0964508	-31.44460487	-163.4715576	-16.33105469	60.32476807
15.23075008	-26.6774292	137.4210358	12.43534088	150.4803925	-31.24944305	-172.003067	-15.96574783	33.1056366
15.36049938	-28.77652168	120.7248764	12.47398758	142.1658478	-31.42077446	178.3717651	-15.26779652	8.262755394
15.49024963	-31.8844738	95.42821503	12.4818182	132.2441559	-31.56769753	168.1282654	-14.40485668	-13.9794569
15.61999989	-33.76862717	58.74904251	12.57253933	123.4984589	-31.30613899	157.590683	-13.50662327	-34.7022171
15.74975014	-32.92511368	11.03705788	12.42436028	112.0365829	-31.35800171	148.2552338	-12.70519638	-53.81789398
15.87949944	-30.49486351	-26.91353989	12.65055084	100.9621048	-31.41017723	140.3599243	-11.82591248	-70.29843903
16.00925064	-28.56552887	-51.55340576	12.59372139	91.23722076	-31.28242111	130.9703674	-10.87883091	-84.97367096
16.13899994	-26.54919052	-66.95969391	12.90823936	82.97546387	-31.10874748	121.2718124	-9.970355034	-99.46593475
16.26874924	-24.60998535	-81.38534546	12.58581638	74.63886261	-31.04616547	111.1719742	-9.209154129	-114.9043503
16.39850044	-23.28154564	-94.9299469	12.50242805	62.54062653	-30.91768265	100.5705643	-8.731134415	-130.4986725
16.52824974	-22.02630615	-105.7239838	12.3976841	51.35224152	-30.92709732	90.46333313	-8.441831589	-146.0945892
16.65799904	-20.87645149	-116.502327	12.89408302	39.97928238	-30.99135399	80.44596863	-8.201592445	-161.4683685
16.78775024	-20.06176567	-127.8023758	12.50036812	32.75993729	-30.99243546	70.32636261	-8.018306732	-176.7676544
16.91749954	-19.58469963	-138.7301636	12.07697964	25.16627312	-31.13746834	60.9201355	-7.93490696	167.6773224
17.04725075	-19.35260773	-148.16362	11.71205807	15.96934223	-31.22460365	50.86540985	-7.979521751	152.723587
17.17700005	-19.12979889	-157.7542877	12.29445744	4.903829575	-31.30450439	41.71557617	-8.143637657	137.4130096
17.30675125	-18.82823944	-166.9698639	12.36964989	-3.949587584	-31.20311165	32.3689003	-8.376641273	122.3357391
17.43650055	-18.60262489	-176.1376343	12.5667448	-14.67654324	-31.13418198	22.65772629	-8.724111557	106.9152908
17.56625175	-18.49952126	174.535675	12.38600922	-25.07760048	-31.06417465	13.837286	-9.16015625	91.33786774
17.69599915	-18.37786674	165.9589081	12.44485283	-35.97987747	-31.16635132	4.421288967	-9.595057487	75.08692932
17.82574844	-18.29587936	157.8036346	12.24331093	-44.26553726	-31.27290154	-5.329369545	-10.02275658	58.36688614
17.95549965	-18.30348969	148.4944763	12.32898998	-54.72306061	-31.06477547	-14.1764679	-10.44788837	41.51097107
18.08524895	-18.41852188	138.3125916	12.44629288	-64.51569366	-30.94207001	-21.72237206	-10.88331032	24.05944252
18.21500015	-18.78625488	128.7841644	12.52981567	-74.47871399	-30.70085335	-31.56062317	-11.44803238	5.082354546
18.34474945	-19.38318062	119.4213943	12.40016556	-84.13781738	-30.54445267	-42.51066971	-12.16708946	-15.90567303
18.47450066	-19.761446	111.5202484	12.41504383	-94.04312134	-30.31030273	-52.3722229	-13.0308876	-38.56554794
18.60424995	-19.98197556	104.9980011	12.41390514	-103.7810974	-30.04849434	-61.30993271	-13.94071484	-61.91086578
18.73399925	-20.3789196	96.54163361	12.54079628	-113.7526245	-29.78512001	-72.34760284	-14.69704151	-85.49440765
18.86374855	-21.06604385	87.30553436	12.62927246	-124.2819519	-29.50479698	-83.78560638	-15.22409821	-110.4143219
18.99349976	-21.82170677	83.19629669	12.80885315	-134.0492249	-29.20454788	-94.97601318	-15.69865131	-137.913559
19.12324905	-22.04934692	81.21553802	12.58392715	-145.6447601	-28.97826958	-105.4051971	-15.97403622	-168.3707886
19.25300026	-22.15745163	74.5834198	12.53683567	-157.2962646	-28.87258339	-116.5202484	-16.07035828	159.3970795
19.38274956	-22.42439842	68.10092926	12.60348415	-168.8539734	-28.76964951	-128.0967407	-15.75649834	128.7351837
19.51250076	-22.52269554	65.02952576	12.74374104	-179.0871735	-28.58157158	-139.5021515	-15.22965336	102.3237457
19.64225006	-22.16456985	58.94197845	12.52759171	172.0952759	-28.43974495	-150.4853973	-14.46160603	76.83514404
19.77199936	-21.97425652	51.12038803	12.41626453	161.5745697	-28.45231819	-161.1361389	-13.77243137	51.71882248
19.90174866	-21.8318367	45.36830902	12.29153442	150.3975525	-28.40823746	-171.9345703	-13.3368578	27.67439842
20.03149986	-21.68032646	40.05039978	12.24492073	137.8743896	-28.2842083	176.6568451	-12.9759531	6.282562256
20.16124916	-21.54748535	35.03759384	12.33899879	129.0851593	-28.29123688	165.3406525	-12.43794632	-13.50754929
20.29100037	-20.85791588	30.75935936	11.77515316	118.2359009	-28.24239159	155.5662994	-12.04358101	-33.96074295
20.42074966	-19.92037392	23.42153549	11.75100899	107.4852676	-28.11942101	145.218399	-12.12193298	-53.03938293
20.55050087	-19.26681137	14.8703413	11.75741959	96.79425812	-28.21955681	133.6849823	-12.52728653	-69.87075043
20.68025017	-18.82654381	5.423314095	12.09678936	89.72200775	-28.50795555	123.5286179	-12.97227573	-84.73542786
20.80999947	-18.80167007	-5.595214367	11.29702282	80.51198578	-28.53824043	116.0909119	-12.91850281	-100.6892776
20.93974876	-18.93980408	-11.80655956	11.60605621	67.25907898	-28.09803963	108.773819	-12.78094578	-123.1324081
21.06949997	-18.73418617	-14.23418999	12.10752487	55.55527878	-27.68052864	98.84069824	-13.17254925	-148.9248657
21.19924927	-18.33023262	-16.89840698	12.54373932	45.39673996	-27.36536598	87.67990875	-14.14608765	-178.4736176
21.32900047	-17.34310722	-19.71575737	12.10508442	37.4843483	-27.07460213	75.29222107	-15.57511806	143.8944092
21.45874977	-16.13469696	-23.77533722	11.94318771	23.75169373	-26.95802498	63.22805786	-16.4069252	95.6628418
21.58850098	-15.01267529	-29.65907669	11.68688107	11.3406496	-27.21420288	51.48587036	-15.31570911	48.28601074
21.71825027	-13.84850597	-37.42235565	11.46120071	-0.850550175	-27.28462601	38.59781647	-13.52412701	14.83709335
21.84799957	-12.56797123	-46.90258408	11.49996853	-12.13075829	-27.38290405	25.81378746	-11.59785938	-9.689584732
21.97774887	-11.59996796	-57.67856979	11.24782181	-23.586483	-27.78033829	14.56400871	-9.825431824	-31.26116371
22.10750008	-10.95086193	-68.84068298	11.06376553	-34.66482925	-28.4230423	4.304097652	-8.462331772	-51.30654526
22.23724937	-10.46757698	-78.85771179	10.43168831	-45.65775299	-28.85798836	-6.62026453	-7.371571541	-69.77149963
22.36700058	-10.01880264	-88.56463623	9.922000885	-56.8533783	-29.17746735	-16.91182137	-6.510458946	-87.19430542
