!Hittite Microwave Corporation								
!20 Alpha Road								
!Chelmsford, MA 01824								
!Tel: 978-250-3343								
!Fax: 978-250-3373								
!Device: HMC-C024, 10MHz-20 GHz, Wideband Driver Amp Module								
!Misc: Vdd = +12V, Idd = 225 mA, Room Temperature								
!								
# GHZ S DB R 50								
								
0.1	-17.936	-17.617	18.539	168.01	-76.219	134.01	-33.86	79.866
0.2995	-19.532	-42.068	18.2	143.26	-64.704	-157.99	-36.093	42.062
0.499	-20.621	-58.425	17.884	119.68	-64.749	158.06	-58.267	-48.58
0.6985	-21.161	-75.113	17.822	98.334	-60.41	135.13	-31.095	-9.7359
0.898	-21.517	-91.718	17.725	76.396	-58.985	113.62	-28.082	-32.179
1.0975	-21.656	-108.29	17.577	53.887	-57.559	87.65	-28.852	-71.354
1.297	-21.626	-125.9	17.564	31.45	-55.578	64.32	-25.769	-105.14
1.4965	-21.56	-143.12	17.521	9.1986	-54.115	41.09	-24.268	-132.68
1.696	-21.406	-159.42	17.431	-13.281	-52.848	18.747	-22.905	-166.4
1.8955	-21.156	-175.54	17.385	-35.661	-51.541	-3.0036	-21.476	166.63
2.095	-21.013	169.32	17.291	-57.964	-50.687	-25.712	-20.425	138.59
2.2945	-20.784	155.4	17.24	-80.434	-49.668	-46.65	-19.45	112.8
2.494	-20.539	142.4	17.129	-102.65	-48.934	-66.823	-18.924	86.834
2.6935	-20.328	130.4	17.063	-124.72	-48.143	-87.198	-18.64	62.823
2.893	-20.142	119.12	16.999	-146.89	-47.453	-107.65	-18.494	39.855
3.0925	-19.962	108.76	16.938	-169.15	-46.765	-127.53	-18.537	16.632
3.292	-19.805	99.11	16.865	168.66	-46.207	-148.15	-18.974	-7.4734
3.4915	-19.572	90.081	16.806	146.6	-45.763	-167.64	-19.701	-31.752
3.691	-19.361	80.944	16.753	124.48	-45.285	172.69	-20.696	-58.984
3.8905	-19.213	71.842	16.71	102.23	-44.664	152.4	-21.963	-90.129
4.09	-19.139	63.571	16.651	79.934	-44.35	132.09	-23.316	-127.98
4.2895	-19.102	55.761	16.595	57.698	-43.957	112.11	-23.648	-171.08
4.489	-19.099	48.228	16.526	35.609	-43.596	92.261	-22.441	145.65
4.6885	-19.116	41.346	16.481	13.584	-43.307	71.435	-20.566	109.87
4.888	-19.089	34.626	16.45	-8.4784	-43.095	51.878	-18.652	82.04
5.0875	-19.038	28.291	16.416	-30.675	-42.862	31.383	-16.9	57.313
5.287	-18.925	21.924	16.378	-52.86	-42.617	11.645	-15.429	34.564
5.4865	-18.802	15.644	16.348	-75.116	-42.331	-9.181	-14.301	13.275
5.686	-18.669	8.4043	16.312	-97.317	-42.131	-29.337	-13.51	-7.4235
5.8855	-18.501	1.0392	16.289	-119.55	-41.839	-50.786	-12.961	-27.575
6.085	-18.451	-7.3307	16.261	-141.85	-41.712	-71.778	-12.676	-47.403
6.2845	-18.391	-15.713	16.231	-163.9	-41.571	-93.157	-12.622	-67.098
6.484	-18.492	-24.142	16.238	173.87	-41.463	-114.67	-12.816	-86.848
6.6835	-18.727	-33.179	16.239	151.43	-41.202	-136.04	-13.306	-106.98
6.883	-19.128	-41.626	16.246	128.96	-41.15	-158.48	-14.095	-126.66
7.0825	-19.554	-49.793	16.244	106.21	-40.926	179.12	-15.174	-146.16
7.282	-19.992	-57.008	16.207	83.461	-40.891	156.89	-16.609	-166.14
7.4815	-20.481	-64.591	16.167	60.812	-40.882	133.94	-18.342	174.76
7.681	-20.902	-71.116	16.117	37.976	-40.715	111.28	-20.481	156.73
7.8805	-21.365	-78.031	15.991	15.257	-40.645	88.576	-22.688	140.73
8.08	-21.945	-85.695	15.875	-6.9281	-40.578	65.811	-23.914	125.07
8.2795	-22.522	-92.525	15.857	-29.012	-40.528	42.369	-24.719	101.87
8.479	-22.96	-98.914	15.839	-51.506	-40.384	19.212	-25.873	81.722
8.6785	-23.257	-103.39	15.814	-74.169	-40.253	-3.8732	-25.324	64.016
8.878	-23.502	-106.76	15.779	-96.859	-40.093	-27.292	-23.855	40.901
9.0775	-23.419	-110.33	15.722	-119.65	-40.022	-50.347	-22.231	17.939
9.277	-22.929	-115.31	15.645	-142.47	-39.922	-74.083	-20.832	-2.2642
9.4765	-22.022	-122.21	15.582	-165.1	-39.619	-97.571	-19.592	-22.842
9.676	-21.079	-130.16	15.489	172.17	-39.492	-121.1	-18.327	-42.974
9.8755	-20.303	-140.08	15.397	149.51	-39.384	-144.21	-17.274	-62.048
10.075	-19.629	-152.02	15.284	126.89	-39.2	-167.51	-16.571	-81.134
10.274	-19.016	-164.28	15.167	104.36	-39.049	169.59	-16.16	-100.92
10.474	-18.444	-176	15.044	82.042	-38.851	147.28	-15.987	-120.23
10.674	-18.233	172.9	14.953	59.94	-38.616	124.8	-15.926	-137.82
10.873	-18.004	160.6	14.908	37.848	-38.348	101.91	-15.764	-155.85
11.072	-17.942	150.31	14.847	15.447	-38.164	79.246	-15.829	-177.21
11.272	-18.004	142.22	14.759	-6.2781	-38.015	57.422	-16.524	157.21
11.472	-17.887	135.09	14.874	-28.273	-37.651	35.926	-18.097	134.72
11.671	-17.762	128.46	14.948	-51.075	-37.273	13.16	-19.744	112.37
11.87	-17.635	122.92	14.976	-74.035	-37.022	-9.5981	-22.149	84.73
12.07	-17.247	118.49	15	-97.107	-36.755	-33.306	-25.365	49.355
12.27	-16.67	113.89	14.977	-120.43	-36.52	-55.488	-29.256	-5.1648
12.469	-15.932	108.17	14.928	-143.73	-36.327	-78.41	-28.062	-81.333
12.668	-15.167	101.18	14.84	-166.99	-36.224	-101.47	-23.173	-126.6
12.868	-14.514	92.862	14.747	170.05	-36.104	-123.8	-19.559	-156.01
13.067	-14.149	84.195	14.683	147.13	-36.003	-146.17	-17.081	177.88
13.267	-14.039	75.575	14.628	123.94	-35.872	-168.49	-15.257	153.66
13.467	-14.056	68.17	14.542	100.67	-35.779	168.46	-13.84	132.6
13.666	-14.186	62.582	14.411	77.3	-35.763	146.1	-12.879	113.23
13.865	-14.295	59.237	14.245	54.026	-35.799	123.02	-12.161	94.207
14.065	-14.209	57.087	14.02	31.028	-35.799	100.78	-11.601	76.198
14.265	-13.665	54.738	13.722	8.818	-36.004	79.584	-11.352	57.247
14.464	-12.857	49.595	13.581	-11.607	-36.003	59.186	-11.995	41.111
14.663	-12.292	43.305	13.853	-33.232	-35.535	38.167	-12.541	34.586
14.863	-11.735	38.067	14.012	-57.208	-35.242	14.658	-12.192	26.328
15.063	-11.15	32.417	13.951	-81.608	-35.223	-9.1472	-11.972	14.643
15.262	-10.642	25.537	13.699	-105.62	-35.402	-32.291	-12.139	5.9098
15.462	-10.084	17.032	13.326	-127.23	-35.651	-53.606	-11.431	2.1586
15.661	-9.7418	6.9679	13.427	-148.15	-35.384	-73.81	-10.457	-10.977
15.861	-9.6726	-2.0931	13.599	-171.19	-35.172	-96.457	-10.65	-25.71
16.06	-9.7369	-10.064	13.63	164.93	-35.066	-119.46	-11.326	-37.117
16.26	-9.8371	-17.276	13.511	141.05	-35.11	-142.46	-11.972	-42.749
16.459	-9.9733	-24.655	13.243	118.18	-35.355	-164.09	-11.647	-44.347
16.658	-10.236	-31.922	13.16	97.179	-35.251	176.86	-10.859	-54.332
16.858	-10.328	-37.796	13.332	74.741	-34.934	156.28	-10.993	-67.536
17.058	-10.346	-44.058	13.399	51.594	-34.748	134.5	-11.165	-77.916
17.257	-10.595	-49.815	13.532	29.285	-34.558	114.37	-11.356	-90.129
17.457	-10.756	-55.162	13.864	5.5966	-34.164	94.405	-12.277	-101.46
17.656	-10.832	-61.526	14.071	-19.358	-33.746	72.935	-13.267	-110.26
17.856	-11.042	-67.927	14.174	-44.735	-33.18	52.187	-14.181	-121.45
18.055	-11.401	-71.96	14.197	-71.037	-32.341	31.383	-15.127	-138.09
18.254	-11.271	-71.346	13.85	-98.016	-30.931	5.403	-18.23	-166.7
18.454	-10.943	-74.24	13.444	-123.58	-30.058	-27.09	-36.694	119.12
18.653	-9.2352	-76.99	12.32	-147.04	-30.833	-68.452	-20.201	-65.109
18.853	-8.3354	-91.539	12.017	-165.48	-33.551	-93.531	-22.866	-93.23
19.053	-8.0686	-103.58	12.213	174.81	-34.771	-109.56	-19.207	-63.358
19.252	-8.0621	-114.71	12.579	151.1	-35.366	-130.33	-15.705	-88.208
19.451	-8.1486	-125.31	12.546	126.52	-36.069	-153.29	-15.774	-119.35
19.651	-8.282	-134.62	12.434	103.86	-36.898	-174.61	-19.886	-162.06
19.851	-8.392	-142.49	12.696	80.493	-37.578	160.5	-31.457	57.249
20.05	-8.3459	-150.45	12.803	54.496	-38.456	129.83	-19	-22.386
20.25	-8.1955	-157.67	12.524	28.474	-40.168	88.454	-14.348	-50.465
20.449	-7.3327	-163.59	11.783	5.2851	-45.999	9.6187	-12.942	-78.087
20.648	-6.1043	-177.73	11.58	-12.112	-44.431	-126.78	-15.107	-100.56
20.848	-6.2346	162.9	12.758	-33.962	-38.732	151.1	-18.079	-66.969
21.048	-6.8696	153.02	12.895	-62.824	-37.699	97.133	-11.542	-63.493
21.247	-6.8781	141.21	12.899	-88.4	-36.947	44.924	-8.099	-85.754
21.447	-7.1035	129.95	12.732	-115.06	-37.947	-3.5439	-7.0227	-108.88
21.646	-7.3231	120.13	12.433	-140.56	-38.725	-45.601	-6.77	-126.65
21.845	-7.6133	109.95	12.127	-165.19	-38.768	-82.401	-6.8011	-142.61
22.045	-7.9522	99.742	11.895	170.5	-38.143	-118.22	-6.9438	-157.21
22.244	-8.4279	91.184	11.714	146.11	-37.554	-151.46	-7.2572	-170.82
22.444	-9.0084	84.853	11.516	120.89	-37.159	176.18	-7.7491	174.91
22.643	-9.5663	81.133	11.113	94.628	-38.56	140.98	-8.4678	155.67
22.843	-8.8288	86.514	9.6812	70.448	-42.9	-169.51	-12.605	125.51
23.043	-6.4574	76.69	9.778	59.6	-31.937	157.81	-15.608	-167.04
23.242	-5.5273	63.063	10.764	35.829	-29.293	116.24	-9.794	176.07
23.441	-4.617	48.716	11.181	10.884	-27.508	81.927	-8.7199	155.46
23.641	-3.7363	27.421	11.813	-14.751	-25.613	41.663	-9.5457	135.41
23.84	-5.728	-1.7957	12.046	-47.374	-26.543	-14.173	-11.707	134.46
24.04	-9.1033	1.7083	10.81	-75.985	-32.892	-52.51	-9.5279	132.9
24.24	-7.9826	6.2366	10.174	-97.089	-40.395	-30.992	-8.7923	115.88
24.439	-6.8545	-5.7975	10.43	-120.35	-35.512	-4.3652	-9.9483	104.28
24.639	-6.6944	-24.095	10.488	-149.24	-31.145	-21.239	-10.473	108.52
24.838	-8.0214	-44.116	9.1903	-179.61	-28.301	-52.065	-7.4842	105.29
25.038	-11.419	-51.196	7.2207	164.75	-27.917	-91.311	-5.6451	79.512
25.237	-12.651	-39.61	8.0458	151.22	-30.387	-122.78	-6.5652	58.467
25.437	-11.955	-33.505	8.7797	125.56	-34.238	-128.56	-8.062	52.226
25.636	-9.4044	-33.196	8.8618	102.15	-31.538	-122.3	-6.8215	51.866
25.835	-7.5321	-51.448	9.5743	76.563	-30.148	-149.06	-5.0768	35.057
26.035	-6.8871	-71.154	9.7943	47.505	-30.298	-169.31	-4.3615	15.8
26.234	-6.7565	-90.013	9.6574	18.541	-29.96	173.44	-4.1286	-3.8674
26.434	-7.1673	-109.96	9.1649	-9.9059	-28.951	149.75	-4.4965	-24.799
26.634	-8.291	-128.3	8.3491	-36.318	-28.907	112.88	-5.4419	-42.535
26.833	-9.0861	-140.76	7.8987	-60.238	-32.125	76.473	-5.92	-56.867
27.032	-9.4456	-154.66	7.6536	-84.235	-37.164	56.261	-5.9899	-75.848
27.232	-9.7849	-170.79	7.3011	-110.32	-42.619	69.379	-6.8167	-99.977
27.431	-10.509	172.33	6.5559	-136.74	-39.08	87.325	-8.8605	-129.44
27.631	-11.906	160.06	5.5091	-156.59	-36.04	48.323	-14.855	-149.64
27.83	-12.489	153.83	5.9181	-176.89	-41.348	6.639	-16.268	-136.55
28.03	-12.418	153.09	5.5935	161.8	-42.858	-6.34	-16.604	-114.15
28.23	-10.753	141.08	6.646	138.97	-40.637	-57.898	-11.828	-145.06
28.429	-10.047	125.93	6.9366	109.79	-37.66	-135.84	-11.814	178.51
28.628	-9.6765	111.93	6.7473	81.5	-34.327	169.34	-12.544	144.9
28.828	-9.8685	100.24	6.5204	55.053	-32.454	131.6	-13.333	114.78
29.028	-9.8187	92.974	6.338	27.409	-30.632	107.33	-14.8	87.224
29.227	-9.2626	84.508	5.7762	2.1766	-28.217	79.877	-15.809	84.238
29.427	-8.8202	76.797	5.8049	-23.497	-27.266	53.818	-14.427	59.352
29.626	-7.972	69	5.6622	-52.001	-25.988	32.097	-14.718	33.909
29.825	-6.8281	59.533	5.292	-81.834	-24.436	7.2235	-15.665	13.784
30.025	-5.7275	45.858	4.4417	-112.87	-22.965	-25.136	-17.527	-5.3278
30.225	-5.4567	27.582	3.0109	-140.6	-23.457	-67.155	-23.19	-64.979
30.424	-6.0552	13.972	1.8684	-166.3	-27.251	-102.29	-16.929	139.95
30.624	-6.3436	4.3706	0.046786	166.24	-34.106	-108.87	-9.9495	80.713
30.823	-6.4443	-6.1216	-3.0354	149.29	-33.281	-67.472	-7.4859	33.788
31.022	-6.8602	-17.487	-3.3481	151.67	-28.238	-80.868	-8.7307	-8.0335
31.222	-7.6896	-26.555	-0.7333	133.74	-26.513	-109.75	-15.467	-37.877
31.421	-8.395	-32.603	0.68685	101.9	-26.421	-138.45	-19.232	70.168
31.621	-8.9319	-41.21	0.65842	66.134	-27.853	-161.55	-10.6	49.265
31.821	-8.8481	-40.29	-0.91877	34.952	-29.498	-178.99	-7.2443	30.1
32.02	-8.7516	-48.736	-2.4545	14.433	-31.741	170.78	-4.8669	8.8633
32.22	-8.9207	-58.053	-3.1376	-6.3363	-32.936	175.67	-4.0603	-13.534
32.419	-9.3977	-68.594	-4.1534	-24.488	-31.453	168.43	-4.2697	-35.894
32.618	-10.552	-78.278	-3.8868	-32.82	-31.38	160.13	-6.4155	-55.718
32.818	-11.897	-80.536	-1.139	-53.559	-29.901	147.68	-8.3514	-48.174
33.017	-12.049	-80.002	0.23271	-87.51	-30.442	126.76	-6.333	-51.606
33.217	-11.938	-85.25	0.4458	-120.26	-32.413	120.42	-5.7614	-69.468
33.417	-12.341	-97.471	0.21302	-149.73	-32.219	122.36	-6.1637	-89.63
33.616	-14.599	-103.49	0.49601	-175.08	-34.058	124.56	-7.6159	-117.01
33.816	-15.368	-102.96	0.99261	153.46	-28.065	142.33	-11.068	-152.68
34.015	-17.434	-107.74	0.82916	121.15	-23.151	117.12	-15.144	146.45
34.215	-20.857	-98.447	0.26934	89.922	-20.559	82.525	-12.554	71.197
34.414	-20.334	-66.92	-0.50185	60.785	-20.094	44.25	-8.2867	29.197
34.614	-16.822	-62.213	-1.4651	32.433	-21.729	12.788	-5.7598	1.4458
34.813	-14.86	-69.375	-2.5771	6.0643	-24.245	-7.5654	-4.3232	-18.874
35.013	-13.659	-77.944	-3.7447	-18.188	-26.734	-17.252	-3.4707	-35.726
35.212	-13.096	-85.108	-4.759	-40.161	-28.575	-15.856	-2.9535	-50.627
35.412	-13.115	-91.439	-5.6478	-61.197	-28.035	-4.9893	-2.6829	-63.895
35.611	-13.252	-96.199	-6.4473	-81.3	-24.407	-3.3273	-2.6977	-76.461
35.811	-12.822	-100.44	-7.0853	-99.335	-20.389	-23.851	-3.0968	-88.089
36.01	-12.69	-106.1	-7.1862	-116.5	-18.121	-57.74	-3.7996	-96.396
36.209	-13.089	-108.72	-6.6857	-136.78	-18.032	-92.064	-4.1913	-102.2
36.409	-13.076	-109.08	-6.1677	-160.96	-19.162	-120.44	-4.1211	-108.66
36.609	-12.759	-111.01	-5.7159	172.08	-20.585	-142.88	-4.1756	-116.66
36.808	-12.273	-114.63	-5.3305	142.39	-22.152	-162.2	-5.0554	-125.9
37.007	-11.409	-117.93	-5.1627	107.65	-24.149	-179.04	-7.4429	-130.07
37.207	-10.092	-120.99	-6.0126	67.567	-26.757	175	-8.8065	-109.49
37.406	-8.9879	-128.1	-8.693	29.992	-26.354	-174.45	-5.3413	-103.9
37.606	-8.9378	-139.06	-12.476	3.2702	-23.369	171.3	-3.2597	-116.73
37.806	-9.3657	-147	-15.151	2.8377	-22.255	144.7	-2.6855	-131.58
38.005	-9.5687	-150.36	-12.141	-7.3852	-22.565	115.24	-3.4201	-143.18
38.205	-8.6976	-149.98	-9.5544	-45.979	-24.368	84.321	-4.4174	-144.59
38.404	-7.293	-155.44	-9.311	-91.336	-28.334	61.539	-3.6132	-143.45
38.604	-6.4805	-164.46	-10.519	-130.96	-32.876	55.918	-2.4859	-149.96
38.803	-6.0163	-173.12	-11.853	-162.91	-37.863	62.887	-1.8187	-160.03
39.003	-5.3823	178.34	-12.801	168.41	-37.31	114.38	-1.555	-171.39
39.202	-4.7863	169.92	-13.479	140.4	-31.485	116.57	-1.6409	177.16
39.402	-4.1772	161.28	-14.344	112.68	-27.609	96.879	-1.6892	168.23
39.601	-3.6844	152.1	-15.416	89.995	-25.928	74.007	-1.3881	161.15
39.8	-3.3761	142.51	-15.576	70.067	-24.947	52.005	-1.2727	151.46
40	-3.2666	130.27	-15.829	48.03	-24.317	29.238	-1.3476	140.14
