!Hittite Microwave Corporation								
!20 Alpha Road								
!Chelmsford, MA 01824								
!Tel: 978-250-3343								
!Fax: 978-250-3373								
!Device: HMC-C013, 0.8-2.0 GHz, 10W PA Module								
!Misc: Vdd = +12V, Idd = 6.5 A, Room Temperature								
!								
# GHZ S DB R 50								
								
0.05	-0.14	164.86	-45.8	-95.95	-78.02	107.64	-0.68	-70.62
0.06975	-0.15	158.98	-47.88	26.6	-68.59	-0.5	-1.24	-94.11
0.0895	-0.18	153.05	-41.45	-30.64	-72.05	48.8	-1.63	-113.84
0.10925	-0.2	147.12	-30.69	-140.86	-74.18	100.47	-1.68	-130.81
0.129	-0.22	141.08	-20.54	147.84	-78.43	-11.78	-1.76	-147.77
0.14875	-0.24	134.94	-12.49	76.61	-70.84	131.45	-1.93	-164.34
0.1685	-0.26	128.61	-4.86	19.08	-77.88	127.23	-2.22	178.23
0.18825	-0.29	122.1	2.32	-34.99	-69.57	-61.17	-2.59	163.82
0.208	-0.32	115.53	10	-96.15	-68.36	-144.6	-2.94	149.94
0.22775	-0.36	108.5	15.4	-173.57	-68.53	-122.52	-3.4	136.03
0.2475	-0.42	101.37	16.47	119.45	-72.98	-80.59	-3.96	123.21
0.26725	-0.52	93.94	17.17	73.48	-74.31	-138.92	-4.54	111.83
0.287	-0.63	86.31	18.74	35.93	-65.06	-32.01	-4.8	99.65
0.30675	-0.79	78.55	21.03	1.06	-73.91	130.98	-5.35	88.76
0.3265	-1	70.46	23.86	-34.01	-77.09	90.36	-6	77.08
0.34625	-1.24	62.4	26.99	-70.9	-72.51	120.27	-6.42	65.33
0.366	-1.53	54.49	30.22	-110.31	-69.3	-146.49	-7.07	53.67
0.38575	-1.79	46.56	33.38	-153.5	-69.74	96.83	-8.34	41.13
0.4055	-1.98	38.63	36.08	159.95	-71.18	103.37	-8.74	29.44
0.42525	-2.11	30.07	38.13	111	-70.99	10.01	-9.23	15.89
0.445	-2.21	20.49	39.36	62.08	-82.54	23.27	-10.17	2.89
0.46475	-2.34	9.83	40.02	15.34	-80.5	-36.07	-10.76	-7.8
0.4845	-2.57	-1.9	40.25	-29.05	-85.9	-118.58	-11.91	-22.37
0.50425	-2.94	-14.11	40.18	-70.25	-80.51	168.59	-12.62	-36.06
0.524	-3.39	-26.7	40.03	-108.99	-75.31	-85.4	-13.54	-47.72
0.54375	-3.93	-39.45	39.81	-145.6	-73.71	-38.41	-13.8	-62.62
0.5635	-4.56	-52.18	39.58	179.34	-76.03	-117.59	-14.58	-71.23
0.58325	-5.21	-64.91	39.32	145.85	-69.84	-5.05	-16.24	-85.74
0.603	-5.87	-77.49	39.08	113.85	-70.42	34.55	-17.4	-97.9
0.62275	-6.5	-89.97	38.93	82.93	-67.81	-6.22	-17.2	-108.03
0.6425	-7.1	-102.26	38.82	53.17	-71.07	53.78	-17.18	-121.09
0.66225	-7.66	-114.4	38.8	24.26	-69.71	-9.64	-18.13	-128.68
0.682	-8.17	-126.23	38.89	-4.13	-72.67	158.09	-19.06	-138.3
0.70175	-8.65	-137.66	39.06	-32.07	-70.17	123.82	-18.88	-139.47
0.7215	-9.06	-148.66	39.34	-59.91	-76.13	-56	-19.48	-133.67
0.74125	-9.46	-159.14	39.68	-87.73	-85.97	-170.35	-19.54	-152
0.761	-9.83	-168.84	40.1	-115.68	-70.9	31.1	-19.92	-156.11
0.78075	-10.18	-177.07	40.48	-144.18	-79.43	-81.98	-22.74	-144.34
0.8005	-10.06	175.24	40.78	-170.47	-69.47	115.72	-21.46	-151.37
0.82025	-10.19	164.94	41.57	161.95	-67.06	150.23	-22.57	-148.8
0.84	-10.43	156.45	42.22	133.26	-68.02	-32.57	-20.28	-161.83
0.85975	-10.62	149.32	42.97	104.33	-73.33	146.04	-20.09	-149.89
0.8795	-10.74	142.45	43.68	74.19	-67.41	132.59	-19.56	-154.66
0.89925	-10.84	136.33	44.29	43.55	-77.03	140.16	-18.95	-158.1
0.919	-10.81	130.39	44.87	12.16	-72.19	148.46	-18.4	-158.92
0.93875	-10.69	124.17	45.32	-19.83	-69.01	0.15	-18.5	-173.92
0.9585	-10.51	117.44	45.64	-52.01	-68.42	58.46	-18.8	-173.26
0.97825	-10.28	110.36	45.81	-84.18	-66.98	-66.53	-17.57	-174.2
0.998	-10.17	102.31	45.82	-115.75	-66.93	23.46	-17.11	179.03
1.01775	-10.15	93.7	45.76	-146.46	-69.77	77.6	-16.93	-173.03
1.0375	-10.22	85.02	45.63	-176.35	-77.78	-138.47	-16.9	-175.96
1.05725	-10.42	76.33	45.51	154.54	-80.99	-137.7	-16.33	-178.46
1.077	-10.67	67.75	45.47	126.05	-74.51	-82.8	-15.35	177.16
1.09675	-11.01	59.24	45.47	97.9	-69.82	-37.31	-15.36	172.68
1.1165	-11.44	50.85	45.52	69.83	-76.38	0.17	-14.28	167.68
1.13625	-11.92	42.48	45.6	41.47	-66.24	3.95	-13.32	162.33
1.156	-12.49	33.93	45.71	13.12	-70.55	-71.59	-13.44	151.18
1.17575	-13.12	24.88	45.86	-15.38	-72.38	13.61	-13.47	150.46
1.1955	-13.97	15.65	46	-44.04	-64.66	-20.08	-13.69	138.42
1.21525	-14.89	6.63	46.12	-72.99	-72.37	-2.22	-15.62	134.63
1.235	-15.98	-2.87	46.23	-102.07	-77.11	-80.33	-15.63	127.03
1.25475	-17.35	-12.91	46.35	-131.17	-72.5	-55.9	-15.89	129.33
1.2745	-19.04	-23.63	46.46	-160.5	-77.06	24.08	-16.04	131.72
1.29425	-21.23	-35.33	46.53	169.87	-77.22	-54.49	-14.96	124.08
1.314	-24.14	-49.13	46.57	140.03	-78.47	-50.6	-16.09	122.6
1.33375	-28.47	-69.12	46.53	110.05	-79.82	-133.73	-15.94	112.86
1.3535	-35.16	-116.15	46.41	80.13	-76.46	-129.02	-16.14	107.96
1.37325	-32.93	155.85	46.23	50.46	-68.31	-146.11	-17.34	100.45
1.393	-27.13	121.62	45.98	21.33	-65.43	3.76	-19.32	110.9
1.41275	-23.63	105.03	45.71	-7.22	-66.87	-116.28	-21.99	118.96
1.4325	-21.26	89.45	45.45	-35.3	-69.25	158.01	-19.64	130.71
1.45225	-19.66	76.14	45.24	-63	-65.28	-151.22	-19.12	137.75
1.472	-18.55	63.24	45.06	-90.58	-65.37	-84.27	-16.9	144.15
1.49175	-17.81	50.68	44.95	-118.23	-68.71	-14.08	-14.97	133.64
1.5115	-17.27	38.75	44.91	-146.03	-69.88	13.44	-14.35	129.94
1.53125	-16.88	26.72	44.88	-174.19	-69.48	117.54	-13.89	118.41
1.551	-16.61	15.02	44.84	157.24	-74.12	-130.62	-14.82	107.86
1.57075	-16.48	3.33	44.78	128.52	-72.27	104.94	-14.52	107.01
1.5905	-16.36	-8.79	44.72	99.59	-69.83	-162.18	-16.1	101.95
1.61025	-16.27	-20.98	44.6	70.49	-71.88	-25.59	-16.86	99.75
1.63	-16.18	-33.08	44.48	41.44	-60.05	-6.37	-16.65	102.06
1.64975	-16.13	-46.55	44.36	12.31	-71.48	-82.09	-16.74	95.75
1.6695	-15.95	-59.63	44.21	-16.78	-69.83	-27.34	-18.25	107.3
1.68925	-15.7	-73.2	44.09	-45.84	-77.09	-23.55	-18.82	104.63
1.709	-15.28	-87.12	43.95	-74.94	-62.7	178.72	-18.4	119.64
1.72875	-14.78	-102.26	43.84	-104.05	-65.47	-72.2	-17.94	118.15
1.7485	-14.15	-118.06	43.76	-133.34	-71.89	117.86	-17.25	124.94
1.76825	-13.54	-135.05	43.7	-162.89	-84.56	-9.44	-15.34	125.9
1.788	-13.03	-152.94	43.68	167.06	-67.51	50.27	-15.26	128.68
1.80775	-12.75	-170.82	43.65	136.54	-67.82	153.71	-14.25	124.17
1.8275	-12.78	171.47	43.59	105.63	-68.92	131.04	-13.52	127.38
1.84725	-13.15	155.07	43.52	74.24	-67.53	-4.06	-12.12	115.94
1.867	-13.9	140.97	43.44	42.64	-79.02	166.63	-11.01	111.89
1.88675	-14.89	130.16	43.36	10.6	-64.56	116.47	-10.54	111.64
1.9065	-16.01	124.35	43.32	-22.17	-68.8	159.47	-10.49	104.84
1.92625	-16.78	124.16	43.29	-55.91	-70.78	-93.85	-10.54	99.7
1.946	-16.81	127.31	43.2	-90.93	-67.2	84.14	-10.81	97.43
1.96575	-15.97	130.28	42.99	-127.38	-69.37	178.6	-11.27	97.13
1.9855	-14.43	131.07	42.58	-164.99	-69.82	97.08	-10.72	103.09
2.00525	-12.38	127.41	41.89	156.61	-61.53	93.37	-9.11	106.57
2.025	-10.41	117.39	40.84	118.09	-70.49	-78.35	-8.54	104.2
2.04475	-8.86	103.82	39.49	80.36	-69.95	-12.6	-6.5	97.64
2.0645	-7.93	88.77	37.93	44.38	-62.43	110.77	-5.57	91.32
2.08425	-7.49	74.4	36.41	9.84	-62.36	-53.07	-4.68	82.42
2.104	-7.41	61.62	35.12	-24.14	-84.53	-100.44	-4.57	74.85
2.12375	-7.45	50.84	34.1	-59.88	-69.37	-168.84	-4.49	64.22
2.1435	-7.39	41.47	33.11	-100.13	-69.56	-15.75	-4.63	58.33
2.16325	-7.16	31.9	31.42	-145.48	-69.07	-12.61	-4.61	54.31
2.183	-7.01	21.31	28.47	168.04	-64.99	-30.37	-4.29	48.57
2.20275	-6.97	10.81	24.48	126.16	-67.48	61.86	-4.18	45.35
2.2225	-7.07	0.25	20.06	90.74	-69	106.61	-3.82	39.24
2.24225	-7.3	-9.91	15.74	59.57	-65.51	124.39	-3.69	31.96
2.262	-7.6	-19.13	11.52	28.92	-64.54	121.28	-3.68	26.8
2.28175	-7.9	-27.55	6.44	-2.56	-70.24	-76.26	-3.66	20.22
2.3015	-8.16	-35.48	-0.23	-28	-70.47	4.85	-3.71	14.32
2.32125	-8.4	-43.16	-7.78	-34.01	-71.17	-113.26	-3.65	8.83
2.341	-8.67	-50.36	-14.28	-22.46	-60.69	-59.63	-4	2.84
2.36075	-8.61	-58.14	-17.45	10.18	-58.8	159.73	-3.78	-4.44
2.3805	-9.04	-66.43	-12.61	41.22	-63.21	91.66	-3.81	-10.32
2.40025	-9.3	-73.24	-7.9	18.64	-69.43	111.47	-3.86	-13.68
2.42	-9.53	-80.08	-6.12	-8.86	-68.66	88.88	-4.02	-20.53
2.43975	-9.75	-86.85	-5.2	-43.36	-84.76	-73.81	-4.37	-28.29
2.4595	-9.99	-93.49	-6.1	-83.58	-63.4	-43.38	-4.59	-34.26
2.47925	-10.21	-99.9	-9.39	-115.83	-71.71	149.17	-5.03	-38.37
2.499	-10.41	-106.25	-12.77	-131.89	-61.22	120.75	-4.87	-49.14
2.51875	-10.65	-112.42	-15.01	-142.22	-74.84	-19.54	-5.52	-52.29
2.5385	-10.9	-118.27	-15.05	-149.16	-76.99	-48.21	-5.84	-59.15
2.55825	-11.16	-123.74	-15.79	-161.65	-64.21	36.7	-6.54	-64.24
2.578	-11.43	-128.75	-14.81	-171.81	-72.86	-98.52	-6.8	-75.57
2.59775	-11.68	-133.01	-14.05	171.66	-66.16	-168.29	-7.82	-82.82
2.6175	-11.87	-136.52	-12.87	150.12	-72.83	-67.56	-8.53	-89.14
2.63725	-11.9	-139.3	-12.16	124.17	-65.97	57.76	-9.78	-98.07
2.657	-11.75	-141.73	-10.85	96.65	-77.64	67.82	-10.43	-105.72
2.67675	-11.43	-144.85	-9.72	65.54	-69.12	-137.17	-12.02	-112.91
2.6965	-11.02	-148.96	-8.77	29.44	-75.16	-49.01	-13.33	-124.83
2.71625	-10.61	-153.97	-9.07	-10.65	-70.43	8.9	-15.43	-131.79
2.736	-10.25	-159.75	-9.21	-53.77	-68.93	-56	-17.26	-151.22
2.75575	-9.96	-165.71	-11.35	-88.31	-70.8	95.01	-20.94	-167.46
2.7755	-9.77	-171.64	-13.43	-127.59	-66.5	118.57	-25.54	143.88
2.79525	-9.64	-177.43	-15.71	-155.26	-77.46	-149.01	-29.65	91.98
2.815	-9.53	177.19	-17.1	170.65	-68.85	67.28	-25.03	53.66
2.83475	-9.45	172.03	-19.44	136.61	-63.9	37.34	-19.57	26.06
2.8545	-9.32	167.09	-22.44	106.49	-64.13	49.83	-17.93	20.7
2.87425	-9.19	162.45	-23.31	87.83	-71.71	-39.52	-16.32	-4.59
2.894	-9.04	157.76	-24.5	55.8	-72.06	115.8	-14.81	-14.75
2.91375	-8.88	153.11	-24.54	47.72	-59.88	-63.99	-13.82	-33.68
2.9335	-8.75	148.41	-26.91	6.21	-64.3	-66.9	-13.21	-49.34
2.95325	-8.61	143.73	-28.65	-64.31	-60.79	-34.04	-12.7	-64.67
2.973	-8.47	139.25	-24.75	-118.69	-62.93	-98.43	-12.85	-93.54
2.99275	-8.33	134.85	-26.07	-153.23	-64.09	-74.02	-13.36	-121
3.0125	-8.15	130.54	-36.36	-134.98	-63.1	-148.36	-11.85	-151.77
3.03225	-8	126.21	-41.74	-178.72	-67.67	-24.02	-9.49	172.15
3.052	-7.85	121.71	-42.02	160.09	-77.86	142.29	-7.12	133.32
3.07175	-7.71	117.27	-51.59	144.95	-66.71	-151.04	-5.48	100.64
3.0915	-7.58	112.78	-43.24	134.8	-79.14	-68.39	-4.33	72.7
3.11125	-7.47	108.48	-45.47	102.67	-70.55	80.87	-3.57	50.68
3.131	-7.35	104.17	-50.05	-32.17	-54.06	48.41	-3.17	30.87
3.15075	-7.25	99.93	-47.5	-32.81	-51.01	-34.12	-3.15	16.1
3.1705	-7.16	95.86	-41.35	-118.56	-49.67	-98.49	-2.66	5.08
3.19025	-7.08	91.76	-62.39	13.48	-53.35	-131.71	-2.4	-6.84
3.21	-6.98	87.79	-49.18	164.37	-61.47	-165.65	-2.35	-18.14
3.22975	-6.9	83.83	-58.97	-71.82	-55.8	164.37	-2.26	-28.64
3.2495	-6.81	79.88	-52.25	-144.71	-61.38	-171.76	-2.19	-37.37
3.26925	-6.72	76.09	-56.04	164.59	-57.49	132.18	-2.17	-45.52
3.289	-6.65	72.24	-49.86	94.42	-56.72	149.37	-2.53	-52.26
3.30875	-6.57	68.49	-50.55	103.14	-60.95	150.26	-2.87	-61.16
3.3285	-6.5	64.74	-47.19	139.5	-58.57	123.22	-2.82	-65.32
3.34825	-6.43	61.04	-49.4	-30.29	-61.47	146.85	-2.61	-70.85
3.368	-6.35	57.39	-46.82	74.44	-73.59	94.13	-2.69	-79.64
3.38775	-6.3	53.76	-52.85	11.04	-61.74	141.23	-2.4	-85.38
3.4075	-6.23	50.1	-50.23	37.05	-59.13	109.89	-2.39	-92.5
3.42725	-6.16	46.66	-60.01	-172.78	-57.94	103.72	-2.27	-98.92
3.447	-6.11	43.11	-55.87	15.77	-58.64	121.49	-2.38	-105.74
3.46675	-6.05	39.58	-48.32	-126.5	-54.76	109.45	-2.5	-112.77
3.4865	-6	36.19	-47.15	-159.3	-51.7	89.24	-2.89	-118.87
3.50625	-5.95	32.8	-43.74	159.8	-48.38	57.21	-2.87	-128.01
3.526	-5.86	29.64	-43.23	70.34	-45.28	17.93	-2.58	-136.03
3.54575	-5.78	26.03	-45.01	-15.91	-48.22	-36.96	-2.78	-140.02
3.5655	-5.74	22.5	-46.62	-65.98	-53.34	-95.43	-3.06	-152.35
3.58525	-5.69	19.07	-48.1	-154.7	-60.74	-37.44	-2.93	-161.26
3.605	-5.64	15.66	-45.28	-73.91	-57.64	-24.26	-2.82	-169.68
3.62475	-5.6	12.32	-53.1	-69.67	-70.06	-106.03	-2.96	175.89
3.6445	-5.56	8.98	-51.05	29.83	-58.73	-57.37	-2.98	162.8
3.66425	-5.52	5.61	-54.9	68.49	-69.92	-115.23	-3.3	149.63
3.684	-5.46	2.3	-49.32	103.11	-63.85	-87.96	-3.5	130.19
3.70375	-5.43	-0.95	-52.46	119.98	-73.95	-86.7	-3.56	110.92
3.7235	-5.4	-4.38	-62.32	-9.61	-73.66	93	-3.76	92.85
3.74325	-5.36	-7.61	-48.92	-158.5	-63.04	-106.41	-4.06	71.95
3.763	-5.33	-10.92	-57.28	91.25	-62.05	-125.72	-4.38	48.22
3.78275	-5.3	-14.24	-50.51	57.04	-62.32	-65.63	-4.34	24.96
3.8025	-5.26	-17.52	-56.21	153.32	-70.47	-162.14	-4.39	6.43
3.82225	-5.24	-20.83	-62.26	-5.61	-64.58	-46.37	-4.64	-13.51
3.842	-5.21	-24.13	-54.11	-82.64	-56.98	-137.87	-4.49	-33.32
3.86175	-5.2	-27.44	-56.83	-8.56	-59.79	-129.48	-3.94	-48.19
3.8815	-5.17	-30.82	-49.63	-113.6	-59.48	-160.22	-3.98	-62.26
3.90125	-5.16	-34.06	-53.64	-160.83	-52.64	152.95	-3.71	-78.21
3.921	-5.14	-37.24	-54.64	-110.08	-51.26	107.76	-3.84	-91.2
3.94075	-5.1	-40.64	-53.95	-106.99	-51.58	39.21	-4.03	-101.47
3.9605	-5.11	-44.01	-65.32	45.05	-52.34	20.27	-4.02	-116.61
3.98025	-5.09	-47.47	-55.93	-2.03	-53.35	9.28	-3.98	-127.39
4	-5.09	-50.81	-51.49	80.23	-53.02	31.92	-4.18	-138.34
								
								
								
								
								
								
								
								
								
								
								
								
								
								
								
								
								
								
								
								
								
								
								
