!Hittite Microwave Corporation								
!20 Alpha Road								
!Chelmsford, MA 01824								
!Tel: 978-250-3343								
!Fax: 978-250-3373								
!Device: HMC-C004, 100MHz-20 GHz, Wideband Driver Amplifier Module								
!Misc: Vdd = +12V, Idd = 195 mA, Room Temperature								
!								
# GHZ S DB R 50								

0.100000001	-17.20265388	-16.47319984	18.11506462	170.5696564	-70.75507355	-87.22759247	-31.79891396	37.74224854
0.229499996	-18.20970726	-32.74291611	17.89726639	157.5857239	-77.53083038	-166.3626709	-33.29993439	11.65925217
0.358999997	-19.05321884	-44.40405273	17.72214699	145.7274475	-70.79242706	-137.1421356	-34.37895203	-2.117390394
0.488499999	-19.72342491	-54.74485779	17.37454796	133.6643372	-71.62046814	-140.0356903	-37.48942947	85.22869873
0.617999971	-20.03468132	-65.06423187	17.49092102	123.9593658	-65.63288879	-178.9286652	-28.75417328	-2.515823603
0.747500002	-20.24961853	-76.50985718	17.34572792	112.2506104	-64.92281342	156.7922974	-30.04334068	-4.181874275
0.876999974	-20.36941147	-87.96296692	17.37751961	101.8052444	-63.43648529	149.0945129	-26.13347244	-32.93651581
1.006500006	-20.54550171	-99.62683105	17.34604836	90.1025238	-62.52009583	143.3081055	-26.73829651	-51.56263351
1.136000037	-20.63382721	-110.9539413	17.27145576	79.21963501	-60.21642685	127.6303787	-25.08264923	-67.20611572
1.265500069	-20.73322105	-122.6557617	17.27127457	67.70069122	-59.37971115	113.4891739	-25.03868675	-90.92919922
1.3950001	-20.8390522	-134.2237396	17.18191147	56.49882889	-58.02934647	100.7878494	-24.59609795	-106.252182
1.524500012	-20.86299706	-145.9256134	17.1645031	45.32353973	-57.01780319	90.5063324	-23.63220787	-128.9688568
1.654000044	-20.88355255	-157.5982666	17.13177872	34.05386734	-56.28707123	77.19651794	-23.34865379	-149.1767731
1.783500075	-20.79473114	-168.9648285	17.07253838	23.15073204	-55.61584091	69.63890839	-22.67485809	-167.1402283
1.912999988	-20.64499855	-179.7221832	17.07085228	11.5789814	-54.58281326	55.26409149	-22.14702797	172.9832611
2.042500019	-20.50328636	170.1641388	17.0070858	0.165839612	-53.99125671	44.42205048	-21.93650627	155.3751831
2.171999931	-20.37224007	160.2273865	16.8509388	-11.0249157	-53.47758865	33.26182938	-21.73927879	140.2904816
2.301499844	-20.25146675	150.9750977	16.80446815	-22.16391754	-52.59624863	22.29950142	-21.50012207	127.8082123
2.430999994	-20.14502335	141.9632111	16.73396873	-33.05888367	-52.300457	12.7232914	-20.91752815	114.6972504
2.560499907	-20.02135086	133.0350952	16.69403648	-43.98541641	-51.82748032	1.556943774	-20.48817444	100.1613235
2.689999819	-19.87428093	124.5719757	16.71858788	-55.04241562	-51.17828369	-7.938742161	-20.37484741	85.30741882
2.819499969	-19.74187469	116.384758	16.6462841	-66.31876373	-50.69703674	-18.10042381	-20.57798576	71.10407257
2.948999882	-19.58272743	108.6839447	16.57986069	-77.34454346	-50.26341248	-29.50158882	-20.92286682	57.70217514
3.078500032	-19.45903015	101.5709076	16.51481056	-88.29896545	-49.5866127	-38.40152359	-21.50416756	44.37148666
3.207999945	-19.41254425	94.78347778	16.46401215	-99.57978821	-49.20723343	-49.23340225	-22.65150261	30.93577766
3.337499857	-19.38736916	88.12171173	16.3378849	-110.473175	-49.05508041	-58.86347198	-24.47034073	20.89416122
3.467000008	-19.37784767	81.81349182	16.20973015	-121.4759216	-48.74652863	-68.82421875	-26.45279503	20.58131599
3.59649992	-19.29132652	75.2533493	16.15945625	-131.3837128	-48.23461914	-77.09798431	-26.30110168	20.2862854
3.726000071	-19.20572281	68.53342438	16.17107964	-142.0266266	-47.64773941	-87.18826294	-27.29077339	5.803228378
3.855499983	-19.17386246	62.00209045	16.25896645	-152.9806976	-47.10141373	-97.21903229	-30.63972282	-7.252824783
3.984999895	-19.14036369	55.68397141	16.255373	-164.1010132	-46.82218933	-108.8328857	-38.46202469	-6.060398579
4.114500046	-19.16872597	49.78346252	16.21705818	-175.2505188	-46.42604065	-118.1962433	-38.88728333	88.85340881
4.243999958	-19.21024323	44.05164337	16.18221474	173.8093872	-46.16171265	-128.5401001	-30.90927315	97.84085083
4.37349987	-19.24078178	38.74237442	16.20119667	162.8824463	-45.86977768	-138.2217255	-26.92452621	92.49891663
4.503000259	-19.38667679	33.14100647	16.18666077	151.9326019	-45.42595291	-147.9659271	-23.79124641	84.2412796
4.632500172	-19.56486511	27.71980858	16.16630554	140.9763947	-45.22558212	-159.4982147	-21.54035759	72.7947998
4.762000084	-19.76629829	22.26208878	16.10492516	130.0111237	-44.97057724	-168.7674408	-19.92244339	60.55067062
4.891499996	-19.9628315	16.68798637	16.17076683	118.9572525	-44.41760254	-178.6482239	-18.63445091	49.54253006
5.021000385	-20.10114861	11.40793896	16.13596344	107.5776978	-44.45698929	169.8376007	-17.47250748	37.88357544
5.150499821	-20.23473549	6.408632755	16.12531471	95.51966858	-44.121418	159.4233856	-16.51415825	25.46044922
5.28000021	-20.47105026	1.897083163	16.17356873	85.40761566	-43.69099808	149.6891022	-15.82075787	13.29837799
5.409500122	-20.67613029	-2.280505896	16.10638428	73.80250549	-43.61275482	137.8811798	-15.20223999	1.180125475
5.539000034	-20.91072655	-6.152825356	16.11324501	62.41124725	-43.40604782	128.2849731	-14.61226082	-10.51553345
5.668499947	-21.17633247	-10.50988674	15.96680641	52.52475739	-43.14733124	116.1490097	-14.12474728	-22.62191391
5.798000336	-21.46907806	-14.8096981	15.98704338	41.24189758	-42.85051727	106.3580627	-13.6920433	-35.30071259
5.927499771	-21.74826622	-19.75199509	16.02784157	30.4975872	-42.53306961	94.05186462	-13.39256287	-48.70779419
6.05700016	-22.02429199	-25.70368958	15.96168137	19.34195709	-42.57229233	82.09848785	-13.29035854	-61.71373367
6.186500072	-22.42023087	-32.44283676	15.9984827	7.757874966	-42.59832382	70.079216	-13.1963501	-74.4095993
6.316000462	-22.84277916	-38.08518982	15.97020817	-3.659732819	-42.83169174	60.02882004	-13.07546043	-87.05014038
6.445499897	-23.29598999	-41.52278137	15.92600346	-14.72660351	-42.92510605	50.37812424	-13.08932686	-100.245903
6.575000286	-23.51152039	-44.63182831	15.96696281	-25.76683617	-42.78376007	41.18556595	-13.21470451	-112.5930634
6.704500198	-23.7250042	-49.14825439	15.97545242	-37.00996017	-42.27548218	30.83528137	-13.20590115	-124.5074768
6.833999634	-24.22907829	-56.17527771	15.95838547	-48.24343491	-42.33917618	19.71757507	-13.17255878	-136.4761505
6.963500023	-25.32324028	-64.65641022	15.91328907	-59.60268021	-42.20866776	8.64678669	-13.19559193	-149.4287262
7.093000412	-26.49269867	-70.34477234	15.88114929	-70.79458618	-42.00485992	-1.879343271	-13.34620571	-161.955719
7.222499847	-27.51386261	-76.79351044	15.87792492	-82.09214783	-41.78614044	-13.02857208	-13.51498699	-174.0263214
7.352000237	-28.65391922	-82.89626312	15.85326767	-93.17856598	-41.68497086	-23.45729828	-13.65076256	174.2026978
7.481500149	-29.6651001	-87.59522247	15.83969402	-104.7882614	-41.55599976	-34.77327728	-13.80325127	162.8574066
7.610999584	-31.03869057	-90.58617401	15.84305573	-116.0643005	-41.48305511	-45.0252037	-14.03682899	151.9372101
7.740499973	-32.01467896	-86.20794678	15.64486122	-127.5682983	-41.40018082	-56.26362991	-14.38293266	141.920166
7.870000362	-32.36503983	-81.23365021	15.62828922	-138.6708221	-41.22294235	-67.627388	-14.61802959	132.2459869
7.999499798	-32.65242767	-74.46948242	15.54647541	-148.8567657	-40.99580383	-77.84938049	-14.83883667	122.4511948
8.12899971	-32.7027092	-68.39874268	15.51209831	-160.23526	-40.83884048	-89.43727875	-15.07065487	113.9795837
8.258500099	-32.20010757	-66.64911652	15.68780422	-170.5603333	-40.59552002	-101.5985565	-15.24442101	106.4045105
8.387999535	-31.60042381	-69.9769516	15.61484528	177.9346313	-40.48675156	-113.0984116	-15.09880447	98.20041656
8.517499924	-30.83443642	-76.13536835	15.53430939	165.9779205	-40.42123413	-125.7903671	-14.81847191	88.56025696
8.647000313	-30.07296181	-83.52856445	15.49885368	155.3385162	-40.41976166	-136.9873505	-14.91194057	76.81423187
8.776499748	-29.18102455	-85.39723206	15.50182438	143.6071777	-40.33428192	-147.2659454	-15.32590485	66.03128815
8.906000137	-27.74043274	-87.44146729	15.57298183	132.3726807	-40.10757446	-158.620285	-15.74377537	56.75630951
9.035499573	-26.31513977	-92.51281738	15.64136314	121.5941696	-39.89939499	-170.3236542	-16.10215759	46.94215012
9.164999962	-24.61747742	-99.01167297	15.77126026	109.7133713	-39.87835312	178.1326599	-16.4633522	36.14372635
9.294499397	-23.33572197	-106.3694305	15.67627621	98.34357452	-39.69081497	166.5789032	-16.99153328	25.60131264
9.423999786	-22.41667747	-115.3255692	15.50266647	86.6456604	-39.77866745	155.1694031	-17.69468689	14.59238338
9.553500175	-21.63751602	-125.1468124	15.47278786	74.93412781	-39.6088295	143.8143921	-18.57220268	3.856260061
9.683000565	-20.95038414	-135.2862091	15.23488331	64.16149902	-39.42086792	132.3821564	-19.44369507	-8.048343658
9.812500954	-20.15311813	-144.9598541	15.26538754	52.62440109	-39.33441925	121.1408081	-20.29104614	-22.01587296
9.941999435	-19.36049461	-153.8635406	15.3402853	41.26962662	-39.05224609	109.1352386	-21.25930595	-38.45027161
10.07149982	-18.57859039	-161.9394379	15.23620605	29.27797127	-39.08281708	96.84539795	-22.46775818	-58.26979065
10.20100021	-17.97370911	-170.1899261	15.17702293	18.37636948	-39.03482437	86.35975647	-23.88196564	-81.13093567
10.33049965	-17.43714142	-178.421402	15.09466743	7.166521549	-38.73099899	74.73265839	-25.34247589	-112.7706909
10.46000004	-17.03341484	173.1585693	15.11813545	-3.474389553	-38.71559525	62.18284225	-25.90625	-141.9755402
10.58950043	-16.78072929	165.2852936	15.14782429	-14.53506756	-38.57671356	52.21817017	-25.21610832	-167.75383
10.71899986	-16.56133461	157.0571442	15.17756939	-26.39174843	-38.43587112	38.33408356	-23.96765518	169.1117096
10.8484993	-16.34947014	149.2115326	15.14820194	-37.46854019	-38.24245071	28.72123528	-22.47261429	149.9296875
10.97799969	-16.10875702	141.0036621	15.05981541	-48.61838913	-38.16438293	17.30467987	-21.44039726	131.8113556
11.10750008	-15.89839935	134.0785522	15.04431725	-60.43530273	-37.86779404	5.546617985	-20.71727943	114.3298035
11.23700047	-15.73204994	127.6406479	14.92536545	-70.95172882	-37.83982849	-6.310546398	-20.37293243	100.7497101
11.3664999	-15.67286015	121.7035446	14.94164753	-82.7230835	-37.5829277	-18.6867733	-19.91752434	89.38945007
11.49599934	-15.72837353	115.8668518	15.09927464	-94.32249451	-37.80422211	-29.46801567	-19.38476753	77.80909729
11.62549973	-15.9524641	109.8134232	14.95388794	-105.6977158	-37.48547363	-41.200737	-19.06370354	66.25308228
11.75500011	-16.20764732	103.9684067	14.97947693	-117.3578796	-37.23305893	-51.73207092	-19.18119049	53.61463165
11.88449955	-16.51239586	98.95101929	14.97424507	-128.4832916	-37.04293442	-63.93912506	-19.88620377	40.58116913
12.01399994	-16.79561234	94.86328888	14.96915531	-140.5619812	-36.88946152	-75.84101105	-21.06348991	25.68340683
12.14350033	-16.99557877	91.43842316	15.00145817	-152.5517731	-36.77601242	-87.72806549	-22.47888184	9.11577034
12.27300072	-17.14188576	88.47732544	14.98584175	-164.6251068	-36.71994781	-100.5966339	-24.78167152	-6.953186035
12.4024992	-17.28287506	86.46174622	14.95041752	-177.1468201	-36.70603943	-112.2159729	-28.46048927	-22.14003372
12.53199959	-17.32614136	85.17790985	14.83646297	170.5943298	-36.81278229	-124.9554062	-35.99889374	-35.47536087
12.66149998	-17.27908325	84.22516632	14.57437897	158.0137482	-36.93306732	-135.9174652	-45.12520599	60.02952194
12.79100037	-17.16104317	83.43141937	14.1847353	146.2113953	-37.11599731	-147.1210785	-39.27344894	10.53274822
12.9204998	-16.97860336	80.36003876	13.72490215	136.3904114	-37.34250259	-155.3085938	-28.60844803	-94.35578918
13.05000019	-17.11140823	75.98047638	13.61699867	128.5648193	-37.16706085	-163.3747711	-20.45070076	-144.4746094
13.17949963	-17.55986023	73.3282547	13.87274647	119.2537537	-36.52138138	-173.2777405	-16.5663166	-178.0477753
13.30900002	-17.81906509	73.45807648	14.11878109	107.9796066	-36.18118668	173.6220856	-14.58542156	157.8717346
13.43849945	-17.77174568	73.86412048	14.29560471	96.15161133	-36.06904984	162.0870361	-13.31513309	138.5127258
13.56799984	-17.73880386	74.58499908	14.38599682	83.67866516	-36.09515381	150.8152008	-12.3824091	121.4409332
13.69750023	-17.68145752	76.22434235	14.40107155	71.64510345	-35.93363953	138.8980713	-11.69154739	106.9157639
13.82700062	-17.34705925	78.17967987	14.37754631	59.5059967	-35.96693802	126.5985565	-11.0105114	94.92870331
13.95650005	-16.73952103	79.94469452	14.32034492	47.62388992	-35.80368805	115.3017502	-10.48825073	84.83706665
14.08599949	-15.84072781	80.73622894	14.22467136	35.65244293	-35.91830444	103.7943497	-10.19668865	75.45549774
14.21549988	-14.82199764	80.10571289	14.16534328	23.7717495	-35.92798233	92.43859863	-10.00658035	66.44428253
14.34500027	-13.83463383	78.36208344	14.05526924	11.56828022	-35.94462204	80.03924561	-9.890781403	57.37385178
14.4744997	-12.90527248	74.96779633	13.9430542	-0.393315792	-36.07513428	68.49757385	-9.760672569	48.17950821
14.60400009	-12.02946663	69.98227692	13.67345047	-12.31820774	-36.20643234	58.31084442	-9.561214447	39.4750824
14.73350048	-11.20818233	63.89105988	13.56520462	-23.79117584	-36.28555298	47.30832672	-9.355828285	30.87878609
14.86299992	-10.52481174	57.38599396	13.37911224	-34.15734482	-36.24225998	36.6706543	-9.139837265	21.35967064
14.99249935	-9.975506783	51.0250206	13.46799278	-44.50061417	-36.05408478	25.6108532	-9.077503204	11.68340778
15.12199974	-9.544735909	44.6011467	13.58411598	-53.72915649	-36.22756958	12.25740433	-9.30355835	1.906432033
15.25150013	-9.211883545	37.7824173	13.42236137	-66.08657074	-36.29647064	1.584107161	-9.881555557	-6.614559174
15.38100052	-8.933646202	30.72639465	13.38731194	-76.60443878	-36.62498856	-9.40811348	-10.6419735	-12.54882431
15.51049995	-8.74681282	23.52509117	13.19214153	-87.99940491	-36.72866058	-19.88396263	-10.98718357	-16.71763611
15.64000034	-8.639629364	16.6406002	13.28306866	-100.0882111	-36.39596176	-28.572155	-10.83265877	-22.67837906
15.76949978	-8.602739334	10.19410419	13.3722868	-111.0163879	-36.35109711	-41.719841	-10.57341766	-30.81788254
15.89900017	-8.632125854	3.895298719	13.5100565	-123.2027359	-36.62256622	-54.16759491	-10.43592644	-40.47311783
16.0284996	-8.69205761	-2.674049854	13.54808617	-135.0249329	-36.37469482	-62.27339172	-10.63218307	-51.09825134
16.15800095	-8.851744652	-9.10988903	13.46847534	-145.9428864	-36.34737396	-76.3910675	-11.26814938	-63.19743729
16.28750038	-9.117752075	-14.81831169	13.58503342	-156.2536011	-36.48409271	-86.43445587	-12.56337452	-75.94978333
16.41699982	-9.390460014	-19.66734505	13.66035175	-166.2178497	-36.26055145	-95.59004211	-14.57737923	-82.33943176
16.54649925	-9.558478355	-24.7503624	13.95328808	-177.8387909	-35.84743118	-107.2446823	-15.47087955	-83.51393127
16.6760006	-9.7069664	-30.41228104	14.00190067	169.3889008	-35.43134689	-121.3115311	-16.05203438	-87.8574295
16.80550003	-9.818677902	-35.80143356	14.11467838	154.8146973	-35.44015503	-133.7176056	-16.72470093	-92.39017487
16.93499947	-9.935622215	-40.5596199	14.02323151	143.0749664	-35.40953064	-148.091568	-17.46175385	-96.69915009
17.06450081	-10.12676811	-44.68161774	14.023242	129.3853607	-35.07070541	-159.8014374	-18.28956604	-99.25928497
17.19400024	-10.38066196	-48.77521133	14.16977119	117.9385223	-35.61094666	-174.2939758	-19.14701462	-99.7228775
17.32349968	-10.67290115	-53.30963898	13.91263962	105.4264603	-35.19755936	175.743042	-19.96052361	-98.46394348
17.45300102	-10.91668987	-58.20711136	13.98419285	93.11638641	-35.04788971	164.2744293	-20.63011169	-95.80529022
17.58250046	-11.11992741	-63.32241821	13.88061142	81.27362061	-35.12828445	148.3168945	-20.66145706	-93.82849884
17.7120018	-11.28123188	-68.17180634	13.80770874	67.73440552	-34.88584518	137.9390564	-19.96084976	-91.71697998
17.84149933	-11.39806747	-72.87553406	13.68649483	56.20399094	-35.0269165	123.3322906	-18.20862389	-92.66133881
17.97099876	-11.44932652	-77.81169128	13.51051521	44.49887848	-34.85158539	110.9756927	-16.25666809	-100.2301331
18.10050011	-11.42702198	-83.20677948	13.58358574	32.71305466	-35.10770416	100.5753098	-15.10188007	-112.6678772
18.22999954	-11.46460724	-88.01321411	13.53729153	20.70970726	-34.77783585	88.60112762	-14.78082466	-126.4326782
18.35950089	-11.6228981	-92.57364655	13.57248974	8.735462189	-34.74988174	75.98402405	-14.81347084	-140.0046539
18.48900032	-11.92739868	-96.29444122	13.47121334	-4.953808784	-34.95849228	64.85192871	-15.2656641	-152.1403961
18.61849976	-12.19852257	-99.7397995	13.35913467	-16.51332283	-34.71670914	54.17466354	-15.89773464	-157.3755035
18.7480011	-12.30761814	-103.8368301	13.28670597	-27.83615112	-34.371418	42.57400131	-15.28351021	-158.1834869
18.87749863	-12.20193958	-108.7503662	13.53745842	-40.01060104	-34.34344482	29.18299866	-14.09021568	-166.358902
19.00699997	-11.96876335	-113.981842	13.45922852	-51.88989639	-34.16923904	17.24274445	-13.19584942	-178.2662048
19.1364994	-11.63271713	-118.582756	13.37830925	-65.71086884	-34.20106888	4.466416359	-12.49417686	169.0632477
19.26600075	-11.30909729	-122.7699738	13.34788322	-78.2534256	-34.42602921	-7.276278973	-11.87814808	156.1679993
19.39550018	-10.95831871	-126.8982849	13.01224136	-90.58790588	-34.31725311	-18.01098061	-11.36165619	141.7176971
19.52499962	-10.63564491	-131.2491455	12.89983749	-103.9494095	-34.25485229	-29.45944786	-11.07627678	125.5494843
19.65450096	-10.29170609	-135.3841095	12.90528584	-115.3062592	-34.20442581	-41.70711136	-10.99393845	109.4838715
19.7840004	-9.909959793	-139.9397278	12.7332716	-128.2644043	-34.00026321	-53.07094193	-11.02872562	94.28961182
19.91349983	-9.514608383	-145.3063202	12.73919487	-141.2303162	-33.85461807	-65.96257782	-11.16106415	79.73500061
20.04299927	-9.083968163	-151.64328	12.57879066	-153.0556488	-33.76924515	-77.87729645	-11.47779083	64.12970734
20.17250061	-8.619447708	-158.5708313	12.42070866	-165.4392395	-33.60237122	-90.92871857	-12.03090477	47.3766861
20.30200005	-7.991467953	-165.0075073	12.28327942	-177.2747955	-33.67393875	-106.9367142	-12.93251991	32.37340927
20.43149948	-7.305678368	-171.7629395	12.18765259	170.859314	-33.945961	-121.4589691	-13.47017193	20.76255035
20.56100082	-6.769145489	-178.5723114	12.09507561	158.2237396	-34.53451538	-133.1153259	-13.70960617	7.725276947
20.69050026	-6.35587883	174.4228363	11.95988369	145.739624	-35.03073883	-145.3810883	-13.96876812	-7.381432056
20.8200016	-6.054889202	167.0597076	11.8234129	133.3186493	-35.39073944	-156.9731598	-14.28845978	-23.81508255
20.94949913	-5.825888157	159.7421112	11.73014832	121.3556671	-35.69134903	-166.2292328	-14.57677078	-39.30554581
21.07899857	-5.608308792	152.8286591	11.60227966	109.224762	-35.5203476	-178.3424377	-14.72065067	-54.88375473
21.20849991	-5.411045074	145.7158661	11.43223572	96.77513123	-35.64509583	169.4994659	-14.87378883	-71.51294708
21.33799934	-5.205572605	138.2887115	11.27554893	84.8273468	-35.8432045	155.9410553	-14.87219715	-89.30236053
21.46750069	-5.003643036	130.4663239	11.10274696	72.61110687	-36.13402939	143.4994659	-14.81744194	-106.5263138
21.59700012	-4.75637579	122.9533844	11.0414238	60.15534592	-36.40332031	131.5491028	-14.66374874	-121.7075729
21.72650146	-4.515360832	115.9009018	10.9347496	48.11641312	-36.30335617	117.7626038	-14.59554291	-135.1161194
21.8560009	-4.387046337	109.5253677	10.78999043	35.38179398	-36.71092987	102.8037567	-14.50591946	-146.2145996
21.98549843	-4.362440109	103.3922195	10.44994926	23.03148079	-37.47879791	85.42525482	-13.80017853	-154.8100281
22.11499977	-4.41649437	96.46218872	10.00111675	12.91787052	-39.283638	77.4234314	-12.27765465	-166.3855743
22.24449921	-4.577274799	88.1782608	9.942556381	2.654828548	-39.50289154	77.67547607	-11.28678989	178.0213928
22.37400055	-4.88093853	80.31732178	10.18661308	-9.340966225	-37.99092102	69.82759094	-11.19373608	164.414917
22.50349998	-5.116046429	73.39492035	10.05945969	-21.80589485	-37.22613907	57.04553604	-11.22031212	153.4648132
