!Hittite Microwave Corporation								
!20 Alpha Road								
!Chelmsford, MA 01824								
!Tel: 978-250-3343								
!Fax: 978-250-3373								
!Device: HMC-C003, 2-20 GHz, Wideband PA Module								
!Misc: Vdd = +12V, Idd = 310 mA, Room Temperature								
!								
# GHZ S DB R 50								
								
0.050000001	-0.105380468	-10.71880913	-7.349775791	-83.25813293	-63.10994339	17.90426636	-0.4079763	168.3917389
0.179749995	-1.01437068	-36.78460693	6.971494198	-106.8577499	-82.59149933	-32.57708359	-1.254150987	134.2500305
0.309500009	-2.490653515	-58.19335938	11.91851234	-140.8134003	-74.87605286	-159.7619171	-3.184408903	105.9530106
0.439249992	-4.107405663	-75.52619171	13.63557148	-168.1837311	-69.97562408	-179.6822815	-5.338028908	84.81726837
0.569000006	-5.664190769	-89.67776489	14.31929874	169.8804169	-66.15361023	138.6155548	-7.317810535	68.02667236
0.698750019	-7.059609413	-101.8695679	14.53713322	149.6117249	-62.48722076	139.4869843	-9.795220375	56.20283127
0.828499973	-8.223858833	-113.4980164	12.26119614	138.2758331	-56.05727768	80.45993042	-7.72537899	68.17329407
0.958249986	-9.530128479	-123.7568817	14.27707863	132.1180115	-60.88967896	52.80925751	-7.846505642	30.38502693
1.088000059	-10.60659122	-133.0017853	14.67652321	118.0489349	-61.15625381	57.82712555	-9.135152817	11.65497303
1.217750072	-11.58180714	-141.742157	14.75191498	104.7122879	-60.82276535	61.0113945	-10.11126804	-4.690154552
1.347500086	-12.46920109	-150.0386658	14.94193554	92.78573608	-59.54352951	54.13008881	-10.91349506	-20.76165771
1.477250099	-13.25357151	-158.0649261	15.03792286	81.26569366	-57.83105469	45.75626755	-11.70050049	-36.7747345
1.607000113	-13.97592258	-165.7146912	15.21133614	69.11376953	-57.13544083	41.1073761	-12.45086288	-53.15539169
1.736750007	-14.57553959	-173.2117767	15.31698036	57.94783401	-56.05072021	33.34260941	-13.15380192	-69.86219788
1.86650002	-15.09341908	179.4881134	15.25739479	46.08607483	-55.43064499	26.21126366	-13.83434772	-86.94630432
1.996250033	-15.51162148	172.4403076	15.26508427	34.86788559	-54.8139534	22.51141548	-14.51185417	-104.079628
2.125999928	-15.85251427	165.4757385	15.20975113	24.68610382	-53.77825928	13.52636242	-15.12435627	-121.4286041
2.255749941	-16.07367897	158.6768951	15.19529343	13.34663963	-52.9162178	5.577698708	-15.59489346	-138.4512634
2.385499954	-16.24635315	151.8612366	15.34100628	2.658166647	-52.14053726	-2.109026909	-15.85377979	-156.1892242
2.515249968	-16.35843468	145.1192322	15.35323334	-8.500295639	-51.73527145	-10.68041229	-16.16684723	-174.3705139
2.644999981	-16.42012215	138.3568268	15.39636707	-19.96523666	-51.07712555	-21.91491699	-16.50140762	168.1158447
2.774749994	-16.42907333	131.5154877	15.40456963	-30.43725204	-50.69137573	-26.57132339	-16.82494545	151.5316162
2.904500008	-16.42140388	124.5930557	15.40488911	-41.10886765	-50.16452026	-34.45138168	-17.23626328	135.4317169
3.034250021	-16.36959839	117.572876	15.43560314	-51.82310104	-49.65145493	-43.03355408	-17.6170063	120.7164459
3.164000034	-16.29103088	110.416832	15.4224987	-62.53422165	-49.4588356	-50.6603241	-18.08911514	107.3904266
3.293750048	-16.19780922	103.2526245	15.44075012	-73.21469116	-48.86838531	-58.37547302	-18.58702087	95.93422699
3.423500061	-16.12071991	96.1730957	15.33035469	-83.90123749	-48.59943008	-68.33068848	-18.8774662	86.30780029
3.553250074	-16.07557487	89.09851074	15.37779903	-94.38645935	-48.18946457	-78.06726074	-19.03811836	73.77563477
3.683000088	-16.04174232	82.04547882	15.44494247	-104.3188095	-47.9773407	-83.75201416	-19.92248154	61.4175415
3.812750101	-16.0076561	74.9681015	15.46162701	-115.8023529	-47.55719376	-93.7264328	-21.06971169	53.01291656
3.942500114	-15.9731369	67.6971817	15.47676945	-126.143692	-47.68844986	-99.56517029	-22.43596268	49.60393524
4.072249889	-15.95118141	60.55991745	15.43398666	-136.7069092	-47.28508377	-110.2930527	-23.50927544	50.45053101
4.201999664	-15.9659586	53.29493713	15.47591209	-147.4634094	-47.20084763	-117.9942322	-23.73648834	54.63107681
4.331749916	-16.0208168	46.14567947	15.44370174	-158.1165009	-46.95350647	-125.1978455	-23.31009293	59.37644196
4.461499691	-16.10210419	38.87292862	15.41402912	-169.0351715	-46.75378418	-135.5969696	-22.01085663	60.13482666
4.591249943	-16.18486595	31.69000435	15.44091892	-179.4987183	-46.76572037	-143.2991638	-20.55454636	56.95092773
4.720999718	-16.29857063	24.71492767	15.49202824	170.1141357	-46.47455978	-152.9161072	-19.3473587	51.43327713
4.850749969	-16.45269012	17.73935699	15.42412758	159.5509644	-46.28325272	-161.7644958	-18.19911957	45.10802078
4.980499744	-16.6145134	10.82805538	15.47718143	148.9425507	-46.4672966	-170.4293823	-17.04855537	36.89043427
5.110249996	-16.79996681	4.025501251	15.46888161	138.8858948	-46.12895584	-178.5613098	-15.87448978	27.21914864
5.239999771	-17.01627922	-2.648739338	15.31540966	127.0224457	-46.07477951	169.8352966	-14.91547871	16.33596039
5.369750023	-17.2792244	-9.438153267	15.41384315	116.8821869	-46.13287735	161.4967651	-14.11627674	4.414031506
5.499499798	-17.50504875	-16.18778229	15.31493568	105.9717484	-45.89772797	151.7397308	-13.37563992	-7.880683899
5.62925005	-17.76994705	-22.95593452	15.31905746	93.8993988	-45.95140076	141.2102203	-12.75718307	-20.45825958
5.759000301	-18.06941414	-29.8633976	15.17106628	84.31269836	-45.84420776	132.8830872	-12.20526791	-33.35597992
5.888750076	-18.34607887	-36.72607803	15.11946297	73.89485168	-45.81456375	121.968605	-11.73937416	-46.71746826
6.018500328	-18.70301056	-43.38113403	15.20607185	63.48708725	-45.9144516	112.4674683	-11.36267853	-60.10487747
6.148250103	-19.07111549	-49.95427704	15.12793064	53.62228775	-45.8366127	101.9792938	-11.05122471	-73.83514404
6.278000355	-19.49435043	-56.31678772	15.12159634	42.93205261	-45.80412292	90.73283386	-10.74021912	-87.85594177
6.40775013	-19.877388	-62.72945404	15.07912064	32.30690384	-45.84434891	81.58479309	-10.4983654	-101.3943329
6.537500381	-20.15983772	-68.84516144	14.96792603	21.82319832	-46.13267899	70.89201355	-10.28897285	-115.2624207
6.667250156	-20.3468132	-74.70357513	14.9076395	11.28823662	-45.75571442	60.4897995	-10.03743362	-129.2751312
6.797000408	-20.53047752	-81.49334717	14.87597752	0.923556924	-45.58732605	51.07633972	-9.882678032	-143.5370483
6.926750183	-20.79396629	-89.03002167	14.8675518	-9.40501976	-45.44179535	39.93286896	-9.831476212	-157.7645264
7.056500435	-21.08493423	-96.68421936	14.82330132	-19.93712425	-45.14792633	28.87076187	-9.808847427	-171.5967865
7.18625021	-21.33470917	-104.1431732	14.72820187	-30.07723045	-45.12238693	17.45014191	-9.806132317	174.774704
7.315999508	-21.56609535	-110.7101288	14.65917301	-40.42366791	-44.87869263	6.915838242	-9.897814751	160.8236694
7.44574976	-21.6779747	-117.0761108	14.68980885	-49.9772377	-44.7550354	-4.565163612	-10.0336113	147.2467499
7.575500011	-21.69393539	-124.2322922	14.65202045	-60.13885498	-44.51396942	-16.00376511	-10.19688129	134.2850647
7.705249786	-21.67097092	-131.7611389	14.80240059	-71.56504059	-44.0258522	-26.62331581	-10.4594965	121.2866745
7.835000038	-21.43148804	-139.1605225	14.69600201	-81.14160156	-43.98370743	-37.63446426	-10.82054806	108.6213455
7.964749813	-21.20979691	-146.6429901	14.54844666	-92.72081757	-43.62321091	-48.33977127	-11.21196461	96.07621002
8.094499588	-21.02138138	-154.4497528	14.63875771	-102.3001251	-43.16771317	-60.61769867	-11.73696136	83.35327911
8.22424984	-20.88499069	-162.2262726	14.42905617	-111.2696152	-42.85152054	-71.05996704	-12.39281464	70.81305695
8.354000092	-20.72498512	-169.6923676	14.58281898	-122.3406677	-42.62573624	-80.89256287	-13.21919727	58.06635666
8.483750343	-20.30828857	-177.7052917	14.73399639	-132.2331238	-42.23470306	-92.63704681	-14.35024834	46.30656433
8.613499641	-19.96158218	175.1416473	14.73104858	-142.8786469	-41.68088913	-104.1407623	-15.50223541	35.02871704
8.743249893	-19.74423981	167.7593689	14.82136345	-153.5007935	-41.407341	-114.4439392	-16.93600845	23.88513374
8.873000145	-19.62480736	160.7170563	14.79549408	-163.7432404	-41.15319061	-124.5130081	-18.55551147	13.86027908
9.002750397	-19.52268219	153.8383179	14.70975208	-173.7944183	-40.40445709	-135.6537323	-20.54254341	3.580542564
9.132499695	-19.43743134	147.8549805	14.79286671	175.7544556	-40.0285759	-147.5096588	-23.49563789	-8.149978638
9.262249947	-19.31519127	142.7450867	14.80132961	164.8674011	-39.6579361	-158.5643768	-28.14167404	-16.25238991
9.392000198	-18.98030853	137.9629364	14.8625946	154.1650543	-39.3950882	-171.0935974	-35.54702759	-16.43626213
9.52175045	-18.65533257	131.8569489	14.89363289	143.7067566	-39.42581177	176.2995453	-40.2884407	82.76462555
9.651499748	-18.39329338	125.2772903	14.98297787	133.1191864	-39.38471222	167.8654022	-30.83698463	107.6954422
9.78125	-18.23404312	119.0360565	14.99951553	122.1285095	-39.09304428	158.2803802	-26.55388641	103.7481995
9.911000252	-18.10277557	113.4373322	14.95714474	110.8585587	-38.7937088	149.1838531	-23.99062538	93.67388916
10.0407505	-18.03920555	108.7327499	14.92048168	100.4227142	-38.57408524	138.3429565	-22.38618279	82.28444672
10.1704998	-18.08496475	104.1008606	14.96290493	89.38043976	-38.20815659	129.7776642	-21.12725067	69.30355835
10.30025005	-18.10686874	99.34268188	14.93388557	78.30122375	-37.89967728	119.3896408	-20.38741302	55.53408051
10.43000031	-18.0989666	93.9647522	14.99660301	67.20363617	-37.41114044	109.6329422	-20.53719139	39.34829712
10.55975056	-17.97074318	89.48781586	15.03634548	56.67611313	-37.32125854	99.06339264	-21.04346085	22.87334251
10.68949986	-17.98182678	84.74313354	14.94488716	45.50448608	-36.80129242	88.41751099	-22.08525658	6.298151493
10.81925011	-18.07030869	81.6391983	14.98317242	35.46408463	-36.72618484	78.03874969	-23.81835365	-16.5975399
10.94900036	-18.19654083	78.35919189	14.97292137	24.77147865	-36.47582626	66.88652039	-25.14116859	-44.61730194
11.07875061	-18.33222198	74.77018738	14.93148041	13.55463314	-36.24969482	57.3157196	-26.44630623	-78.8449173
11.20849991	-18.3651104	71.87882233	14.94583797	2.79953146	-36.08766174	45.84715271	-25.89140701	-122.0414352
11.33825016	-18.38995171	69.42269135	14.87206841	-8.051560402	-35.96160507	36.76074219	-23.529356	-157.0163879
11.46800041	-18.27974701	68.3224411	14.79946232	-18.85515404	-35.88344574	26.19080925	-21.18753815	178.100174
11.59775066	-18.09509659	66.65343475	14.93340588	-29.58755684	-35.69499207	15.64545059	-19.23391151	158.3353271
11.72749996	-17.84293938	63.75519562	14.92624092	-40.74931717	-35.60491562	7.014689922	-17.52039337	141.5849457
11.85725021	-17.57072258	59.66933441	14.91160965	-52.68329239	-35.36992264	-3.744542837	-16.10287476	127.3516083
11.98700047	-17.36211777	55.25484848	14.85148525	-63.02189255	-35.21247101	-13.43596458	-15.05304718	114.4132385
12.11675072	-17.21850204	49.38906097	14.70084095	-74.4199295	-35.09933472	-24.78143311	-14.31298923	101.038208
12.24650002	-17.15084457	43.61269379	14.65596485	-85.50779724	-35.0337944	-35.00856781	-13.79737377	87.7542038
12.37625027	-17.21770668	37.08567047	14.50627518	-96.08837891	-35.01852417	-45.16547775	-13.3331604	74.77476501
12.50600052	-17.31481171	30.25712585	14.43410397	-108.5373611	-35.00719833	-55.67448425	-12.94492531	61.36413956
12.63575077	-17.52884483	23.49095726	14.3260994	-119.2300491	-35.08003616	-65.24651337	-12.78769016	46.7841835
12.76550007	-18.14365196	16.44970322	14.02742767	-129.4671326	-35.15510559	-74.42498016	-13.10739613	29.0200386
12.89525032	-19.35713577	8.930417061	13.79096222	-139.127655	-35.26714325	-83.02432251	-14.46356678	5.940541267
13.02500057	-21.24662781	4.485394478	13.65761185	-146.411377	-35.31423569	-90.16565704	-17.99636269	-20.3955822
13.15475082	-23.01644135	7.375930786	14.05047989	-154.4302216	-34.78840256	-97.33702087	-25.13499451	-36.82567978
13.28450012	-23.87140274	12.29261398	14.47406197	-165.6099243	-34.2815361	-107.9196777	-35.55079651	-9.790638924
13.41425037	-24.150774	17.17088127	14.70582485	-177.7967834	-33.9668541	-119.0034485	-34.60053635	77.75479126
13.54399967	-24.10487747	23.33485985	14.78524017	169.9327698	-33.83385468	-130.6377106	-28.72102547	104.1838074
13.67374992	-23.82250023	28.0405407	14.78822899	157.6495209	-33.69657135	-142.0526276	-24.1175766	106.9069061
13.80349922	-23.30225563	29.4998436	14.72684956	145.4327545	-33.70284271	-153.0917053	-20.71050453	102.5529785
13.93324947	-22.59870338	26.55845642	14.55109024	133.5050659	-33.70521927	-164.148407	-18.21563339	97.31154633
14.06299973	-22.14313889	20.96922493	14.3269453	122.5888901	-33.88060379	-173.891861	-16.66330719	92.34949493
14.19274998	-22.13258743	14.15211582	14.15746593	112.7206345	-33.84223938	176.8438721	-15.3838377	88.40171814
14.32249928	-22.67602921	10.25350189	14.25377274	102.9336548	-33.63914108	167.0540009	-13.924757	82.90784454
14.45224953	-23.31496429	7.157575607	14.40388775	92.1211853	-33.37239838	155.6937103	-12.64731884	73.85423279
14.58199978	-24.05645752	0.634579122	14.56200027	80.07445526	-33.19714355	144.3830719	-11.49099922	62.67012405
14.71175003	-24.95004654	-7.247722149	14.5676899	68.50541687	-33.15639496	132.1327515	-10.5499239	51.2500267
14.84149933	-26.16845322	-14.66819859	14.3927803	56.02729797	-33.17017746	120.8903198	-10.01633835	40.36875153
14.97124958	-28.07809448	-19.28285408	14.10178471	45.12873077	-33.1409874	108.7730408	-9.739107132	29.21277428
15.10099983	-31.76671982	-19.14883041	13.72301292	33.97856522	-33.16578293	96.47452545	-9.77718544	19.05274773
15.23075008	-39.96028519	-1.640149713	13.77694225	22.93838692	-33.44018173	84.66445923	-10.11988735	10.43747425
15.36049938	-36.99617767	111.6940536	13.62821484	12.92692852	-33.80130386	73.01258087	-10.37775707	4.926464558
15.49024963	-28.79453659	110.9964676	13.82461739	1.8315413	-33.95919418	64.48941803	-10.11957359	-0.555000424
15.61999989	-24.8120842	99.10588837	14.0445528	-8.415981293	-33.8780365	54.33455276	-9.743842125	-9.786236763
15.74975014	-22.18084526	86.9559021	13.99868774	-19.24090576	-33.70030594	44.62583542	-9.552033424	-20.65161705
15.87949944	-20.57173538	76.820961	14.11066055	-30.1499157	-33.38652039	33.51949692	-9.624458313	-31.46006203
16.00925064	-19.62341309	66.618927	14.10010624	-41.48025131	-33.31953049	21.18258667	-9.954474449	-41.67464447
16.13899994	-19.19493484	57.99207687	13.97212696	-53.51313782	-33.10600662	10.84185314	-10.61688995	-51.17191696
16.26874924	-18.83889389	49.96575165	13.87132931	-64.02781677	-32.79808807	-2.203972578	-11.46035004	-59.85468292
16.39850044	-18.67912674	44.490242	13.84549713	-76.55497742	-32.71734619	-14.99837875	-12.50426579	-68.01158905
16.52824974	-18.48277473	40.94489288	13.79591846	-88.60831451	-32.77674484	-27.53318596	-13.55533314	-73.56252289
16.65799904	-18.33353615	38.1819458	13.71999168	-102.1245422	-32.61381531	-39.55567169	-14.25460625	-74.84855652
16.78775024	-18.13467216	35.32368088	13.74978065	-114.0514374	-32.60700989	-52.520298	-14.24149418	-74.1075058
16.91749954	-17.61530495	32.15221024	13.15645981	-126.5352478	-32.60614014	-64.81724548	-13.26342297	-77.4718399
17.04725075	-16.64580917	27.56426048	12.96329117	-135.9517822	-33.07431793	-77.42071533	-12.61258125	-89.5854187
17.17700005	-15.82431126	20.41147041	12.62078762	-142.3645782	-32.93209076	-88.51529694	-13.2645092	-102.7628555
17.30675125	-15.58069134	12.13256836	12.48737431	-154.6591797	-33.31358337	-99.88747406	-14.37207413	-107.053627
17.43650055	-15.98225784	2.511073589	12.6056366	-162.1992493	-33.72895432	-110.0098572	-14.11234474	-105.4191971
17.56625175	-17.13723564	-3.243134975	12.68011951	-171.1994781	-33.83853149	-114.4174652	-12.89283466	-113.0592957
17.69599915	-17.90511513	-1.566344619	13.4416132	175.6115417	-33.29454041	-120.7433319	-12.40195847	-127.00914
17.82574844	-17.62456322	1.044225931	13.54459381	164.4719391	-32.5039978	-130.2412109	-12.36086178	-138.5246277
17.95549965	-16.9971447	1.73579812	13.55451488	151.0600891	-31.98364258	-141.2981262	-12.31876945	-147.9494324
18.08524895	-16.43198776	-0.455109894	13.62260818	137.995224	-31.3568821	-153.5487671	-12.20150948	-157.3697052
18.21500015	-15.95333481	-4.902840614	13.48493481	125.5684738	-31.0287838	-165.1399841	-11.98445892	-167.4764557
18.34474945	-15.62049866	-10.95213795	13.4888258	114.5828476	-30.57250404	-176.921814	-11.63611412	-179.082077
18.47450066	-15.51724243	-17.67588806	13.62768745	100.4671707	-30.12112045	169.8206635	-11.12518406	168.7591705
18.60424995	-16.31923294	-18.34717751	13.695158	87.08489227	-29.68593597	154.7266541	-10.53361511	155.1575012
18.73399925	-15.18078327	-6.999868393	13.03350735	72.16285706	-30.07391739	136.6958313	-10.49654579	139.1932526
18.86374855	-12.8439436	-14.12554932	12.61980724	61.77989578	-30.90639305	124.1161499	-11.0192194	126.3264465
18.99349976	-12.08043766	-25.87928581	12.21189404	54.73576736	-31.72499657	115.6705551	-11.04195118	114.1862335
19.12324905	-11.68837643	-35.67273331	12.25082207	43.66261292	-32.08290482	108.5391083	-10.96872044	99.73975372
19.25300026	-11.35538197	-43.68254471	12.51976299	32.3754921	-32.01486969	99.41215515	-11.18543911	85.39372253
19.38274956	-11.10715866	-50.58607483	12.33866215	19.95365524	-32.39004135	90.34127808	-11.54039955	71.25708771
19.51250076	-10.93197346	-57.01973724	12.28278923	5.928538799	-32.66016006	81.75437927	-11.98284912	58.08481979
19.64225006	-10.72395992	-63.33415222	12.19995213	-6.344741344	-32.79251099	73.2820282	-12.30199242	45.1911087
19.77199936	-10.31835938	-69.16468048	11.78677177	-19.52592468	-33.29554749	66.15083313	-12.38631439	32.71510696
19.90174866	-9.64159584	-75.19161224	11.39887524	-31.50265884	-33.48768997	61.76865387	-12.21205616	19.75914192
20.03149986	-8.776989937	-83.11982727	10.83943939	-40.63396072	-33.10571671	59.47181702	-11.87274647	2.065239906
20.16124916	-8.111528397	-94.50242615	10.64708424	-48.24472809	-31.98702812	53.10577011	-11.64584541	-21.31555557
20.29100037	-7.889864445	-107.5599442	10.95945454	-56.81306839	-30.74514771	41.3658638	-11.97287083	-46.87228394
20.42074966	-8.037026405	-119.8531952	11.38198566	-67.90222931	-29.90484047	25.44600105	-12.90326405	-71.83982849
20.55050087	-8.471796989	-130.565567	11.69682407	-81.12298584	-29.52151489	7.412230492	-14.23078346	-95.31724548
20.68025017	-9.468308449	-138.8607788	11.81223297	-95.58482361	-29.61498451	-13.9600687	-15.93390083	-114.2312241
20.80999947	-10.54834843	-138.9240417	11.56250477	-110.2511292	-31.27801895	-34.84163284	-16.51831436	-125.7180405
20.93974876	-10.26067829	-140.0649261	11.24823666	-122.6316223	-33.344944	-44.6300621	-16.27931213	-141.3855438
21.06949997	-9.786240578	-145.3717041	11.00567627	-134.6322479	-34.06699371	-52.27895355	-16.57134056	-158.2713165
21.19924927	-9.365377426	-150.1174011	10.78921509	-146.9014435	-34.68676376	-63.59135056	-16.97426224	-173.5003204
21.32900047	-8.929418564	-154.3465576	10.55046177	-159.3088531	-35.58966446	-78.22311401	-17.15750313	173.7892456
21.45874977	-8.396617889	-158.7180634	10.19105148	-171.4326324	-37.1789093	-96.84973907	-16.91425896	164.0028076
21.58850098	-7.751048565	-164.4802094	9.800238609	176.5306549	-40.36190796	-116.6032562	-16.64925575	154.0450439
21.71825027	-7.042407036	-172.4690247	9.38171196	166.5829468	-45.58754349	-130.6362457	-16.62181091	141.8470917
21.84799957	-6.20715332	177.8431854	9.309156418	158.5783539	-62.85026932	-108.5511398	-16.93567276	123.8830261
21.97774887	-5.812874317	166.2693176	9.760708809	148.903656	-47.15010834	-3.175342321	-18.82051468	99.8447113
22.10750008	-6.032420635	155.7713623	10.26141739	135.1411133	-40.87226105	-26.35700989	-25.1707058	72.14040375
22.23724937	-6.679456711	147.2359772	10.35449314	118.8075256	-38.10414124	-48.3082695	-30.07543755	-110.0798874
22.36700058	-7.402211189	142.5991364	10.04995251	102.4407806	-36.1930809	-66.89744568	-17.64272881	-138.9168854
22.49674988	-7.583921432	141.2604065	9.270464897	86.7026062	-34.59043503	-89.44598389	-12.59881687	-163.1300049
