!Hittite Microwave Corporation								
!20 Alpha Road								
!Chelmsford, MA 01824								
!Tel: 978-250-3343								
!Fax: 978-250-3373								
!Device: HMC-C026, 2-20 GHz, Wideband PA Module								
!Misc: Vdd = +12V, Idd = 400 mA, Room Temperature								
!								
# GHZ S DB R 50								
								
0.05	-0.30603	-9.7571	-30.341	172.77	-58.25	-143.91	-0.69711	168.19
0.24975	-1.4071	-40.716	5.3971	-174.09	-70.157	1.526	-2.4901	117.83
0.4495	-3.2203	-65.302	16.892	65.21	-79.723	-115.61	-5.6162	83.198
0.64925	-5.1692	-84.803	22.928	77.242	-72.27	-169.18	-8.3686	57.739
0.849	-6.8076	-99.877	28.353	9.4729	-72.132	45.256	-11.551	46.76
1.0488	-8.1384	-112.34	29.432	-30.937	-68.017	73.404	-8.7952	18.527
1.2485	-9.1613	-124.8	30.267	-72.19	-67.164	37.831	-10.351	-10.558
1.4482	-10.03	-136.27	30.248	-106.69	-68.788	-2.8802	-11.401	-36.345
1.648	-10.717	-147.69	30.408	-137.55	-74.741	-62.329	-12.234	-61.924
1.8478	-11.265	-159.35	30.642	-168.48	-88.904	-19.222	-13.034	-87.71
2.0475	-11.746	-170.54	30.623	165.02	-72.896	-28.746	-13.76	-113.51
2.2472	-12.122	177.68	30.735	138.08	-67.632	-27.778	-14.466	-138.9
2.447	-12.45	165.97	30.719	111.01	-69.883	-57.038	-15.27	-163.87
2.6467	-12.788	154.44	30.7	86.184	-69.334	-113.62	-16.137	172.82
2.8465	-13.101	141.98	30.78	60.188	-69.056	-65.297	-17.049	148.58
3.0462	-13.506	130.77	30.785	33.847	-74.602	-125.7	-18.176	126.73
3.246	-13.831	119.55	30.866	9.1153	-73.088	-93.429	-19.347	105.84
3.4457	-14.197	108.25	31.006	-16.325	-76.465	-85.762	-20.555	85.536
3.6455	-14.435	97.856	30.903	-41.051	-66.297	-64.938	-21.901	65.494
3.8453	-14.639	86.073	30.934	-65.402	-66.276	-130.93	-23.645	48.93
4.045	-14.992	75.041	30.907	-90.593	-69.592	169.9	-25.697	37.849
4.2448	-15.425	64.779	30.903	-115.15	-89.777	114.44	-27.49	39.173
4.4445	-15.765	54.42	30.872	-139.29	-77.917	106.14	-27.066	50.722
4.6442	-16.187	44.269	30.839	-163.86	-78.064	-168.29	-24.299	53.812
4.844	-16.49	34.636	30.81	171.44	-71.004	-122.36	-21.456	43.669
5.0437	-16.881	23.895	30.778	147.9	-80.74	-145.03	-19.017	29.66
5.2435	-17.35	13.969	30.73	123.13	-65.792	154.91	-17.096	12.079
5.4433	-17.86	2.8235	30.75	97.415	-72.265	-149.38	-15.466	-5.7152
5.643	-18.541	-6.8122	30.67	74.417	-88.307	-88.534	-14.161	-25.328
5.8428	-19.291	-16.393	30.704	49.477	-77.457	-152.27	-13.117	-45.197
6.0425	-20.113	-24.452	30.599	25.812	-82.552	-9.5824	-12.368	-65.482
6.2423	-20.981	-31.645	30.37	3.5461	-69.59	143.54	-11.917	-86.24
6.442	-21.902	-38.472	30.272	-20.579	-79.945	123.36	-11.695	-107.06
6.6417	-22.568	-42.616	30.305	-45.627	-69.815	70.499	-11.595	-128.31
6.8415	-23.285	-46.21	30.392	-69.724	-77.688	89.035	-11.638	-150.3
7.0412	-23.403	-48.001	30.424	-93.909	-71.96	101.5	-11.996	-173.21
7.241	-23.205	-52.102	30.35	-119.23	-68.719	82.35	-12.669	162.75
7.4408	-22.673	-56.994	30.156	-143.04	-70.769	113.91	-13.656	137.87
7.6405	-22.102	-63.988	29.928	-167.56	-77.469	127.74	-15.064	112.34
7.8403	-21.649	-72.867	29.593	168.43	-72.289	-69.086	-16.935	89.29
8.04	-20.741	-80.676	29.51	146.38	-77.295	-4.5411	-17.107	64.284
8.2397	-19.888	-91.416	29.509	122.66	-68.473	-129.75	-17.458	27.747
8.4395	-19.157	-103.54	29.419	99.096	-73.025	174.81	-17.77	-8.6929
8.6393	-18.453	-115.69	29.36	75.743	-79.526	39.748	-17.501	-43.924
8.839	-17.846	-128.32	29.279	52.243	-71.291	116.61	-17.028	-76.05
9.0387	-17.177	-141.36	29.25	28.929	-73.163	103.4	-16.597	-104.38
9.2385	-16.662	-153.45	29.228	5.415	-81.239	136.11	-16.345	-131.39
9.4382	-16.148	-166.88	29.22	-17.97	-66.857	99.786	-16.214	-157.71
9.638	-15.628	-179.05	29.25	-41.681	-65.562	65.794	-16.408	177.07
9.8378	-15.262	167.5	29.25	-65.404	-60.25	57.771	-16.537	150.66
10.037	-15.014	154.99	29.261	-89.426	-61.863	20.105	-16.776	122.47
10.237	-14.838	143.34	29.195	-113.44	-61.76	4.8319	-17.23	91.548
10.437	-14.577	132.04	29.236	-137.08	-62.55	-25.668	-17.891	59.792
10.637	-14.321	120.37	29.237	-161.64	-65.98	-42.613	-18.999	27.488
10.837	-14.158	109.03	29.206	174.08	-64.146	-17.413	-20.235	-6.8156
11.036	-14.087	97.673	29.245	149.65	-61.129	-34.425	-21.194	-38.801
11.236	-14.259	85.313	29.196	125.87	-59.729	-52.457	-21.14	-68.932
11.436	-14.396	73.682	29.296	102.05	-63.656	-71.555	-20.316	-106.69
11.635	-14.816	62.122	29.321	76.935	-61.006	-106.03	-19.636	-142.99
11.835	-15.47	50.471	29.19	52.546	-63.156	-93.305	-19.052	-176.1
12.035	-16.275	40.131	29.192	27.64	-61.526	-122.12	-19.08	153.14
12.235	-17.488	29.984	29.101	2.2357	-61.931	-117.21	-19.388	123.3
12.434	-19.092	22.545	29.159	-21.632	-60.423	-143.16	-20.155	93.094
12.634	-20.956	18.522	29.027	-47.24	-60.114	-171.8	-21.963	60.656
12.834	-23.453	17.736	28.901	-72.28	-66	176.19	-24.826	24.002
13.034	-26.415	29.398	28.891	-96.67	-72.012	157.51	-29.137	-24.81
13.234	-26.628	56.196	28.767	-121.41	-67.568	165.16	-29.7	-114.7
13.433	-23.975	74.001	28.716	-145.98	-64.54	-174.85	-23.644	-171.27
13.633	-20.69	73.462	28.664	-172.07	-62.441	-156.67	-19.117	151.66
13.833	-18.385	69.031	28.59	163.46	-61.571	164.82	-15.837	120.9
14.032	-16.803	59.766	28.463	138.41	-60.772	147.55	-13.728	93.84
14.232	-15.842	50.828	27.987	111.75	-58.418	129.13	-12.348	71.599
14.432	-14.856	43.14	27.911	89.131	-57.293	136.53	-10.825	52.962
14.632	-13.907	33.808	27.984	63.986	-59.876	112.77	-9.6604	33.136
14.832	-13.074	23.523	27.538	37.101	-58.111	108.57	-8.9069	12.707
15.031	-12.44	12.609	27.783	14.847	-55.029	72.183	-8.6037	-6.5232
15.231	-11.904	-0.22376	27.637	-9.3692	-56.772	35.902	-8.8402	-24.007
15.431	-11.837	-12.812	26.972	-34.153	-62.488	38.17	-9.2191	-37.443
15.63	-11.818	-26.479	27.33	-57.295	-61.65	-15.363	-9.0716	-53.264
15.83	-12.117	-40.249	27.327	-82.978	-60.839	-16.424	-9.7195	-71.657
16.03	-12.573	-53.866	27.048	-113.14	-55.071	-50.988	-11.292	-89.965
16.23	-12.931	-70.161	27.111	-140.65	-52.101	-104.96	-14.208	-103.43
16.43	-13.39	-94.289	26.165	-166.6	-49.549	-148.38	-18.706	-91.629
16.629	-16.033	-136.3	25.124	170.73	-49.465	158.47	-14.91	-65.774
16.829	-23.056	169.03	25.229	152.43	-49.499	122.83	-12.339	-86.21
17.029	-25.563	78.002	25.612	130.67	-52.388	92.113	-12.93	-105.56
17.229	-21.534	24.636	25.876	104.46	-53.347	91.165	-14.599	-112.86
17.428	-19.208	-0.34715	26.187	78.477	-49.132	77.104	-14.957	-103.49
17.628	-18.575	-19.501	26.361	50.968	-47.322	73.342	-12.589	-102.09
17.828	-20.079	-32.615	26.423	20.51	-45.088	48.604	-9.6897	-120.73
18.028	-21.093	-12.244	26.099	-8.9723	-43.154	13.682	-8.6979	-152.52
18.227	-16.808	-4.3539	25.27	-38.072	-44.775	-13.515	-10.363	175.98
18.427	-13.627	-16.401	24.209	-64.438	-46.061	-31.04	-12.651	147.67
18.627	-11.443	-32.801	23.326	-86.702	-46.64	-50.24	-15.634	113.1
18.826	-10.126	-49.913	22.907	-108.97	-48.211	-68.361	-19.165	73.157
19.026	-9.3862	-67.407	22.639	-132.31	-49.805	-73.397	-20.167	27.239
19.226	-8.988	-82.151	22.397	-156.08	-55.319	-79.161	-17.835	-6.9843
19.426	-8.5427	-95.929	22.151	-179.58	-60.967	-30.582	-14.575	-32.434
19.625	-7.9985	-109.17	21.939	156.96	-49.074	-12.645	-11.404	-59.372
19.825	-7.6317	-123.14	21.633	134.22	-44.766	-22.616	-8.9998	-87.316
20.025	-7.2198	-136.55	21.597	110.67	-40.876	-46.929	-7.6326	-118.44
20.225	-5.8824	-152.57	22.183	91.576	-38.629	-71.89	-7.5223	-149.98
20.424	-5.2526	-179.03	23.218	65.579	-36.874	-100.92	-8.3369	178.25
20.624	-6.2329	152.32	23.574	33.245	-34.878	-129.16	-11.543	139.31
20.824	-7.3446	129.4	23.888	5.2032	-34.846	-161.24	-20.597	109.6
21.024	-9.2811	93.081	24.041	-29.913	-35.08	172.24	-27.087	-96.817
21.223	-13.791	50.671	23.159	-64.539	-35.408	144.33	-15.756	-131.07
21.423	-19.516	-15.996	21.901	-90.661	-37.944	119.68	-13	-160.73
21.623	-19.013	-92.83	20.998	-111.64	-40.807	91.667	-12.967	173.8
21.823	-16.103	-126.6	21.078	-135.04	-42.634	77.1	-15.003	155.85
22.023	-13.378	-142.87	21.337	-164.56	-45.703	64.404	-18.019	150.86
22.222	-10.352	-158.41	21.323	164.18	-47.278	67.984	-22.533	164.68
22.422	-7.7602	-177	20.505	133.04	-49.821	45.123	-19.31	-139.64
22.622	-5.8977	159.3	19.884	106.03	-50.014	-35.764	-11.163	-154.69
22.822	-5.7037	137.66	20.034	76.797	-51.216	-124.92	-9.5324	172.61
23.021	-6.1073	123.72	19.154	44.348	-48.169	171.08	-9.6324	156.36
23.221	-6.561	110.63	17.77	9.2881	-45.689	146.52	-9.2913	146.71
23.421	-7.7394	99.527	17.121	-21.5	-45.274	120.35	-8.7951	135.39
23.62	-6.7352	90.495	14.86	-45.082	-44.376	116.39	-8.494	118.49
23.82	-7.219	81.056	13.074	-79.68	-44.368	88.378	-7.2973	113.27
24.02	-6.7799	80.53	12.814	-102.8	-44.179	84.526	-7.0557	102.87
24.22	-6.9095	75.012	9.2862	-125.11	-42.425	71.828	-6.3444	88.018
24.42	-5.8913	65.125	7.5337	-150.14	-42.84	35.871	-6.1513	70.041
24.619	-5.4686	54.187	6.9891	-161.73	-47.855	16.658	-6.2861	53.872
24.819	-5.281	43.308	5.1883	-176.93	-59.906	53.638	-7.3983	41.096
25.019	-4.9968	31.567	4.6553	164.25	-47.823	111.52	-8.1256	35.606
25.219	-5.1783	19.651	4.4019	150.21	-42.086	86.065	-8.0002	32.344
25.418	-5.4853	8.3217	4.3117	129.8	-37.667	52.214	-6.9575	25.481
25.618	-6.1425	-2.3147	5.2838	105.98	-36.227	37.169	-6.0653	12.327
25.818	-7.1311	-10.593	5.827	84.174	-36.648	9.9124	-5.6463	-2.9388
26.017	-8.2204	-16.278	5.3544	55.178	-36.648	-9.2089	-5.7351	-18.183
26.217	-9.0282	-16.222	5.5437	28.323	-35.958	-36.059	-5.8846	-32.318
26.417	-8.9757	-15.167	5.3615	7.0464	-39.263	-38.083	-6.1105	-48.157
26.617	-8.4954	-17.833	4.281	-18.157	-40.346	-44.227	-6.8854	-64.526
26.816	-8.035	-22.686	4.2669	-45.803	-39.993	-51.319	-7.7081	-79.854
27.016	-7.8626	-29.997	4.3929	-70.663	-39.314	-59.626	-8.6865	-97.527
27.216	-7.6984	-35.591	3.9068	-96.574	-39.332	-65.99	-10.172	-116.86
27.416	-7.5388	-42.233	3.6952	-123.69	-37.697	-72.295	-11.979	-137.79
27.615	-7.3924	-49.4	3.3446	-150.36	-35.906	-85.422	-14.57	-166.42
27.815	-7.1615	-58.15	2.7965	-178.05	-35.427	-101.81	-17.918	155.28
28.015	-7.1112	-67.56	2.1412	154.14	-33.914	-127.27	-20.792	103.25
28.215	-7.459	-76.85	1.3428	126.58	-33.63	-167.98	-19.228	42.154
28.415	-7.6679	-83.263	0.51495	101.28	-35.818	120.78	-18.417	-9.1719
28.614	-7.3544	-91.036	-0.203	74.765	-37.039	30.356	-18.846	-42.312
28.814	-6.941	-101.06	-1.0023	49.417	-33.199	-51.212	-20.872	-58.051
29.014	-6.7111	-114.27	-1.5382	24.167	-32.865	-107.01	-19.755	-65.8
29.213	-7.0998	-128.19	-2.0305	-4.1588	-33.998	-138.17	-18.015	-96.462
29.413	-7.5837	-137.49	-2.7204	-31.89	-34.777	-151.51	-17.204	-130.77
29.613	-7.3628	-148.04	-3.5489	-60.239	-35.049	-169.41	-16.146	-169.15
29.813	-7.5342	-160.44	-4.696	-88.132	-34.763	-179.52	-15.046	152.22
30.013	-7.6878	-172.8	-5.9728	-114.08	-35.801	167.3	-13.842	113.47
30.212	-7.7142	174.18	-7.1974	-136.93	-36.957	168.51	-12.991	78.457
30.412	-8.1172	160.42	-8.5148	-157.07	-35.604	166.75	-13.663	47.075
30.612	-8.3099	148.58	-8.6855	-175.17	-33.18	163.21	-15.682	25.484
30.812	-8.5479	134.59	-8.7089	160.48	-32.458	139.66	-18.504	26.272
31.011	-9.0102	120.73	-8.679	131.85	-31.674	114.45	-15.901	55.975
31.211	-9.1566	110.54	-9.7125	104.45	-32.828	96.971	-11.14	54.61
31.411	-8.8587	96.023	-12.066	85.7	-34.263	77.156	-7.8954	34.44
31.61	-9.8387	91.99	-13.185	66.726	-37.634	60.458	-6.2945	13.025
31.81	-8.9515	80.416	-13.206	38.402	-43.411	56.516	-5.6229	-4.2229
32.01	-8.7172	68.093	-13.922	11.201	-46.912	130.97	-5.0728	-19.788
32.21	-8.5594	57.422	-13.666	-14.782	-38.051	143.95	-4.8105	-35.192
32.41	-8.1665	46.748	-15.452	-25.123	-32.963	125.27	-4.8639	-52.071
32.609	-8.0251	34.374	-20.502	-48.843	-31.11	99.956	-5.6829	-68.812
32.809	-8.0677	27.331	-18.809	-67.458	-30.94	75.582	-6.4955	-84.078
33.009	-7.5549	19.281	-19.619	-99.985	-30.686	57.201	-7.8772	-100.58
33.208	-7.1016	10.112	-20.782	-122.06	-29.531	54.217	-10.56	-121.68
33.408	-6.8359	0.67799	-21.014	-154.8	-27.969	44.694	-14.477	-130.69
33.608	-6.7097	-9.6098	-22.766	-171.69	-28.632	14.978	-17.667	-129.69
33.808	-6.6072	-16.551	-20.413	171.5	-31.011	1.1453	-24.948	-164.23
34.007	-6.2127	-25.654	-19.134	131.4	-31.77	9.1527	-25.467	53.523
34.207	-6.2475	-34.66	-18.055	93.073	-30.37	-1.9587	-16.052	25.416
34.407	-6.3287	-42.792	-17.962	66.649	-30.02	-3.6466	-11.29	0.34639
34.607	-6.1664	-49.829	-19.058	40.72	-28.46	-16.637	-8.7637	-17.326
34.806	-5.9979	-57.831	-18.811	6.1183	-28.262	-22.647	-7.4411	-32.617
35.006	-5.9471	-64.987	-18.773	-7.3797	-27.431	-35.894	-6.1357	-43.818
35.206	-5.8606	-72.202	-19.381	-29.6	-27.153	-48.908	-5.55	-56.305
35.406	-5.7947	-80.436	-19.427	-53.233	-26.466	-63.527	-4.9428	-65.371
35.605	-5.6525	-85.601	-19.173	-66.043	-26.799	-73.581	-4.1894	-76.423
35.805	-5.4423	-94.457	-20.199	-86.045	-26.699	-79.835	-4.1375	-87.761
36.005	-5.7315	-101.18	-19.661	-109.28	-26.446	-95.349	-4.0989	-94.501
36.205	-5.7275	-108.72	-19.865	-124.47	-25.848	-102.45	-4.2541	-105.01
36.404	-5.8984	-115	-20.641	-143.39	-25.614	-113.49	-4.6052	-113.7
36.604	-5.872	-120.2	-20.933	-159.69	-25.249	-125.37	-5.1544	-120.65
36.804	-6.2327	-127.96	-21.684	-179.32	-25.036	-138.36	-5.8557	-128.79
37.004	-6.5929	-133.44	-24.013	161.07	-25.347	-153.23	-7.3009	-129.66
37.204	-6.5072	-137.69	-26.974	135.89	-25.879	-166.04	-7.4692	-123.16
37.403	-6.4294	-144.03	-33.302	125.29	-26.341	-170.73	-6.3776	-122.82
37.603	-6.6943	-147.49	-33.575	179.99	-25.394	-172.3	-5.4624	-130.47
37.803	-6.4385	-151.03	-30.424	-175.97	-24.248	172.99	-5.2325	-139.14
38.002	-6.0331	-154.01	-28.18	-167.68	-24.244	163.45	-5.4323	-141.29
38.202	-5.1181	-160.61	-26.192	168.7	-23.58	147.64	-4.4918	-145.35
38.402	-4.8034	-168.74	-26.901	158.09	-24.056	133.98	-3.4683	-156.82
38.602	-4.2371	-175.42	-25.036	148.42	-24.326	120.02	-3.3977	-168.91
38.801	-3.9207	176.04	-24.17	140.11	-25.068	108.63	-3.5709	-178.99
39.001	-3.2556	168.14	-23.467	128.06	-25.768	110.6	-3.6248	172.14
39.201	-2.7843	158.54	-21.877	111.59	-23.949	100.14	-3.4359	165.19
39.401	-2.5409	148.84	-21.428	94.118	-23.724	92.078	-3.1496	156.97
39.601	-2.1716	139.86	-21.046	81.355	-22.524	77.964	-2.849	147.84
39.8	-2.1407	129.06	-21.014	68.202	-22.072	68.966	-2.3055	136.71
40	-2.0791	117.01	-20.104	47.425	-20.406	50.04	-2.4867	119.46
