!Hittite Microwave Corporation								
!20 Alpha Road								
!Chelmsford, MA 01824								
!Tel: 978-250-3343								
!Fax: 978-250-3373								
!Device: HMC-C017, 17-28 GHz, Connectorized Wideband Amplifier Module
!Misc: 12 V, 96 mA, Room							
!
# GHZ S DB R 50.0
0.050000001	0.02791618	-2.42686677	-46.93534088	146.4542999	-44.29856491	-166.0045013	0.027063796	-4.054320335
0.249750003	0.046041798	-13.45493889	-67.65624237	-118.4515228	-67.12725067	120.3157578	0.041631613	-20.82224274
0.449499995	0.047852665	-24.34580231	-79.14862061	-90.46829987	-71.0304718	-162.1764374	0.04649359	-37.48036194
0.649249971	0.048336904	-35.23204422	-71.25847626	100.8184509	-71.42476654	-80.34416962	0.044697229	-54.38162994
0.848999977	0.06248216	-46.15641022	-69.76377106	118.2631912	-76.05285645	-34.2191925	0.032299377	-71.37718964
1.048750043	0.050200146	-57.20533371	-84.56237793	174.146637	-77.71924591	-149.3306885	-0.004401744	-88.4883194
1.24849999	0.017896494	-68.23584747	-83.33340454	104.7558289	-76.88786316	-174.2653351	-0.085392542	-105.5087891
1.448249936	-0.04903239	-79.14009857	-77.41168213	56.52524948	-79.43987274	8.212738037	-0.178384811	-122.1275864
1.648000002	-0.083621591	-89.90289307	-75.05160522	121.7440186	-72.89705658	114.2081451	-0.231484339	-138.7816315
1.847750068	-0.100829035	-100.6105194	-72.25266266	158.4058533	-78.86444855	123.5264282	-0.297595829	-155.1993103
2.047500134	-0.121976323	-111.5037231	-72.43882751	142.4608154	-71.68935394	132.2045135	-0.34022966	-171.7855377
2.247249842	-0.141934529	-122.3086929	-68.75868225	131.8690796	-69.67072296	139.5577087	-0.390365481	171.576828
2.447000027	-0.151188597	-133.3314972	-68.34360504	81.30319214	-63.85985565	103.7856369	-0.442691803	154.8298035
2.646749973	-0.162957802	-144.2518768	-69.13994598	92.02026367	-64.54598236	99.85839081	-0.481543005	138.1380615
2.846500158	-0.17855683	-155.26474	-62.52996445	56.63185883	-63.8331871	72.8470993	-0.537524462	121.4633255
3.046249866	-0.214792907	-166.2688904	-62.05414581	63.52587509	-60.98416138	67.35335541	-0.569067717	104.6810226
3.246000051	-0.25386399	-177.4245605	-60.17959213	44.46255493	-61.2203331	35.87942505	-0.597969174	87.87535858
3.445749998	-0.285460234	171.5946655	-58.64690018	37.43744278	-59.66016388	30.36730194	-0.612921119	70.95505524
3.645499945	-0.305661649	160.4653168	-56.15108871	21.32747459	-57.34203339	27.76626778	-0.616062403	54.33750534
3.84525013	-0.345025033	149.191925	-56.88751221	1.981266856	-55.80702972	9.980632782	-0.606988311	37.50593567
4.045000076	-0.393993288	137.87854	-55.22730637	-7.148978233	-54.6328392	-8.309743881	-0.598985553	20.8586235
4.244750023	-0.426230073	126.4023132	-54.11348343	-18.69049072	-54.80095291	-18.14589119	-0.552574992	4.06371069
4.444499969	-0.455434889	114.8944321	-51.87561035	-35.47161484	-52.83662033	-37.76665878	-0.513624966	-12.63101959
4.644249916	-0.49552834	103.1606903	-50.46646118	-44.48107147	-51.49149704	-47.1067276	-0.469578415	-29.52213287
4.84400034	-0.53318435	91.22344971	-49.25218201	-51.00005341	-50.56297684	-71.37338257	-0.414193988	-46.27872849
5.043749809	-0.597100258	79.1279068	-46.05635452	-74.59497833	-48.91220474	-73.24598694	-0.3865605	-63.11854553
5.243500233	-0.685397506	67.06575012	-44.61981201	-104.0159302	-48.72433853	-88.29151154	-0.346561611	-79.95848846
5.443250179	-0.715044916	55.32309341	-46.06121826	-125.2562256	-47.36590195	-101.7503204	-0.308304071	-96.68950653
5.642999649	-0.704654038	43.08217621	-44.96074677	-135.4753571	-46.4849472	-117.0574112	-0.305332631	-113.5101089
5.842750072	-0.699372828	30.44632339	-44.36836243	-146.8624878	-45.2218895	-133.6712036	-0.283585101	-130.3065796
6.042500019	-0.697987914	17.59004402	-42.65162277	-158.8780975	-44.79410934	-147.1587067	-0.295927227	-147.1830139
6.242250443	-0.703177571	4.490461349	-40.67969513	-173.8666382	-44.36618805	-164.3318939	-0.296830982	-164.0764618
6.441999912	-0.685603201	-9.00193882	-37.68336868	165.7307892	-43.40836334	-179.2111969	-0.341413528	178.8832703
6.641749859	-0.679724813	-22.66204262	-35.17774582	143.0745697	-43.27510071	166.2226563	-0.365990549	161.5834961
6.841500282	-0.682132363	-36.74506378	-31.91014099	111.1217422	-42.29269409	150.408432	-0.40948233	144.3472443
7.041249752	-0.673082292	-51.20858002	-29.17432976	77.68114471	-41.80472565	134.0261383	-0.4550834	127.0607758
7.240999699	-0.679545045	-66.06822205	-26.65649414	42.4682579	-41.17327881	117.9273376	-0.520466566	109.588623
7.440750122	-0.693005025	-81.36209869	-24.3065815	6.98614502	-40.66885376	102.5403214	-0.577078223	91.71192169
7.640500069	-0.708928466	-97.04122925	-22.08538437	-27.55056	-40.12741852	85.27870941	-0.611468852	73.94945526
7.840250015	-0.730122089	-113.1711044	-19.94503593	-60.9768219	-39.96035385	69.08998871	-0.674431145	56.22921371
8.039999962	-0.791309059	-129.9880066	-17.9122467	-93.35333252	-39.83055878	52.22981644	-0.694296062	38.17764664
8.239749908	-0.853523791	-147.5009766	-15.95933819	-124.7720566	-39.60607529	33.78854752	-0.734737396	20.06829262
8.439499855	-0.947706282	-165.6014404	-14.07309246	-155.1603394	-39.86452484	14.01601887	-0.76027739	2.025313854
8.639250755	-1.057877541	175.4467773	-12.3322897	175.1375427	-39.85053253	-2.573539972	-0.764874995	-15.92703438
8.838999748	-1.187107801	155.5017853	-10.5961256	146.4602051	-40.36685181	-20.31254387	-0.79492265	-33.7596817
9.038749695	-1.338677883	134.5946655	-8.901590347	118.0578537	-40.56087494	-39.94568253	-0.778482914	-51.68755341
9.238500595	-1.500910044	112.4644547	-7.2897892	89.73691559	-41.30779266	-58.75463486	-0.767246723	-69.36414337
9.438249588	-1.63314712	88.96591949	-5.740202904	61.58572006	-42.42313004	-78.0434494	-0.762183905	-86.78754425
9.637999535	-1.770844579	64.65463257	-4.264330864	33.58784866	-44.33008194	-99.55474091	-0.762161851	-104.0603104
9.837750435	-1.868760347	38.88939285	-2.868523836	5.50894928	-46.93773651	-109.8936005	-0.758752227	-121.0376968
10.03749943	-1.886737466	12.50099754	-1.591011643	-22.43199158	-51.4314537	-134.5425568	-0.773754776	-137.8746796
10.23724937	-1.845774531	-14.0341444	-0.434886426	-50.19230652	-59.14847946	-115.4323196	-0.794029593	-154.5351563
10.43700027	-1.770796895	-40.6038475	0.644980669	-77.79412079	-55.4442215	-50.65171051	-0.806866646	-170.9325867
10.63675022	-1.631234646	-66.46315002	1.60081768	-105.0280762	-49.59634018	-46.0483017	-0.854822934	172.6540833
10.83650017	-1.499416709	-91.16374207	2.510267735	-132.0185394	-45.90409851	-60.72990417	-0.869882464	156.1222687
11.03625011	-1.374518394	-114.8701172	3.354052067	-158.1875458	-43.19532394	-80.77970123	-0.90530163	139.6624298
11.23600006	-1.264044881	-137.2457886	4.178962708	176.0976257	-41.38139725	-99.21640015	-0.946280539	122.8058548
11.43575001	-1.224568367	-158.5612183	4.983462334	150.6891327	-39.90634918	-117.4039154	-0.986294985	105.4250183
11.63549995	-1.196315408	-179.1912384	5.762091637	125.6228943	-38.86354828	-136.074646	-1.000701785	88.21620941
11.8352499	-1.166552424	161.3285065	6.594604015	100.7873459	-38.31276321	-154.6000824	-1.045238853	70.22783661
12.03499985	-1.205888152	142.8287506	7.450173855	76.16735077	-37.32633972	-175.1362762	-1.083404779	51.76399994
12.23474979	-1.284568429	124.3833237	8.331757545	51.47412491	-36.84255981	166.0167236	-1.121008039	32.52245712
12.43449974	-1.382680178	106.2669983	9.212306976	26.40043068	-36.43271637	146.3380585	-1.160888195	12.67404556
12.63425064	-1.524570704	88.38257599	10.08678055	1.062087297	-35.89541626	126.9526596	-1.187442064	-7.674788475
12.83399963	-1.688173413	70.5227356	10.92918873	-24.58358955	-35.86606216	109.5407715	-1.265730262	-28.74122238
13.03374958	-1.88027668	52.90690231	11.68820763	-50.52108383	-36.13669968	89.27498627	-1.297303915	-50.39275742
13.23350048	-2.197863817	35.14551163	12.37419987	-76.71881104	-36.05131531	70.58015442	-1.321582794	-71.8451004
13.43324947	-2.570393324	16.66029167	12.96201897	-103.062027	-36.13110352	51.44841766	-1.41186583	-93.46840668
13.63300037	-2.967762709	-1.698139906	13.39854431	-129.0778809	-36.40627289	32.87240982	-1.48635304	-115.0635071
13.83275032	-3.468747854	-19.89089966	13.78595257	-154.8692017	-36.82491684	15.29235744	-1.536508203	-135.9651031
14.03249931	-4.053089142	-38.32494354	14.08520699	-179.9723358	-37.4721756	-1.654424429	-1.656792879	-156.4057465
14.23225021	-4.669364452	-56.54320526	14.3267107	155.4981842	-38.27320099	-19.94215965	-1.747358084	-176.3369598
14.43200016	-5.386116505	-74.91194916	14.57559395	131.3792877	-38.87448502	-35.68275452	-1.911578298	164.6265717
14.63175011	-6.073508263	-93.73039246	14.7971983	107.7311783	-39.85004425	-49.84200668	-2.151786089	145.5308075
14.83150005	-6.677592754	-111.7705765	15.01418304	84.34845734	-40.82026672	-64.73222351	-2.390942097	126.8330383
15.03125	-7.374107838	-129.326767	15.22617626	61.52918243	-41.33079147	-76.35996246	-2.749937773	108.7384872
15.23099995	-7.985208035	-147.4433746	15.47711754	38.98192596	-42.00589371	-88.01711273	-3.230978489	91.10594177
15.43074989	-8.359930038	-164.9966125	15.76595116	17.05199051	-41.79403687	-94.34382629	-3.733789682	75.04918671
15.63049984	-8.791021347	178.0151062	16.18221664	-5.13467741	-41.40615463	-110.227066	-4.139033318	59.80943298
15.83025074	-9.118457794	160.3777466	16.60648537	-27.91693687	-41.61097717	-121.8763809	-4.416349411	42.84709549
16.03000069	-9.307892799	143.3879395	16.96486092	-51.03066254	-42.53577042	-133.7685699	-4.727477074	25.46398926
16.22974968	-9.558889389	127.4621964	17.28803635	-74.27278137	-42.50800705	-146.447464	-5.346698284	8.329631805
16.42950058	-9.709659576	111.2482758	17.54072952	-97.32765961	-43.04244995	-160.3508606	-6.137018681	-9.736760139
16.62924957	-9.703600883	96.30506897	17.76048851	-120.1602554	-42.85039902	-171.5329895	-7.054386139	-27.44940567
16.82900047	-9.842470169	82.07415009	17.92653275	-142.7137909	-42.65952682	-176.2977295	-8.252993584	-45.15027618
17.02874947	-9.909285545	66.64476776	18.08636475	-164.965683	-42.64785385	169.9765472	-9.642404556	-62.83929443
17.22850037	-9.804920197	51.00159836	18.22898865	173.4681091	-42.0877533	163.3935852	-11.49018574	-79.34404755
17.42825127	-9.626551628	35.02846527	18.42370415	152.6120911	-40.19719696	153.3136902	-14.08142853	-93.64033508
17.62800026	-9.461197853	14.49188137	18.85991287	133.7648926	-37.53926849	129.6353302	-16.44701195	-91.46656036
17.82774925	-10.73893547	-18.92708206	20.42757416	113.1709518	-34.44223785	93.73719788	-12.17499065	-83.7443161
18.02750015	-19.08247566	-9.833795547	20.9760437	78.25658417	-37.12529373	29.1125412	-9.315143585	-137.0365601
18.22724915	-15.25207806	4.587744236	20.16629982	53.42980576	-43.67778778	-1.857026577	-10.70607281	-175.4851227
18.42700005	-13.62177753	-8.891279221	19.87890434	32.00838852	-50.32941818	-23.17502213	-11.93172264	159.181015
18.62675095	-13.26103306	-20.7536335	19.85749435	10.66070843	-54.69010925	-13.96792507	-12.46638107	134.1248169
18.82649994	-13.62996101	-35.20477676	19.93196678	-11.20320606	-60.49697876	70.85603333	-12.22157383	113.8495483
19.02624893	-13.68262863	-50.28880692	20.01989174	-33.3943367	-57.97078705	109.1556778	-12.1183939	96.52019501
19.22599983	-13.97676563	-60.82208633	20.09797478	-55.69306564	-56.20052719	91.35404968	-11.87011051	78.56095123
19.42574883	-15.01595783	-71.15229034	20.16655159	-78.37141418	-53.53934479	92.37052917	-11.38404942	62.35319901
19.62549973	-16.11408424	-82.89472961	20.18369865	-101.3034744	-48.7986412	72.51199341	-11.07060337	47.29820633
19.82525063	-17.01762199	-91.17533112	20.11153984	-124.2860336	-48.37754059	54.72436142	-10.76562214	31.54321098
20.02499962	-18.26699638	-93.65114594	19.95636368	-147.2855377	-46.83667755	50.34928131	-10.44786072	16.24448395
20.22475052	-19.25193405	-95.05589294	19.72701836	-169.7398071	-46.930439	38.87017059	-10.13758469	1.078645587
20.42449951	-19.15815163	-93.44985962	19.47381783	168.3636017	-44.85091782	30.0570507	-9.806339264	-12.66429138
20.62425041	-18.53058434	-93.13150024	19.1829586	146.7442474	-44.16341782	13.75693512	-9.810695648	-25.44717598
20.82400131	-17.61487961	-98.55850983	18.85898972	125.7088242	-43.20681381	4.45857048	-9.887540817	-40.16792297
21.02375031	-16.44218445	-105.8800049	18.55579948	105.4017258	-42.17057037	-5.126309395	-9.558922768	-53.64514923
21.2234993	-15.69993687	-112.8375168	18.33307457	85.5144577	-41.44195938	-17.49448586	-9.476929665	-64.66669464
21.4232502	-15.62249851	-124.7345581	18.1684761	65.8687973	-40.73583984	-31.99292946	-9.636075974	-76.764328
21.62299919	-15.24834347	-139.6788177	18.06995964	46.09695053	-39.94587708	-44.8588829	-9.614011765	-89.90478516
21.82275009	-14.8201828	-150.7117462	17.9966526	26.14275551	-38.43410873	-57.77551651	-9.759688377	-102.0915527
22.02250099	-15.28110218	-160.7628937	17.9276638	6.052318573	-37.88059235	-69.65990448	-10.0975256	-116.094902
22.22224998	-15.77897739	-175.561676	17.85080147	-14.18832016	-36.82955933	-86.83489227	-10.39926624	-130.8370819
22.42199898	-15.74517918	171.7948761	17.70249748	-34.37646103	-35.99739838	-101.3443909	-10.93302536	-146.3577271
22.62174988	-15.90605927	162.0033417	17.547966	-54.13560486	-34.97184372	-117.3033371	-11.72844696	-165.4638367
22.82150078	-15.94551373	148.0631714	17.35866737	-73.04251099	-33.72644806	-133.3522644	-12.57028866	173.9528503
23.02124977	-15.42350483	127.7903061	17.31171036	-90.80825806	-32.59028244	-155.4001465	-14.82778263	146.3620453
23.22100067	-15.37518024	97.59649658	17.67620277	-108.4152832	-32.14013672	176.958847	-18.65896606	100.022728
23.42074966	-16.12755966	55.19278717	18.20881081	-129.6677551	-33.0523262	149.7866669	-24.78689384	38.15338898
23.62049866	-17.61497498	17.19430923	18.3541851	-152.8512268	-34.84101105	129.5496368	-28.91817665	-55.43615723
23.82024956	-19.42300034	-21.87964249	18.22547722	-175.1140747	-36.32960129	114.0459213	-27.70034027	-107.4645996
24.02000046	-18.85023499	-54.43716431	17.99759674	163.7296295	-37.46205902	106.1715012	-27.27063751	-138.7720337
24.21974945	-18.5093956	-70.43904877	17.80563736	143.2907257	-38.01826477	95.09558105	-27.81685257	-152.8603516
24.41950035	-18.99884415	-89.53837585	17.65720367	123.0732346	-38.20369339	86.03783417	-30.78134346	-160.2077942
24.61924934	-18.59372902	-109.1721268	17.5602169	102.9969635	-38.52050781	73.74568939	-33.16436005	-158.562088
24.81900024	-17.66797066	-121.5168457	17.488657	82.98571014	-38.71545029	59.56646729	-33.72643661	-110.3855209
25.01875114	-16.93633652	-131.5809631	17.40915298	63.02861786	-39.29394913	42.84620285	-29.84587288	-63.02347565
25.21850014	-16.0247364	-137.9428711	17.39522362	43.01843643	-38.60461807	27.65971184	-27.74098396	-57.02527237
25.41825104	-15.54490757	-142.4945831	17.36920929	22.88031387	-39.79759598	13.34872532	-24.67783546	-80.99699402
25.61800003	-15.42054272	-151.2974854	17.3385849	2.38562727	-40.03473663	2.793504	-20.0442028	-92.20613098
25.81774902	-14.35059452	-163.1709595	17.34814453	-18.50938225	-40.6145134	-16.64868546	-17.73818016	-97.4601593
26.01749992	-13.14923573	-171.0203247	17.31411171	-39.34732819	-41.79797363	-43.75241089	-16.31115341	-108.4530182
26.21725082	-12.50106335	-178.8495026	17.28022003	-60.59492493	-41.32806015	-63.41358566	-14.87403107	-122.4239807
26.41699982	-11.98265839	170.2901001	17.14624023	-81.59401703	-43.48001099	-88.47447968	-13.740592	-135.1713867
26.61675072	-11.19127941	159.8098907	17.0135994	-102.6131058	-43.96712875	-116.7386627	-12.99308491	-149.0067749
26.81649971	-10.88689327	151.2380219	16.91659164	-123.8936691	-46.64029694	-145.9844055	-12.64544296	-160.9272003
27.0162487	-10.91374111	141.1535797	16.90073395	-144.297348	-45.26572418	167.5415344	-13.06299019	-170.5379791
27.2159996	-10.26806641	134.2590179	16.91370201	-166.6936493	-48.89790726	129.6406403	-12.63652897	-175.0671387
27.4157505	-9.10463047	127.8590012	16.67359734	169.9680023	-50.76473618	104.8508759	-11.43585587	178.6919556
27.6154995	-8.189637184	116.8842392	16.24599648	147.4408569	-49.4258461	81.50591278	-10.8591013	165.3463593
27.8152504	-7.344011307	104.3928146	15.7385397	126.0359268	-46.84273911	76.35344696	-10.49659252	148.3855743
28.01499939	-6.670663834	92.83152771	15.24055386	105.1806183	-44.72609329	46.67459869	-10.33262253	132.3594666
28.21474838	-6.201980114	80.71084595	14.80963707	85.04589081	-43.56630707	38.40569687	-10.47098446	114.9671555
28.41450119	-5.66230917	68.10137177	14.39315796	65.16616821	-41.86016464	19.59736061	-10.67337799	99.19316101
28.61425018	-5.186207771	56.05970001	14.02314472	45.54718781	-39.38737869	3.288716316	-11.51650238	85.91437531
28.81399918	-4.769386768	42.98270798	13.73289108	26.13255692	-38.88275909	-10.06698322	-13.01087475	68.87966919
29.01375008	-4.230845928	29.33682251	13.55079174	6.542077541	-37.19100189	-27.06640434	-13.02320099	51.36464691
29.21349907	-3.731312752	16.87990189	13.45757008	-13.82656384	-36.03556442	-43.81392288	-12.71483612	39.79540634
29.41324997	-3.443171024	4.230058193	13.36567497	-35.33244324	-35.26568222	-61.97968674	-13.05398941	22.6113987
29.61300087	-3.144019127	-9.009440422	13.19270611	-57.42027283	-34.33285141	-79.63991547	-12.77031708	-0.891905546
29.81274986	-2.862632751	-21.91968536	12.99422073	-80.10491943	-33.22496033	-93.23789978	-11.94046688	-23.32930946
30.01250076	-2.770999432	-34.82903671	12.59227467	-103.3134232	-32.07115936	-113.8137207	-11.57555103	-46.64199448
30.21224976	-2.608717203	-48.34763336	12.05359936	-126.9159775	-31.59596062	-133.792984	-10.98384953	-73.23075867
30.41199875	-2.394259214	-60.84426117	11.32442665	-150.5123138	-30.15792465	-151.693985	-10.07719326	-101.1097031
30.61175156	-2.303035736	-72.61605072	10.41793346	-174.1341858	-29.14712334	-170.2162933	-9.159413338	-127.0957565
30.81150055	-2.208239794	-84.13661957	9.199115753	162.7255402	-27.99892998	165.4677887	-9.05999279	-154.1029053
31.01124954	-1.976754904	-94.97438812	7.440907955	140.7261505	-26.20334816	133.0550842	-10.21986866	171.8458252
31.21100044	-1.372671843	-104.5229874	4.854901791	129.922821	-24.89718628	85.03507233	-19.87008095	160.9753571
31.41074944	-0.607529283	-120.0407257	5.87863493	123.2537918	-28.57285881	26.52046394	-8.718939781	-139.0128937
31.61049843	-0.68828088	-134.3736267	6.018188953	100.416687	-35.72675323	-7.057056427	-5.826320648	-175.2068024
31.81025124	-0.853389978	-147.5426941	5.317385674	79.359375	-42.78933716	-24.79434204	-4.632560253	156.9094086
32.01000214	-0.931239724	-161.3323669	4.533697128	59.81345749	-47.93117905	-6.36199522	-4.011491299	138.1459045
32.20975113	-0.852833748	-173.3884125	3.727208376	41.4750824	-49.160923	16.33597565	-3.88135004	120.5450897
32.40950012	-0.886658788	175.8096466	3.079674959	24.10246849	-48.59477234	5.221374989	-3.626496553	103.4464722
32.60924911	-1.009922147	163.9563751	2.49808073	6.70922327	-49.00209427	16.20829201	-3.417162418	87.49332428
32.80900192	-0.994021118	151.8424988	1.931733727	-10.93765736	-50.69094467	-21.65896034	-3.510136127	71.25112152
33.00875092	-1.012817144	140.7362976	1.398533821	-28.43725395	-51.3562851	-19.02980232	-3.576629877	55.65840149
33.20849991	-1.068439603	129.6088409	0.962842345	-46.03478241	-50.99765396	-43.57791901	-3.813263655	39.41974258
33.4082489	-1.043542147	118.2389145	0.528638005	-64.32528687	-54.30543137	-41.2289505	-4.285005569	21.95349312
33.60799789	-1.02826643	107.4103699	0.146933168	-82.26765442	-51.63743591	-93.51776123	-4.964958668	6.230753899
33.8077507	-1.056544423	96.38553619	-0.136778712	-100.673111	-51.83885193	-122.3211212	-5.808043003	-8.625258446
34.00749969	-1.044144154	85.18689728	-0.341163158	-120.0904388	-47.35625076	170.351181	-6.737555981	-26.38415718
34.20724869	-1.041164994	73.8970108	-0.490116268	-141.3945007	-43.50589371	126.3957748	-8.434679985	-48.03629303
34.40699768	-1.07419157	61.94636154	-0.828398466	-165.0427856	-41.15420914	86.89372253	-11.72895145	-79.25640869
34.60675049	-1.004950404	50.32109833	-1.374651313	169.6674652	-39.03339005	42.50683975	-17.46116257	-138.3894806
