!Hittite Microwave Corporation								
!20 Alpha Road								
!Chelmsford, MA 01824								
!Tel: 978-250-3343								
!Fax: 978-250-3373								
!Device: HMC-C012,0.4-1.0 GHz, 10W PA Module								
!Misc: Vdd = +12V, Idd = 6.5 A, Room Temperature								
!								
# GHZ S DB R 50								
								
0.05	-4.55	-63.03	-47.94	-175.94	-89.68	87.33	-1.2	-97.43
0.06975	-4.69	-74.4	-25.69	56.71	-78.49	-179.8	-2	-125.18
0.0895	-4.1	-88.33	-5.74	-50.9	-84.15	22.08	-2.33	-147.69
0.10925	-3.51	-106.81	10.43	-147.02	-79.28	-33.73	-2.54	-170.52
0.129	-3.85	-127.77	23.86	92.76	-74.85	11.97	-3.19	166.99
0.14875	-5.05	-141.85	29.38	-39.03	-80	-124.2	-4.3	147.72
0.1685	-5.47	-152.75	28.61	-138.8	-76.23	-62.3	-5.33	131.28
0.18825	-6.28	-164.92	27.36	156.46	-71.41	91.59	-6.57	115.27
0.208	-7.42	-174.15	27.5	107.02	-76.42	94.57	-7.79	99.87
0.22775	-8.68	179.52	28.84	62.62	-89.08	42.94	-9.17	84.54
0.2475	-9.95	176.78	31	18.35	-85.76	-52.5	-10.86	69.08
0.26725	-10.96	178.89	33.62	-28.44	-94.45	169.15	-12.51	53.4
0.287	-10.93	-175.11	36.3	-79.7	-79.8	2.9	-14.51	37.24
0.30675	-9.61	-173.82	38.45	-135.51	-86.61	-126.09	-16.73	21.4
0.3265	-8.39	177.96	39.65	166.91	-79.4	-137.15	-18.88	4.66
0.34625	-8.15	165.87	39.93	112.71	-87.36	-147.38	-21.2	-13.82
0.366	-8.71	155.1	39.86	63.98	-77.28	43.25	-23.18	-33.3
0.38575	-9.63	147.36	39.95	19.23	-71.48	-137.28	-23.88	-54.51
0.4055	-10.63	142.91	40.4	-24.39	-75.22	151.28	-24.68	-72.9
0.42525	-11.38	140.88	41.01	-69.62	-81.54	-68.45	-24.22	-86.27
0.445	-11.8	138.53	41.35	-116.75	-83.05	134.25	-24	-94.44
0.46475	-12.37	134.36	41.21	-162.92	-80.19	162.44	-23.05	-101.92
0.4845	-13.32	130.71	40.88	153.99	-75.35	-40.17	-21.9	-107.25
0.50425	-14.46	130.37	40.62	113.26	-81.04	-96.86	-21.14	-117.08
0.524	-15.23	133.6	40.52	73.38	-100.95	124	-20.56	-124.74
0.54375	-15.29	137.67	40.47	33.64	-79.5	-175.63	-20.02	-130.62
0.5635	-14.82	138.79	40.48	-6.76	-79.4	-128.69	-19.7	-134.81
0.58325	-14.33	135.69	40.41	-47.18	-76.49	133.26	-19.72	-139.57
0.603	-14.17	130.35	40.26	-87.1	-81.29	-4.62	-19.68	-144.93
0.62275	-14.29	124.19	40.01	-126.61	-84.63	67.4	-20.27	-148.28
0.6425	-14.4	116.45	39.79	-163.94	-85.37	-9.6	-20.81	-148.31
0.66225	-15.04	108.4	39.74	157.8	-79.73	162.33	-20.91	-143.92
0.682	-15.76	100.72	39.67	119.69	-73.48	131.85	-21.14	-139.17
0.70175	-16.38	91.47	39.58	81.41	-77.51	46.84	-20.62	-128.18
0.7215	-17.19	77.93	39.46	43.2	-78.92	55.96	-20.08	-121.07
0.74125	-18.28	59.04	39.32	5.37	-80.29	-44.48	-18.15	-115.7
0.761	-19.52	33.75	39.16	-31.91	-74.19	-67.93	-16	-116.81
0.78075	-20.41	1.27	39.07	-68.67	-77.98	99.03	-14.28	-121.63
0.8005	-20.15	-34.06	39.11	-105.29	-76.67	146.47	-12.87	-130.04
0.82025	-18.8	-64.3	39.3	-142.35	-71.54	174.24	-11.94	-139.2
0.84	-17.13	-87.23	39.61	179.3	-75.44	93.07	-12.11	-148.33
0.85975	-15.69	-103.8	39.91	139.38	-72.54	2.3	-12.98	-154.6
0.8795	-14.38	-117.32	40.08	98.44	-83.81	131.17	-13.64	-149.37
0.89925	-13.34	-129.75	40.01	57.93	-73.62	82.91	-12.37	-141.44
0.919	-12.68	-141.98	40.03	17.85	-75.33	-80.91	-10.59	-144.81
0.93875	-12.45	-152.89	40.29	-23.07	-71.2	178.83	-9.67	-153.75
0.9585	-12.58	-160.31	40.71	-67.69	-78.65	173.03	-9.87	-160.49
0.97825	-12.42	-164.32	40.66	-116.54	-75.54	-177.62	-9.9	-157.43
0.998	-11.88	-170.85	39.79	-164.31	-72.65	44.55	-8.24	-157.63
1.01775	-11.87	179.99	38.69	151.17	-75.84	-2.35	-7.17	-166.49
1.0375	-12.44	172.17	37.55	106.34	-85	92.94	-7.22	-173.41
1.05725	-13.23	167	35.92	62.35	-72.86	-30.64	-6.96	-174.42
1.077	-14.26	164	34.17	22.28	-81.23	-23.39	-5.98	-177.26
1.09675	-15.49	166.44	32.86	-16.54	-82.44	78.39	-5.07	176.14
1.1165	-15.68	175.56	31.75	-58.06	-84.19	152.23	-4.52	168.03
1.13625	-14.45	177.7	30.16	-101.99	-72.4	96.08	-4.23	159.87
1.156	-13.95	170.71	27.88	-143.86	-74.49	172.05	-4.14	153.33
1.17575	-14.67	164.02	25.46	179.08	-85.9	-70.44	-4.04	147.04
1.1955	-16.21	162.97	23.41	145.34	-77.53	-100.42	-3.92	141.23
1.21525	-17.81	171.45	21.87	112.34	-80.01	-38.48	-3.84	135.33
1.235	-18.05	-171.54	20.79	77.6	-76.91	-26.46	-3.66	129.33
1.25475	-16.52	-157.97	19.85	38.92	-77.79	-52.4	-3.61	123.42
1.2745	-14.65	-151.2	18.47	-3.7	-75.94	-169.04	-3.51	116.99
1.29425	-12.51	-146.73	16.23	-46.61	-75.39	-109.62	-3.4	110.74
1.314	-9.82	-147.99	13.41	-85.6	-73.34	-67.68	-3.3	104.12
1.33375	-7.37	-157.1	10.6	-119.75	-75.21	-30.24	-3.18	96.84
1.3535	-5.73	-171.41	8.14	-150.66	-82.05	-143.95	-3.1	89.2
1.37325	-5.13	172.74	6.19	179.15	-77.34	73.67	-2.94	80.83
1.393	-5.44	159.37	4.72	147.61	-88.03	-159.49	-2.9	71.96
1.41275	-6.15	151.43	3.44	112.19	-78.55	-90.45	-2.82	61.9
1.4325	-6.41	148.48	2.38	71.7	-79.19	-54.21	-2.8	50.67
1.45225	-5.67	144.06	0.78	25.59	-103.46	134.07	-2.75	38.85
1.472	-4.78	130.66	-2.62	-29.28	-81.86	6.53	-2.7	24.76
1.49175	-5.24	111.61	-8.27	-88.2	-92.22	-99.34	-2.55	8.92
1.5115	-7.04	95.7	-16.56	-142.64	-77.79	-20.96	-2.43	-9.6
1.53125	-9.49	85.12	-33.4	135.46	-81.34	90.04	-2.35	-30.57
1.551	-12.33	78.96	-38.5	3.71	-79.26	175.37	-2.41	-54.64
1.57075	-15.67	77.52	-27.32	61.3	-74.28	136.19	-2.68	-80.52
1.5905	-19.78	85.24	-19.1	24.71	-80.47	-130.5	-3.19	-106.19
1.61025	-23.49	116.11	-14.26	-14.14	-81.11	118.3	-3.95	-129.07
1.63	-21.66	155.24	-10.32	-53.45	-91.4	4.14	-4.67	-148.78
1.64975	-17.87	166.66	-6.88	-97.47	-72.92	106.41	-5.22	-165.06
1.6695	-15.29	162.75	-3.85	-149.7	-81.82	30.74	-5.64	-178.6
1.68925	-14.59	153.32	-2.54	149.73	-86.28	100.52	-5.83	169.31
1.709	-15.51	152.34	-3.65	91.49	-72.41	-1.17	-5.8	156.86
1.72875	-15.27	161.95	-5.83	46.9	-85.82	-125.39	-5.84	144.05
1.7485	-13.69	166.07	-7.17	14.21	-74.36	-106.27	-5.98	127.45
1.76825	-12.18	163.64	-6.71	-16.48	-81.21	22.98	-7.03	102.08
1.788	-11.09	157.94	-4.6	-54.05	-77.03	-145.54	-12.57	47.35
1.80775	-10.42	150.29	-2.06	-108.08	-73.52	-133.75	-12.41	-117.57
1.8275	-10.2	140.61	-1.32	-171.93	-71.71	-54.21	-6.62	-170.29
1.84725	-10.73	129.03	-1.47	126.16	-86.31	-144.76	-4.92	166.42
1.867	-12.48	117.94	-1.56	56.82	-72.11	-24.49	-4.25	151.41
1.88675	-15.99	113.64	-3.97	-23.86	-76.21	-24.99	-3.79	141.01
1.9065	-20.79	138.54	-9.31	-94.2	-73.3	74.1	-3.48	132.14
1.92625	-18.36	-178.47	-14.88	-149.12	-86.91	138.59	-3.06	124.54
1.946	-14.34	-170.96	-19.66	159.9	-87.71	25.2	-2.65	117.3
1.96575	-11.83	-173.81	-23.44	108.99	-70.93	-156.67	-2.12	109.61
1.9855	-10.2	-178.79	-27.23	53.39	-79.13	-66.4	-1.65	100.09
2.00525	-9.06	176	-31.98	-20.43	-77.26	170.94	-1.53	88.94
2.025	-8.23	170.95	-40.88	-102.29	-81.35	-52.29	-1.88	79.42
2.04475	-7.6	166.36	-55.18	169.95	-75.12	73.2	-2.33	70.63
2.0645	-7.13	162.26	-56.64	135.45	-75.23	74.54	-2.92	63.27
2.08425	-6.76	158.53	-63.87	-72.77	-78.94	-159.29	-3.5	57.01
2.104	-6.43	155.02	-63.68	14.8	-79.15	-23.23	-4.07	50.95
2.12375	-6.15	151.7	-59.8	127.76	-82.34	155.8	-4.88	46
2.1435	-5.89	148.5	-57.05	93.87	-73.28	73.87	-5.94	42.2
2.16325	-5.69	145.68	-57.2	-57.56	-72.96	-95.86	-7.37	43.53
2.183	-5.51	143.47	-57.27	-125.72	-78.07	69.48	-7.57	55.44
2.20275	-5.29	141.71	-50.79	116.57	-91.54	-21.27	-5	59.17
2.2225	-4.99	139.69	-51.72	86.75	-75.23	-82.59	-2.91	45.46
2.24225	-4.66	137.12	-51.21	-101.36	-67.33	-158.31	-2.52	28.44
2.262	-4.35	134.18	-55.33	-163.63	-71.2	128.01	-2.84	13.31
2.28175	-4.08	131.12	-52.33	-154.94	-74.44	158.44	-3.42	-0.88
2.3015	-3.86	128.09	-52.98	-163.32	-75.99	-148.11	-4.15	-14.74
2.32125	-3.66	125.1	-46.51	-158.62	-71.23	154.6	-4.99	-29.46
2.341	-3.5	121.96	-44.36	-171.06	-67.27	121.28	-5.95	-45.87
2.36075	-3.36	118.7	-50.27	-156.48	-91.49	57.1	-6.97	-63.15
2.3805	-3.23	115.33	-57.53	114.43	-77.76	-59.7	-7.95	-83.18
2.40025	-3.13	111.83	-56.15	-127.62	-74.44	-33.59	-8.69	-106.75
2.42	-3.08	108.13	-51.21	-118.32	-82.47	100.42	-8.99	-131.53
2.43975	-3.14	104.27	-53.52	-130.36	-71.37	54.76	-8.68	-155.87
2.4595	-3.42	100.63	-46.03	63.73	-82.31	127.3	-7.97	-176.21
2.47925	-3.81	99.02	-38.11	38.75	-71.69	104.42	-7.05	165.07
2.499	-4	98.32	-36.32	43.59	-74.99	113	-6.34	148.11
2.51875	-4.07	98.24	-36.81	41.77	-84.72	113.45	-5.55	133.71
2.5385	-3.88	97.71	-40.92	45	-80.11	105.64	-4.75	121.71
2.55825	-3.69	95.56	-52.99	34.4	-82.52	-171.07	-4.21	110.74
2.578	-3.7	92.41	-59.8	-43.66	-73.62	125.94	-3.81	101.51
2.59775	-4.07	89.43	-53.26	73.01	-76.25	-135.73	-3.43	92.68
2.6175	-4.78	90.12	-59.37	107.53	-72.58	-24.6	-3	83.71
2.63725	-4.73	95.99	-52.73	-100.16	-78.06	4.84	-2.69	75.63
2.657	-3.83	97.26	-37.18	-87.56	-79.85	33.09	-2.42	67.93
2.67675	-3.2	94.77	-31.66	-90.6	-76.03	-163.48	-2.18	60.03
2.6965	-2.87	91.92	-29.44	-93.34	-91.52	-154.06	-2.01	52.25
2.71625	-2.61	89.23	-31.37	-94.78	-74.96	-79.9	-1.89	43.54
2.736	-2.43	86.39	-40.63	-118.04	-72	25.91	-1.87	33.14
2.75575	-2.31	83.68	-36.72	117.37	-75.17	63.9	-2.08	21.11
2.7755	-2.21	81.15	-30.46	103.57	-76	-4.72	-3.29	7.4
2.79525	-2.12	78.77	-30.05	102.7	-72.17	111.18	-5.69	2.49
2.815	-2.06	76.62	-31.89	94.28	-80.36	-115.46	-7.05	8.77
2.83475	-1.99	74.4	-37.85	78.34	-79.17	-125.12	-6.97	11.67
2.8545	-1.95	72.28	-48.77	3.13	-71.7	-25.41	-7.09	7.79
2.87425	-1.91	70.1	-39.31	-56.68	-73.7	-165.06	-7.84	1.05
2.894	-1.86	67.97	-39.79	-67.62	-71.15	8.63	-9.89	-6.09
2.91375	-1.82	65.9	-41.03	-64	-75.51	-59.15	-14.63	6.56
2.9335	-1.78	63.97	-44.64	-65.82	-74.13	-134.18	-11.84	63.94
2.95325	-1.74	62.12	-50.17	-78.38	-72.56	166.45	-5.77	57.98
2.973	-1.71	60.25	-57.42	-118.92	-76.74	9.92	-3.36	40.26
2.99275	-1.69	58.29	-52.33	173.76	-71.61	4.96	-2.6	24.86
3.0125	-1.66	56.34	-53.72	154.16	-79.95	-29.02	-2.33	12.45
3.03225	-1.64	54.39	-50.9	147.95	-71.68	-46.05	-2.39	1.55
3.052	-1.61	52.49	-52.82	124.85	-68.99	28.51	-2.5	-7.19
3.07175	-1.58	50.78	-55.8	127.64	-69.91	23.91	-2.78	-16.75
3.0915	-1.56	49.02	-53.81	142.54	-66.15	29.63	-3.18	-25.75
3.11125	-1.54	47.21	-56.16	178.42	-60.73	11.62	-3.7	-35.67
3.131	-1.52	45.38	-58.1	-175.51	-56.05	-39.63	-4.53	-45.02
3.15075	-1.51	43.55	-57.46	167.01	-58.61	-95.76	-5.2	-54.17
3.1705	-1.49	41.71	-57.52	176.05	-60.59	-114.25	-6.03	-65.85
3.19025	-1.47	39.93	-59.46	35.07	-65.64	-106.25	-7.38	-80.02
3.21	-1.46	38.33	-54.08	-37.47	-65.11	-141.07	-9.15	-96.11
3.22975	-1.44	36.53	-58.83	-78.45	-73.27	-123.31	-11.03	-121.45
3.2495	-1.44	34.81	-65.35	-32.6	-67.56	-175.18	-13.12	-156.09
3.26925	-1.42	33.03	-65.06	-156.35	-71.9	-153.08	-13.27	159.05
3.289	-1.42	31.32	-64.62	91.22	-82.07	167.67	-11.39	122.55
3.30875	-1.4	29.61	-59.88	2.46	-77.42	-178.02	-9.08	96.47
3.3285	-1.39	27.91	-57.04	28.69	-70.85	-141.44	-7.15	78.72
3.34825	-1.39	26.28	-55.97	8.25	-68.97	167.77	-5.74	64.15
3.368	-1.38	24.59	-66.32	0.06	-63.63	-142.62	-4.69	51.58
3.38775	-1.38	22.94	-58.57	-179.16	-69.55	-109.96	-3.88	40.29
3.4075	-1.38	21.23	-62.82	-167.95	-73.26	-160.69	-3.22	31.35
3.42725	-1.37	19.5	-67.93	-165.91	-68.03	-170.45	-2.84	23.3
3.447	-1.36	17.92	-64.84	-136.3	-69.94	-151.82	-2.46	14.42
3.46675	-1.37	16.32	-56.16	-147.09	-59.84	-143.63	-2.22	7.5
3.4865	-1.37	14.71	-64.78	-102.05	-56.81	-152.72	-2.11	-0.19
3.50625	-1.38	13.08	-49.56	-161.07	-50.07	-171.68	-2.29	-6.98
3.526	-1.37	11.54	-49.49	129.32	-47.07	108.33	-2.6	-10.28
3.54575	-1.37	9.74	-69.48	141.36	-52.21	59.2	-2.42	-13.14
3.5655	-1.36	8.18	-67.93	-10.89	-59.16	44.61	-2.08	-16.82
3.58525	-1.37	6.63	-65.64	135.38	-60.3	32.42	-1.84	-21.16
3.605	-1.38	5.07	-61.43	82.81	-59.44	41.09	-1.7	-26.51
3.62475	-1.38	3.57	-53.03	49.08	-61.96	49.89	-1.54	-31.64
3.6445	-1.4	1.97	-54.75	47.59	-61.28	53.31	-1.51	-36.86
3.66425	-1.4	0.38	-59.02	39.27	-63.17	70.83	-1.47	-42.31
3.684	-1.41	-1.2	-60.5	39.55	-68.35	54.58	-1.56	-47.89
3.70375	-1.41	-2.72	-62.52	72.56	-62.7	-4.28	-1.68	-53.43
3.7235	-1.42	-4.21	-54.25	109.18	-67.34	6.77	-1.91	-60.09
3.74325	-1.44	-5.63	-47.5	103.41	-64.79	-1.59	-2.4	-67.07
3.763	-1.46	-7.17	-44.7	89.73	-67.71	-10.19	-3.57	-73.48
3.78275	-1.46	-8.63	-42.87	95.62	-66.79	46.56	-5.74	-71.35
3.8025	-1.49	-10.12	-42.64	93.35	-62.53	29.86	-5.61	-55.35
3.82225	-1.5	-11.61	-45.91	90.6	-65.19	30.85	-3.86	-55.27
3.842	-1.51	-13.05	-50.57	79.17	-62.43	7.9	-3.03	-59.39
3.86175	-1.54	-14.44	-60.2	62.31	-65.62	22.94	-2.28	-65.49
3.8815	-1.55	-15.83	-60.37	9.88	-65.68	15.73	-2.18	-72.62
3.90125	-1.57	-17.24	-60.1	-48.49	-66.37	34.94	-2.23	-79.03
3.921	-1.59	-18.62	-56.45	166.98	-66.8	57.54	-2.25	-84.67
3.94075	-1.62	-20.08	-48.18	126.25	-54.94	69.22	-2.44	-89.93
3.9605	-1.64	-21.35	-49.93	52.59	-48.62	25.26	-2.39	-94.33
3.98025	-1.65	-22.65	-47.61	21.05	-51.97	10.98	-2.27	-101.5
4	-1.69	-23.92	-41.93	-6.03	-50.04	0.43	-2.56	-109.74
								
								
								
								
								
								
								
								
								
								
								
								
								
								
								
								
								
								
								
								
								
								
								
