!Hittite Microwave Corporation								
!20 Alpha Road								
!Chelmsford, MA 01824								
!Tel: 978-250-3343								
!Fax: 978-250-3373								
!Device: HMC-C023, 2-20 GHz, Wideband PA Module								
!Misc: Vdd = +12V, Idd = 310 mA, Room Temperature								
!								
# GHZ S DB R 50								
								
0.05	-0.10133	-10.717	-11.978	-78.296	-63.25	18.047	-16.39	179.63
0.24975	-1.7394	-49.303	7.2258	-111.51	-83.123	-66.593	-14.368	141.28
0.4495	-4.1679	-77.556	12.138	-158.46	-71.349	-170.35	-15.199	99.22
0.64925	-6.4798	-98.783	13.554	166.22	-66.278	147.5	-17.011	65.752
0.849	-8.4133	-116.24	12.5	137.61	-58.809	100.75	-17.148	86.403
1.0488	-10.245	-131.47	14.16	122.66	-61.727	67.106	-13.761	19.342
1.2485	-11.729	-144.64	14.68	99.681	-60.387	60.044	-14.296	-14.904
1.4482	-12.986	-156.63	14.725	78.356	-58.555	47.18	-14.427	-45.33
1.648	-14.014	-167.59	14.839	58.299	-57.159	34.177	-14.419	-74.519
1.8478	-14.865	-177.93	14.945	37.173	-55.846	22.371	-14.409	-102.43
2.0475	-15.489	172.17	14.917	19.332	-54.634	8.4785	-14.419	-129.14
2.2472	-15.941	162.44	14.973	1.1954	-53.197	-6.8513	-14.517	-155.32
2.447	-16.26	152.7	14.855	-17.646	-52.236	-21.24	-14.735	179.82
2.6467	-16.409	143.32	14.854	-33.856	-51.355	-35.976	-14.969	156.23
2.8465	-16.425	133.49	14.981	-52.055	-50.897	-49.239	-15.331	132.23
3.0462	-16.361	123.45	14.91	-71.004	-50.277	-64.06	-15.977	108.42
3.246	-16.256	113.05	15.118	-88.351	-49.635	-78.423	-16.832	84.967
3.4457	-16.098	102.71	15.283	-107.42	-48.983	-92.475	-17.877	61.431
3.6455	-15.916	92.046	15.197	-124.55	-48.293	-105.33	-19.304	39.058
3.8453	-15.707	80.784	15.313	-142.03	-48.086	-120.45	-21.253	17.529
4.045	-15.597	69.102	15.251	-160.54	-47.703	-135.67	-24.096	-3.0119
4.2448	-15.595	57.626	15.324	-178.51	-47.39	-150.94	-29.357	-15.97
4.4445	-15.557	46.659	15.348	163.56	-47.301	-163.88	-39.003	32.966
4.6442	-15.585	35.285	15.319	145.4	-46.974	-179.23	-29.179	82.46
4.844	-15.672	23.761	15.35	127.16	-46.691	165.88	-23.435	68.366
5.0437	-15.91	12.399	15.273	109.67	-46.477	150.14	-19.956	50.81
5.2435	-16.172	1.5981	15.233	91.468	-46.229	135.55	-17.533	31.102
5.4433	-16.384	-9.1746	15.327	72.077	-46.281	120.05	-15.649	9.8307
5.643	-16.672	-20.244	15.165	55.24	-46.104	101.98	-14.196	-11.075
5.8428	-17.012	-31.096	15.266	37.217	-45.953	85.318	-13.105	-32.293
6.0425	-17.409	-41.684	15.116	19.578	-45.94	70.137	-12.236	-53.606
6.2423	-17.805	-51.597	14.723	3.7008	-45.782	54.242	-11.476	-74.167
6.442	-18.029	-61.924	14.705	-14.179	-45.583	37.572	-10.967	-96.211
6.6417	-18.306	-72.961	14.766	-32.518	-45.557	20.153	-10.674	-117.77
6.8415	-18.671	-83.119	14.897	-49.438	-45.452	1.3615	-10.53	-138.81
7.0412	-18.961	-92.351	14.916	-66.966	-45.185	-17.549	-10.625	-160.04
7.241	-18.967	-102.97	14.958	-85.604	-45.161	-34.442	-10.895	178.54
7.4408	-19.008	-114.17	14.825	-102.78	-44.937	-52.871	-11.417	157.32
7.6405	-19.132	-124.28	14.736	-120.56	-44.687	-71.104	-12.137	136.23
7.8403	-19.01	-133.71	14.639	-139.09	-44.267	-89.556	-13.084	113.91
8.04	-18.812	-143.46	14.485	-156.22	-43.821	-108.3	-14.425	92.239
8.2397	-18.59	-153.91	14.484	-173.27	-43.389	-127.65	-15.765	70.559
8.4395	-18.385	-164.28	14.455	169.6	-42.981	-147.17	-17.078	43.045
8.6393	-18.216	-173.84	14.455	152.5	-42.607	-165.44	-19.074	13.024
8.839	-17.865	176.93	14.465	135	-42.18	176.27	-21.465	-21.152
9.0387	-17.474	167.15	14.496	117.49	-41.642	158.34	-23.109	-58.152
9.2385	-17.136	156.4	14.52	99.833	-41.1	140.38	-24.522	-95.43
9.4382	-17.139	146.48	14.519	82.165	-40.642	122.35	-25.231	-137.51
9.638	-16.94	137.95	14.529	64.521	-40.096	103.91	-25.337	-175.87
9.8378	-16.71	128.29	14.582	46.665	-39.657	85.986	-26.462	146.39
10.037	-16.653	117.82	14.6	28.672	-39.197	68.459	-26.622	106.95
10.237	-16.749	109.25	14.609	10.768	-38.73	50.976	-27.325	66.384
10.437	-16.85	102.12	14.649	-7.4444	-38.314	33.762	-27.685	14.944
10.637	-16.738	95.075	14.598	-25.936	-37.942	16.35	-25.949	-35.344
10.837	-16.649	88.523	14.575	-44.216	-37.537	-1.2449	-23.171	-79.103
11.036	-16.452	83.039	14.486	-63.112	-37.351	-19.639	-20.027	-114.8
11.236	-16.157	77.595	14.293	-81.162	-37.025	-37.28	-17.623	-143.9
11.436	-15.668	70.412	14.252	-98.435	-36.801	-51.979	-16.489	-167.17
11.635	-15.178	63.056	14.218	-116.25	-36.647	-68.707	-14.779	173.42
11.835	-14.856	55.095	14.116	-132.82	-36.415	-85.253	-13.535	152.93
12.035	-14.578	47.024	13.984	-150.48	-36.135	-101.66	-12.838	132.15
12.235	-14.321	37.857	13.857	-169.8	-35.937	-117.32	-12.488	112.27
12.434	-14.419	27.861	14.014	174.59	-35.555	-134.49	-12.579	93.675
12.634	-14.827	17.126	14.046	156.18	-35.403	-149.28	-13.085	75.556
12.834	-15.587	8.1918	14.117	137.26	-35.219	-165.91	-13.816	59.083
13.034	-16.53	0.32249	14.241	121.25	-34.814	178.06	-14.862	43.631
13.234	-17.529	-5.5208	14.453	101.65	-34.668	161.62	-16.485	28.68
13.433	-18.676	-8.7564	14.363	82.947	-34.346	141.82	-19.111	17.424
13.633	-19.44	-8.1092	14.143	65.434	-34.141	124.12	-22.662	16.816
13.833	-19.301	-7.2206	14.258	46.673	-34.029	108.16	-25.918	34.863
14.032	-19.05	-13.154	14.324	28.939	-34.33	89.494	-24.923	72.699
14.232	-18.929	-17.413	14.362	9.6459	-34.03	72.976	-19.662	84.847
14.432	-18.774	-23.701	14.443	-9.2221	-33.812	55.005	-15.75	75.534
14.632	-18.562	-33.493	14.467	-28.802	-33.812	35.921	-13.298	61.262
14.832	-18.646	-43.175	14.17	-49.761	-33.819	17.522	-11.678	46.997
15.031	-19.031	-55.585	13.896	-65.254	-34.028	0.60994	-10.291	33.324
15.231	-20.434	-69.615	13.907	-81.395	-33.926	-15.124	-9.4701	16.545
15.431	-23.041	-80.505	13.804	-101.72	-33.738	-34.49	-9.1989	1.2783
15.63	-26.701	-85.879	13.89	-118.89	-33.575	-53.527	-9.2675	-11.665
15.83	-33.483	-69.36	13.746	-138.96	-33.486	-72.049	-9.493	-24.131
16.03	-31.783	-7.7226	14.044	-162.28	-33.302	-90.508	-9.9108	-34.445
16.23	-27.384	-8.423	14.151	-178.35	-33.173	-110.34	-10.293	-41.455
16.43	-26.166	-12.647	13.412	162.2	-33.066	-129.67	-10.19	-47.63
16.629	-25.724	-11.102	13.336	140.2	-32.956	-147.81	-9.6667	-57.345
16.829	-24.801	-14.947	13.34	123.34	-32.547	-166.51	-9.5657	-67.871
17.029	-26.383	-13.822	12.887	104.88	-32.232	172.27	-9.155	-76.537
17.229	-25.684	5.7752	12.081	83.613	-32.512	151.78	-8.1809	-93.114
17.428	-22.108	5.9279	11.822	73.441	-32.765	138.1	-8.886	-116.43
17.628	-21.097	-3.6278	12.52	56.551	-31.854	124.02	-11.585	-126.14
17.828	-20.091	-10.989	12.619	35.883	-30.666	104.94	-11.818	-121.38
18.028	-20.182	-21.565	12.831	17.26	-29.798	81.931	-10.196	-132.6
18.227	-21.575	-22.166	12.923	-2.9015	-29.243	54.231	-9.3351	-152.1
18.427	-19.077	-10.346	12.689	-22.89	-30.955	28.532	-9.6509	-179.72
18.627	-16.917	-21.518	12.624	-41.135	-31.898	17.74	-10.873	154.69
18.826	-15.546	-33.177	12.721	-60.97	-31.594	4.5678	-12.438	128.65
19.026	-14.526	-44.669	12.746	-81.159	-31.431	-12.055	-13.746	98.108
19.226	-13.676	-55.477	12.657	-101.7	-31.385	-30.961	-14.51	63.666
19.426	-12.712	-67.369	12.483	-122.28	-31.243	-49.873	-14.472	27.227
19.625	-12.083	-79.732	12.245	-143.08	-31.454	-68.063	-13.713	-8.1817
19.825	-11.357	-90.611	11.774	-163.61	-32.307	-87.295	-13.293	-37.416
20.025	-10.764	-102.52	11.397	178	-33.332	-106.32	-13.961	-60.57
20.225	-10.6	-115.74	11.287	161.22	-34.181	-119.63	-13.416	-65.399
20.424	-11.088	-126.2	11.41	140.6	-34.151	-131.26	-11.218	-79.13
20.624	-11.326	-131.65	11.358	119.22	-33.744	-150.87	-10.181	-100.54
20.824	-11.135	-136.85	10.831	97.809	-34.002	-178.2	-9.8647	-117.01
21.024	-10.744	-142.2	10.211	75.408	-34.968	151.99	-9.4881	-128.97
21.223	-10.104	-147.81	9.9126	52.388	-36.68	113.3	-8.5904	-142.6
21.423	-9.002	-153.19	9.156	34.879	-37.994	68.763	-7.4785	-157.87
21.623	-7.0132	-163.36	7.317	21.457	-37.653	0.95501	-6.4803	-176.57
21.823	-5.0491	174.45	6.876	21.06	-33.949	-82.566	-6.2619	155.03
22.023	-5.5577	146.79	9.3014	3.4513	-32.538	-155.21	-9.3468	128.7
22.222	-7.2896	131.76	10.581	-25.448	-33.245	148.37	-13.441	134.83
22.422	-8.2688	126.97	10.29	-50.805	-35.133	93.356	-12.127	150.95
22.622	-8.6945	115.96	9.9084	-76.553	-38.382	13.956	-10.334	143.91
22.822	-9.3147	119.99	9.3057	-98.575	-47.31	-19.323	-9.1083	136.43
23.021	-8.2209	117.96	8.6806	-117.06	-45.645	-37.735	-8.4866	124.29
23.221	-7.7714	110.72	7.8877	-139.87	-43.018	-67.829	-8.3146	108.91
23.421	-8.0476	103.94	8.1056	-164.94	-40.823	-100.08	-8.2805	96.19
23.62	-7.203	96.893	7.3215	179.14	-41.775	-135.9	-8.3139	78.372
23.82	-6.712	91.219	5.2046	154.97	-52.227	-176.01	-8.292	68.055
24.02	-5.952	80.748	5.8813	140.88	-39.703	-89.707	-12.563	51.328
24.22	-6.233	68.957	5.5785	123.29	-36.527	-131.86	-16.597	75.011
24.42	-6.0648	59.616	4.8551	96.799	-39.521	-139.52	-13.94	88.446
24.619	-6.3473	52.755	3.4428	80.009	-32.239	-122.48	-9.4961	83.734
24.819	-5.76	45.782	1.6329	72.198	-28.525	-169.12	-7.37	57.531
25.019	-5.037	33.435	2.5954	58.997	-28.59	167.61	-7.788	37.211
25.219	-4.756	19.243	3.2831	41.327	-28.641	144.19	-8.297	25.443
25.418	-4.867	3.3059	3.1326	15.339	-27.808	122.11	-8.7294	19.058
25.618	-6.1666	-10.285	3.1229	-11.11	-27.628	106.54	-9.1078	13.291
25.818	-7.5176	-13.619	2.0608	-31.284	-28.741	90.649	-9.4421	7.755
26.017	-7.525	-13.316	0.66188	-51.518	-29.038	67.907	-9.0603	10.26
26.217	-6.8289	-16.759	0.27851	-67.126	-29.968	40.738	-7.6651	8.2992
26.417	-6.1965	-24.688	-0.4542	-82.381	-37.02	13.265	-6.0223	-3.7593
26.617	-5.802	-34.275	-1.6289	-106.44	-42.806	127.49	-5.0223	-19.864
26.816	-6.0045	-45.661	-1.9187	-128.22	-33.056	123.16	-5.0431	-32.79
27.016	-6.8704	-55.456	-3.3028	-142.16	-26.761	111.35	-5.4655	-48.931
27.216	-7.956	-54.101	-5.5304	-158.02	-20.633	78.068	-6.2268	-64.23
27.416	-6.3576	-56.016	-5.9953	-156.16	-19.388	28.329	-6.0101	-71.721
27.615	-5.6663	-72.274	-4.5189	-168.02	-21.092	-7.0638	-6.2363	-90.305
27.815	-6.0761	-87.113	-3.5702	171.11	-22.565	-27.32	-7.0209	-115.11
28.015	-6.3666	-100.88	-3.0836	151.03	-23.026	-48.285	-7.8155	-133.86
28.215	-7.0363	-116.15	-2.9363	129.42	-23.733	-76.651	-9.0502	-154.44
28.415	-8.4568	-129.97	-3.153	107.85	-25.357	-124.71	-11.155	176.12
28.614	-8.7139	-133.24	-3.2028	88.85	-33.905	153.99	-12.481	153.8
28.814	-8.448	-144.75	-3.3236	67.364	-35.257	43.881	-13.643	132.92
29.014	-8.1446	-154.28	-3.591	47.019	-29.468	-3.2393	-16.642	107.08
29.213	-7.6749	-165.94	-3.9885	29.833	-27.725	-55.091	-17.016	92.686
29.413	-7.5042	-178.63	-4.1504	11.462	-30.884	-85.189	-15.983	70.617
29.613	-7.3086	170.44	-4.1293	-9.2806	-35.775	-93.728	-17.848	47.722
29.813	-7.4714	158.57	-4.5215	-31.921	-42.026	-73.983	-18.053	42.833
30.013	-7.407	147.24	-5.6536	-53.229	-36.37	2.4831	-13.686	37.782
30.212	-7.5835	135.33	-7.1045	-61.236	-28.073	-11.293	-9.787	6.8767
30.412	-7.8172	124.24	-6.0179	-69.269	-24.695	-40.603	-9.2782	-29.128
30.612	-8.1245	114.34	-5.138	-89.618	-22.435	-57.325	-10.054	-56.037
30.812	-8.0933	103.55	-4.8763	-108.68	-21.162	-76.362	-11.654	-75.539
31.011	-7.9463	93.092	-5.2367	-131.16	-19.388	-102.18	-13.844	-94.075
31.211	-7.2679	84.801	-5.8957	-152.45	-18.883	-130.04	-15.669	-121.33
31.411	-5.6676	68.773	-6.3485	-167.72	-21.802	-139.12	-19.465	169.21
31.61	-5.5016	52.109	-6.6061	176.45	-20.034	-139.33	-16.714	77.697
31.81	-5.2859	35.244	-6.6002	159.63	-18.266	-165.86	-12.67	29.426
32.01	-5.9011	21.015	-6.2537	139.85	-20.231	156.77	-12.23	3.1984
32.21	-7.2323	11.927	-6.1636	124.03	-24.936	148.81	-12.427	-3.6053
32.41	-7.2697	16.614	-6.9659	108.93	-24.72	171.31	-10.371	-8.3243
32.609	-5.8997	11.007	-8.0575	80.06	-24.582	179.68	-8.7182	-27.282
32.809	-5.2561	-1.1049	-9.277	59.522	-21.863	176	-8.7734	-41.982
33.009	-5.1332	-11.997	-11.694	47.541	-17.525	159.14	-8.0228	-59.429
33.208	-5.416	-25.172	-13.662	45.793	-15.367	132.51	-8.0326	-86.572
33.408	-6.2024	-34.759	-10.612	43.953	-15.216	103.78	-11.306	-115.31
33.608	-6.6522	-41.22	-8.3562	20.073	-17.955	76.848	-17.414	-117.96
33.808	-6.5837	-50.373	-8.3981	-12.022	-19.836	67.628	-17.001	-95.197
34.007	-7.1057	-62.932	-9.2934	-33.317	-19.826	59.615	-16.905	-101.03
34.207	-7.6932	-69.436	-8.8824	-55.86	-20.378	42.5	-19.589	-99.626
34.407	-7.447	-77.213	-8.4869	-83.075	-22.088	29.941	-20.28	-93.949
34.607	-7.4102	-86.448	-8.6061	-109.92	-23.816	21.931	-20.144	-81.744
34.806	-7.2252	-97.145	-8.7256	-141.4	-24.749	20.376	-19.887	-53.041
35.006	-7.4229	-105.89	-8.8805	-168.49	-25.447	15.06	-15.746	-37.951
35.206	-7.496	-113.78	-9.486	163.59	-25.848	12.875	-12.253	-45.207
35.406	-7.6799	-121.98	-9.4517	135.85	-25.882	6.0601	-9.8618	-52.382
35.605	-8.1912	-129.15	-10.027	116	-26.152	-1.9177	-7.9589	-60.25
35.805	-8.688	-135.69	-10.697	91.714	-26.717	-11.273	-6.8753	-73.023
36.005	-9.6459	-138.18	-10.203	66.252	-28.511	-22.378	-6.0603	-86.622
36.205	-9.8051	-140.86	-10.378	46.305	-31.443	-16.45	-5.9403	-96.587
36.404	-10.551	-143.94	-10.946	22.93	-31.385	10.15	-6.6798	-105.66
36.604	-11.014	-144.03	-11.404	3.46	-26.837	15.443	-7.2137	-105.56
36.804	-10.996	-147.69	-12.071	-9.9097	-24.274	-2.0669	-5.837	-102.36
37.004	-11.908	-147.82	-12.511	-26.889	-23.994	-19.416	-4.4384	-109.48
37.204	-11.229	-148.44	-12.91	-45.674	-24.24	-31.033	-3.5993	-122.08
37.403	-11.21	-150.48	-13.515	-61.812	-24.455	-36.17	-2.9352	-132.79
37.603	-10.515	-152.34	-14.139	-76.062	-24.135	-39.478	-2.6433	-144.87
37.803	-9.1665	-157.91	-14.709	-90.96	-23.378	-43.745	-2.587	-158.19
38.002	-8.14	-166.71	-15.183	-106.5	-22.369	-51.269	-2.6609	-169.15
38.202	-7.2562	-178.13	-16.577	-120.94	-21.312	-60.851	-3.0831	-175.89
38.402	-6.395	172.2	-18.139	-132.78	-20.293	-70.42	-2.7319	174.62
38.602	-6.1644	159.94	-18.927	-145.2	-19.736	-87.103	-2.4186	161.81
38.801	-5.9977	154.97	-22.105	-161.75	-20.695	-92.252	-2.7848	151.97
39.001	-4.9153	149.36	-26.581	-144.04	-19.485	-93.547	-3.3332	141.85
39.201	-4.102	137.81	-23.304	-114.18	-17.315	-106.67	-3.2657	132.95
39.401	-3.9426	126.82	-18.595	-123.88	-15.817	-117.84	-3.6522	123.08
39.601	-4.6633	120.39	-15.761	-150.26	-14.331	-143	-5.0229	112.96
39.8	-4.2739	116.76	-16.62	-171.16	-15.266	-162.91	-5.6648	112.82
40	-4.1026	104.37	-16.465	179.76	-14.565	-173.18	-4.9465	110.34
