!Hittite Microwave Corporation								
!20 Alpha Road								
!Chelmsford, MA 01824								
!Tel: 978-250-3343								
!Fax: 978-250-3373								
!Device: HMC-C016, 7-17 GHz, Connectorized Wideband Amplifier Module
!Misc: 12 V, 99 mA, Room							
!
# GHZ S DB R 50.0
0.050000001	0.029960914	-2.869366169	-50.95890427	41.46728134	-67.9959259	-101.3317795	0.009550942	-7.729452133
0.149749994	0.061448868	-8.981651306	-66.40098572	-145.04216	-73.72676086	-95.98805237	0.008282031	-22.8109417
0.249500006	0.029062856	-15.13100815	-73.58465576	112.8664856	-79.48943329	100.3444366	-0.00273998	-38.3858223
0.349249989	0.050154895	-21.22547913	-87.60749817	-110.8202362	-74.16423035	0.767502904	-0.066593677	-54.4115181
0.449000001	0.074566826	-27.3651638	-63.44290543	88.40074158	-79.96959686	-56.20846176	-0.331044793	-71.38237762
0.548750043	0.076718397	-33.47230911	-55.67351532	-13.20118523	-69.24468994	-109.1550064	-0.733560979	-83.19356537
0.648499966	0.080092594	-39.7629776	-55.65633774	-70.44104767	-67.3229599	-159.7894287	-0.46900776	-100.4969788
0.748250008	0.095206089	-45.89276123	-53.69908905	-95.09562683	-67.98647308	171.3529663	-0.764137745	-119.2352219
0.84799999	0.103379719	-52.1216774	-52.37308121	-115.5723114	-63.36627197	164.0034332	-1.475705504	-138.6717529
0.947750032	0.091694109	-58.41459274	-46.69711685	-155.863266	-64.74664307	127.2541656	-3.008956671	-157.8643341
1.047500014	0.088601485	-64.65258026	-46.14014816	-138.7848816	-62.38335037	105.2454529	-5.771447182	-168.3594971
1.147250056	0.078743242	-70.9420166	-40.06267548	-160.6199341	-62.8168335	73.45932007	-6.754162788	-160.0438538
1.247000098	0.069746666	-77.18972778	-34.81510544	170.6365662	-64.46504211	59.50043106	-4.990478516	-165.1878052
1.346749902	0.026226442	-83.44149017	-31.16424751	128.7313843	-65.62316132	47.59375763	-4.257911205	179.67453
1.446499944	0.003283752	-89.72032928	-29.40145302	87.19895935	-67.83877563	52.1667366	-4.057474136	166.2235413
1.546249986	-0.003420932	-95.82441711	-28.86658096	50.36529541	-68.20159912	48.95778275	-3.688391924	152.5405426
1.646000028	-0.030216044	-101.8866577	-28.49530983	18.64172363	-66.66824341	35.79174423	-3.358762264	136.4389343
1.74575007	-0.053728659	-108.0343552	-28.39554024	-11.69645023	-68.21427155	44.81658554	-3.314710379	118.4963989
1.845499992	-0.046734229	-114.2341461	-28.41154099	-42.25035477	-68.11170959	30.89818382	-3.684635401	99.81291199
1.945250034	-0.069057703	-120.4523087	-29.12520409	-76.27977753	-67.35019684	53.52491379	-4.474971771	81.84422302
2.044999838	-0.085459873	-126.4729233	-31.27113724	-111.822197	-65.69447327	64.46763611	-5.628236294	66.07279968
2.14474988	-0.104926057	-133.0498962	-35.58653641	-139.0107422	-62.56878281	63.73260498	-6.874697208	52.82450867
2.244499922	-0.112753712	-139.2073212	-39.22336197	-146.4568176	-60.7711525	51.43694305	-8.033959389	42.03046799
2.344250202	-0.1322615	-145.3221283	-43.42099762	-161.0167694	-59.83946228	42.49108505	-8.990866661	32.71037674
2.444000006	-0.179276183	-151.8733215	-46.56939316	179.2956848	-59.00858307	31.25740433	-9.734242439	24.05804634
2.543749809	-0.147170231	-158.0783691	-48.91282654	141.449707	-57.40361786	20.5418148	-10.27612209	15.41106033
2.64350009	-0.18662928	-164.2675934	-46.49843216	84.72742462	-56.65907669	13.38108158	-10.70817661	6.52303648
2.743249893	-0.241029859	-170.8538971	-41.63884735	50.95526886	-56.15080643	5.049323559	-11.02571869	-2.86038518
2.843000174	-0.217816859	-177.1875305	-34.5136795	36.93439484	-54.82883453	-7.160749435	-11.27835464	-12.83592415
2.942749977	-0.262574643	176.5611267	-34.20903015	14.4077301	-54.44104004	-10.43901253	-11.51815414	-22.98003387
3.042500019	-0.274513155	170.1228943	-30.96965599	-2.013550758	-53.74913788	-20.41357803	-11.74067307	-33.74628067
3.142250061	-0.308847845	163.7049103	-28.3708992	-14.61086845	-52.94856262	-29.89271927	-11.96170807	-44.35066223
3.241999865	-0.309264034	157.4728088	-25.77526283	-27.68164444	-52.68478012	-36.81369781	-12.12914181	-55.4378891
3.341749907	-0.278328061	150.9860687	-23.35411644	-39.97047043	-51.86088943	-45.53359604	-12.31272602	-66.74384308
3.441499949	-0.368798226	144.3057861	-21.10552979	-53.56599808	-51.85007858	-55.7191391	-12.46665955	-78.02848816
3.54124999	-0.337643027	138.0735779	-19.01683235	-66.00896454	-51.44485474	-63.20450974	-12.62596035	-89.64836884
3.641000032	-0.357175201	131.2741852	-17.15590096	-79.61201477	-50.87722778	-71.29982758	-12.78642559	-101.1021805
3.740750074	-0.420362025	124.5620041	-15.52103615	-92.20088196	-50.80004883	-79.29711914	-12.91277027	-112.436058
3.840499878	-0.39146769	117.8453369	-13.84106922	-103.3078842	-50.16867447	-86.82492828	-13.03521347	-124.2457809
3.940250158	-0.459043354	111.0503387	-12.08674908	-114.5239487	-50.09156418	-94.4726944	-13.14756298	-135.8735199
4.039999962	-0.484364569	104.0012589	-10.31249046	-126.251976	-49.51224899	-101.7936783	-13.26404667	-147.2277527
4.139750004	-0.533380866	96.94835663	-8.562498093	-138.2489166	-49.48384476	-111.4355469	-13.43584156	-158.4471436
4.239500046	-0.594566524	90.05241394	-6.823123932	-150.6138153	-49.21574402	-117.5394135	-13.62965775	-169.7037659
4.339250088	-0.628320515	82.34944916	-5.145167828	-163.4760895	-48.9290123	-124.6094055	-13.80684662	179.693573
4.43900013	-0.710107207	75.17124939	-3.494245291	-176.0594788	-48.52392578	-134.9690552	-13.90489006	169.5536499
4.538750172	-0.783962071	67.56531525	-1.871931672	171.1827393	-48.19341278	-142.123764	-13.98290157	159.7234039
4.638499737	-0.837278843	59.33607483	-0.22180292	158.1732635	-47.91867447	-148.9441223	-14.03370571	150.2523804
4.738250256	-0.915808856	51.56776428	1.39762044	145.1744385	-47.3169899	-157.0417023	-14.04437923	140.1484528
4.838000298	-1.04595983	43.06389618	3.001057625	131.7653046	-47.42239761	-166.8499146	-14.07375336	130.2072754
4.937749863	-1.184510827	33.95963287	4.682044506	117.8532486	-46.9266777	-174.8560638	-14.06930447	120.2444992
5.037499905	-1.334667206	24.70820618	6.293904781	103.6811752	-46.87952805	176.426651	-14.15220737	110.3890228
5.137249947	-1.560776114	14.90014076	7.976593494	88.8691864	-46.60237122	167.2994385	-14.27054501	101.0297852
5.236999989	-1.835647106	4.185493469	9.627575874	73.43431091	-46.64041901	156.9262238	-14.3787756	91.7257843
5.336750031	-2.202883244	-7.166100025	11.24665833	57.19316101	-46.52025604	147.9691467	-14.49244213	82.5453949
5.436500072	-2.762105465	-19.23594666	12.82481956	40.14309692	-46.5069313	137.9730377	-14.55529499	73.68663025
5.536249638	-3.541486025	-32.85305023	14.3387537	22.00577354	-46.62757874	129.0413971	-14.63102436	64.84902954
5.63599968	-4.605437756	-47.16666031	15.69659519	2.939905882	-46.80934525	118.6018524	-14.65222359	56.16582108
5.735750198	-6.19012022	-62.67501831	16.98369789	-17.26486206	-47.49554062	107.2645874	-14.64811707	47.25898361
5.83550024	-8.476584435	-79.69514465	17.97375488	-37.98311234	-48.22929764	96.58509827	-14.56052876	38.43206787
5.935249805	-11.70926857	-97.54125214	18.76934242	-58.92677689	-49.45429611	91.93948364	-14.40600777	28.98458672
6.034999847	-17.09591866	-119.1238861	19.35009956	-79.61074066	-50.41316605	86.02605438	-14.23332977	18.81996346
6.134750366	-27.68889809	-175.8249207	19.73990822	-99.86418915	-51.09215927	82.35759735	-14.12409878	7.779978752
6.234499931	-21.89410782	72.03868103	20.00326538	-119.21241	-51.98638535	81.06166077	-14.01503372	-3.513634682
6.334249973	-16.02726555	44.84348297	20.14709663	-137.7026062	-51.56626129	81.9704895	-14.00551414	-15.5831356
6.434000015	-13.07911205	29.59432411	20.23402023	-155.3498077	-51.98727798	80.45553589	-13.98660183	-27.42497826
6.53374958	-11.33275032	16.57143211	20.26555634	-172.1116333	-51.52532196	79.00108337	-13.99608421	-39.74332047
6.633500099	-10.13140106	4.982748985	20.29477882	171.7176666	-51.32189941	72.75489044	-14.03911877	-52.05475235
6.733250141	-9.328808784	-5.28687191	20.30295563	156.0432587	-51.24821854	70.81350708	-14.07106495	-64.31414032
6.832999706	-8.744369507	-15.17076111	20.31939125	140.9139709	-50.72021103	64.75315857	-14.09320641	-77.24803925
6.932749748	-8.322751045	-24.63823891	20.31744766	126.1804504	-50.56124115	60.9364357	-14.13249111	-89.67520905
7.032500267	-8.048376083	-33.18476486	20.32621765	111.7428513	-50.0837822	53.77476501	-14.07926273	-101.8441238
7.132250309	-7.853969097	-41.98592377	20.35320663	97.63243866	-50.07953644	46.39657593	-14.07302094	-113.9418411
7.231999874	-7.718761921	-50.54858017	20.35563087	83.69805145	-50.30510712	41.48602295	-14.04476738	-125.7854691
7.331749916	-7.613145828	-58.16448593	20.37718391	70.04686737	-49.23647308	37.21013641	-14.01013279	-138.1500549
7.431499958	-7.58011961	-66.59754181	20.3930378	56.57022858	-49.67691803	30.90236664	-13.98391342	-150.0413666
7.53125	-7.527985573	-74.31800842	20.41378212	43.24555206	-49.28456879	23.9132061	-13.9366312	-161.1303558
7.631000042	-7.457838535	-81.90402985	20.44898605	30.20193291	-49.00935364	18.60557747	-13.8992548	-171.9237823
7.730750084	-7.569486618	-89.84951782	20.48935127	17.36869431	-48.71813202	11.74411488	-13.90297699	178.3423615
7.830499649	-7.544504642	-97.31963348	20.54141808	4.533779144	-48.48511124	5.447211742	-13.75657654	167.838562
7.930250168	-7.584623814	-104.5551605	20.59449959	-8.24759388	-48.7028923	-2.555004835	-13.64099693	157.587265
8.029999733	-7.687216759	-111.6440506	20.66138649	-20.9526329	-48.60362625	-8.738471031	-13.50139999	147.4161377
8.129750252	-7.675325394	-119.235817	20.70305252	-33.58773422	-49.0376091	-13.60296535	-13.49880219	137.1983643
8.229499817	-7.746313095	-125.9313889	20.76801682	-46.03675079	-48.60117722	-20.42090034	-13.56491661	127.2003784
8.329249382	-7.829372883	-132.8982697	20.80570793	-58.47868729	-48.67439651	-26.20848274	-13.61320019	117.3897171
8.428999901	-7.918248653	-140.3827057	20.86675453	-70.85082245	-48.77511597	-33.73948669	-13.75362492	107.6375656
8.52875042	-7.89678669	-147.1646118	20.92970276	-83.19205475	-49.01755142	-38.2341423	-13.80876923	98.55502319
8.628500938	-7.995965958	-154.0062561	20.98344612	-95.38394928	-48.70905304	-45.89909744	-13.97313023	89.08700562
8.728250504	-8.07869339	-160.9427338	21.0504303	-107.4918365	-48.77260971	-53.48564911	-14.28238773	80.27572632
8.828000069	-8.089618683	-167.8066711	21.10144043	-119.6238174	-48.49822998	-56.80832291	-14.51218319	70.90362549
8.927750587	-8.205424309	-173.7273254	21.15965652	-131.6971588	-48.87809372	-63.01813126	-14.90694046	61.27986908
9.027500153	-8.305250168	179.2129364	21.23664093	-143.7046661	-49.01331329	-70.15228271	-15.30160236	52.32635117
9.127249718	-8.36892128	172.8877563	21.29722786	-155.6347961	-48.79783249	-74.54363251	-15.78730583	42.99370956
9.227000237	-8.445543289	166.6999054	21.36950874	-167.675415	-48.31858444	-80.5385437	-16.35038948	34.17988968
9.326749802	-8.640933037	160.3911591	21.45210075	-179.5739288	-48.43290329	-89.08926392	-16.86916542	24.8511467
9.426499367	-8.701303482	153.8703918	21.5065155	168.4672394	-48.63049698	-95.15032196	-17.71613693	14.60843086
9.526250839	-8.882073402	148.1136475	21.57726479	156.5927734	-48.4344635	-100.6413574	-18.45145416	4.899716854
9.626000404	-9.040006638	142.7196655	21.64753342	144.766037	-48.65425873	-107.1712646	-19.14719582	-5.635875225
9.725749969	-9.16497612	136.1116638	21.70627975	132.8425598	-48.29114151	-113.2148819	-20.41425896	-15.5470562
9.825500488	-9.344745636	130.9702911	21.76587296	120.9574814	-48.50465775	-120.544632	-21.4927063	-26.85755539
9.925250053	-9.531667709	125.3991089	21.83522606	109.090271	-48.73373795	-122.4027405	-22.92534447	-41.25402069
10.02499962	-9.757353783	120.1406937	21.89571381	97.27508545	-48.08075714	-130.9386292	-24.352108	-55.86370087
10.12475014	-9.883719444	115.1912384	21.96105576	85.49068451	-48.41080856	-137.7229004	-25.56926155	-72.15429688
10.2244997	-10.2449398	110.8312912	22.02057076	73.69890594	-48.24048233	-144.0423737	-27.36073303	-95.60425568
10.32424927	-10.48539162	105.8694839	22.05644989	61.78776169	-47.88853073	-152.7471161	-27.11512375	-120.1507797
10.42400074	-10.66105556	101.6340561	22.12026596	49.96543884	-48.59489441	-158.1269226	-27.20522881	-141.9285889
10.52375031	-10.92961788	98.52695465	22.15856743	38.26654053	-48.43907928	-160.6610565	-26.49667168	-167.0697327
10.62349987	-11.25738907	94.11588287	22.19666672	26.37462044	-47.8560257	-170.3562317	-25.33369255	178.4266205
10.72325039	-11.38795853	90.797966	22.22661209	14.69209957	-47.99263763	-174.9846497	-24.47624779	161.8074646
10.82299995	-11.62807083	88.47255707	22.25863838	2.859281063	-48.03707504	175.2666779	-23.30479622	148.9838562
10.92274952	-11.85450745	85.48420715	22.29043961	-8.879330635	-47.70202255	171.9899139	-22.2917614	139.9963989
11.02250004	-11.98330498	82.73062897	22.29665947	-20.5434742	-47.87976456	167.3871155	-21.38053703	130.8274994
11.1222496	-12.04299068	81.13628387	22.31348038	-32.2964325	-47.57733154	159.3299408	-20.63497734	121.714241
11.22199917	-12.18356037	78.37424469	22.32264137	-43.95825958	-47.27365875	153.8393097	-20.25335503	115.2455444
11.32174969	-12.18760395	76.25788879	22.32777023	-55.66119766	-47.54338455	145.2200012	-19.74623871	109.5721359
11.42150021	-12.06267262	73.8427124	22.33541679	-67.26631927	-47.58002472	138.4582214	-19.25368309	103.5439301
11.52125072	-12.11650467	72.00455475	22.32589149	-78.80297852	-47.26641083	130.6700287	-18.97766685	97.59591675
11.62100029	-11.94854259	68.90534973	22.32044601	-90.43048859	-47.11085892	128.1975708	-18.63540459	93.102211
11.72074986	-11.79849815	66.10345459	22.30810356	-101.9690628	-47.21232224	122.0427399	-18.40782166	88.27475739
11.82050037	-11.58552742	63.43790817	22.26993561	-113.4497681	-46.27096558	109.3642197	-18.32391357	84.03871155
11.92024994	-11.5524807	59.59126663	22.25769043	-124.9849396	-46.62361145	106.5954514	-18.20918274	80.15231323
12.0199995	-11.28347206	56.44326019	22.22546959	-136.4056854	-46.2817688	99.57200623	-17.9500103	76.40166473
12.11975002	-11.12050152	52.96339417	22.20767403	-147.7627716	-46.47163773	90.31941223	-17.89585876	73.82556152
12.21949959	-10.95111084	49.1762085	22.18853951	-159.0942383	-46.42315292	84.36485291	-17.62235451	70.68296051
12.31925011	-10.77285671	44.68160629	22.14657593	-170.3821106	-46.5096817	79.51030731	-17.59334183	66.90451813
12.41900063	-10.64812756	40.82358551	22.0994339	178.3630219	-45.86469269	70.07305908	-17.38090897	64.85652161
12.51875019	-10.54358673	36.16585922	22.06226921	167.0715179	-46.15485382	62.10214615	-17.30213737	61.44272232
12.61849976	-10.50123787	32.14726257	22.03769875	155.8361969	-45.64084625	56.20547867	-17.19958305	60.1604538
12.71825027	-10.38124657	26.93323517	22.01525497	144.6183167	-45.6373024	49.4704361	-16.88522911	56.80968475
12.81799984	-10.4339695	22.34488106	21.98221397	133.5417633	-45.38002396	41.54164505	-16.78016472	53.49277878
12.9177494	-10.31337452	17.28648376	21.93741608	122.4452591	-45.50634384	35.64872742	-16.58153152	50.98324203
13.01749992	-10.40087414	12.27694988	21.8896904	111.3955765	-45.07333374	28.03328705	-16.46048927	47.28945541
13.11724949	-10.34900475	7.539108753	21.8381424	100.4129715	-45.07899094	20.50439835	-16.28505516	44.37522507
13.21700001	-10.381073	1.970454097	21.80144501	89.26103973	-44.79192734	13.4863224	-16.02621841	41.0198822
13.31675053	-10.42650414	-2.899237156	21.7843895	78.25400543	-44.82152939	4.368771076	-15.85846043	37.65792847
13.41650009	-10.44873333	-8.273377419	21.74267197	67.38751984	-45.09273148	-3.348438025	-15.63766766	34.37022781
13.51624966	-10.51510811	-12.95327759	21.7261734	56.44731903	-44.95422363	-9.437690735	-15.59002399	29.68222237
13.61600018	-10.5618372	-18.52168655	21.72491074	45.55794907	-44.43806458	-16.13086891	-15.49628067	25.88643837
13.71574974	-10.62373924	-23.49619484	21.67249489	34.81657791	-44.69388962	-26.33851814	-15.39218712	21.52108192
13.81549931	-10.70196533	-28.95445251	21.63469124	23.6885643	-44.52104187	-34.72684479	-15.20969486	16.03567505
13.91524982	-10.82484818	-34.13947678	21.61053276	12.96291065	-44.59376907	-39.0207634	-15.30638695	11.84878731
14.01499939	-10.8688736	-39.65885925	21.60639381	2.032710314	-44.15275955	-47.59350204	-15.42311573	7.83153677
14.11475086	-11.03575611	-45.00219727	21.59448814	-8.831843376	-44.68745804	-57.5422821	-15.42643642	3.712745667
14.21450043	-11.11858082	-50.80462265	21.57829285	-19.57771492	-44.12801361	-64.1964798	-15.57303619	-1.990769863
14.31424999	-11.21434593	-56.45454788	21.5658226	-30.43569183	-44.22628403	-71.24038696	-15.85554886	-5.793187141
14.41400051	-11.28587341	-62.04772568	21.56604576	-41.27074814	-44.17001724	-79.01740265	-15.98361015	-10.62371254
14.51375008	-11.50866127	-68.43434143	21.56020546	-52.14448929	-44.2804451	-86.74028015	-16.4661274	-14.11105919
14.61349964	-11.49054337	-74.27506256	21.55698776	-63.0343895	-44.35882187	-92.8441391	-16.73989105	-16.76885796
14.71325016	-11.61915302	-80.89418793	21.56712151	-73.93973541	-44.38119125	-102.3378983	-17.26040649	-21.14351082
14.81299973	-11.8670435	-86.40890503	21.55465889	-84.84220123	-44.65192795	-112.0683517	-17.75879478	-22.97797394
14.91274929	-11.81830597	-94.37046051	21.55831146	-95.73105621	-44.85709	-117.221199	-18.11619377	-25.82614899
15.01250076	-12.01053333	-100.1623993	21.55691147	-106.65242	-45.21663284	-125.8671417	-18.7668972	-27.05864334
15.11225033	-12.07846451	-107.8218613	21.55731964	-117.6830521	-45.81303406	-129.8530273	-19.13835526	-26.71994972
15.21199989	-12.27434349	-116.8542023	21.54441452	-128.7878113	-45.8678894	-134.7646027	-19.74374008	-27.51697922
15.31175041	-12.26148224	-124.1715546	21.5280304	-139.7371674	-46.01958084	-138.0379486	-20.19316673	-26.89886284
15.41149998	-12.66595173	-133.2193756	21.48453903	-150.6476288	-46.11792374	-138.923996	-20.55011749	-27.23882866
15.51124954	-12.8286438	-141.035202	21.4629879	-161.4289856	-45.86794281	-144.862381	-21.3665657	-25.43584824
15.61100006	-13.03956413	-148.9548187	21.44807434	-172.1896973	-45.13266373	-147.9574738	-21.76492882	-18.42817116
15.71074963	-13.53669262	-154.5775299	21.44534111	177.1064606	-44.75826645	-153.4053497	-21.6187439	-8.801220894
15.81049919	-13.61971283	-163.6663055	21.45411301	166.3058014	-44.16654968	-159.5658569	-20.80916023	-1.708382249
15.91025066	-13.8220253	-169.1101532	21.47439575	155.5470428	-43.58632278	-165.6733398	-19.60953522	1.602918506
16.01000023	-13.89582729	-174.9474487	21.49017906	144.7417297	-43.53997421	-173.193573	-18.21068001	2.26316762
16.10975075	-14.22787094	176.7438049	21.49366951	133.8755798	-43.48744583	-178.1321716	-16.77869987	0.639576614
16.20949936	-14.02928638	170.7179871	21.51721573	123.01371	-42.99270248	171.7389984	-15.53934193	-2.566812038
16.30924988	-14.17830658	164.1025085	21.54969025	112.2338486	-42.72218323	164.2401886	-14.46841049	-7.398909092
16.4090004	-14.2900753	158.5657959	21.61276817	101.4949341	-42.3997612	159.3362427	-13.62805653	-13.22116756
16.50874901	-13.78974819	151.9868774	21.69829369	90.6488266	-42.39385986	153.6280823	-12.85690212	-18.73013306
16.60849953	-13.68904305	149.032959	21.7850666	79.83735657	-42.03792191	150.6197357	-12.16735268	-24.21035004
16.70825005	-13.17641163	144.5322571	21.90294456	68.88213348	-40.85584259	146.7196655	-11.4181776	-29.35305214
16.80799866	-12.5669899	140.8475494	22.07858467	57.71121597	-39.39712906	140.7482452	-10.47310543	-34.39695358
16.90775108	-11.40663624	139.3438568	22.32541275	46.20186996	-37.76051712	133.7429352	-9.294172287	-40.71906662
17.00749969	-10.00072193	135.1857147	22.68472672	33.7720871	-35.57336426	121.9323044	-7.736763	-48.97881699
17.10725021	-7.556584358	126.9792328	23.07116318	18.92570496	-32.84095383	100.3562775	-5.80097723	-64.49098206
17.20699883	-5.47421217	107.1159973	22.87801552	0.733156264	-31.19292259	64.12466431	-4.882130623	-91.51856232
17.30675125	-5.791497707	84.27516174	21.75086784	-12.8430872	-32.93948364	25.24575615	-6.698541164	-117.1923676
