!Hittite Microwave Corporation								
!20 Alpha Road								
!Chelmsford, MA 01824								
!Tel: 978-250-3343								
!Fax: 978-250-3373								
!Device: HMC-C001, 2-20 GHz, Wideband LNA Module								
!Misc: Vdd = +12V, Idd = 65 mA, Room Temperature								
!								
# GHZ S DB R 50								

0.050000001	-0.277424216	-9.744862556	-33.02589417	-29.50257111	-70.57763672	-118.8729782	-0.045877639	-18.75845909
0.249750003	-1.469065428	-40.89956665	-4.610870361	-31.37064934	-76.26360321	-79.0723114	-1.127428532	-97.63568115
0.449499995	-3.367949247	-65.57650757	7.562877178	-82.0421524	-55.2461853	-97.04315948	-4.882386208	174.5961456
0.649249971	-5.237612247	-83.4635849	10.75779819	-139.2434692	-50.73498535	-171.2023468	-13.10605621	118.1395645
0.848999977	-6.78343153	-99.01727295	12.13929176	-157.4029999	-53.27928925	136.6131439	-8.669653893	62.27857208
1.048750043	-8.166461945	-112.3284988	14.12518215	170.9609985	-52.84066391	124.1195755	-9.243473053	0.293951839
1.24849999	-9.184680939	-124.4523773	14.80328941	144.3031769	-51.23300171	104.5337296	-9.917410851	-41.0553093
1.448249936	-9.987501144	-136.5540466	15.03797817	120.5355988	-50.35312653	84.71513367	-10.41919231	-72.95059204
1.648000002	-10.6293335	-147.8162689	15.22584438	99.41210938	-49.26409912	69.72731018	-10.77005291	-100.2564697
1.847750068	-11.18362331	-159.5548096	15.08278942	79.3163147	-48.05321121	51.21779251	-11.02451897	-124.8997498
2.047500134	-11.70460224	-170.8783417	15.27227211	62.19070053	-47.48934937	34.95093155	-11.21077156	-147.5387878
2.247249842	-12.2148056	177.0500031	15.2117033	43.91505432	-46.93071747	23.10855675	-11.39814949	-169.4543304
2.447000027	-12.64621449	164.9579468	15.34542465	26.56291008	-46.30075073	7.547095776	-11.5891552	169.4771881
2.646749973	-13.01587868	152.3885803	15.1746254	10.25272942	-45.48527908	-2.695642471	-11.81814194	148.591095
2.846500158	-13.40091419	140.6264038	15.33703804	-6.195121288	-44.79376221	-19.76584053	-12.07683849	127.6501465
3.046249866	-13.7315731	128.7632904	15.14874935	-22.93530273	-44.75206375	-33.78042221	-12.28561306	106.4355011
3.246000051	-14.19379139	117.5850067	15.06526375	-37.35182571	-43.91181183	-43.67841721	-12.45055676	85.56726837
3.445749998	-14.72227383	105.9767761	15.1957798	-52.7312355	-43.58743286	-57.75650406	-12.64503288	65.03790283
3.645499945	-15.40485573	94.50654602	15.34943295	-68.75233459	-42.97805786	-70.11143494	-12.89554024	44.04228973
3.84525013	-16.01297188	82.14724731	15.20314217	-85.32191467	-42.47647476	-85.54819489	-13.14119148	22.48246765
4.045000076	-16.77528763	69.4961853	15.27404881	-100.1470337	-42.12225723	-96.79704285	-13.3031826	0.93822974
4.244750023	-17.41683388	57.01233292	15.32805252	-116.229744	-41.85897446	-109.4473419	-13.44504547	-20.34869003
4.444499969	-18.28792572	44.88578415	15.25501823	-132.242157	-41.60412216	-125.0628128	-13.65316486	-41.26711273
4.644249916	-19.12874794	32.57247925	15.24568844	-148.1512146	-41.36551285	-138.2458954	-13.84644985	-62.31824493
4.84400034	-20.20759964	20.62992668	15.11004925	-162.3572998	-41.2434845	-150.9640503	-14.05865765	-83.57235718
5.043749809	-21.08647919	9.794189453	15.0577507	-178.5765228	-41.1019249	-164.511734	-14.23898125	-104.7156982
5.243500233	-22.47162056	0.345711112	15.20774746	167.8083649	-40.86413574	-178.6146393	-14.46087074	-125.239563
5.443250179	-23.79664993	-7.656806946	15.09173012	151.4168243	-40.79846573	168.5361481	-14.74005222	-145.3464813
5.642999649	-25.53403664	-13.10242367	15.16350079	136.9008026	-40.76202774	155.1825562	-15.12193203	-165.3881226
5.842750072	-27.33161163	-15.59485912	15.08564377	121.6265259	-40.45307541	141.7186737	-15.52855206	174.0486755
6.042500019	-29.37182999	-14.52822971	15.21675491	106.102684	-40.35176468	127.7677994	-15.95093822	153.3147278
6.242250443	-30.31229591	-10.16258144	15.02685261	90.71915436	-40.2092514	114.0096512	-16.3601532	133.4395752
6.441999912	-31.07815552	-6.215538979	15.093647	75.98403931	-40.03452301	99.15927887	-16.98817062	114.1802444
6.641749859	-30.26014328	-3.820114613	15.03309441	60.62671661	-39.84842682	85.26934814	-17.81485748	94.11636353
6.841500282	-29.80320168	-6.510690212	15.00626087	45.39546967	-39.65887833	70.9420166	-18.61707878	72.9008255
7.041249752	-29.16486931	-15.12957478	14.88342381	30.59796906	-39.58228683	55.44185257	-19.29887581	51.53792572
7.240999699	-28.98440361	-26.45092773	14.91653252	15.77497196	-39.1886673	40.93193054	-19.93730927	31.03743744
7.440750122	-28.41044617	-45.32762909	14.85650158	0.77893579	-38.97312164	26.2675972	-20.71370125	11.0111742
7.640500069	-28.1476593	-68.16281128	14.86344337	-13.9338932	-38.61523056	10.3500576	-21.45612907	-10.44516659
7.840250015	-26.75123024	-85.67841339	14.87843323	-28.94042587	-38.39793777	-4.876843929	-21.81108856	-31.14660263
8.039999962	-25.73286438	-104.6865082	14.87727451	-43.96167755	-38.12158585	-20.34147835	-22.3102932	-51.80224609
8.239749908	-24.5184536	-122.6130371	14.82705688	-59.19594955	-37.82700729	-36.40697098	-22.28498268	-71.08848572
8.439499855	-23.63388634	-141.2141418	14.81153107	-73.99104309	-37.49498367	-51.29637527	-22.23366165	-88.58937073
8.639250755	-22.48961258	-156.2012482	14.7841711	-88.89063263	-37.13792801	-67.06253052	-21.96343613	-105.986412
8.838999748	-21.65654755	-172.9733887	14.78315544	-103.6613846	-36.80856323	-82.24181366	-22.10974312	-123.0114746
9.038749695	-21.09238625	170.8925781	14.80454922	-118.775116	-36.38843536	-97.69159698	-21.93358231	-140.3852997
9.238500595	-20.63668823	154.5414886	14.81434441	-133.7636108	-35.99999237	-113.1030579	-21.89623833	-156.4640198
9.438249588	-20.28470993	138.5091705	14.79862213	-148.9353638	-35.6354599	-128.1507111	-21.74810982	-168.9621124
9.637999535	-19.95950699	121.0469437	14.77875042	-164.0430145	-35.18692398	-144.1002502	-22.18369675	179.40979
9.837750435	-19.90488434	103.3954926	14.75671482	-179.1787872	-34.87342834	-159.3351288	-22.44633102	167.2480927
10.03749943	-19.46946144	86.25511932	14.74324989	165.7965851	-34.59109879	-173.5578156	-23.09535599	153.957016
10.23724937	-19.16526985	69.57314301	14.73172188	150.7216034	-34.10957718	171.2297821	-23.34790421	143.3460388
10.43700027	-18.68342972	53.19320679	14.71044636	135.51828	-33.73467255	156.6890869	-24.13967896	136.47995
10.63675022	-18.62910461	39.16411591	14.69186687	120.5031662	-33.49258423	141.4559631	-24.73094177	132.3825378
10.83650017	-18.50837708	24.95461655	14.68113232	105.2442398	-33.11141968	126.5821152	-25.60136414	130.5362244
11.03625011	-18.58230019	11.41114902	14.658391	90.24060822	-32.82758331	111.5205841	-25.55662727	130.8222046
11.23600006	-18.77796936	-1.842161536	14.62402439	74.90844727	-32.54782486	98.34962463	-25.09351921	132.106781
11.43575001	-19.31009674	-14.88577175	14.56169224	59.94261169	-32.19102097	83.12789917	-23.73219299	130.0691833
11.63549995	-19.7914257	-28.99056053	14.55039787	44.88329697	-31.81065559	68.71951294	-22.53177452	125.6356049
11.8352499	-20.34132957	-44.82639313	14.51138878	29.70636368	-31.60610008	53.78370667	-21.47480583	117.4176102
12.03499985	-21.03076935	-60.59638977	14.47065735	14.87947369	-31.51803017	40.23031235	-20.28805542	107.8540573
12.23474979	-21.68383408	-78.75250244	14.4210577	-0.297803462	-31.05213165	25.34728622	-19.60894394	97.61119843
12.43449974	-22.02025223	-100.4920654	14.43508339	-14.95569801	-30.85561562	10.63605309	-18.98398399	86.15500641
12.63425064	-21.95674896	-123.9171066	14.42880726	-30.01606369	-30.52078247	-3.375941038	-18.53377724	73.52001953
12.83399963	-21.77890396	-146.1202087	14.39711857	-45.33275986	-30.39407349	-17.52692795	-18.15271568	59.9702034
13.03374958	-20.9241066	-168.1694183	14.53678322	-60.26520157	-30.13044548	-32.17885208	-18.11880875	47.06139374
13.23350048	-20.30935287	171.1498108	14.31504059	-75.90499878	-29.98397064	-47.25434113	-18.33167267	32.72351837
13.43324947	-19.37225533	151.3330536	14.43778515	-90.74573517	-29.66738892	-60.74542236	-18.84906006	18.22063828
13.63300037	-18.99843597	134.4656372	14.321064	-105.1942444	-29.54667664	-75.21035004	-19.62487793	2.3660748
13.83275032	-18.50541687	118.5124893	14.49988556	-120.5358047	-29.21739388	-89.23255157	-21.03770828	-14.18618202
14.03249931	-18.71566963	102.8555603	14.44807625	-136.2108917	-29.02580833	-105.9411392	-23.01401329	-37.01276016
14.23225021	-19.06479263	85.41448975	14.50959682	-151.7879944	-28.92128944	-117.8141098	-26.61048698	-66.08263397
14.43200016	-19.93926811	69.2376709	14.37127304	-167.1552887	-28.58806419	-133.5729218	-29.97819901	-142.5316467
14.63175011	-21.4902401	53.74350739	14.39505863	178.5490265	-28.61083603	-147.4339294	-25.06364059	144.1066132
14.83150005	-23.5449791	43.11221695	14.57902718	163.4437866	-28.18153	-163.3052979	-20.56669235	115.3713531
15.03125	-26.81960869	42.81367874	14.64563942	147.0415039	-28.14931107	-178.2515106	-17.40944672	94.22104645
15.23099995	-28.84702873	64.0426178	14.78146267	130.8585968	-28.08203506	167.449234	-14.81274319	75.61949158
15.43074989	-25.88916206	95.28407288	14.58779907	114.3306122	-27.83325768	151.3847961	-12.65060806	56.98100281
15.63049984	-22.54295921	99.20758057	14.46675587	96.72311401	-27.82429123	136.405838	-11.02661324	38.94262314
15.83025074	-19.3744297	90.1098175	14.20635509	82.96692657	-27.87491226	121.6018143	-9.755795479	20.42610931
16.03000069	-17.31012726	77.97489929	14.22531128	67.70417786	-28.11808395	104.5619812	-8.796904564	2.47282362
16.22974968	-15.37708664	64.43498993	14.06751156	50.63517761	-28.27845573	92.3334198	-8.087495804	-15.62788963
16.42950058	-14.12661076	52.87489319	13.8712616	36.82400513	-28.11466408	78.52749634	-7.574199677	-33.87506485
16.62924957	-13.13161659	40.57720947	13.60468483	22.10082054	-28.35875511	62.54444504	-7.221194744	-52.24827194
16.82900047	-12.52911949	28.43804741	13.74369812	8.476467133	-28.45226097	48.14647675	-7.119093418	-70.93881226
17.02874947	-12.10225296	16.266119	13.71698284	-6.620724201	-28.43730164	34.8238678	-7.152515888	-90.27088928
17.22850037	-11.82592964	4.685731888	13.98212147	-20.58812141	-28.34081841	20.88951874	-7.461658955	-110.2550201
17.42825127	-11.55880928	-6.241553783	14.12667656	-36.79727936	-28.36488724	4.272452354	-7.944852352	-131.7332001
17.62800026	-11.47342014	-16.68920135	14.3238306	-53.03276062	-28.45022011	-10.62782383	-8.683080673	-154.8120117
17.82774925	-11.37533283	-26.90979767	14.36085796	-70.10266876	-28.46401024	-25.07304573	-9.602581024	179.5879822
18.02750015	-11.15481472	-37.01388931	14.33699036	-86.45915985	-28.44701004	-40.32731628	-10.72243309	151.7444
18.22724915	-10.97110081	-46.4473877	14.28947639	-103.3592224	-28.42287254	-56.32271576	-11.98678684	118.6309738
18.42700005	-10.83884525	-55.80151367	14.27474976	-119.4637985	-28.43077469	-72.49918365	-12.65674114	80.01679993
18.62675095	-10.85386848	-64.4921875	14.2294178	-136.3994141	-28.46435738	-88.88792419	-12.33806038	41.49229431
18.82649994	-11.06243515	-74.47303772	14.11964512	-153.5457306	-28.59235382	-105.2922211	-11.40844154	6.912889004
19.02624893	-11.335742	-79.75685883	13.88777733	-171.3952637	-28.57851982	-120.2350922	-10.07879353	-24.85424805
19.22599983	-10.78994846	-80.62627411	13.21077061	172.1076202	-28.18691063	-134.676712	-8.661391258	-54.09702301
19.42574883	-9.033815384	-91.37792969	12.78220844	160.2072754	-27.38699722	-154.3718872	-7.898782253	-81.09506989
19.62549973	-8.770009995	-106.3363113	13.04037285	146.3985291	-27.11112213	-174.8212585	-7.61378479	-104.1931458
19.82525063	-8.882878304	-118.3037033	12.96901226	130.6423492	-27.13523483	166.1716614	-7.291829586	-126.2901688
20.02499962	-9.24666214	-127.7713623	13.00688171	115.5938263	-26.94347954	148.9899597	-7.28224802	-147.0142517
20.22475052	-9.64213562	-137.3343811	13.02162743	100.2157059	-26.34614182	131.4115448	-7.554251194	-166.7945862
20.42449951	-10.03727818	-145.6114349	13.11274052	85.04792023	-25.71490288	114.3856125	-8.322696686	173.0290375
20.62425041	-10.49753475	-153.5567017	13.0912447	68.79072571	-25.0317955	94.53961182	-9.418427467	153.072998
20.82400131	-10.75395489	-159.7778015	13.48117542	52.63589478	-24.51480675	74.26260376	-11.45133114	134.579483
21.02375031	-11.03639126	-163.3049164	13.41363811	35.57030106	-23.70270538	55.58387756	-14.730793	120.449585
21.2234993	-10.90866184	-163.6068115	13.59397888	16.9605999	-23.4908123	35.85059738	-20.77721024	124.4358749
21.4232502	-9.858273506	-161.4600983	13.33916187	-2.32864666	-22.68938828	15.73793983	-20.88641167	169.5829926
21.62299919	-8.040710449	-165.8369141	12.74512196	-19.77812004	-21.49887466	-7.65368557	-15.29016399	170.8878174
21.82275009	-5.739533424	-176.0185699	11.94616032	-33.35372162	-20.47810555	-31.41762924	-12.49182796	133.3133545
22.02250099	-4.193766117	158.1075439	13.08597755	-44.19639969	-21.91809654	-88.3125	-16.67649841	-24.84073257
22.22224998	-5.547125816	145.6320801	12.78918552	-72.47925568	-31.01999664	-87.01773834	-7.999498367	-155.8111877
22.42199898	-5.396624565	138.6040192	11.98133755	-87.66828156	-29.0264492	-74.00621796	-5.849350452	163.6321106
22.62174988	-5.025468349	129.4997101	10.96704769	-103.5860748	-28.37062454	-74.87979889	-4.927047729	136.1959534
22.82150078	-4.821866512	120.2683716	10.61728096	-118.7360535	-27.73316383	-86.90255737	-4.29603672	113.9354019
23.02124977	-4.716254234	109.8987579	9.870202065	-131.3717651	-28.07459831	-104.9428177	-4.066232681	93.10670471
23.22100067	-4.722865105	100.4942093	9.634052277	-144.0814972	-27.49456787	-112.3429337	-4.00654459	73.00084686
23.42074966	-4.87470293	91.26280975	8.911335945	-159.5255127	-27.66968346	-120.1506577	-4.156950474	52.21806335
23.62049866	-4.884851456	83.50867462	9.087879181	-168.0555267	-27.86180305	-126.7780228	-4.400457859	31.50673676
23.82024956	-4.812973976	75.52237701	9.153728485	179.6415863	-27.35065842	-141.3660278	-4.932445526	8.699951172
24.02000046	-4.69753027	66.0868988	9.75117588	166.0846252	-26.82804298	-154.110733	-5.657800674	-17.76779747
24.21974945	-4.763903141	57.93495178	10.02131653	151.1412506	-27.69644356	-165.2256622	-6.566828251	-49.00850296
24.41950035	-4.742816925	48.62039948	10.59781075	132.2864532	-28.64374161	-167.217865	-7.679114819	-86.40609741
24.61924934	-4.841161251	40.59599304	10.64689636	115.5366821	-27.92207527	-178.3837585	-8.556947708	-133.2745056
24.81900024	-5.092961788	30.30778694	10.34094238	96.52359772	-28.85290337	-175.9538422	-8.391814232	174.6023407
25.01875114	-5.90306139	21.36447334	9.202833176	78.04390717	-25.45075417	-170.3401337	-8.220050812	124.5709229
25.21850014	-6.861809254	23.09285927	9.012887001	72.49755859	-23.08627892	158.7793427	-10.27949905	87.5038681
25.41825104	-5.644677639	20.22287178	9.866241455	61.13409424	-23.04311562	136.8113861	-10.79306507	71.94052124
25.61800003	-4.988763809	12.15526772	10.81898022	42.5712738	-22.96054459	114.8481064	-10.24529266	54.48446655
25.81774902	-4.63649416	0.673931599	11.30457878	24.69724083	-25.32112312	95.49949646	-10.37078667	36.09143066
26.01749992	-4.62166357	-10.46513176	11.71052837	3.289450645	-26.25424576	82.70342255	-11.42653561	18.37312889
26.21725082	-4.900182724	-22.44299889	11.58020496	-17.13458443	-28.19015884	71.82057953	-13.77019787	3.105977297
26.41699982	-5.111021996	-34.07308578	11.58161068	-36.76960373	-28.92163658	69.61971283	-16.67133522	0.36949122
26.61675072	-5.759531498	-46.92481613	11.4446907	-57.16337967	-30.35185814	59.01278305	-19.79023361	20.27037621
26.81649971	-6.486410141	-60.72695923	11.22344398	-78.97188568	-31.54509163	60.30376053	-16.91971397	49.89723587
27.0162487	-8.381023407	-74.50498962	10.58720398	-102.4256592	-31.2561512	60.08075333	-13.29855919	54.70334625
27.2159996	-12.00011921	-83.47377014	8.966589928	-123.6126709	-29.71229362	55.49577713	-9.628611565	42.55112457
27.4157505	-14.30936623	-54.22716522	6.925755978	-135.7776031	-28.58962059	34.00132751	-7.265919685	23.50226402
27.6154995	-10.77133369	-49.14406204	6.499628544	-141.0910492	-29.46264839	10.64479828	-5.997161388	2.550301313
27.8152504	-8.622802734	-62.27529526	6.793992996	-151.5174408	-31.57669258	-12.65172958	-5.914188385	-16.01182556
28.01499939	-7.983753204	-78.57227325	7.292403221	-165.9366302	-34.76577377	-38.02358627	-5.964682579	-34.34442139
28.21474838	-7.783460617	-93.83700562	7.550859928	177.4481506	-39.02941895	-72.41495514	-6.340775013	-50.66131592
28.41450119	-8.073527336	-109.0337524	7.632338524	160.620697	-41.33367157	-142.9542542	-6.801916599	-65.84577942
28.61425018	-8.60140419	-124.7540817	7.716358662	143.5613251	-36.75651932	160.9572144	-7.616985798	-80.60710907
28.81399918	-9.328073502	-138.4036407	7.649912357	126.1909409	-32.3369751	132.4102783	-8.432736397	-95.91958618
29.01375008	-10.18448448	-152.1693726	7.622863293	109.1209564	-29.07713318	112.3490219	-9.368646622	-109.6569214
29.21349907	-11.03142166	-164.1255798	7.506169796	91.02275848	-26.56294441	94.43170166	-10.28052139	-124.097908
29.41324997	-12.02021885	-176.558136	7.232588768	73.52565765	-24.3953228	77.17547607	-11.0515976	-140.4317322
29.61300087	-12.35784626	174.0721283	6.826697826	57.32298279	-22.35948372	59.76564407	-11.0939455	-156.3011169
29.81274986	-12.23805046	164.0794067	6.83214426	42.47444153	-20.09707069	40.96760559	-10.88558578	-175.0619354
30.01250076	-10.6651144	151.5231628	6.8923316	26.8210907	-18.27554321	16.3535347	-10.00952148	159.5822601
30.21224976	-9.164349556	129.1962891	7.021867275	8.283909798	-17.05398369	-16.56562042	-8.851566315	124.695137
30.41199875	-8.742527008	100.9064789	7.308616638	-13.7291069	-19.06700134	-51.41805649	-9.449007034	88.97241974
30.61175156	-9.91873455	78.93177795	6.268477917	-32.57675934	-21.86501884	-68.00741577	-10.53170967	60.9419632
30.81150055	-10.74767399	62.66682053	5.553525925	-49.52418137	-24.41005707	-77.47531891	-11.18502903	41.68642807
31.01124954	-11.48326302	50.7117424	5.404966354	-64.92084503	-26.14905357	-77.96658325	-11.55089569	26.10535622
31.21100044	-11.81710911	40.41646576	4.598530293	-84.71382141	-26.80880165	-77.84940338	-12.79990482	8.746451378
31.41074944	-12.41949463	48.48384857	3.066443682	-98.44280243	-27.0981369	-77.95293427	-14.91057587	-4.825468063
31.61049843	-11.24891186	30.82032013	2.701739311	-106.7591171	-26.3337841	-85.70433807	-15.66865158	22.1189003
31.81025124	-11.0650568	21.37251854	3.393204212	-118.1927338	-25.91117859	-92.15232086	-11.22602367	18.87895012
32.01000214	-11.03404617	12.71661282	3.671536446	-137.6550751	-25.96831894	-104.3133926	-9.406992912	-0.692050338
32.20975113	-10.53931904	2.940117598	2.580033541	-155.6177521	-27.75590324	-111.684433	-8.751864433	-22.37192726
32.40950012	-10.00530052	-4.086601734	2.786245346	-166.5268555	-26.74237061	-111.9332657	-8.562439919	-40.89277649
32.60924911	-9.652880669	-12.4878931	2.521828651	178.5113983	-26.8178215	-127.9518738	-8.740611076	-60.97001266
32.80900192	-9.368170738	-19.03733635	2.621112347	161.2788086	-28.0660305	-130.8361969	-9.151591301	-79.97705078
33.00875092	-9.169800758	-28.12155533	2.994477987	147.7488098	-28.38827515	-140.2278595	-9.880026817	-101.0211487
33.20849991	-8.763290405	-37.35616684	2.956228733	127.6765976	-29.4692421	-142.0845184	-11.28140354	-128.3215179
33.4082489	-8.701324463	-46.92619705	2.964021444	108.3295898	-28.77799416	-141.6191559	-12.36665535	-165.3587952
33.60799789	-8.468657494	-55.49863434	2.70531106	89.96157074	-28.61076927	-146.2486572	-12.60255241	151.3874359
33.8077507	-8.490720749	-64.68830109	2.24055171	70.89942932	-28.60594559	-157.879364	-11.4759388	104.9605331
34.00749969	-8.625451088	-73.95539856	2.149202108	53.15794754	-29.20336151	-164.5465851	-8.855304718	68.21433258
34.20724869	-8.95153141	-82.14918518	1.759566665	32.02414703	-29.42700195	-165.3336487	-6.980513096	42.0104332
34.40699768	-9.217983246	-91.17243195	0.672512949	10.96082687	-30.80118561	-172.6695404	-5.777031422	19.0618515
34.60675049	-9.478265762	-100.3239288	-0.24707979	-0.046773519	-31.56963348	-168.8122559	-4.61791563	-2.768346071
