!Hittite Microwave Corporation								
!20 Alpha Rd								
!Chelmsford, MA 01824								
!Tel: 978-250-3343								
!Fax: 978-250-3373
!Device: HMC-C019, DC - 20 GHz GaAs MMIC SPsT Non-Reflective Switch Module
!Misc: Bias: +5VDC, INSERTION LOSS STATE			 
!
# GHZ S DB R 50.0
 0.010000	 -12.29	  -1.11	  -2.45	  -1.48	  -2.45	  -1.55	 -12.22	  -1.05
 0.159950	 -13.55	 -14.47	  -2.47	 -17.57	  -2.50	 -17.59	 -13.47	 -13.85
 0.309900	 -13.91	 -26.67	  -2.51	 -33.19	  -2.53	 -33.20	 -13.80	 -25.51
 0.459850	 -14.35	 -39.66	  -2.55	 -48.82	  -2.57	 -48.79	 -14.18	 -37.77
 0.609800	 -14.99	 -52.27	  -2.59	 -64.48	  -2.61	 -64.46	 -14.77	 -50.26
 0.759750	 -16.04	 -66.14	  -2.64	 -80.15	  -2.65	 -80.10	 -15.65	 -63.50
 0.909700	 -17.47	 -79.42	  -2.70	 -95.76	  -2.72	 -95.64	 -16.87	 -76.38
 1.059650	 -19.38	 -92.78	  -2.76	-111.27	  -2.77	-111.27	 -18.62	 -88.91
 1.209600	 -22.31	-104.52	  -2.82	-126.67	  -2.82	-126.63	 -20.98	-100.90
 1.359550	 -26.88	-112.45	  -2.89	-142.05	  -2.89	-142.03	 -24.63	-110.27
 1.509500	 -35.31	 -98.43	  -2.95	-157.32	  -2.95	-157.36	 -31.30	-108.33
 1.659450	 -32.83	  -7.79	  -2.99	-172.53	  -3.00	-172.56	 -35.61	 -29.06
 1.809400	 -25.94	  -3.31	  -3.03	 172.27	  -3.04	 172.26	 -27.01	  -5.75
 1.959350	 -22.14	 -11.86	  -3.05	 157.11	  -3.06	 157.12	 -22.43	 -12.81
 2.109300	 -19.49	 -23.11	  -3.07	 141.96	  -3.08	 141.99	 -19.57	 -24.36
 2.259250	 -17.59	 -35.50	  -3.08	 126.83	  -3.08	 126.80	 -17.56	 -37.08
 2.409200	 -16.15	 -48.53	  -3.07	 111.67	  -3.06	 111.65	 -16.10	 -50.45
 2.559150	 -15.01	 -62.02	  -3.05	  96.43	  -3.05	  96.41	 -14.98	 -64.20
 2.709100	 -14.20	 -75.78	  -3.02	  81.12	  -3.02	  81.04	 -14.14	 -78.17
 2.859050	 -13.57	 -89.68	  -3.00	  65.77	  -2.99	  65.62	 -13.55	 -92.32
 3.009000	 -13.12	-103.67	  -2.96	  50.26	  -2.97	  50.16	 -13.15	-106.42
 3.158950	 -12.91	-117.27	  -2.94	  34.69	  -2.95	  34.60	 -12.91	-120.25
 3.308900	 -12.79	-130.53	  -2.93	  19.10	  -2.94	  18.99	 -12.81	-133.81
 3.458850	 -12.84	-143.87	  -2.92	   3.46	  -2.93	   3.35	 -12.83	-147.22
 3.608800	 -13.04	-156.39	  -2.92	 -12.16	  -2.94	 -12.27	 -12.97	-160.11
 3.758750	 -13.35	-168.62	  -2.92	 -27.83	  -2.96	 -27.89	 -13.26	-172.61
 3.908700	 -13.79	 179.64	  -2.94	 -43.47	  -2.98	 -43.55	 -13.63	 175.47
 4.058650	 -14.33	 169.19	  -2.97	 -59.04	  -2.99	 -59.07	 -14.05	 164.33
 4.208600	 -14.93	 159.56	  -3.00	 -74.63	  -3.02	 -74.59	 -14.57	 153.92
 4.358550	 -15.62	 151.28	  -3.01	 -90.15	  -3.05	 -90.17	 -15.16	 144.36
 4.508500	 -16.31	 145.06	  -3.04	-105.78	  -3.07	-105.73	 -15.83	 135.45
 4.658450	 -16.95	 139.98	  -3.09	-121.33	  -3.09	-121.23	 -16.54	 128.09
 4.808400	 -17.44	 137.01	  -3.12	-136.78	  -3.11	-136.71	 -17.28	 122.39
 4.958350	 -17.62	 135.08	  -3.14	-152.29	  -3.14	-152.23	 -17.91	 118.19
 5.108300	 -17.55	 133.18	  -3.15	-167.83	  -3.16	-167.75	 -18.35	 116.21
 5.258250	 -17.15	 131.26	  -3.17	 176.66	  -3.18	 176.78	 -18.53	 115.16
 5.408200	 -16.57	 127.83	  -3.19	 161.17	  -3.20	 161.29	 -18.30	 114.36
 5.558150	 -15.97	 123.37	  -3.22	 145.69	  -3.22	 145.83	 -17.79	 113.11
 5.708100	 -15.29	 117.71	  -3.23	 130.22	  -3.24	 130.29	 -17.05	 110.23
 5.858050	 -14.66	 110.84	  -3.24	 114.76	  -3.25	 114.81	 -16.18	 105.64
 6.008000	 -14.11	 103.72	  -3.26	  99.21	  -3.27	  99.36	 -15.35	  99.77
 6.157950	 -13.58	  96.02	  -3.30	  83.72	  -3.29	  83.79	 -14.62	  92.54
 6.307900	 -13.17	  87.97	  -3.31	  68.25	  -3.29	  68.23	 -13.91	  84.67
 6.457850	 -12.80	  79.68	  -3.32	  52.73	  -3.31	  52.74	 -13.30	  76.36
 6.607800	 -12.49	  71.12	  -3.33	  37.20	  -3.32	  37.25	 -12.77	  67.31
 6.757750	 -12.25	  62.63	  -3.35	  21.67	  -3.34	  21.71	 -12.31	  58.02
 6.907700	 -12.04	  54.07	  -3.36	   6.14	  -3.35	   6.18	 -11.94	  48.45
 7.057650	 -11.89	  45.38	  -3.37	  -9.40	  -3.35	  -9.33	 -11.63	  38.53
 7.207600	 -11.80	  36.68	  -3.38	 -24.93	  -3.36	 -24.83	 -11.41	  28.34
 7.357550	 -11.73	  27.76	  -3.38	 -40.47	  -3.37	 -40.51	 -11.25	  17.95
 7.507500	 -11.75	  18.61	  -3.37	 -56.02	  -3.35	 -56.02	 -11.22	   7.38
 7.657450	 -11.80	   9.52	  -3.37	 -71.55	  -3.36	 -71.53	 -11.28	  -3.35
 7.807400	 -11.93	   0.16	  -3.37	 -87.15	  -3.36	 -87.29	 -11.45	 -13.95
 7.957350	 -12.15	  -9.32	  -3.37	-102.79	  -3.36	-102.91	 -11.75	 -24.34
 8.107300	 -12.38	 -18.53	  -3.36	-118.43	  -3.36	-118.59	 -12.11	 -34.55
 8.257250	 -12.73	 -27.97	  -3.35	-134.13	  -3.33	-134.24	 -12.58	 -44.28
 8.407200	 -13.11	 -37.19	  -3.35	-149.88	  -3.34	-149.98	 -13.09	 -53.41
 8.557150	 -13.51	 -46.51	  -3.35	-165.64	  -3.35	-165.78	 -13.63	 -61.45
 8.707100	 -13.98	 -55.32	  -3.35	 178.57	  -3.34	 178.40	 -14.17	 -68.70
 8.857050	 -14.43	 -63.93	  -3.35	 162.77	  -3.35	 162.68	 -14.58	 -75.08
 9.007000	 -14.90	 -72.57	  -3.35	 146.95	  -3.36	 146.83	 -14.86	 -80.84
 9.156950	 -15.36	 -80.52	  -3.36	 131.14	  -3.35	 130.99	 -14.99	 -86.53
 9.306900	 -15.76	 -88.37	  -3.36	 115.30	  -3.35	 115.20	 -14.98	 -92.60
 9.456850	 -16.13	 -96.11	  -3.37	  99.43	  -3.38	  99.42	 -14.85	 -99.28
 9.606800	 -16.48	-103.32	  -3.38	  83.54	  -3.40	  83.45	 -14.67	-106.59
 9.756750	 -16.65	-110.39	  -3.39	  67.68	  -3.39	  67.52	 -14.50	-114.77
 9.906700	 -16.90	-117.34	  -3.40	  51.81	  -3.40	  51.72	 -14.31	-123.39
10.056650	 -16.96	-123.87	  -3.41	  35.96	  -3.43	  35.86	 -14.20	-132.22
10.206600	 -16.86	-130.21	  -3.43	  20.05	  -3.45	  19.89	 -14.13	-140.87
10.356550	 -16.77	-135.69	  -3.44	   4.13	  -3.45	   3.97	 -14.05	-149.32
10.506500	 -16.39	-142.97	  -3.46	 -11.84	  -3.47	 -11.92	 -14.05	-157.21
10.656450	 -15.86	-149.22	  -3.48	 -27.80	  -3.50	 -27.93	 -13.91	-164.51
10.806400	 -15.21	-156.60	  -3.50	 -43.79	  -3.51	 -43.99	 -13.71	-171.52
10.956350	 -14.47	-165.92	  -3.53	 -59.84	  -3.52	 -59.96	 -13.40	-178.22
11.106300	 -13.62	-174.60	  -3.56	 -75.94	  -3.57	 -75.88	 -12.90	 174.60
11.256250	 -12.88	 175.04	  -3.60	 -92.04	  -3.62	 -92.01	 -12.37	 166.98
11.406200	 -12.21	 164.29	  -3.64	-107.98	  -3.65	-108.08	 -11.78	 158.35
11.556150	 -11.59	 152.82	  -3.69	-123.94	  -3.71	-124.05	 -11.21	 149.04
11.706100	 -11.14	 141.09	  -3.75	-139.82	  -3.77	-139.98	 -10.70	 139.01
11.856050	 -10.82	 129.14	  -3.81	-155.70	  -3.84	-155.81	 -10.29	 128.50
12.006000	 -10.63	 117.02	  -3.88	-171.51	  -3.90	-171.70	 -10.02	 117.67
12.155950	 -10.64	 105.18	  -3.93	 172.75	  -3.95	 172.60	  -9.91	 106.69
12.305900	 -10.80	  93.48	  -3.98	 157.08	  -4.00	 156.98	  -9.93	  95.81
12.455850	 -11.14	  82.32	  -4.02	 141.46	  -4.04	 141.29	 -10.09	  85.26
12.605800	 -11.71	  71.68	  -4.03	 125.67	  -4.05	 125.59	 -10.41	  74.99
12.755750	 -12.49	  61.91	  -4.04	 109.96	  -4.06	 109.97	 -10.86	  65.59
12.905700	 -13.53	  53.46	  -4.05	  94.20	  -4.07	  94.24	 -11.48	  57.30
13.055650	 -14.76	  46.60	  -4.05	  78.48	  -4.05	  78.43	 -12.20	  50.07
13.205600	 -16.14	  42.50	  -4.03	  62.53	  -4.04	  62.55	 -12.93	  44.44
13.355550	 -17.51	  41.42	  -4.00	  46.52	  -4.03	  46.58	 -13.62	  40.32
13.505500	 -18.56	  43.51	  -3.99	  30.56	  -4.02	  30.57	 -14.21	  37.12
13.655450	 -19.03	  47.40	  -3.99	  14.63	  -4.02	  14.53	 -14.67	  34.82
13.805400	 -18.96	  49.83	  -4.00	  -1.39	  -4.01	  -1.57	 -15.00	  32.68
13.955350	 -18.63	  49.84	  -4.00	 -17.47	  -4.01	 -17.68	 -15.14	  30.50
14.105300	 -18.29	  47.19	  -4.00	 -33.57	  -4.02	 -33.76	 -15.29	  27.93
14.255250	 -18.12	  43.18	  -4.01	 -49.78	  -4.02	 -49.95	 -15.45	  24.67
14.405200	 -18.06	  38.50	  -4.03	 -65.93	  -4.03	 -66.15	 -15.59	  21.85
14.555150	 -18.25	  33.71	  -4.03	 -82.01	  -4.04	 -82.30	 -15.71	  19.62
14.705100	 -18.45	  29.57	  -4.04	 -98.23	  -4.04	 -98.47	 -15.70	  17.44
14.855050	 -18.62	  25.52	  -4.04	-114.59	  -4.05	-114.67	 -15.50	  15.07
15.005000	 -18.81	  21.35	  -4.04	-130.91	  -4.07	-130.94	 -15.17	  11.78
15.154950	 -18.88	  16.63	  -4.03	-147.14	  -4.06	-147.25	 -14.72	   6.95
15.304900	 -19.01	   9.97	  -4.02	-163.46	  -4.06	-163.50	 -14.27	   0.02
15.454850	 -19.32	   1.88	  -4.02	-179.89	  -4.07	-179.94	 -13.87	  -9.05
15.604799	 -20.03	  -8.34	  -4.02	 163.55	  -4.06	 163.49	 -13.65	 -20.14
15.754750	 -21.45	 -21.81	  -4.03	 146.79	  -4.06	 146.86	 -13.64	 -33.59
15.904700	 -23.95	 -39.50	  -4.05	 130.10	  -4.10	 130.09	 -14.00	 -49.20
16.054650	 -28.68	 -71.33	  -4.10	 113.21	  -4.16	 113.15	 -14.68	 -67.64
16.204600	 -30.87	-156.97	  -4.21	  96.35	  -4.24	  96.14	 -15.68	 -89.59
16.354550	 -23.79	 149.89	  -4.35	  79.40	  -4.37	  79.21	 -16.93	-116.58
16.504500	 -19.02	 126.24	  -4.54	  62.58	  -4.55	  62.50	 -17.97	-150.19
16.654450	 -15.68	 109.04	  -4.74	  45.95	  -4.77	  45.95	 -18.00	 171.48
16.804400	 -13.31	  93.84	  -4.97	  29.68	  -5.00	  29.74	 -16.81	 135.75
16.954350	 -11.59	  79.95	  -5.20	  13.83	  -5.24	  13.98	 -15.16	 106.28
17.104300	 -10.27	  66.92	  -5.42	  -1.64	  -5.45	  -1.41	 -13.58	  82.24
17.254250	  -9.26	  54.29	  -5.61	 -16.76	  -5.63	 -16.39	 -12.23	  61.49
17.404201	  -8.58	  42.29	  -5.73	 -31.52	  -5.75	 -31.02	 -11.18	  42.77
17.554149	  -8.09	  30.64	  -5.78	 -46.07	  -5.81	 -45.69	 -10.38	  25.33
17.704100	  -7.80	  18.93	  -5.77	 -60.61	  -5.77	 -60.27	  -9.82	   8.50
17.854050	  -7.77	   7.54	  -5.69	 -75.34	  -5.65	 -74.97	  -9.47	  -8.23
18.004001	  -7.96	  -4.01	  -5.53	 -90.22	  -5.45	 -90.04	  -9.36	 -24.91
18.153949	  -8.40	 -15.97	  -5.25	-105.56	  -5.20	-105.64	  -9.51	 -42.34
18.303900	  -9.26	 -27.61	  -4.94	-121.80	  -4.89	-121.99	  -9.98	 -60.63
18.453850	 -10.63	 -38.87	  -4.63	-138.80	  -4.57	-139.17	 -10.88	 -80.34
18.603801	 -12.83	 -47.90	  -4.35	-156.92	  -4.32	-157.12	 -12.41	-102.29
18.753749	 -16.19	 -48.49	  -4.17	-175.73	  -4.16	-175.98	 -14.90	-128.41
18.903699	 -19.25	 -25.43	  -4.12	 164.73	  -4.11	 164.75	 -18.67	-165.13
19.053650	 -16.86	   4.07	  -4.25	 145.00	  -4.26	 145.43	 -22.10	 128.79
19.203600	 -12.99	   6.11	  -4.60	 125.65	  -4.57	 126.23	 -18.81	  61.66
19.353551	 -10.43	  -3.16	  -5.07	 107.10	  -4.98	 107.57	 -14.82	  25.93
19.503499	  -8.71	 -14.70	  -5.63	  89.79	  -5.46	  89.97	 -12.20	   1.30
19.653450	  -7.51	 -27.72	  -6.14	  73.44	  -5.99	  73.36	 -10.39	 -19.14
19.803400	  -6.75	 -40.73	  -6.65	  57.88	  -6.53	  57.36	  -9.11	 -37.11
19.953351	  -6.18	 -53.02	  -7.11	  43.41	  -7.01	  41.99	  -8.20	 -53.60
20.103299	  -5.78	 -65.47	  -7.53	  29.12	  -7.43	  27.49	  -7.52	 -69.13
20.253250	  -5.54	 -77.41	  -7.87	  15.38	  -7.78	  13.55	  -7.02	 -83.95
20.403200	  -5.38	 -89.01	  -8.03	   1.73	  -8.06	  -0.21	  -6.66	 -98.29
20.553150	  -5.31	-100.82	  -8.13	 -11.99	  -8.22	 -13.86	  -6.41	-112.24
20.703101	  -5.34	-112.17	  -8.10	 -25.36	  -8.27	 -27.05	  -6.28	-126.05
20.853049	  -5.41	-123.68	  -8.01	 -38.98	  -8.25	 -40.35	  -6.21	-139.94
21.003000	  -5.60	-135.54	  -7.85	 -52.77	  -8.10	 -53.96	  -6.23	-153.85
21.152950	  -5.93	-146.91	  -7.52	 -67.26	  -7.81	 -67.69	  -6.37	-168.04
21.302901	  -6.34	-158.83	  -7.13	 -82.28	  -7.42	 -82.03	  -6.64	 177.36
21.452849	  -7.02	-170.84	  -6.65	 -97.74	  -6.97	 -97.23	  -7.15	 162.02
21.602800	  -8.07	 177.64	  -6.15	-114.32	  -6.44	-113.51	  -7.97	 145.91
21.752750	  -9.51	 167.01	  -5.65	-131.70	  -5.82	-131.00	  -9.30	 128.63
21.902701	 -11.80	 159.58	  -5.17	-150.84	  -5.28	-149.65	 -11.57	 110.33
22.052651	 -14.80	 163.19	  -4.86	-171.08	  -4.95	-170.31	 -15.83	  92.31
22.202599	 -15.99	-174.67	  -4.72	 167.92	  -4.78	 168.03	 -27.54	  84.83
22.352550	 -13.31	-158.52	  -4.87	 146.70	  -4.93	 146.75	 -21.20	-142.69
22.502500	 -10.31	-161.65	  -5.26	 126.02	  -5.41	 125.72	 -13.90	-158.10
22.652451	  -8.16	-172.18	  -5.81	 105.93	  -6.00	 105.87	 -10.46	-175.66
22.802399	  -6.76	 175.25	  -6.48	  87.13	  -6.70	  87.75	  -8.51	 167.65
22.952350	  -5.84	 162.18	  -7.17	  69.89	  -7.42	  70.79	  -7.27	 152.29
23.102300	  -5.25	 149.53	  -7.83	  53.97	  -8.09	  55.56	  -6.45	 138.17
23.252251	  -4.84	 137.29	  -8.42	  38.98	  -8.70	  40.50	  -5.94	 124.96
23.402199	  -4.61	 125.60	  -8.93	  24.55	  -9.09	  26.23	  -5.60	 112.37
23.552150	  -4.52	 114.39	  -9.37	  10.65	  -9.48	  13.23	  -5.38	 100.30
23.702100	  -4.48	 103.72	  -9.69	  -2.60	  -9.83	  -0.25	  -5.27	  88.96
23.852050	  -4.54	  93.31	  -9.88	 -15.58	  -9.87	 -13.58	  -5.29	  77.88
24.002001	  -4.74	  83.26	  -9.93	 -28.45	  -9.87	 -26.28	  -5.41	  66.73
24.151949	  -5.01	  73.56	  -9.82	 -41.60	  -9.77	 -39.42	  -5.61	  55.74
24.301900	  -5.42	  63.97	  -9.61	 -55.04	  -9.50	 -52.85	  -5.98	  44.57
24.451850	  -6.07	  54.25	  -9.25	 -68.77	  -9.10	 -67.15	  -6.52	  33.19
24.601801	  -6.94	  45.04	  -8.77	 -83.33	  -8.53	 -82.06	  -7.36	  21.63
24.751749	  -8.26	  36.89	  -8.16	 -98.83	  -7.95	 -97.57	  -8.62	   9.72
24.901700	 -10.24	  30.51	  -7.47	-115.74	  -7.37	-115.10	 -10.50	  -1.27
25.051650	 -13.02	  32.03	  -6.80	-134.31	  -6.69	-134.00	 -13.57	  -9.02
25.201601	 -15.23	  52.69	  -6.25	-154.29	  -6.19	-153.78	 -18.29	  -1.24
25.351551	 -13.16	  76.75	  -5.92	-175.67	  -5.93	-175.02	 -19.52	  44.28
25.501499	  -9.88	  78.80	  -5.88	 162.51	  -5.88	 163.36	 -14.82	  60.41
25.651450	  -7.64	  70.39	  -6.08	 141.03	  -6.05	 142.32	 -11.63	  53.96
25.801400	  -6.35	  59.03	  -6.48	 120.73	  -6.36	 122.48	  -9.88	  42.74
25.951351	  -5.71	  47.44	  -6.91	 101.72	  -6.73	 103.38	  -9.00	  30.50
26.101299	  -5.53	  36.12	  -7.35	  83.32	  -7.14	  84.67	  -8.69	  18.38
26.251250	  -5.67	  25.65	  -7.73	  65.75	  -7.42	  67.03	  -8.76	   7.39
26.401200	  -6.07	  16.18	  -8.02	  48.56	  -7.69	  49.83	  -9.17	  -3.09
26.551151	  -6.70	   7.72	  -8.21	  31.93	  -7.92	  32.35	  -9.86	 -12.70
26.701099	  -7.54	   0.97	  -8.34	  15.02	  -8.11	  14.96	 -10.87	 -21.58
26.851049	  -8.53	  -3.94	  -8.47	  -2.27	  -8.25	  -2.60	 -12.22	 -29.22
27.001000	  -9.60	  -5.87	  -8.57	 -19.94	  -8.37	 -20.07	 -13.99	 -35.14
27.150950	 -10.55	  -4.53	  -8.67	 -37.84	  -8.50	 -37.88	 -16.30	 -37.69
27.300901	 -11.18	  -0.36	  -8.75	 -55.68	  -8.62	 -56.15	 -19.21	 -33.45
27.450849	 -11.07	   5.23	  -8.82	 -73.89	  -8.76	 -74.40	 -22.24	 -14.11
27.600800	 -10.46	   9.52	  -9.06	 -92.37	  -8.97	 -92.62	 -21.98	  18.83
27.750750	  -9.52	  11.49	  -9.35	-110.85	  -9.21	-110.96	 -18.76	  37.30
27.900701	  -8.44	  10.53	  -9.67	-129.51	  -9.45	-129.40	 -15.55	  40.74
28.050649	  -7.38	   7.82	  -9.97	-147.35	  -9.77	-147.63	 -13.01	  37.70
28.200600	  -6.43	   3.41	 -10.30	-165.16	 -10.09	-165.15	 -10.97	  31.47
28.350550	  -5.57	  -2.33	 -10.67	 177.89	 -10.44	 177.70	  -9.36	  23.58
28.500500	  -4.84	  -8.85	 -10.97	 161.12	 -10.73	 160.38	  -8.02	  14.60
28.650451	  -4.23	 -15.98	 -11.25	 144.77	 -10.97	 143.96	  -6.97	   4.71
28.800399	  -3.74	 -23.72	 -11.36	 129.33	 -11.15	 128.11	  -6.14	  -5.92
28.950350	  -3.38	 -32.08	 -11.37	 113.56	 -11.21	 111.77	  -5.48	 -16.92
29.100300	  -3.11	 -40.41	 -11.31	  97.53	 -11.06	  95.39	  -5.01	 -28.24
29.250251	  -2.95	 -49.54	 -11.02	  80.64	 -10.85	  78.39	  -4.74	 -40.28
29.400199	  -3.01	 -59.07	 -10.59	  62.14	 -10.49	  60.10	  -4.68	 -52.84
29.550150	  -3.19	 -68.94	 -10.07	  43.34	 -10.05	  40.84	  -4.91	 -65.92
29.700100	  -3.72	 -78.54	  -9.44	  21.45	  -9.64	  19.04	  -5.61	 -79.13
29.850051	  -4.53	 -86.22	  -9.27	  -3.20	  -9.37	  -5.06	  -6.91	 -90.82
30.000001	  -5.41	 -90.36	  -9.39	 -29.05	  -9.52	 -30.33	  -8.78	 -96.51
