!Hittite Microwave Corporation								
!20 Alpha Road								
!Chelmsford, MA 01824								
!Tel: 978-250-3343								
!Fax: 978-250-3373								
!Device: HMC-C008, 1.8-2.2 GHz, 15W PA Module								
!Misc: Vdd = +14V, Idd = 6.5 A, Room Temperature								
!								
# GHZ S DB R 50								
								
0.001	-0.01	-0.32	-66.77	5.74	-72.65	118.84	-30.81	158.29
0.021	-0.02	-6.34	-56.48	13.35	-59.08	135.06	-14.42	-103.46
0.041	-0.03	-12.26	-52.49	-41.09	-64.18	114.28	-8.77	-118.79
0.061	-0.05	-18.16	-54.14	-100.57	-59.64	41.32	-5.8	-131.37
0.081	-0.06	-23.92	-50.9	167.65	-62.86	-130.36	-3.9	-142.61
0.101	-0.07	-29.73	-51.16	160.49	-66.76	-12.79	-2.86	-153.81
0.121	-0.05	-35.6	-44.74	-146.93	-63.01	152.66	-2.15	-163.43
0.141	-0.02	-41.41	-33.87	140.71	-68.57	-30.4	-1.77	-175.2
0.161	0	-47.12	-27.17	60.3	-71.57	152.76	-1.69	174.57
0.181	0.03	-52.97	-21.34	-7.1	-64.79	86.33	-1.32	164.29
0.201	0.02	-58.76	-15.97	-57.51	-57.87	111.38	-1.5	155.3
0.221	0.01	-64.56	-10.69	-109.11	-65.58	-158.63	-2.05	146.41
0.241	0	-70.53	-4.23	-161.98	-60.78	12.21	-2.96	136.22
0.261	-0.01	-76.48	2.07	124.71	-62.2	45.44	-5.32	127.45
0.281	-0.05	-82.25	2.88	37.49	-85.47	111.34	-8.97	131.81
0.301	-0.08	-87.75	0.25	-20.57	-59.09	8.15	-9.56	152.67
0.321	-0.11	-93.29	-1.65	-60.54	-61.13	119.24	-8.64	162.79
0.341	-0.15	-98.7	-2.83	-92.43	-69	79.26	-6.24	167.05
0.361	-0.2	-104.29	-3.38	-119.69	-60.88	62.87	-4.77	166.23
0.381	-0.26	-109.77	-3.4	-143.96	-60	14.57	-3.98	162.54
0.401	-0.3	-115.08	-2.95	-166.26	-57.16	164.11	-3.46	157.77
0.421	-0.36	-120.22	-1.98	172.39	-53.92	169.21	-2.88	153.54
0.441	-0.45	-125.29	-0.63	150.97	-64.61	6.28	-2.7	148.83
0.461	-0.53	-130.39	1.14	128.14	-55.23	-178.25	-2.51	144.37
0.481	-0.64	-135.44	3.19	103.95	-66.7	-155.96	-2.08	138.35
0.501	-0.74	-140.34	5.4	77.53	-61.35	-169.82	-1.95	133.63
0.521	-0.85	-144.84	7.57	48.86	-65.25	-105.58	-1.72	131.16
0.541	-0.94	-148.96	9.77	17.87	-57.37	170.73	-1.66	127.38
0.561	-1.03	-152.69	11.86	-15.26	-56.83	-64.6	-1.64	123.42
0.581	-1.06	-156.19	13.67	-50.62	-56.48	-175.17	-1.65	120.01
0.601	-1.02	-159.81	15.11	-87.51	-57.52	114.77	-1.44	112.5
0.621	-0.91	-163.76	16.16	-125.11	-67.09	-110.55	-1.15	109.39
0.641	-0.77	-168.09	16.79	-162.86	-57.54	-171.77	-1.21	107.81
0.661	-0.6	-172.68	17.02	160.11	-60.95	-134.75	-1.12	102.7
0.681	-0.49	-177.4	16.88	124.45	-55.49	165.11	-1.32	99.78
0.701	-0.42	177.49	16.46	91.05	-59.55	-155.17	-1.06	96.62
0.721	-0.38	172.34	15.87	59.42	-55.69	-99.01	-1.33	93.16
0.741	-0.37	167.1	15.2	30.11	-57.57	-75.12	-1.39	86.93
0.761	-0.38	162.01	14.51	3.58	-61.83	-54.69	-1.08	82.43
0.781	-0.4	157.12	14.07	-21.74	-57.35	71.37	-1.03	79.82
0.801	-0.44	152.27	13.71	-46.44	-69.3	-147.85	-1.04	77.48
0.821	-0.51	147.56	13.19	-70.18	-66.85	-79.9	-0.99	74.63
0.841	-0.62	142.88	12.68	-90.24	-59.05	115.18	-1.25	70.34
0.861	-0.62	138.45	13.27	-107.03	-63.52	108.35	-1.43	64.24
0.881	-0.64	133.19	14.2	-132.28	-60.16	-40.98	-1.33	61.02
0.901	-0.73	128.23	14.09	-157.84	-59.24	-65.45	-1.18	55.69
0.921	-0.86	123.65	14.17	-177.68	-64.47	65.27	-0.84	53.91
0.941	-0.96	119.22	14.72	161.93	-61.08	87.7	-1.17	51.46
0.961	-1.1	114.75	15.36	140.82	-59.51	149.16	-0.89	47.95
0.981	-1.22	110.09	16.11	120.29	-54.13	110.01	-1.24	44.96
1.001	-1.35	105.58	17.06	99.83	-59.09	-130.17	-1.39	40.33
1.021	-1.48	101.17	18.32	78.44	-65	-11.58	-1.87	36.62
1.041	-1.6	97	19.75	55.29	-61	60.33	-1.65	29.38
1.061	-1.73	92.88	21.25	29.9	-60.84	46.37	-1.55	25.99
1.081	-1.87	88.5	22.64	2.48	-73.64	-46.6	-1.39	23.29
1.101	-2.04	83.74	23.84	-26.12	-58.33	40.07	-1.82	20.67
1.121	-2.28	79.26	24.81	-55.35	-52.65	-70.86	-1.65	17.37
1.141	-2.55	74.97	25.56	-84.23	-68.4	-86.31	-2.12	13.19
1.161	-2.81	71.99	26.22	-112.19	-60.5	28.73	-2.46	8.05
1.181	-2.98	69.82	26.86	-139.2	-71.48	173.96	-2.44	3.77
1.201	-2.99	67.86	27.63	-165.57	-67.9	-128.39	-2.01	-2.39
1.221	-2.82	65.01	28.61	167.62	-62.32	-31.43	-1.84	-5.85
1.241	-2.56	61.03	29.77	139.03	-68.81	-159.25	-2.14	-10.67
1.261	-2.31	55.88	30.79	108.32	-57.3	-98.59	-2.3	-12.42
1.281	-2.17	49.41	31.51	76.26	-63.03	129.74	-2.72	-16.91
1.301	-2.07	43	31.93	44.45	-68.2	-27.55	-2.83	-24.07
1.321	-2.13	36.36	32.09	13.72	-64.14	140.11	-2.85	-30.56
1.341	-2.3	29.53	32.14	-15.13	-71.13	-56.76	-2.61	-36.03
1.361	-2.52	22.48	32.25	-42.43	-66.78	157.12	-2.53	-40.32
1.381	-2.78	15.27	32.56	-68.39	-60.59	-153.18	-2.44	-45.04
1.401	-3.08	8.08	33.22	-94.78	-65.53	-40.89	-2.71	-50.2
1.421	-3.42	0.85	34.06	-122.8	-60.53	20.86	-3.21	-55.59
1.441	-3.99	-7.14	34.9	-153.08	-56.36	-171.06	-3.53	-64.17
1.461	-4.5	-14.74	35.45	174.92	-72.84	132.21	-4.08	-72.59
1.481	-5.32	-22.9	35.65	143.2	-64.92	-107.45	-3.73	-80.09
1.501	-6.22	-31.47	35.58	112.75	-63.3	43.48	-3.67	-86.21
1.521	-7.25	-39.45	35.43	84.74	-60.48	179.83	-4.15	-89.23
1.541	-8.58	-46.23	35.46	58.69	-60.25	152.49	-4.47	-97.3
1.561	-9.95	-51.73	35.86	33.21	-64.56	-34.5	-5.49	-104.76
1.581	-11.82	-54.93	36.59	6.62	-63.55	-119.07	-6.04	-114.36
1.601	-13.73	-57.67	37.43	-22.24	-64.85	-1.49	-6.11	-124.41
1.621	-15.46	-57.49	38.14	-53.34	-62.35	146.64	-6.08	-135.05
1.641	-18.95	-50.75	38.54	-85.02	-52.47	71.35	-5.91	-143.59
1.661	-19.14	-42.67	38.72	-115.52	-63.71	-176.99	-6.8	-146.32
1.681	-19.75	-28.59	38.87	-144.83	-57.38	-142.33	-8.27	-152.63
1.701	-18.12	-20.39	39.15	-172.91	-65.88	-7.71	-9.45	-168.66
1.721	-16.94	-16.59	39.78	158.76	-64.93	75.17	-10.72	175.22
1.741	-15.4	-13.27	40.61	128.61	-56.06	-69.54	-10.75	159.67
1.761	-15.68	-18.2	41.39	95.55	-55.18	107.11	-11.31	149.17
1.781	-14.62	-26.67	41.93	61.23	-62.03	-179.98	-11.46	148.79
1.801	-13.76	-35.79	42.2	26.71	-67.6	-76.89	-13.39	139.38
1.821	-12.71	-50.65	42.25	-7.2	-54.12	76.58	-15.64	135.4
1.841	-12.76	-57.33	42.17	-40.08	-64.02	155.37	-19.07	116.65
1.861	-13.28	-57.66	42.08	-72.2	-51.78	-14.14	-19.23	102.29
1.881	-14.5	-75.29	42	-103.84	-60.77	93.66	-18.03	105.02
1.901	-15.57	-77.93	41.98	-134.73	-52.05	135.96	-14.66	93.79
1.921	-15.24	-91.19	42.18	-166.1	-58.81	-129.76	-15.96	95.49
1.941	-14.46	-96.97	42.34	161.57	-57.04	-136.08	-18.78	102.82
1.961	-14.21	-111.97	42.49	128.77	-63.29	140.28	-20.68	96.44
1.981	-14.1	-121.47	42.61	95.61	-81.82	-113.42	-24.95	65.59
2.001	-14.33	-133.8	42.76	61.89	-54.25	109.05	-25.47	51.22
2.021	-12.86	-150.5	42.88	27.64	-60.22	104.43	-24.04	44.86
2.041	-12.23	-173.93	42.92	-7.53	-61.33	-20.21	-21.76	75.27
2.061	-12.4	169.84	42.79	-42.81	-75	-15.95	-20.44	90.96
2.081	-12.95	152.78	42.59	-78.06	-78.65	-161.03	-20.11	117.21
2.101	-13.63	131.89	42.38	-113.03	-57.8	149.24	-21.01	131.28
2.121	-14.15	124.39	42.23	-147.95	-56.91	-93.83	-22.65	122.24
2.141	-14.76	115.77	42.13	176.22	-54.76	-50.22	-22.62	83.11
2.161	-15.33	106.72	41.95	139.24	-50.97	-23.19	-22.77	85.46
2.181	-16.83	126.17	41.68	101.11	-58.43	-158.39	-17.16	77.09
2.201	-15.91	127.86	41.17	62.18	-60.52	-127.92	-15.77	84.17
2.221	-14.86	126.89	40.45	22.99	-71.14	91.96	-13.12	88.97
2.241	-12.81	122.6	39.5	-15.4	-62.33	172.7	-13.06	100.1
2.261	-10.71	115.53	38.51	-53.56	-65.9	148.59	-12.6	100.73
2.281	-9.18	106.3	37.51	-91.73	-55.33	-177.36	-12.41	96.74
2.301	-8.18	95.34	36.49	-130.73	-60.07	-17.93	-12.05	80.58
2.321	-7.19	86.32	35.34	-171.65	-56.62	-128.51	-9.39	70.15
2.341	-6.41	77.06	33.86	145.32	-63.89	139.8	-7.03	60.89
2.361	-5.54	65.86	31.69	101.64	-52.64	-89.25	-5.17	52.87
2.381	-4.85	54.54	28.79	61.55	-61.31	-27.12	-4.47	49.93
2.401	-4.49	43.56	26.22	20.97	-56.77	-60.97	-4.62	47.07
2.421	-4.31	33.31	22.93	-15.47	-60.12	-8.03	-4.23	36.16
2.441	-4.27	24.18	19.8	-50.13	-60.07	53.58	-3.56	22.56
2.461	-4.12	16.01	16.66	-85.33	-58.69	-32.43	-2.9	12.19
2.481	-3.85	7.6	13.07	-120.58	-60.5	22.83	-1.75	3.55
2.501	-3.57	-1.64	8.91	-153.74	-60.41	-96.42	-1.49	-1.2
2.521	-3.42	-10.73	4.41	176.82	-55	11.6	-1.47	-7.73
2.541	-3.39	-19.67	-0.54	150.5	-56.77	-111.89	-1.64	-15.98
2.561	-3.46	-28.12	-6.27	130.37	-60.76	137.88	-1.76	-25.99
2.581	-3.49	-36.37	-12.81	126.83	-64.86	172.23	-1.65	-35.4
2.601	-3.5	-44.62	-16.52	153.52	-72.37	-149.18	-1.22	-42.93
2.621	-3.49	-52.86	-13.43	170.19	-50.52	-100.44	-1.05	-47.2
2.641	-3.53	-61	-8.7	153.53	-66.27	-103.31	-0.75	-51.42
2.661	-3.62	-68.87	-6.41	111.88	-67.4	124.66	-0.88	-55.37
2.681	-3.79	-76.73	-6.19	67.07	-67.8	94.6	-1.17	-62.3
2.701	-3.99	-84.45	-7.19	19.76	-55.37	-132.34	-1.41	-69.83
2.721	-4.11	-91.98	-9.52	-30.08	-53.77	-169.28	-1.34	-78.73
2.741	-4.22	-99.82	-13.47	-80.34	-58.58	-169.85	-0.93	-86.63
2.761	-4.33	-107.7	-18.93	-129.52	-55.59	133.56	-0.83	-91.13
2.781	-4.52	-115.45	-24.64	166.24	-51.59	154.72	-0.71	-95.95
2.801	-4.76	-123.05	-27.09	85	-67.58	14.07	-1.53	-100
2.821	-5.07	-130.53	-25.25	6.87	-56.68	-91.73	-3.04	-101.51
2.841	-5.41	-137.91	-24.99	-44.19	-62.37	126.56	-3.02	-98.63
2.861	-5.82	-144.81	-27.07	-83.07	-55.47	94.41	-2.32	-105.64
2.881	-6.25	-151.09	-29.03	-108.07	-65.88	95.52	-1.27	-115.66
2.901	-6.75	-156.34	-29.74	-148.07	-70.95	22.5	-0.76	-120.47
2.921	-7.27	-160.56	-30.47	-160.47	-54.65	-80.48	-0.36	-123.67
2.941	-7.78	-163.35	-32.9	179.86	-63.67	41.89	-0.4	-126.93
2.961	-8.17	-165.17	-32.16	157.31	-61.76	3.56	-0.68	-131.83
2.981	-8.25	-165.57	-31.56	129.44	-62.17	43.59	-1.02	-138.93
3.001	-7.99	-165.77	-33.43	101.54	-53.99	-69.85	-1.48	-144.61
3.021	-7.4	-166.68	-33.44	63.34	-61.9	43.63	-1.12	-153.22
3.041	-6.63	-169.3	-34.41	22.91	-58.96	63.49	-0.74	-160.76
3.061	-5.88	-173.63	-39.69	-40.39	-65.77	-43.08	-0.75	-164.39
3.081	-5.19	-179.74	-44.64	-50.45	-57.56	-36.62	-0.39	-165.35
3.101	-4.61	173.16	-44.6	-12.37	-53.08	-105.73	-1.31	-168.66
3.121	-4.15	165.87	-43.36	-39.48	-58.5	95.61	-1.67	-175.23
3.141	-3.81	158.58	-44.75	-83.74	-55.57	166.74	-2.47	-177.68
3.161	-3.57	151.55	-42.82	-104.91	-62.32	-49.43	-2.42	174.5
3.181	-3.44	144.56	-45.76	-149.87	-54.39	-115.21	-2.22	171.13
3.201	-3.4	137.58	-55.67	-169.22	-59.32	-80.31	-1.57	172.4
3.221	-3.37	130.93	-46.52	145.45	-57.6	-159.04	-1.66	169.08
3.241	-3.37	124.48	-55.55	113.8	-51.22	-169.35	-1.49	166.42
3.261	-3.38	118.78	-56.11	164.99	-65.94	-0.33	-2.1	165.26
3.281	-3.41	113.48	-53.03	-171.06	-59.29	-48.51	-2.29	160.28
3.301	-3.46	108.53	-58.91	-92.46	-57.14	88.08	-2.38	149.56
3.321	-3.54	103.58	-49.78	-136.11	-62.26	-73.48	-1.74	144.49
3.341	-3.59	98.72	-49.43	-154.58	-58.4	-152.69	-1.64	143.39
3.361	-3.63	94.42	-51.11	161.37	-64.86	-62.87	-1.31	139.65
3.381	-3.65	90.5	-48.22	128.98	-66.32	25.46	-1.46	137.89
3.401	-3.69	87.27	-49.94	102.89	-58.03	-170.6	-2.14	134.61
3.421	-3.72	84.02	-55.4	49.72	-60.92	9.25	-2.79	131.55
3.441	-3.74	80.84	-52.44	56.29	-56.78	-39.77	-2.82	124.5
3.461	-3.72	77.37	-46.86	25.57	-57.72	-96.24	-2.8	119.07
3.481	-3.6	73.7	-46.86	-52.55	-58.25	4.84	-2.31	115.5
3.501	-3.44	70.11	-51.43	-88.42	-53.67	-178.05	-2.09	113.97
3.521	-3.25	66.62	-64.44	-16.51	-62.84	-138.39	-2.03	112.25
3.541	-3.08	63.16	-51.81	-160.78	-57.4	-92.45	-2.53	111.38
3.561	-2.94	59.55	-59.22	-135.32	-54.39	-146.2	-3.03	111.01
3.581	-2.82	55.67	-47.78	-74.67	-64.31	16.81	-3.55	106.73
3.601	-2.68	51.6	-61.38	-93.05	-55.03	-43.58	-3.1	99.54
3.621	-2.59	47.35	-55.07	30.08	-59.07	88.19	-2.61	96.11
3.641	-2.49	43.49	-54.43	-5.87	-55.44	153.46	-2.09	90.89
3.661	-2.4	39.66	-52.44	-78.43	-52.67	-25.85	-2.37	91.15
3.681	-2.32	35.88	-61.19	33.56	-59.07	-85.44	-2.41	92.82
3.701	-2.27	31.96	-56.96	-22.28	-52.92	111.25	-2.76	91.82
3.721	-2.21	28.16	-52.48	-109.72	-63.09	81.74	-3.23	86.3
3.741	-2.15	24.21	-53.22	159.5	-61.81	-62.87	-3.22	80.8
3.761	-2.1	20.58	-57.87	39.39	-62.21	-124.71	-2.79	77.55
3.781	-2.04	16.89	-62.34	176.32	-55.43	169.42	-2.92	72.92
3.801	-1.98	13.23	-55	7.51	-52.48	64.14	-2.08	73.52
3.821	-1.94	9.51	-54.54	166.1	-56.61	167.71	-2.29	73.25
3.841	-1.88	5.86	-48.84	135.13	-54.64	38.76	-2.35	70.38
3.861	-1.83	2.14	-59.5	38.87	-54.46	-171.69	-2.66	72.11
3.881	-1.79	-1.56	-70.75	-52.54	-70.03	67.5	-2.86	66.78
3.901	-1.77	-5.07	-57.55	-17.28	-54.58	-120.28	-2.87	62.89
3.921	-1.73	-8.81	-53.38	-99.82	-52.42	170.28	-2.85	56.82
3.941	-1.71	-12.76	-66.55	124.49	-58.71	-116.21	-2.15	55.58
3.961	-1.69	-16.78	-64.52	171.66	-60.43	-22.18	-1.55	52.94
3.981	-1.67	-20.77	-59.08	112.78	-56.12	-84.18	-1.76	52.77
4.001	-1.65	-24.63	-53.68	-125.39	-61.65	49.79	-2.18	50.55
