!Hittite Microwave Corporation								
!12 Elizabeth Drive								
!Chelmsford, MA 01824							
!Tel: 978-250-3343								
!Fax: 978-250-3373								
!Device: HMC195, DC-2.5 GHz GaAS MMIC T/R switch in SOT26 package								
!Misc: Port1 = RFCom, Port2 = RF1, Port3=RF2, RF2 selected								
!
# MHZ S MA R 50

30 8.54e-3 -93.975 6.033e-3 45.861 0.973 0.297
          5.997e-3 46.254 0.966 -8.564 6.007e-3 47.523
          0.975 0.238 6.139e-3 46.729 8.174e-3 -93.467
54.85 0.015 -89.325 9.467e-3 63.225 0.975 0.397
          9.436e-3 63.683 0.962 -14.931 9.315e-3 63.079
          0.975 0.378 9.458e-3 62.789 0.015 -89.198
79.7 9.22e-3 -88.374 0.013 67.153 0.976 -0.142
          0.013 67.361 0.96 -21.405 0.013 66.131
          0.976 -0.172 0.013 65.846 9.082e-3 -89.907
104.55 8.741e-3 -85.856 0.016 67.776 0.976 -0.382
          0.016 67.911 0.956 -27.898 0.016 65.336
          0.975 -0.398 0.016 64.938 8.144e-3 -88.085
129.4 9.689e-3 -83.686 0.02 68.316 0.975 -0.486
          0.02 68.526 0.952 -34.267 0.019 64.395
          0.974 -0.488 0.019 64.004 8.667e-3 -86.991
154.25 0.011 -81.653 0.023 67.9 0.974 -0.51
          0.023 68.028 0.947 -40.407 0.022 63.391
          0.974 -0.537 0.022 63.159 9.632e-3 -87.353
179.1 0.012 -80.541 0.027 66.95 0.974 -0.579
          0.027 66.707 0.942 -46.436 0.026 62.138
          0.973 -0.59 0.026 62.036 0.011 -87.546
203.95 0.014 -80.647 0.03 64.916 0.974 -0.608
          0.03 65.092 0.937 -52.285 0.029 59.874
          0.973 -0.648 0.029 59.488 0.013 -88.644
228.8 0.016 -81.776 0.033 63.359 0.973 -0.622
          0.033 63.763 0.931 -58.006 0.032 57.681
          0.972 -0.666 0.032 57.154 0.015 -89.725
253.65 0.018 -82.613 0.035 62.165 0.971 -0.635
          0.035 62.406 0.924 -63.531 0.034 55.459
          0.972 -0.679 0.034 55.147 0.017 -90.307
278.5 0.02 -82.917 0.038 61.114 0.97 -0.662
          0.038 60.882 0.917 -68.837 0.037 53.21
          0.971 -0.698 0.036 53.36 0.019 -90.491
303.35 0.023 -83.016 0.04 60.02 0.97 -0.71
          0.04 59.351 0.91 -73.951 0.039 51.112
          0.97 -0.705 0.039 51.569 0.021 -90.584
328.2 0.025 -83.812 0.042 58.223 0.971 -0.721
          0.042 58.14 0.904 -78.795 0.041 48.922
          0.971 -0.791 0.041 48.96 0.023 -91.166
353.05 0.027 -84.867 0.044 56.509 0.969 -0.752
          0.044 56.939 0.897 -83.491 0.042 46.957
          0.97 -0.804 0.042 46.61 0.025 -92.244
377.9 0.029 -86.176 0.045 55.6 0.969 -0.761
          0.046 55.803 0.89 -88.035 0.044 45.156
          0.969 -0.811 0.043 44.93 0.027 -93.597
402.75 0.032 -87.326 0.047 55.213 0.969 -0.743
          0.047 54.747 0.883 -92.409 0.045 43.521
          0.968 -0.8 0.045 43.729 0.029 -94.795
427.6 0.034 -88.161 0.049 54.638 0.968 -0.729
          0.049 53.753 0.877 -96.599 0.046 41.965
          0.969 -0.779 0.046 42.442 0.031 -95.683
452.45 0.037 -88.99 0.05 52.99 0.97 -0.78
          0.05 52.772 0.871 -100.607 0.047 40.232
          0.969 -0.83 0.048 40.21 0.034 -96.533
477.3 0.04 -89.772 0.051 51.919 0.968 -0.823
          0.051 52.012 0.865 -104.368 0.048 38.756
          0.968 -0.839 0.048 38.435 0.036 -97.592
502.15 0.042 -90.618 0.052 51.647 0.968 -0.838
          0.052 51.374 0.86 -108.023 0.049 37.423
          0.968 -0.888 0.049 37.4 0.038 -98.779
527 0.044 -91.456 0.053 51.461 0.967 -0.836
          0.053 50.729 0.855 -111.575 0.049 36.166
          0.968 -0.902 0.049 36.414 0.04 -100.03
551.85 0.047 -92.262 0.054 50.926 0.966 -0.825
          0.053 50.176 0.85 -114.983 0.05 34.802
          0.967 -0.891 0.05 35.009 0.042 -100.986
576.7 0.05 -93.027 0.054 50.004 0.966 -0.82
          0.054 49.795 0.845 -118.234 0.05 33.295
          0.968 -0.895 0.051 33.17 0.045 -101.554
601.55 0.052 -93.735 0.055 49.415 0.966 -0.86
          0.055 49.221 0.84 -121.464 0.05 32.28
          0.966 -0.902 0.051 31.939 0.047 -102.685
626.4 0.055 -94.203 0.055 49.371 0.966 -0.879
          0.055 49.017 0.836 -124.431 0.051 31.175
          0.965 -0.989 0.051 31.093 0.05 -103.638
651.25 0.058 -94.632 0.055 49.234 0.965 -0.929
          0.055 48.809 0.831 -127.347 0.051 30.189
          0.964 -1.023 0.051 30.368 0.051 -104.372
676.1 0.062 -95.4 0.056 49.092 0.964 -0.921
          0.055 48.663 0.824 -130.067 0.051 29.376
          0.964 -0.986 0.051 29.509 0.053 -104.175
700.95 0.066 -97.039 0.056 48.954 0.963 -0.843
          0.056 48.66 0.817 -132.511 0.05 28.722
          0.964 -0.9 0.051 28.521 0.055 -103.307
725.8 0.069 -99.692 0.056 48.714 0.962 -0.773
          0.056 48.833 0.816 -134.735 0.05 28.128
          0.964 -0.825 0.051 27.58 0.059 -102.976
750.65 0.07 -100.695 0.056 48.299 0.964 -0.833
          0.056 49.016 0.815 -137.152 0.051 27.183
          0.964 -0.91 0.05 26.364 0.063 -104.562
775.5 0.072 -101.375 0.056 48.936 0.962 -0.887
          0.056 48.94 0.815 -139.633 0.05 26.482
          0.963 -0.974 0.05 26.19 0.066 -105.524
800.35 0.075 -102.041 0.056 50.06 0.962 -0.837
          0.056 49.171 0.813 -141.966 0.05 25.882
          0.963 -0.916 0.05 26.472 0.069 -106.286
825.2 0.078 -102.797 0.057 50.441 0.963 -0.761
          0.056 49.562 0.812 -144.186 0.05 25.259
          0.963 -0.813 0.05 26.027 0.072 -106.968
850.05 0.081 -103.666 0.058 49.574 0.964 -0.761
          0.056 49.967 0.811 -146.343 0.05 24.518
          0.964 -0.794 0.051 24.306 0.074 -107.651
874.9 0.083 -104.584 0.057 48.391 0.966 -0.901
          0.056 50.487 0.808 -148.426 0.049 23.623
          0.965 -0.991 0.05 22.04 0.077 -108.415
899.75 0.086 -105.362 0.055 49.533 0.963 -1.099
          0.056 50.601 0.807 -150.576 0.048 23.018
          0.963 -1.155 0.048 21.94 0.079 -108.881
924.6 0.089 -106.145 0.055 51.832 0.961 -0.977
          0.056 51.125 0.805 -152.633 0.048 22.705
          0.961 -1.087 0.047 23.144 0.082 -109.473
949.45 0.092 -106.947 0.056 52.85 0.961 -0.833
          0.056 51.767 0.804 -154.587 0.047 22.425
          0.96 -0.924 0.048 23.4 0.085 -110.02
974.3 0.095 -107.796 0.058 52.284 0.963 -0.803
          0.056 52.422 0.802 -156.429 0.047 21.972
          0.963 -0.858 0.048 22.095 0.088 -110.499
999.15 0.098 -108.685 0.057 51.196 0.965 -0.922
          0.056 53.038 0.8 -158.201 0.046 21.302
          0.966 -0.994 0.047 19.915 0.091 -110.94
1024 0.101 -109.508 0.055 51.708 0.962 -1.18
          0.056 53.468 0.798 -160.08 0.046 20.755
          0.963 -1.145 0.045 19.027 0.094 -111.295
1048.85 0.104 -110.34 0.054 53.99 0.96 -1.1
          0.055 54.323 0.796 -161.874 0.045 20.328
          0.961 -1.17 0.044 19.531 0.096 -111.959
1073.7 0.107 -111.309 0.055 55.579 0.96 -1.016
          0.055 55.119 0.796 -163.611 0.044 20.107
          0.959 -1.116 0.043 20.128 0.099 -112.567
1098.55 0.11 -112.276 0.056 56.319 0.96 -0.976
          0.055 56.002 0.795 -165.287 0.043 19.891
          0.959 -1.067 0.043 20.181 0.103 -113.05
1123.4 0.113 -113.209 0.056 56.529 0.961 -1.007
          0.055 56.969 0.794 -166.907 0.043 19.615
          0.961 -1.058 0.043 19.5 0.106 -113.444
1148.25 0.116 -114.162 0.056 56.729 0.963 -1.117
          0.055 57.89 0.794 -168.505 0.042 19.32
          0.963 -1.104 0.042 18.277 0.109 -113.86
1173.1 0.119 -115.08 0.055 57.101 0.963 -1.22
          0.055 58.752 0.792 -170.232 0.041 18.837
          0.964 -1.381 0.041 16.854 0.112 -114.408
1197.95 0.122 -116.035 0.054 58.347 0.961 -1.375
          0.055 59.596 0.792 -171.76 0.04 18.591
          0.961 -1.555 0.039 16.833 0.115 -115.019
1222.8 0.125 -117.109 0.053 60.685 0.957 -1.393
          0.054 60.671 0.791 -173.293 0.039 18.478
          0.956 -1.556 0.037 18.187 0.118 -115.553
1247.65 0.128 -118.177 0.054 62.949 0.955 -1.223
          0.054 61.956 0.79 -174.802 0.038 18.592
          0.954 -1.38 0.037 19.621 0.121 -116.044
1272.5 0.132 -119.207 0.055 63.881 0.957 -1.027
          0.054 63.338 0.788 -176.282 0.037 18.695
          0.955 -1.168 0.037 19.686 0.125 -116.551
1297.35 0.135 -120.342 0.056 62.769 0.963 -1.184
          0.054 64.649 0.788 -177.806 0.036 18.14
          0.962 -1.214 0.037 17.387 0.128 -117.107
1322.2 0.139 -121.316 0.053 63.026 0.961 -1.644
          0.054 65.448 0.786 -179.23 0.035 17.972
          0.963 -1.691 0.034 15.812 0.131 -117.462
1347.05 0.141 -122.32 0.052 66.02 0.954 -1.781
          0.054 66.572 0.786 179.286 0.034 18.027
          0.955 -1.872 0.032 17.265 0.134 -117.968
1371.9 0.144 -123.505 0.053 69.344 0.95 -1.547
          0.054 68.111 0.785 177.81 0.033 18.343
          0.948 -1.662 0.031 19.612 0.137 -118.564
1396.75 0.148 -124.767 0.054 71.013 0.951 -1.269
          0.054 69.843 0.783 176.391 0.032 18.611
          0.949 -1.36 0.031 20.482 0.141 -119.295
1421.6 0.152 -126.011 0.056 70.497 0.958 -1.313
          0.054 71.399 0.782 175.052 0.031 18.579
          0.956 -1.354 0.031 18.812 0.145 -120.164
1446.45 0.155 -127.413 0.054 70.415 0.96 -1.779
          0.055 72.361 0.782 173.768 0.029 18.496
          0.958 -1.877 0.029 16.986 0.148 -120.949
1471.3 0.158 -128.554 0.053 73.107 0.953 -1.989
          0.055 73.813 0.781 172.378 0.028 18.559
          0.95 -2.01 0.027 18.352 0.151 -121.46
1496.15 0.161 -129.8 0.053 75.657 0.948 -1.92
          0.055 75.5 0.779 171.03 0.027 19.135
          0.946 -1.833 0.026 20.141 0.154 -122.148
1521 0.164 -131.191 0.054 77.359 0.947 -1.867
          0.055 77.157 0.777 169.694 0.025 19.628
          0.946 -1.727 0.025 20.761 0.157 -123.158
1545.85 0.167 -132.72 0.055 78.705 0.946 -1.903
          0.056 78.648 0.775 168.365 0.024 20.115
          0.947 -1.809 0.024 20.603 0.16 -124.322
1570.7 0.17 -134.335 0.055 80.636 0.942 -1.916
          0.056 80.039 0.774 167.072 0.023 21.051
          0.944 -1.954 0.022 21.195 0.162 -125.306
1595.55 0.173 -135.842 0.056 82.321 0.942 -1.732
          0.056 81.93 0.771 165.884 0.021 22.153
          0.939 -1.844 0.021 22.844 0.164 -126.02
1620.4 0.175 -137.3 0.056 82.798 0.944 -1.736
          0.057 83.698 0.771 164.696 0.02 22.9
          0.94 -1.692 0.02 23.509 0.166 -126.802
1645.25 0.177 -138.672 0.055 84.321 0.94 -1.989
          0.057 85.179 0.77 163.559 0.019 23.59
          0.939 -1.781 0.018 24.372 0.167 -127.316
1670.1 0.178 -139.755 0.055 87.64 0.934 -1.894
          0.058 86.76 0.769 162.463 0.017 25.164
          0.935 -1.71 0.017 26.472 0.168 -127.622
1694.95 0.18 -140.658 0.058 91.298 0.931 -1.313
          0.058 88.636 0.767 161.359 0.016 27.849
          0.934 -1.308 0.016 29.613 0.17 -127.86
1719.8 0.183 -141.851 0.062 91.836 0.942 -0.823
          0.06 90.594 0.765 160.172 0.014 30.871
          0.94 -0.87 0.015 32.245 0.173 -128.168
1744.65 0.185 -143.125 0.061 89.896 0.953 -1.392
          0.061 91.607 0.767 158.939 0.013 33.689
          0.949 -1.382 0.013 33.247 0.177 -128.636
1769.5 0.187 -144.141 0.059 91.626 0.947 -2.175
          0.062 92.658 0.765 157.762 0.012 37.42
          0.944 -1.88 0.012 37.487 0.179 -128.889
1794.35 0.191 -145.012 0.059 95.93 0.935 -2.173
          0.062 94.242 0.765 156.631 0.011 43.028
          0.937 -1.753 0.01 45.113 0.182 -129.259
1819.2 0.194 -146.018 0.063 99.328 0.932 -1.568
          0.063 96.208 0.766 155.482 9.431e-3 50.254
          0.937 -1.249 9.574e-3 53.027 0.186 -129.973
1844.05 0.198 -147.371 0.067 99.287 0.943 -1.059
          0.065 97.98 0.766 154.272 8.57e-3 58.683
          0.948 -0.994 9.003e-3 59.182 0.19 -131.02
1868.9 0.202 -149.07 0.068 97.226 0.954 -1.544
          0.067 98.574 0.766 153.047 7.868e-3 68.57
          0.956 -1.759 8.015e-3 66.384 0.193 -132.015
1893.75 0.205 -150.425 0.065 99.038 0.946 -2.327
          0.068 99.241 0.766 151.889 7.411e-3 81.008
          0.947 -2.377 7.202e-3 80.834 0.195 -132.598
1918.6 0.208 -151.623 0.066 102.29 0.938 -2.338
          0.068 100.781 0.764 150.765 7.391e-3 94.531
          0.938 -2.177 7.248e-3 96.834 0.198 -133.164
1943.45 0.212 -152.879 0.069 104.363 0.937 -2.131
          0.07 102.452 0.763 149.621 7.882e-3 107.686
          0.94 -1.843 7.993e-3 110.133 0.201 -133.892
1968.3 0.215 -154.289 0.072 105.077 0.942 -2.045
          0.072 103.701 0.762 148.476 8.757e-3 118.828
          0.947 -1.871 9.031e-3 119.712 0.205 -134.823
1993.15 0.219 -155.82 0.073 105.727 0.943 -2.161
          0.073 104.394 0.761 147.374 9.798e-3 127.039
          0.949 -2.375 9.968e-3 127.011 0.209 -135.885
2018 0.222 -157.214 0.075 106.997 0.941 -2.23
          0.074 105.453 0.761 146.297 0.011 134.185
          0.943 -2.551 0.011 134.928 0.212 -136.917
2042.85 0.226 -158.592 0.077 106.895 0.946 -2.399
          0.076 106.763 0.759 145.196 0.013 139.316
          0.946 -2.488 0.013 139.853 0.216 -138.05
2067.7 0.229 -160.137 0.077 107.163 0.946 -3.074
          0.078 107.557 0.759 144.096 0.014 143.147
          0.946 -2.922 0.014 142.941 0.219 -139.34
2092.55 0.232 -161.533 0.076 109.545 0.936 -3.496
          0.079 108.246 0.759 143.036 0.016 146.523
          0.939 -3.383 0.015 147.102 0.221 -140.463
2117.4 0.236 -162.744 0.079 113.276 0.922 -3.133
          0.079 109.454 0.758 141.982 0.017 150.063
          0.927 -3.214 0.017 152.994 0.224 -141.42
2142.25 0.241 -164.083 0.087 114.928 0.921 -2.039
          0.081 111.637 0.757 140.846 0.019 153.884
          0.923 -1.984 0.02 158.156 0.227 -142.601
2167.1 0.247 -165.757 0.092 110.858 0.948 -1.856
          0.085 112.994 0.756 139.738 0.021 156.024
          0.949 -1.719 0.023 155.821 0.232 -144.434
2191.95 0.249 -167.766 0.088 108.761 0.959 -3.537
          0.088 112.314 0.757 138.653 0.024 155.82
          0.963 -3.317 0.024 152.762 0.233 -146.098
2216.8 0.251 -169.252 0.083 111.805 0.941 -4.713
          0.089 111.833 0.756 137.712 0.025 155.941
          0.947 -4.719 0.024 154.084 0.235 -147.093
2241.65 0.254 -170.322 0.086 117.071 0.916 -4.451
          0.088 112.766 0.755 136.746 0.026 157.491
          0.922 -4.66 0.026 159.364 0.237 -147.851
2266.5 0.259 -171.409 0.095 119.881 0.907 -3.028
          0.089 115.156 0.754 135.65 0.028 160.238
          0.913 -3.115 0.029 164.709 0.241 -148.952
2291.35 0.266 -172.929 0.104 116.099 0.934 -2.182
          0.094 117.397 0.752 134.611 0.031 162.3
          0.936 -1.963 0.035 163.37 0.246 -150.732
2316.2 0.27 -174.877 0.1 113.119 0.95 -3.859
          0.099 116.791 0.754 133.545 0.034 161.351
          0.96 -3.409 0.037 158.3 0.247 -152.793
2341.05 0.272 -176.431 0.097 114.921 0.939 -4.911
          0.1 116.045 0.755 132.654 0.036 160.872
          0.953 -5.023 0.036 157.266 0.249 -154.079
2365.9 0.275 -177.804 0.098 117.771 0.923 -5.042
          0.101 116.201 0.754 131.726 0.037 161.199
          0.936 -5.652 0.037 159.309 0.252 -155.135
2390.75 0.28 -179.11 0.102 119.419 0.915 -4.743
          0.101 117.181 0.752 130.733 0.039 162.026
          0.921 -5.419 0.039 162.248 0.255 -156.296
2415.6 0.284 179.632 0.106 119.468 0.917 -4.699
          0.103 118.346 0.751 129.717 0.042 162.798
          0.914 -5.028 0.042 164.017 0.257 -157.663
2440.45 0.289 178.358 0.108 120.67 0.911 -4.751
          0.105 119.393 0.752 128.572 0.044 163.391
          0.914 -4.577 0.045 165.014 0.261 -159.172
2465.3 0.294 176.953 0.115 120.714 0.916 -3.955
          0.109 120.598 0.753 127.783 0.046 164.776
          0.929 -4.097 0.05 164.144 0.265 -160.686
2490.15 0.299 175.229 0.118 117.829 0.934 -4.372
          0.114 120.352 0.752 126.933 0.05 164.728
          0.95 -4.982 0.053 160.687 0.268 -162.556
2515 0.301 173.642 0.114 116.181 0.94 -6.086
          0.116 119.042 0.75 126.052 0.053 163.269
          0.948 -6.962 0.052 158.142 0.269 -164.12
2539.85 0.303 172.573 0.108 118.897 0.918 -7.791
          0.115 118.196 0.75 125.107 0.054 161.806
          0.916 -8.511 0.05 159.738 0.27 -165.042
2564.7 0.306 171.952 0.111 126.081 0.873 -7.315
          0.112 119.856 0.751 124.027 0.054 162.595
          0.874 -7.469 0.051 166.638 0.274 -165.709
2589.55 0.316 170.944 0.131 127.065 0.876 -3.95
          0.116 123.669 0.751 123.267 0.057 166.561
          0.885 -4.286 0.062 169.972 0.282 -167.156
2614.4 0.324 169.137 0.138 119.874 0.925 -3.772
          0.126 124.079 0.751 122.413 0.063 167.18
          0.936 -4.438 0.07 163.394 0.287 -169.661
2639.25 0.327 167.291 0.129 115.777 0.944 -6.587
          0.131 121.719 0.75 121.513 0.067 164.547
          0.951 -7.489 0.068 157.486 0.287 -171.767
2664.1 0.326 166.172 0.118 118.227 0.919 -9.217
          0.129 119.577 0.75 120.646 0.069 161.986
          0.919 -10.228 0.063 157.489 0.287 -172.745
2688.95 0.329 165.701 0.119 125.133 0.87 -9.067
          0.125 120.181 0.751 119.844 0.068 162.275
          0.867 -10.03 0.062 163.556 0.29 -173.046
2713.8 0.336 164.917 0.135 128.708 0.854 -6.128
          0.125 123.939 0.75 119.041 0.069 165.434
          0.853 -6.79 0.071 169.377 0.298 -173.939
2738.65 0.344 163.392 0.145 123.566 0.888 -5.512
          0.134 124.978 0.749 118.151 0.075 166.276
          0.892 -6.23 0.08 165.346 0.303 -176.115
2763.5 0.347 161.912 0.143 120.839 0.904 -6.92
          0.139 123.933 0.749 117.307 0.08 164.963
          0.902 -7.847 0.081 161.756 0.306 -177.94
2788.35 0.35 160.84 0.14 120.827 0.899 -8.19
          0.14 123.225 0.749 116.527 0.083 163.777
          0.891 -9.096 0.081 161.127 0.309 -179.29
2813.2 0.354 160.018 0.14 121.859 0.888 -8.815
          0.141 123.401 0.749 115.799 0.085 163.284
          0.876 -9.379 0.082 162.131 0.313 179.613
2838.05 0.358 159.151 0.141 122.376 0.881 -9.198
          0.143 123.858 0.748 115.093 0.088 163.047
          0.872 -9.295 0.086 162.344 0.317 178.528
2862.9 0.361 158.317 0.139 124.309 0.86 -9.865
          0.145 123.443 0.747 114.365 0.09 162.328
          0.863 -10.013 0.087 162.082 0.32 177.588
2887.75 0.366 157.727 0.148 127.428 0.838 -8.512
          0.144 124.485 0.747 113.578 0.091 163.641
          0.84 -9.309 0.09 164.912 0.325 176.764
2912.6 0.373 156.783 0.161 125.619 0.856 -7.011
          0.148 126.031 0.747 112.788 0.096 165.124
          0.846 -8.004 0.099 165.313 0.333 175.449
2937.45 0.379 155.495 0.163 121.081 0.889 -7.762
          0.155 126.086 0.746 112.105 0.104 164.41
          0.872 -8.263 0.106 161.915 0.338 173.724
2962.3 0.38 154.289 0.152 118.598 0.897 -10.714
          0.161 124.296 0.745 111.519 0.109 161.421
          0.886 -10.494 0.106 157.494 0.34 172.259
2987.15 0.38 153.929 0.14 122.918 0.849 -13.344
          0.158 122.179 0.745 110.916 0.107 158.537
          0.852 -13.063 0.099 157.492 0.342 171.976
3012 0.385 154.164 0.151 130.215 0.796 -10.743
          0.152 124.062 0.744 110.234 0.104 161.198
          0.801 -11.356 0.1 164.059 0.35 171.818
3036.85 0.395 153.52 0.173 128.226 0.821 -7.578
          0.158 127.009 0.744 109.617 0.111 164.269
          0.816 -8.733 0.115 165.205 0.36 170.623
3061.7 0.401 152.238 0.176 122.589 0.864 -8.373
          0.167 126.911 0.743 108.97 0.122 163.421
          0.849 -9.27 0.124 160.8 0.366 168.931
3086.55 0.403 151.203 0.165 119.889 0.872 -11.542
          0.171 124.796 0.742 108.359 0.129 159.934
          0.855 -11.826 0.123 156.62 0.368 167.705
3111.4 0.403 151.003 0.154 122.982 0.83 -13.832
          0.168 123.156 0.742 107.84 0.128 156.947
          0.82 -13.713 0.118 156.983 0.372 167.443
3136.25 0.409 151.037 0.162 128.498 0.785 -11.995
          0.164 124.702 0.742 107.41 0.125 158.017
          0.78 -12.061 0.121 161.335 0.382 167.416
3161.1 0.417 150.465 0.176 126.408 0.807 -9.987
          0.17 126.383 0.741 106.977 0.132 159.785
          0.803 -10.266 0.135 159.858 0.394 166.175
3185.95 0.422 149.746 0.174 123.633 0.823 -11.182
          0.176 125.156 0.74 106.475 0.14 158.095
          0.818 -11.989 0.137 155.845 0.399 164.935
3210.8 0.426 149.424 0.169 123.845 0.812 -12.709
          0.174 124.049 0.74 106.041 0.142 155.966
          0.798 -13.662 0.134 155.121 0.404 164.123
3235.65 0.431 149.292 0.169 125.828 0.791 -13.032
