!Hittite Microwave Corporation								
!12 Elizabeth Drive								
!Chelmsford, MA 01824								
!Tel: 978-250-3343								
!Fax: 978-250-3373	
!Device: HMC197, DC - 3 GHz SOT26 SPDT Switch
!Misc: Port 1 = RFC, Port 2 = RF1, Port 3 = RF2,  RF2 Selected, Bias: +5VDC								
!
# MHZ S MA R 50

30 0.012 -22.393 2.466e-3 62.726 0.967 5.158e-3
          2.761e-3 66.841 0.981 -7.169 2.819e-3 64.72
          0.968 0.024 2.585e-3 58.514 0.016 -14.832
55 0.019 -51.305 4.052e-3 77.205 0.969 -0.191
          4.118e-3 76.198 0.978 -12.645 5.199e-3 79.905
          0.97 -0.181 4.95e-3 78.919 0.022 -40.785
80 0.015 -41.661 7.553e-3 82.803 0.969 -0.843
          7.681e-3 82.118 0.972 -17.981 7.477e-3 80.393
          0.969 -0.846 7.297e-3 80.661 0.019 -32.403
105 0.015 -41.52 0.01 81.1 0.969 -1.26
          0.01 81.464 0.97 -23.361 9.006e-3 79.664
          0.968 -1.241 8.879e-3 80.218 0.019 -35.086
130 0.017 -45.765 0.012 76.421 0.967 -1.566
          0.012 76.756 0.97 -28.753 0.01 80.718
          0.967 -1.532 0.01 81.176 0.019 -40.635
155 0.018 -50.437 0.014 74.303 0.966 -1.767
          0.014 74.112 0.968 -34.037 0.013 80.227
          0.966 -1.764 0.013 80.506 0.02 -44.836
180 0.02 -53.697 0.016 74.919 0.966 -1.998
          0.016 74.694 0.965 -39.164 0.016 79.355
          0.966 -1.978 0.016 79.561 0.02 -47.925
205 0.022 -57.015 0.019 72.159 0.965 -2.163
          0.019 72.038 0.963 -44.162 0.018 74.62
          0.965 -2.199 0.018 74.481 0.022 -51.485
230 0.023 -59.412 0.021 69.376 0.965 -2.394
          0.021 69.678 0.961 -49.104 0.02 72.715
          0.965 -2.431 0.02 72.247 0.024 -56.476
255 0.025 -60.843 0.023 66.21 0.963 -2.607
          0.023 66.506 0.96 -53.942 0.022 71.237
          0.963 -2.641 0.021 70.863 0.025 -60.876
280 0.028 -62.143 0.025 63.076 0.961 -2.805
          0.025 62.874 0.959 -58.684 0.024 69.285
          0.962 -2.825 0.023 69.397 0.027 -64.161
305 0.03 -63.957 0.026 60.726 0.962 -3.034
          0.026 60.046 0.956 -63.347 0.025 67.192
          0.962 -3.002 0.025 67.772 0.028 -66.675
330 0.032 -65.54 0.028 58.833 0.962 -3.258
          0.028 58.529 0.954 -67.824 0.027 64.7
          0.962 -3.209 0.027 65 0.03 -68.753
355 0.034 -66.94 0.03 56.275 0.961 -3.478
          0.03 56.745 0.952 -72.155 0.029 62.576
          0.963 -3.421 0.029 62.238 0.032 -70.984
380 0.036 -68.044 0.031 54.37 0.96 -3.658
          0.031 54.735 0.949 -76.401 0.03 60.765
          0.961 -3.64 0.029 60.384 0.033 -73.409
405 0.038 -69.03 0.032 52.923 0.959 -3.815
          0.032 52.611 0.946 -80.544 0.031 59.131
          0.959 -3.821 0.03 59.242 0.034 -75.81
430 0.04 -70.029 0.033 51.33 0.959 -3.975
          0.034 50.48 0.944 -84.573 0.032 57.623
          0.958 -3.993 0.032 58.203 0.036 -78.085
455 0.042 -71.062 0.035 49.009 0.96 -4.156
          0.035 48.439 0.942 -88.475 0.033 56.215
          0.959 -4.219 0.033 56.568 0.038 -80.2
480 0.044 -71.758 0.036 46.461 0.959 -4.409
          0.036 46.63 0.939 -92.208 0.034 54.421
          0.959 -4.405 0.034 54.253 0.039 -81.873
505 0.046 -72.267 0.036 44.903 0.958 -4.617
          0.037 44.679 0.936 -95.893 0.035 53.122
          0.958 -4.615 0.035 53.096 0.04 -83.747
530 0.048 -72.758 0.037 43.593 0.957 -4.755
          0.038 42.762 0.933 -99.45 0.036 51.969
          0.958 -4.842 0.036 52.261 0.041 -85.659
555 0.049 -73.327 0.038 41.952 0.956 -4.913
          0.038 41.018 0.93 -102.917 0.037 50.778
          0.958 -5.03 0.037 51.133 0.042 -87.519
580 0.051 -73.916 0.039 39.914 0.956 -5.118
          0.039 39.4 0.927 -106.306 0.037 49.405
          0.957 -5.176 0.037 49.488 0.043 -89.232
605 0.053 -74.359 0.04 37.946 0.957 -5.327
          0.04 37.697 0.925 -109.584 0.038 47.831
          0.957 -5.349 0.038 47.624 0.045 -90.741
630 0.055 -74.656 0.04 36.454 0.956 -5.532
          0.04 35.978 0.923 -112.679 0.038 46.944
          0.955 -5.579 0.038 46.933 0.046 -92.3
655 0.056 -74.927 0.04 35.113 0.955 -5.709
          0.04 34.538 0.92 -115.744 0.038 46.15
          0.955 -5.744 0.038 46.463 0.047 -93.859
680 0.058 -75.158 0.041 33.83 0.955 -5.879
          0.041 33.085 0.917 -118.753 0.038 45.444
          0.956 -5.92 0.039 45.871 0.048 -95.302
705 0.059 -75.365 0.041 32.363 0.954 -6.091
          0.041 31.596 0.914 -121.683 0.039 44.703
          0.956 -6.107 0.039 45.009 0.048 -96.742
730 0.061 -75.543 0.042 30.496 0.953 -6.325
          0.041 30.108 0.911 -124.543 0.039 43.904
          0.954 -6.295 0.04 43.824 0.049 -98.223
755 0.062 -75.686 0.042 28.193 0.953 -6.485
          0.041 28.641 0.908 -127.39 0.039 43.166
          0.955 -6.497 0.039 42.372 0.049 -99.655
780 0.064 -76.01 0.041 26.777 0.952 -6.717
          0.042 27.016 0.907 -130.191 0.039 42.309
          0.954 -6.77 0.039 41.634 0.05 -100.718
805 0.065 -76.205 0.041 26.778 0.952 -6.844
          0.041 25.703 0.904 -132.791 0.039 41.802
          0.952 -6.967 0.039 42.387 0.05 -101.635
830 0.066 -76.417 0.042 26.117 0.952 -7.002
          0.041 24.483 0.9 -135.331 0.039 41.346
          0.951 -7.094 0.039 42.622 0.051 -102.502
855 0.068 -76.692 0.043 23.925 0.952 -7.156
          0.041 23.332 0.896 -137.824 0.039 40.892
          0.951 -7.231 0.04 41.488 0.051 -103.469
880 0.068 -77.021 0.042 20.78 0.952 -7.32
          0.041 22.17 0.893 -140.263 0.039 40.486
          0.952 -7.443 0.04 39.443 0.051 -104.607
905 0.069 -77.366 0.041 18.996 0.951 -7.66
          0.041 20.747 0.892 -142.663 0.039 40.215
          0.952 -7.711 0.038 38.486 0.051 -105.83
930 0.07 -77.556 0.04 19.954 0.949 -7.824
          0.041 19.394 0.891 -145.077 0.039 40.187
          0.949 -7.891 0.038 40.05 0.051 -107.098
955 0.071 -77.658 0.041 20.082 0.949 -7.948
          0.04 18.226 0.889 -147.471 0.038 40.06
          0.947 -7.964 0.038 41.551 0.052 -108.307
980 0.071 -77.703 0.042 17.975 0.95 -8.077
          0.04 17.12 0.887 -149.799 0.038 39.915
          0.949 -8.077 0.039 41.068 0.052 -109.639
1005 0.072 -77.641 0.041 14.851 0.951 -8.295
          0.04 15.936 0.886 -152.102 0.038 39.801
          0.951 -8.252 0.039 39.34 0.051 -110.979
1030 0.072 -77.466 0.04 12.661 0.949 -8.598
          0.039 14.64 0.884 -154.416 0.038 39.705
          0.951 -8.48 0.038 38.034 0.051 -112.225
1055 0.072 -77.378 0.038 12.392 0.948 -8.773
          0.039 13.426 0.882 -156.704 0.038 39.496
          0.95 -8.821 0.037 38.256 0.05 -113.648
1080 0.072 -77.259 0.038 12.475 0.947 -8.925
          0.039 12.114 0.882 -158.994 0.037 39.659
          0.948 -9 0.037 39.373 0.05 -115.015
1105 0.073 -77.205 0.038 11.52 0.947 -9.098
          0.038 10.788 0.88 -161.294 0.037 39.74
          0.948 -9.178 0.037 40.175 0.049 -116.376
1130 0.073 -77.13 0.038 9.71 0.947 -9.317
          0.037 9.486 0.877 -163.504 0.036 40.066
          0.947 -9.282 0.037 40.348 0.049 -117.742
1155 0.073 -77.079 0.038 7.468 0.947 -9.533
          0.037 8.222 0.875 -165.707 0.036 40.408
          0.947 -9.41 0.037 39.763 0.048 -119.133
1180 0.073 -77.11 0.037 5.262 0.948 -9.699
          0.036 6.956 0.875 -167.981 0.036 40.505
          0.951 -9.667 0.037 38.639 0.047 -120.557
1205 0.073 -77.089 0.036 3.362 0.949 -9.919
          0.036 5.494 0.874 -170.098 0.035 40.906
          0.951 -9.937 0.035 37.881 0.046 -121.986
1230 0.073 -76.944 0.034 3.21 0.947 -10.165
          0.035 3.91 0.871 -172.282 0.035 41.365
          0.948 -10.312 0.034 39.644 0.045 -123.424
1255 0.073 -76.808 0.034 3.593 0.944 -10.263
          0.034 2.446 0.868 -174.373 0.034 42.175
          0.944 -10.48 0.033 42.505 0.044 -124.929
1280 0.073 -76.802 0.034 2.268 0.944 -10.4
          0.033 1.216 0.866 -176.486 0.034 42.823
          0.944 -10.504 0.034 43.861 0.044 -126.622
1305 0.073 -76.909 0.034 -1.032 0.946 -10.634
          0.033 -7.339e-3 0.864 -178.607 0.034 43.323
          0.945 -10.529 0.035 42.991 0.043 -128.478
1330 0.073 -77.003 0.032 -4.733 0.945 -10.895
          0.032 -1.552 0.861 179.345 0.033 44.019
          0.948 -10.708 0.034 41.183 0.042 -130.378
1355 0.072 -76.976 0.03 -5.68 0.942 -11.077
          0.031 -3.309 0.859 177.299 0.033 44.922
          0.946 -11.13 0.031 42.098 0.041 -132.283
1380 0.072 -76.926 0.029 -4.35 0.94 -11.146
          0.03 -5.052 0.858 175.228 0.032 46.179
          0.943 -11.316 0.031 46.125 0.04 -134.515
1405 0.071 -77.143 0.029 -5.303 0.941 -11.217
          0.029 -6.57 0.857 173.209 0.032 47.356
          0.94 -11.333 0.031 48.707 0.04 -137.102
1430 0.071 -77.419 0.029 -8.485 0.943 -11.388
          0.028 -8.249 0.856 171.24 0.031 48.583
          0.941 -11.359 0.032 48.905 0.039 -140.06
1455 0.07 -77.613 0.028 -12.154 0.943 -11.616
          0.027 -10.159 0.856 169.269 0.031 49.85
          0.943 -11.52 0.031 48.261 0.039 -143.219
1480 0.069 -77.723 0.026 -14.068 0.941 -11.766
          0.026 -12.098 0.855 167.242 0.031 51.065
          0.943 -11.831 0.03 49.597 0.038 -146.306
1505 0.068 -77.808 0.025 -14.675 0.941 -11.896
          0.025 -14.297 0.856 165.33 0.03 52.711
          0.942 -12.011 0.029 52.918 0.037 -149.604
1530 0.067 -78.079 0.024 -16.914 0.942 -12.035
          0.024 -16.492 0.856 163.359 0.03 54.141
          0.942 -12.095 0.03 54.566 0.037 -153.481
1555 0.066 -78.41 0.023 -19.488 0.942 -12.203
          0.023 -18.948 0.856 161.294 0.03 55.857
          0.943 -12.237 0.03 55.74 0.036 -157.707
1580 0.065 -78.8 0.022 -21.754 0.942 -12.359
          0.022 -21.739 0.856 159.238 0.03 57.654
          0.943 -12.461 0.029 57.467 0.036 -162.26
1605 0.063 -79.285 0.021 -24.405 0.943 -12.541
          0.021 -24.764 0.857 157.252 0.03 59.44
          0.944 -12.642 0.029 59.712 0.035 -167.051
1630 0.062 -79.902 0.02 -29.126 0.942 -12.88
          0.02 -27.818 0.86 155.294 0.03 61.318
          0.947 -12.613 0.029 61.34 0.035 -171.887
1655 0.061 -80.35 0.019 -34.177 0.946 -13.273
          0.019 -31.134 0.86 153.296 0.029 62.92
          0.947 -12.906 0.029 61.92 0.035 -176.893
1680 0.059 -80.651 0.017 -35.844 0.944 -13.38
          0.018 -35.476 0.86 151.186 0.029 65.076
          0.947 -13.353 0.028 64.907 0.036 178.131
1705 0.057 -81.069 0.017 -37.564 0.944 -13.335
          0.017 -40.119 0.858 149.118 0.029 67.23
          0.945 -13.67 0.029 68.731 0.036 173.44
1730 0.056 -81.957 0.017 -42.762 0.946 -13.397
          0.016 -44.899 0.858 147.044 0.03 69.376
          0.945 -13.826 0.03 70.873 0.037 168.74
1755 0.054 -83.158 0.016 -51.52 0.948 -13.729
          0.015 -50.069 0.859 144.941 0.03 71.429
          0.948 -13.949 0.03 70.819 0.038 163.854
1780 0.051 -83.776 0.014 -59.351 0.947 -14.283
          0.015 -56.244 0.86 142.886 0.03 73.106
          0.949 -14.278 0.029 71.282 0.039 158.881
1805 0.05 -84.596 0.013 -62.375 0.945 -14.565
          0.014 -63.104 0.863 141.058 0.03 75.251
          0.946 -14.685 0.028 76.195 0.04 154.317
1830 0.048 -86.161 0.013 -67.144 0.947 -14.524
          0.013 -70.399 0.863 139.071 0.03 77.555
          0.944 -14.748 0.03 80.654 0.041 150.422
1855 0.046 -88.15 0.013 -75.848 0.949 -14.683
          0.013 -77.998 0.863 136.993 0.031 79.817
          0.947 -14.713 0.032 81.496 0.043 146.72
1880 0.044 -90.006 0.013 -86.482 0.949 -15.097
          0.013 -86 0.864 134.956 0.031 81.729
          0.951 -14.861 0.032 80.871 0.046 143.026
1905 0.041 -91.544 0.013 -95.84 0.948 -15.577
          0.013 -94.399 0.866 133.004 0.032 83.366
          0.952 -15.324 0.031 81.996 0.048 139.315
1930 0.039 -93.634 0.013 -101.547 0.945 -15.782
          0.014 -102.756 0.865 131.027 0.032 85.541
          0.95 -15.925 0.031 86.484 0.049 135.735
1955 0.036 -96.888 0.014 -107.91 0.949 -15.802
          0.014 -110.448 0.863 129.194 0.033 87.565
          0.948 -16.135 0.033 89.759 0.052 133.073
1980 0.034 -100.958 0.015 -115.349 0.949 -15.971
          0.015 -117.426 0.862 127.255 0.034 89.542
          0.95 -16.307 0.034 90.414 0.055 130.564
2005 0.032 -104.929 0.016 -121.887 0.949 -16.268
          0.016 -123.89 0.863 125.36 0.035 91.418
          0.949 -16.538 0.035 91.574 0.058 128.116
2030 0.03 -109.33 0.017 -127.824 0.949 -16.612
          0.017 -129.761 0.865 123.519 0.035 93.19
          0.948 -16.796 0.035 93.611 0.061 125.842
2055 0.028 -115.188 0.018 -134.198 0.952 -16.959
          0.018 -134.936 0.866 121.733 0.036 94.795
          0.948 -17.013 0.037 95.337 0.064 123.792
2080 0.027 -122.347 0.019 -141.493 0.952 -17.451
          0.02 -139.594 0.866 120.089 0.037 95.949
          0.951 -17.206 0.038 94.823 0.067 121.66
2105 0.025 -129.952 0.02 -144.23 0.946 -17.829
          0.021 -144.385 0.865 118.168 0.038 97.361
          0.954 -17.734 0.037 96.357 0.071 119.643
2130 0.025 -137.296 0.021 -143.952 0.941 -17.948
          0.023 -148.453 0.867 116.317 0.039 98.922
          0.948 -18.107 0.037 101.624 0.073 118.031
2155 0.025 -146.08 0.024 -146.141 0.944 -17.945
          0.024 -151.607 0.868 114.516 0.04 100.715
          0.943 -18.244 0.04 105.873 0.077 116.845
2180 0.026 -156.354 0.028 -152.346 0.951 -18.159
          0.026 -154.089 0.867 112.813 0.042 102.195
          0.943 -18.24 0.045 105.684 0.081 115.748
2205 0.027 -167.021 0.028 -160.146 0.955 -18.826
          0.028 -156.486 0.867 111.223 0.043 102.868
          0.951 -18.391 0.046 101.033 0.086 114.337
2230 0.028 -176.028 0.027 -162.302 0.947 -19.526
          0.03 -159.749 0.865 109.549 0.044 103.497
          0.958 -19.305 0.043 99.483 0.089 112.512
2255 0.03 178.535 0.028 -158.255 0.94 -19.483
          0.031 -162.604 0.868 107.869 0.045 104.774
          0.949 -19.992 0.042 105.937 0.092 111.467
2280 0.033 173.411 0.033 -158.046 0.942 -19.33
          0.033 -164.537 0.868 106.314 0.046 106.377
          0.939 -20.13 0.045 111.906 0.096 110.83
2305 0.037 168.137 0.037 -162.641 0.948 -19.617
          0.034 -165.938 0.868 104.798 0.048 107.451
          0.937 -19.944 0.051 112.504 0.101 110.086
2330 0.042 163.09 0.039 -168.615 0.952 -20.291
          0.037 -167.362 0.87 103.286 0.05 107.969
          0.944 -19.872 0.055 108.702 0.106 109.096
2355 0.046 158.755 0.038 -171.119 0.948 -20.912
          0.039 -169.248 0.87 101.77 0.051 108.448
          0.952 -20.306 0.054 105.493 0.111 108.013
2380 0.05 155.161 0.04 -170.299 0.943 -21.197
          0.041 -171.233 0.871 100.189 0.053 109.03
          0.951 -20.931 0.052 107.077 0.115 107.115
2405 0.054 152.244 0.042 -171.221 0.942 -21.447
          0.043 -173.034 0.871 98.695 0.054 109.938
          0.946 -21.498 0.053 109.795 0.119 106.238
2430 0.059 149.959 0.044 -171.915 0.94 -21.702
          0.045 -174.589 0.872 97.257 0.055 110.668
          0.943 -21.996 0.054 112.501 0.123 105.443
2455 0.063 148.421 0.047 -171.745 0.938 -21.831
          0.047 -175.885 0.872 95.88 0.057 111.565
          0.938 -22.252 0.058 115.149 0.128 104.935
2480 0.069 147.123 0.052 -172.627 0.939 -21.916
          0.048 -176.771 0.872 94.55 0.059 112.516
          0.935 -22.192 0.063 115.919 0.133 104.637
2505 0.075 145.282 0.057 -177.661 0.949 -22.264
          0.051 -177.206 0.872 93.242 0.061 112.969
          0.94 -21.983 0.069 112.197 0.139 104.187
2530 0.081 142.699 0.055 175.694 0.953 -23.3
          0.054 -178.713 0.872 92.039 0.063 112.699
          0.951 -22.613 0.067 106.325 0.144 103.036
2555 0.084 140.742 0.051 177.586 0.938 -24.127
          0.056 178.894 0.874 90.588 0.064 112.615
          0.95 -23.952 0.06 108.4 0.147 101.906
2580 0.089 140.511 0.054 -176.19 0.925 -23.985
          0.057 177.443 0.875 89.353 0.065 113.646
          0.935 -24.603 0.06 116.43 0.151 101.627
2605 0.096 140.609 0.063 -174.688 0.928 -23.483
          0.059 177.277 0.876 88.171 0.067 115.084
          0.922 -24.23 0.07 121.384 0.156 101.712
2630 0.104 139.811 0.072 178.546 0.944 -23.569
          0.061 177.593 0.877 86.953 0.07 115.818
          0.926 -23.449 0.082 117.863 0.163 101.406
2655 0.111 137.708 0.07 168.609 0.954 -24.985
          0.065 176.763 0.876 85.814 0.073 114.962
          0.947 -23.613 0.083 107.899 0.171 100.135
2680 0.114 136.023 0.062 169.254 0.938 -26.296
          0.068 174.162 0.878 84.614 0.074 114.152
          0.955 -25.496 0.072 106.516 0.174 99.002
2705 0.118 136.013 0.063 175.846 0.921 -26.247
          0.069 172.565 0.877 83.546 0.075 114.907
          0.938 -26.5 0.069 113.981 0.177 98.914
2730 0.124 136.044 0.071 177.995 0.919 -25.738
          0.07 172.204 0.877 82.465 0.077 116.112
          0.923 -26.488 0.075 119.009 0.182 98.988
2755 0.132 135.454 0.079 175.094 0.926 -25.637
          0.072 172.13 0.877 81.415 0.08 116.928
          0.921 -26.254 0.084 118.632 0.188 98.663
2780 0.139 134.193 0.081 170.454 0.933 -26.271
          0.075 171.551 0.877 80.371 0.082 116.967
          0.927 -26.51 0.087 114.964 0.195 97.873
2805 0.145 133.325 0.081 168.842 0.93 -27.068
          0.078 170.441 0.88 79.267 0.085 116.6
          0.931 -27.293 0.085 114.059 0.201 97.139
2830 0.151 133.07 0.083 167.822 0.931 -27.559
          0.08 169.839 0.879 78.3 0.087 116.571
          0.926 -27.626 0.088 115.15 0.206 96.739
2855 0.156 132.695 0.082 166.497 0.928 -28.39
          0.083 169.057 0.88 77.331 0.089 116.207
          0.927 -27.981 0.089 114.071 0.211 96.374
2880 0.161 132.564 0.082 168.196 0.915 -28.94
          0.085 167.911 0.881 76.429 0.09 116.339
          0.924 -28.72 0.088 114.734 0.214 96.02
2905 0.167 132.708 0.086 171.193 0.904 -28.78
          0.087 166.973 0.881 75.502 0.092 117.126
          0.914 -29.336 0.089 117.973 0.219 95.89
2930 0.175 132.254 0.098 171.325 0.908 -28.179
          0.088 166.873 0.881 74.476 0.095 118.093
          0.901 -29.291 0.097 121.198 0.227 95.644
2955 0.183 131.5 0.107 163.585 0.93 -28.47
          0.091 167.711 0.881 73.623 0.1 118.109
          0.905 -28.54 0.111 117.989 0.235 95.126
2980 0.188 130.191 0.097 157.969 0.934 -30.665
          0.097 166.463 0.883 72.77 0.103 116.296
          0.929 -29.404 0.108 110.765 0.24 94.025
3005 0.191 130.474 0.089 162.121 0.907 -31.762
          0.099 164.314 0.882 71.941 0.103 115.795
          0.923 -31.132 0.098 111.513 0.242 93.778
3030 0.197 131.368 0.095 168.253 0.886 -31.181
          0.099 163.389 0.881 71.105 0.103 116.829
          0.901 -31.933 0.098 117.265 0.246 94.167
3055 0.206 131.523 0.11 168.983 0.89 -30.14
          0.101 163.834 0.881 70.254 0.107 118.19
          0.886 -31.527 0.109 120.867 0.254 94.199
3080 0.215 130.643 0.121 161.752 0.915 -30.312
          0.105 164.461 0.882 69.427 0.113 118.273
          0.894 -30.761 0.122 117.226 0.263 93.312
3105 0.219 129.71 0.112 154.972 0.922 -32.691
          0.111 163.261 0.883 68.633 0.117 116.084
          0.917 -31.651 0.12 110.273 0.267 92.135
3130 0.223 130.106 0.105 158.783 0.895 -33.708
          0.112 161.209 0.883 67.982 0.116 115.536
          0.904 -33.442 0.11 112.588 0.269 92.157
3155 0.23 130.722 0.111 162.622 0.881 -33.168
          0.113 161.01 0.883 67.239 0.118 116.423
          0.885 -33.608 0.115 116.925 0.275 92.521
3180 0.238 130.687 0.121 161.74 0.885 -32.874
          0.116 161.37 0.883 66.493 0.122 117.096
          0.882 -33.192 0.125 116.663 0.282 92.306
3205 0.245 129.856 0.125 158.072 0.892 -33.573
          0.121 160.97 0.883 65.699 0.126 116.755
          0.892 -33.443 0.129 112.912 0.29 91.423
3230 0.249 129.717 0.122 156.476 0.886 -34.836
          0.124 159.246 0.882 64.899 0.129 115.657
          0.897 -34.935 0.123 111.078 0.293 90.899
3255 0.255 130.378 0.123 158.77 0.871 -34.981
          0.124 157.986 0.883 64.312 0.13 115.728
          0.873 -36.276 0.12 115.634 0.297 91.073
3280 0.264 130.579 0.131 157.59 0.877 -34.968
          0.126 158.672 0.883 63.576 0.135 115.669
          0.859 -35.478 0.133 117.702 0.304 90.938
3305 0.27 130.349 0.132 155.039 0.878 -36.09
          0.132 158.682 0.883 62.938 0.139 115.018
