!Hittite Microwave Corporation								
!12 Elizabeth Drive								
!Chelmsford, MA 01824								
!Tel: 978-250-3343								
!Fax: 978-250-3373
!Device: HMC154S8, DC - 2.5 GHz GaAs MMIC Low Distortion T/R Switch in 8-lead SOIC package
!Misc: Port1=RFC, Port2= RF1, Port3=RF2, ALL OFF, Bias: +5VDC								
!
# MHZ S MA R 50

20 0.979 -1.483 0.014 66.19 0.015 61.95
          138.3e-6 154.927 0.979 -2.627 8.489e-3 -162.322
          5.886e-3 27.321 6.695e-3 156.782 0.978 -2.21
36.4 0.975 -2.314 0.014 79.539 0.015 82.121
          9.847e-3 118.86 0.982 -2.975 4.151e-3 149.3
          0.012 63.413 5.645e-3 103.107 0.983 -2.858
52.8 0.971 -3.191 0.016 90.251 0.016 96.944
          0.018 90.563 0.984 -3.428 969.6e-6 95.59
          0.017 93.302 4.431e-3 51.605 0.986 -3.545
69.2 0.973 -4.274 0.023 90.436 0.022 89.643
          0.021 89.729 0.985 -4.328 2.538e-3 21.25
          0.02 96.791 2.281e-3 12.026 0.986 -4.41
85.6 0.973 -5.177 0.027 87.612 0.027 88.567
          0.028 89.114 0.982 -5.204 3.806e-3 51.818
          0.026 88.136 3.51e-3 57.334 0.981 -5.343
102 0.973 -6.076 0.032 86.476 0.032 85.455
          0.033 85.227 0.98 -6.119 3.585e-3 49.845
          0.032 84.969 3.304e-3 58.645 0.978 -6.389
118.4 0.97 -7.074 0.037 85.046 0.037 83.847
          0.038 83.483 0.982 -7.178 2.308e-3 51.7
          0.037 84.442 2.21e-3 58.254 0.978 -7.365
134.8 0.969 -8.091 0.042 83.697 0.042 83.767
          0.043 83.92 0.983 -8.244 1.472e-3 68.715
          0.042 84.207 1.285e-3 73.249 0.979 -8.298
151.2 0.972 -8.984 0.048 83.331 0.048 83.137
          0.048 83.55 0.98 -9.151 2.418e-3 84.898
          0.048 83.032 1.623e-3 90.868 0.978 -9.285
167.6 0.972 -9.828 0.054 80.472 0.054 81.238
          0.055 81.708 0.98 -10.243 3.618e-3 51.446
          0.053 80.961 3.815e-3 56.182 0.977 -10.157
184 0.969 -10.916 0.059 78.863 0.058 79.625
          0.059 79.906 0.981 -11.179 2.348e-3 60.343
          0.058 79.518 1.901e-3 73.005 0.979 -11.187
200.4 0.968 -11.959 0.064 78.64 0.063 78.876
          0.063 79.252 0.981 -12.099 1.695e-3 61.058
          0.063 79.074 1.398e-3 63.529 0.977 -12.201
216.8 0.968 -13.003 0.069 77.935 0.068 78.082
          0.069 78.218 0.981 -13.064 2.01e-3 68.733
          0.068 78.242 1.434e-3 82.45 0.977 -13.239
233.2 0.968 -13.982 0.074 76.471 0.073 77.024
          0.074 76.852 0.981 -14.12 2.566e-3 84.276
          0.074 76.978 1.649e-3 118.087 0.979 -14.291
249.6 0.97 -14.774 0.079 75.581 0.079 76.25
          0.079 76.615 0.979 -15.257 2.229e-3 92.743
          0.078 76.459 2.415e-3 101.824 0.978 -15.294
266 0.964 -15.817 0.085 75.45 0.084 75.775
          0.085 76.18 0.984 -16.139 2.602e-3 99.32
          0.085 75.859 2.76e-3 116.306 0.978 -16.236
282.4 0.966 -16.75 0.09 74.451 0.089 74.373
          0.09 74.904 0.981 -17.01 3.384e-3 108.406
          0.09 74.391 3.725e-3 116.968 0.978 -17.315
298.8 0.966 -17.765 0.096 73.186 0.095 73.152
          0.095 73.464 0.978 -18.113 3.583e-3 115.205
          0.095 73.042 3.673e-3 119.206 0.976 -18.365
315.2 0.963 -18.785 0.101 72.103 0.1 71.949
          0.101 72.145 0.976 -19.216 3.775e-3 116.283
          0.1 72.018 3.643e-3 124.202 0.974 -19.399
331.6 0.962 -19.757 0.106 71.198 0.105 70.824
          0.106 71.069 0.977 -20.195 4.488e-3 116.609
          0.105 71.108 4.499e-3 128.373 0.974 -20.436
348 0.961 -20.757 0.111 69.899 0.111 70.442
          0.112 70.198 0.977 -21.24 5.627e-3 130.484
          0.111 69.8 5.894e-3 127.006 0.973 -21.45
364.4 0.959 -21.893 0.118 69.01 0.116 69.256
          0.117 68.97 0.975 -22.164 6.357e-3 128.792
          0.117 68.87 6.603e-3 127.789 0.973 -22.425
380.8 0.958 -22.877 0.123 68.011 0.122 68.401
          0.122 67.952 0.973 -23.183 6.858e-3 128.149
          0.122 67.911 7.245e-3 129.604 0.971 -23.503
397.2 0.958 -23.912 0.128 66.992 0.127 67.196
          0.128 66.81 0.973 -24.265 7.625e-3 128.51
          0.127 67.03 7.423e-3 130.887 0.97 -24.577
413.6 0.956 -24.929 0.133 65.979 0.133 65.973
          0.133 65.695 0.973 -25.321 8.347e-3 128.937
          0.132 65.995 7.738e-3 130.552 0.971 -25.658
430 0.955 -25.857 0.139 64.969 0.137 65.027
          0.138 64.784 0.972 -26.317 8.816e-3 129.062
          0.138 64.748 8.764e-3 129.196 0.972 -26.743
446.4 0.953 -26.872 0.144 63.937 0.143 63.658
          0.144 63.884 0.971 -27.386 9.789e-3 130.715
          0.144 63.908 0.01 130.708 0.971 -27.7
462.8 0.952 -27.914 0.149 62.719 0.148 62.615
          0.149 62.636 0.971 -28.533 0.011 129.753
          0.15 62.916 0.011 126.537 0.968 -28.848
479.2 0.951 -28.9 0.155 61.713 0.154 61.738
          0.155 61.533 0.973 -29.584 0.012 127.819
          0.154 61.991 0.012 126.791 0.968 -30.026
495.6 0.947 -29.921 0.16 60.72 0.16 60.783
          0.16 60.618 0.97 -30.559 0.013 127.414
          0.16 60.81 0.013 125.339 0.968 -31.025
512 0.945 -30.963 0.166 59.607 0.166 59.596
          0.166 59.696 0.966 -31.569 0.014 127.629
          0.166 59.522 0.014 123.537 0.966 -31.972
528.4 0.946 -31.975 0.172 58.384 0.171 58.201
          0.171 58.558 0.966 -32.695 0.015 126.277
          0.17 58.432 0.015 124.989 0.964 -33.109
544.8 0.945 -33.042 0.177 57.4 0.175 57.066
          0.177 57.467 0.965 -33.69 0.016 124.639
          0.176 57.296 0.016 123.529 0.964 -34.286
561.2 0.941 -34.004 0.182 56.409 0.182 56.261
          0.183 56.431 0.967 -34.809 0.017 122.62
          0.181 56.283 0.017 123.755 0.966 -35.233
577.6 0.939 -35.156 0.188 55.189 0.187 55.244
          0.188 55.259 0.967 -35.877 0.018 122.888
          0.187 55.251 0.018 123.484 0.964 -36.322
594 0.937 -36.122 0.193 54.046 0.192 54.171
          0.193 54.139 0.966 -37.068 0.019 123.803
          0.192 54.144 0.02 122.698 0.964 -37.455
610.4 0.934 -36.997 0.198 53.036 0.198 53.105
          0.198 53.117 0.963 -38.31 0.02 123.742
          0.198 53.006 0.021 122.011 0.964 -38.552
626.8 0.932 -38.256 0.203 51.96 0.203 51.983
          0.204 52.057 0.96 -39.331 0.022 121.898
          0.203 51.921 0.021 121.974 0.96 -39.609
643.2 0.93 -39.431 0.209 50.901 0.208 50.931
          0.21 50.744 0.961 -40.313 0.023 119.05
          0.208 50.611 0.023 119.807 0.959 -40.637
659.6 0.93 -40.425 0.215 49.917 0.214 49.93
          0.215 49.836 0.96 -41.491 0.024 119.638
          0.214 49.761 0.025 119.325 0.959 -41.689
676 0.926 -41.521 0.22 48.761 0.22 48.697
          0.22 48.72 0.957 -42.515 0.026 119.46
          0.219 48.642 0.026 118.596 0.956 -42.7
692.4 0.921 -42.656 0.225 47.539 0.225 47.477
          0.226 47.54 0.956 -43.561 0.027 117.911
          0.224 47.423 0.027 117.385 0.953 -43.739
708.8 0.92 -43.75 0.231 46.399 0.23 46.436
          0.231 46.384 0.955 -44.738 0.028 115.974
          0.23 46.297 0.028 116.089 0.952 -44.852
725.2 0.919 -44.804 0.236 45.417 0.236 45.458
          0.236 45.072 0.951 -45.895 0.03 115.558
          0.235 45.216 0.03 115.379 0.949 -46.001
741.6 0.913 -46 0.242 44.251 0.241 44.17
          0.241 44.055 0.954 -46.951 0.031 113.844
          0.241 44.142 0.031 113.92 0.952 -47.295
758 0.912 -47.008 0.248 43.078 0.246 42.986
          0.247 43.174 0.951 -47.936 0.033 112.678
          0.247 43.105 0.033 112.923 0.95 -48.205
774.4 0.908 -48.077 0.253 42.004 0.251 41.94
          0.252 42.184 0.948 -48.933 0.035 111.64
          0.251 42.1 0.035 111.754 0.948 -49.24
790.8 0.903 -49.228 0.258 40.882 0.257 40.846
          0.257 41.068 0.946 -50.086 0.036 110.464
          0.256 40.989 0.036 110.515 0.945 -50.455
807.2 0.9 -50.386 0.263 39.646 0.262 39.615
          0.262 39.885 0.945 -51.394 0.038 109.163
          0.262 39.73 0.038 109.393 0.942 -51.706
823.6 0.897 -51.477 0.268 38.63 0.267 38.549
          0.268 38.653 0.948 -52.504 0.04 108.235
          0.267 38.59 0.04 108.138 0.944 -52.808
840 0.892 -52.589 0.272 37.478 0.273 37.414
          0.273 37.319 0.943 -53.806 0.041 106.446
          0.273 37.307 0.041 106.635 0.941 -54.083
856.4 0.889 -53.796 0.278 36.229 0.278 36.115
          0.278 36.246 0.94 -54.957 0.043 105.152
          0.278 36.281 0.043 105.502 0.938 -55.33
872.8 0.888 -54.897 0.283 35.005 0.283 34.887
          0.284 35.084 0.937 -56.209 0.045 104.244
          0.283 35.153 0.045 104.206 0.937 -56.52
889.2 0.887 -55.91 0.289 33.906 0.288 33.801
          0.289 33.848 0.934 -57.451 0.046 103.245
          0.288 33.871 0.047 102.716 0.935 -57.73
905.6 0.884 -56.991 0.295 32.919 0.294 32.772
          0.294 32.743 0.933 -58.503 0.049 101.756
          0.293 32.622 0.048 101.319 0.931 -59.007
922 0.878 -58.295 0.299 31.659 0.298 31.539
          0.3 31.797 0.933 -59.796 0.051 100.344
          0.299 31.735 0.051 100.31 0.934 -60.03
938.4 0.876 -59.399 0.303 30.352 0.303 30.376
          0.304 30.604 0.931 -60.977 0.052 98.427
          0.304 30.519 0.052 98.513 0.928 -61.287
954.8 0.872 -60.362 0.308 29.308 0.308 29.279
          0.309 29.272 0.93 -62.222 0.054 97.146
          0.308 29.191 0.054 97.204 0.927 -62.566
971.2 0.868 -61.37 0.313 28.133 0.312 28.073
          0.313 28.076 0.926 -63.49 0.056 95.961
          0.312 28.017 0.056 95.968 0.926 -63.713
987.6 0.862 -62.463 0.317 26.853 0.317 26.806
          0.318 26.979 0.921 -64.706 0.058 94.645
          0.317 26.934 0.058 94.543 0.922 -64.765
1004 0.856 -63.551 0.322 25.844 0.322 25.692
          0.323 25.711 0.921 -65.844 0.059 93.383
          0.322 25.654 0.06 93.013 0.923 -65.917
1020.4 0.855 -64.754 0.326 24.718 0.326 24.61
          0.327 24.578 0.92 -67.272 0.061 92.025
          0.326 24.455 0.061 91.685 0.918 -67.329
1036.8 0.853 -65.893 0.332 23.41 0.332 23.361
          0.332 23.348 0.916 -68.433 0.063 90.604
          0.331 23.352 0.064 90.305 0.918 -68.557
1053.2 0.849 -67.084 0.337 22.182 0.337 22.149
          0.337 22.378 0.915 -69.606 0.066 89.197
          0.336 22.309 0.066 89.104 0.916 -69.788
1069.6 0.846 -68.208 0.342 21.061 0.342 21.02
          0.341 21.286 0.914 -70.704 0.068 87.756
          0.34 21.156 0.067 87.826 0.912 -70.906
1086 0.842 -69.242 0.345 19.941 0.345 19.878
          0.345 19.976 0.91 -71.784 0.069 86.221
          0.345 19.905 0.069 86.395 0.91 -72.02
1102.4 0.836 -70.37 0.35 18.629 0.349 18.509
          0.349 18.914 0.907 -73.17 0.071 84.572
          0.35 18.829 0.071 85.077 0.905 -73.557
1118.8 0.832 -71.656 0.354 17.519 0.353 17.477
          0.354 17.638 0.904 -74.374 0.074 83.432
          0.353 17.559 0.073 83.424 0.904 -74.617
1135.2 0.829 -72.52 0.358 16.398 0.358 16.287
          0.358 16.434 0.904 -75.549 0.076 81.867
          0.357 16.286 0.076 81.88 0.903 -75.803
1151.6 0.826 -73.544 0.362 15.16 0.362 15.068
          0.361 15.329 0.901 -76.798 0.078 80.178
          0.361 15.221 0.078 80.402 0.901 -77.136
1168 0.822 -74.757 0.366 13.865 0.366 13.805
          0.366 14.163 0.899 -78.144 0.08 78.526
          0.366 14.121 0.08 78.842 0.899 -78.491
1184.4 0.818 -75.956 0.37 12.624 0.37 12.503
          0.372 12.894 0.898 -79.476 0.082 76.974
          0.371 12.822 0.082 77.186 0.897 -79.764
1200.8 0.814 -76.896 0.374 11.52 0.375 11.329
          0.375 11.889 0.893 -80.48 0.084 75.481
          0.374 11.697 0.084 75.792 0.894 -81.017
1217.2 0.808 -78.128 0.378 10.412 0.379 10.361
          0.379 10.555 0.89 -81.791 0.086 74.109
          0.379 10.51 0.086 74.516 0.892 -82.27
1233.6 0.803 -79.17 0.381 9.328 0.382 9.191
          0.382 9.365 0.888 -83.102 0.087 72.795
          0.382 9.253 0.088 72.979 0.889 -83.58
1250 0.8 -80.211 0.385 8.231 0.386 7.999
          0.386 8.245 0.885 -84.39 0.089 71.432
          0.386 8.054 0.09 71.57 0.885 -84.855
1266.4 0.796 -81.293 0.389 7.014 0.39 6.82
          0.39 7.104 0.883 -85.701 0.092 69.931
          0.39 6.945 0.092 70.27 0.881 -86.153
1282.8 0.792 -82.384 0.392 5.659 0.392 5.631
          0.392 5.889 0.883 -87.055 0.094 68.346
          0.392 5.855 0.093 68.851 0.88 -87.549
1299.2 0.788 -83.521 0.396 4.653 0.396 4.566
          0.395 4.66 0.877 -88.229 0.096 67.226
          0.396 4.55 0.095 67.23 0.876 -88.845
1315.6 0.786 -84.432 0.399 3.465 0.399 3.311
          0.399 3.431 0.876 -89.373 0.097 65.677
          0.399 3.343 0.097 65.717 0.875 -89.84
1332 0.781 -85.343 0.402 2.345 0.403 2.199
          0.401 2.328 0.872 -90.756 0.099 64.393
          0.401 2.238 0.099 64.161 0.872 -91.207
1348.4 0.776 -86.315 0.405 1.266 0.406 1.11
          0.404 1.228 0.869 -92.013 0.102 63.079
          0.405 1.081 0.101 62.704 0.869 -92.56
1364.8 0.772 -87.375 0.408 0.148 0.408 -0.053
          0.408 0.11 0.866 -93.126 0.103 61.635
          0.408 -0.085 0.103 61.409 0.867 -93.697
1381.2 0.77 -88.494 0.41 -1.068 0.411 -1.277
          0.41 -0.947 0.862 -94.384 0.105 60.195
          0.411 -1.078 0.105 60.209 0.863 -94.724
1397.6 0.764 -89.438 0.413 -2.2 0.414 -2.328
          0.412 -2.042 0.861 -95.653 0.107 58.523
          0.413 -2.165 0.107 58.72 0.859 -96.127
1414 0.761 -90.488 0.416 -3.16 0.417 -3.428
          0.416 -3.028 0.859 -96.842 0.109 57.203
          0.417 -3.261 0.109 57.324 0.858 -97.329
1430.4 0.758 -91.477 0.419 -4.248 0.419 -4.422
          0.418 -4.089 0.857 -98.032 0.111 55.995
          0.419 -4.353 0.111 55.99 0.856 -98.554
1446.8 0.754 -92.47 0.421 -5.379 0.422 -5.484
          0.42 -5.086 0.854 -99.218 0.113 54.644
          0.421 -5.309 0.113 54.761 0.852 -99.747
1463.2 0.751 -93.532 0.424 -6.413 0.424 -6.628
          0.422 -6.043 0.852 -100.392 0.115 53.154
          0.423 -6.222 0.115 53.516 0.849 -100.889
1479.6 0.747 -94.653 0.426 -7.266 0.427 -7.59
          0.425 -7.252 0.852 -101.577 0.117 51.879
          0.426 -7.468 0.117 51.95 0.849 -102.069
1496 0.746 -95.697 0.429 -8.306 0.43 -8.567
          0.428 -8.467 0.847 -102.943 0.118 50.68
          0.429 -8.634 0.118 50.54 0.846 -103.363
1512.4 0.742 -96.736 0.431 -9.333 0.432 -9.578
          0.431 -9.491 0.847 -103.96 0.12 49.301
          0.432 -9.683 0.121 49.17 0.845 -104.453
1528.8 0.739 -97.737 0.433 -10.279 0.434 -10.504
          0.434 -10.496 0.846 -105.091 0.122 48.023
          0.435 -10.655 0.122 47.846 0.843 -105.585
1545.2 0.736 -98.708 0.436 -11.33 0.437 -11.518
          0.436 -11.504 0.844 -106.301 0.124 46.722
          0.438 -11.663 0.124 46.575 0.841 -106.773
1561.6 0.734 -99.71 0.438 -12.544 0.44 -12.708
          0.437 -12.561 0.841 -107.491 0.126 45.267
          0.439 -12.808 0.125 45.286 0.839 -107.986
1578 0.731 -100.868 0.439 -13.499 0.442 -13.762
          0.442 -13.878 0.839 -108.783 0.127 43.836
          0.443 -14.094 0.128 43.759 0.838 -109.277
1594.4 0.727 -101.818 0.443 -14.712 0.445 -14.919
          0.443 -14.767 0.838 -109.919 0.129 42.15
          0.445 -14.981 0.129 42.347 0.837 -110.614
1610.8 0.724 -102.731 0.445 -15.865 0.447 -16.038
          0.445 -15.834 0.835 -111.15 0.131 40.881
          0.447 -16.017 0.131 41.086 0.834 -111.736
1627.2 0.723 -103.705 0.448 -16.962 0.449 -17.156
          0.447 -16.855 0.834 -112.405 0.133 39.658
          0.449 -17.042 0.133 39.839 0.832 -112.972
1643.6 0.721 -104.737 0.45 -17.975 0.451 -18.205
          0.449 -17.857 0.832 -113.652 0.135 38.436
          0.451 -18.036 0.135 38.47 0.831 -114.353
1660 0.718 -105.761 0.451 -18.891 0.453 -19.129
          0.452 -18.948 0.83 -114.891 0.136 37.307
          0.453 -19.065 0.137 37.013 0.83 -115.704
1676.4 0.717 -106.69 0.454 -19.794 0.456 -20.128
          0.455 -19.96 0.829 -116.143 0.138 36.145
          0.459 -20.188 0.139 36.084 0.829 -116.75
1692.8 0.712 -107.68 0.456 -21.142 0.457 -21.371
          0.455 -20.957 0.827 -117.34 0.14 34.446
          0.458 -21.078 0.14 34.753 0.827 -117.839
1709.2 0.708 -108.621 0.458 -22.149 0.46 -22.326
          0.457 -22.05 0.826 -118.555 0.142 33.225
          0.459 -22.19 0.142 33.331 0.826 -119.09
1725.6 0.706 -109.673 0.461 -23.069 0.463 -23.273
          0.459 -23.121 0.825 -119.678 0.144 31.992
          0.461 -23.284 0.144 32.004 0.825 -120.271
1742 0.705 -110.823 0.462 -24.02 0.465 -24.301
          0.461 -24.18 0.824 -120.828 0.146 30.682
          0.463 -24.289 0.146 30.764 0.823 -121.342
1758.4 0.702 -111.898 0.463 -24.954 0.466 -25.301
          0.463 -25.313 0.822 -122.224 0.148 29.581
          0.466 -25.339 0.147 29.441 0.82 -122.479
1774.8 0.699 -112.817 0.464 -26.207 0.468 -26.471
          0.467 -26.167 0.823 -123.268 0.149 27.852
          0.469 -26.453 0.15 27.908 0.819 -123.965
1791.2 0.698 -113.669 0.467 -27.231 0.469 -27.493
          0.468 -27.159 0.821 -124.396 0.151 26.653
          0.471 -27.499 0.151 26.712 0.818 -124.991
1807.6 0.695 -114.71 0.468 -28.29 0.47 -28.578
          0.468 -28.156 0.818 -125.454 0.152 25.373
          0.471 -28.529 0.153 25.3 0.815 -126.069
1824 0.693 -115.738 0.469 -29.224 0.471 -29.57
          0.469 -29.168 0.816 -126.655 0.154 24.101
          0.472 -29.496 0.154 24.001 0.813 -127.268
1840.4 0.691 -116.669 0.471 -30.049 0.474 -30.453
          0.47 -30.199 0.813 -127.948 0.156 22.903
          0.473 -30.432 0.156 22.91 0.811 -128.496
1856.8 0.686 -117.686 0.473 -31.1 0.476 -31.474
          0.472 -31.222 0.811 -128.905 0.158 21.631
          0.476 -31.483 0.157 21.584 0.81 -129.585
1873.2 0.684 -118.495 0.474 -32.062 0.477 -32.336
          0.472 -32.299 0.811 -129.95 0.159 20.446
          0.477 -32.495 0.159 20.206 0.808 -130.545
1889.6 0.684 -119.671 0.475 -32.991 0.478 -33.29
          0.475 -33.205 0.809 -131.086 0.16 19.233
          0.479 -33.344 0.161 18.879 0.806 -131.774
1906 0.681 -120.715 0.476 -34.031 0.479 -34.331
          0.477 -34.215 0.807 -132.277 0.161 17.819
          0.48 -34.394 0.162 17.598 0.806 -132.99
1922.4 0.676 -121.692 0.477 -35.127 0.481 -35.397
          0.479 -35.156 0.807 -133.437 0.163 16.348
          0.482 -35.437 0.164 16.372 0.805 -134.118
1938.8 0.675 -122.74 0.478 -36.201 0.482 -36.435
          0.481 -35.971 0.806 -134.518 0.165 14.969
          0.484 -36.322 0.165 15.168 0.802 -135.195
1955.2 0.674 -123.743 0.48 -37.264 0.484 -37.465
          0.481 -37.148 0.808 -135.569 0.166 13.613
          0.484 -37.42 0.166 13.889 0.8 -136.325
1971.6 0.672 -124.691 0.483 -38.183 0.487 -38.533
          0.481 -37.921 0.804 -136.663 0.168 12.658
          0.484 -38.161 0.167 12.86 0.797 -137.408
1988 0.671 -125.554 0.485 -38.977 0.489 -39.274
          0.482 -39.048 0.8 -137.822 0.169 11.576
          0.486 -39.383 0.168 11.342 0.794 -138.559
2004.4 0.669 -126.474 0.485 -40.056 0.49 -40.275
          0.484 -40.094 0.799 -138.928 0.171 10.269
          0.489 -40.387 0.17 10.154 0.794 -139.545
2020.8 0.666 -127.414 0.486 -41.185 0.49 -41.409
          0.485 -41.047 0.798 -140.061 0.172 8.95
          0.49 -41.265 0.171 9.135 0.793 -140.567
2037.2 0.662 -128.316 0.486 -41.981 0.491 -42.294
          0.485 -42.081 0.795 -141.299 0.173 7.846
          0.489 -42.371 0.173 7.83 0.79 -141.864
2053.6 0.661 -129.465 0.486 -42.877 0.49 -43.15
          0.487 -43.122 0.794 -142.333 0.173 6.615
          0.492 -43.33 0.174 6.793 0.79 -142.969
2070 0.659 -130.38 0.488 -43.705 0.494 -43.998
          0.488 -43.91 0.795 -143.379 0.175 5.653
          0.492 -44.279 0.175 5.584 0.789 -144.068
2086.4 0.657 -131.355 0.489 -44.729 0.494 -44.984
          0.489 -44.792 0.794 -144.422 0.177 4.529
          0.493 -45.09 0.177 4.267 0.788 -145.094
2102.8 0.655 -132.336 0.488 -45.769 0.493 -46.054
          0.49 -45.694 0.793 -145.398 0.177 3.241
          0.495 -45.931 0.178 3.109 0.788 -146.06
2119.2 0.653 -133.337 0.487 -46.732 0.493 -47.086
          0.49 -46.68 0.792 -146.399 0.178 1.993
          0.496 -46.953 0.18 2.028 0.786 -147.033
2135.6 0.65 -134.395 0.488 -47.651 0.494 -47.966
          0.491 -47.851 0.789 -147.562 0.18 1.015
          0.496 -48.171 0.181 0.744 0.783 -148.089
2152 0.651 -135.147 0.492 -48.65 0.499 -48.959
