!Hittite Microwave Corporation								
!12 Elizabeth Drive								
!Chelmsford, MA 01824								
!Tel: 978-250-3343								
!Fax: 978-250-3373								
!Device: HMC182S14, DC-2 GHz GaAS MMIC SP4T Non-Reflective Switch in 14-lead SOIC package								
!Misc: Port 1 = RFCom, Port 2 = RF1, Port 3 = RF2, Port 4 = RF3, Port 5 = RF4, RF3 selected, Vctl=0/-5V							
!
# MHZ S MA R 50

30	0.128	-40.401	0.0002518	92.016	0.0001123	-97.879	0.907	4.146
	0.0002189	102.059	0.000238	93.555	0.081	-36.499	0.0002853	87.558
	0.00005948	-91.063	0.0001215	85.493	0.0000945	-89.084	0.0002776	92.762
	0.078	-33.857	0.0001929	102.86	0.000176	77.734	0.906	4.151
	0.00006709	-73.31	0.0001863	98.848	0.124	-44.868	0.00000772	41.151
	0.0002169	97.121	0.0001339	74.645	0.0001715	83.758	0.000005385	37.953
	0.081	-36.405						
49.85	0.092	-29.486	0.0003909	90.115	0.0001772	-106.261	0.92	0.778
	0.0003719	84.962	0.0003831	91.122	0.06	-22.745	0.0004932	85.597
	0.0000866	-74.115	0.0001768	84.348	0.00019	-91.669	0.0004818	87.09
	0.059	-20.838	0.0003085	94.639	0.0002577	82.357	0.92	0.803
	0.00009321	-102.584	0.0002798	84.437	0.085	-33.945	0.000009194	13.993
	0.0003516	90.473	0.0001935	81.856	0.0002941	84.03	0.00002537	-39.453
	0.061	-23.125						
69.7	0.082	-24.979	0.0005543	87.956	0.0002346	-100.603	0.923	-0.654
	0.0005073	87.149	0.000527	88.836	0.055	-16.595	0.0007085	83.982
	0.0001353	-82.727	0.0002798	79.829	0.0002548	-91.467	0.000657	85.038
	0.054	-15.607	0.0004172	90.955	0.0003478	82.059	0.924	-0.656
	0.0001114	-97.644	0.0003987	82.775	0.073	-28.724	0.0000212	147.205
	0.0004733	90.344	0.0003114	83.859	0.000401	83.124	0.00004956	-12.81
	0.055	-17.419						
89.55	0.077	-22.571	0.0006976	89.015	0.0003055	-97.089	0.926	-1.713
	0.0006176	89.213	0.0006649	89.904	0.052	-12.913	0.0008849	84.368
	0.0001824	-88.163	0.0003615	81.413	0.0003083	-93.73	0.0008655	86.156
	0.051	-12.49	0.0005074	90.554	0.0004345	81.621	0.926	-1.713
	0.0001583	-94.368	0.0005233	84.377	0.067	-25.606	0.000008631	126.155
	0.0006309	91.011	0.0003971	82.586	0.000486	80.71	0.00003477	-52.819
	0.052	-13.901						
109.4	0.074	-21.422	0.0008149	87.547	0.00041	-96.304	0.927	-2.627
	0.0007476	89.85	0.0007961	89.074	0.05	-10.167	0.001059	84.787
	0.0002269	-97.298	0.0004441	86.082	0.0003881	-95.874	0.001081	85.815
	0.05	-10.104	0.0006388	87.124	0.000534	83.807	0.927	-2.598
	0.0002193	-94.261	0.0006376	87.138	0.064	-23.602	0.000007404	128.546
	0.000757	89.862	0.0004504	82.894	0.0005701	81.685	0.00004965	-117.478
	0.051	-11.285						
129.25	0.072	-20.727	0.000973	88.745	0.0004688	-96.225	0.928	-3.441
	0.0008945	90.008	0.0009337	88.84	0.049	-7.855	0.00129	83.985
	0.0002392	-102.478	0.000543	85.845	0.0004646	-96.679	0.001282	83.551
	0.049	-8.205	0.0007514	86.527	0.0006643	84.063	0.928	-3.417
	0.0002517	-98.175	0.000745	87.628	0.061	-22.143	0.0000652	173.594
	0.0008733	88.286	0.0005234	82.113	0.0006735	82.446	0.00001503	-82.751
	0.05	-9.188						
149.1	0.071	-20.3	0.001103	89.727	0.0005461	-101.142	0.929	-4.235
	0.001006	90.49	0.001094	89.97	0.049	-5.96	0.001482	84.355
	0.0002749	-103.497	0.0006149	82.767	0.0005611	-97.774	0.001458	83.268
	0.048	-6.657	0.0008597	87.266	0.0007774	83.458	0.929	-4.186
	0.0002925	-104.859	0.0008688	85.872	0.059	-20.816	0.00008478	-141.621
	0.00101	90	0.0006219	82.401	0.0007452	82.681	0.00005915	172.91
	0.049	-7.471						
168.95	0.07	-20.148	0.001201	88.928	0.0006331	-104.592	0.929	-4.999
	0.001131	89.91	0.001243	88.797	0.048	-4.217	0.001637	83.932
	0.0003115	-109.826	0.0007046	81.031	0.0006326	-103.087	0.001632	83.74
	0.048	-5.246	0.0009926	85.477	0.0008879	82.457	0.929	-5.02
	0.0003226	-105.337	0.0009866	87.129	0.058	-19.974	0.00008802	-151.722
	0.001133	91.006	0.0007131	84.326	0.0008376	82.056	0.00009106	-141.277
	0.049	-5.879						
188.8	0.068	-20.298	0.00135	89.054	0.0007103	-107.53	0.93	-5.728
	0.001254	89.892	0.001379	89.062	0.048	-2.659	0.001833	82.377
	0.0003505	-112.519	0.0007923	83.125	0.0007056	-107.905	0.001825	82.416
	0.048	-3.959	0.001091	86.438	0.000984	80.883	0.929	-5.827
	0.0003641	-109.532	0.001086	86.664	0.057	-19.475	0.0001338	-165.334
	0.001249	90.683	0.0007835	82.361	0.0009698	81.961	0.0001278	-147.558
	0.048	-4.45						
208.65	0.068	-20.54	0.001508	88.538	0.0008312	-110.23	0.93	-6.441
	0.00138	91.389	0.001523	89.112	0.048	-1.29	0.002026	81.619
	0.0004112	-114.009	0.0008579	83.03	0.0008219	-110.19	0.002034	82.464
	0.048	-2.842	0.001225	87.64	0.001071	81.614	0.929	-6.541
	0.0004303	-113.479	0.001209	87.263	0.056	-18.695	0.0001975	-157.397
	0.001379	89.799	0.0008399	82.084	0.001093	83.928	0.0001742	-152.433
	0.048	-3.224						
228.5	0.067	-20.686	0.001669	89.036	0.000931	-111.709	0.93	-7.201
	0.001525	91.984	0.001665	88.339	0.048	0.083	0.002218	81.458
	0.0004845	-117	0.0009425	82.525	0.0009095	-112.215	0.002223	82.025
	0.048	-1.802	0.001349	86.569	0.001148	81.917	0.929	-7.262
	0.0004533	-114.238	0.001362	86.66	0.055	-17.947	0.0002235	-165.592
	0.001494	89.849	0.0009372	82.042	0.001152	81.73	0.0001981	-152.279
	0.048	-2.088						
248.35	0.067	-20.986	0.001792	90.172	0.001042	-114.651	0.93	-7.916
	0.001643	92.148	0.001784	89.29	0.048	1.306	0.002456	81.144
	0.0005093	-119.472	0.001023	79.103	0.0009963	-114.099	0.002428	80.692
	0.048	-0.807	0.00148	86.629	0.001252	80.512	0.929	-7.989
	0.0005065	-120.036	0.001471	87.113	0.055	-17.508	0.0002116	-167.924
	0.001635	91.835	0.001032	81.085	0.001281	80.1	0.0002241	-163.851
	0.048	-0.989						
268.2	0.066	-21.332	0.00192	90.751	0.001107	-115.686	0.93	-8.617
	0.001769	92.718	0.001927	89.702	0.048	2.461	0.002665	80.463
	0.0005494	-119.036	0.001094	79.059	0.001117	-114.67	0.002618	79.706
	0.048	0.146	0.001584	87.263	0.001365	80.318	0.929	-8.67
	0.0005463	-124.306	0.001595	86.766	0.054	-17.053	0.0002468	-164.436
	0.001757	93.107	0.001122	81.603	0.001401	79.585	0.0002567	-170.303
	0.048	0.051						
288.05	0.066	-21.58	0.002079	90.565	0.001221	-117.082	0.93	-9.318
	0.001902	93.358	0.002082	90.301	0.048	3.485	0.002826	79.574
	0.000579	-121.628	0.001176	78.739	0.00121	-117.543	0.002817	79.492
	0.048	0.945	0.001726	86.714	0.001459	79.495	0.929	-9.367
	0.0005618	-122.861	0.001731	86.917	0.054	-16.591	0.0003036	-170.628
	0.001878	93.852	0.001176	79.693	0.001476	78.786	0.0002892	-173.226
	0.049	0.879						
307.9	0.065	-21.943	0.002189	90.28	0.001351	-120.325	0.931	-10.052
	0.001992	93.969	0.002204	90.119	0.048	4.473	0.003039	78.976
	0.0006196	-125.677	0.001263	78.639	0.001316	-119.87	0.003001	78.795
	0.049	1.691	0.001869	85.931	0.00158	77.814	0.93	-10.106
	0.0005987	-124.932	0.00188	86.629	0.054	-16.16	0.0003433	-179.296
	0.002042	93.46	0.001238	78.826	0.001603	78.339	0.0003251	-173.02
	0.049	1.693						
327.75	0.065	-22.441	0.002322	90.839	0.001469	-122.206	0.931	-10.769
	0.00215	94.361	0.002339	90.942	0.048	5.368	0.003229	78.511
	0.0006692	-129.406	0.001336	77.421	0.00148	-123.253	0.003199	77.934
	0.049	2.322	0.002025	85.923	0.001674	77.234	0.931	-10.792
	0.000659	-124.575	0.002019	85.568	0.053	-16.067	0.0003667	178.255
	0.002156	93.915	0.001347	78.122	0.001687	77.124	0.0003837	178.726
	0.049	2.434						
347.6	0.065	-22.911	0.00247	91.377	0.001589	-124.542	0.932	-11.502
	0.00231	94.933	0.002505	91.206	0.048	6.215	0.003419	77.704
	0.0006967	-131.645	0.00143	78.046	0.001611	-125.056	0.003381	78.045
	0.049	2.931	0.002164	85.072	0.001778	76.77	0.931	-11.526
	0.0007346	-127.761	0.002155	85.12	0.053	-15.794	0.0004419	177.458
	0.002301	94.181	0.001442	77.528	0.001807	76.442	0.000395	179.07
	0.049	3.181						
367.45	0.064	-23.374	0.002615	91.605	0.001683	-126.503	0.931	-12.218
	0.002409	95.355	0.002644	92.287	0.049	6.952	0.003609	77.004
	0.0007152	-129.818	0.001493	77.597	0.001729	-127.047	0.003587	77.073
	0.05	3.466	0.002299	84.799	0.001894	75.956	0.931	-12.231
	0.000757	-131.155	0.002303	84.384	0.053	-15.626	0.0004746	177.953
	0.002395	95.1	0.001519	76.283	0.001925	76.056	0.0004305	-179.944
	0.05	3.845						
387.3	0.064	-23.821	0.002752	92.04	0.001836	-127.855	0.93	-12.895
	0.002536	95.993	0.002766	92.584	0.049	7.66	0.003811	76.965
	0.0007459	-133.437	0.00157	75.426	0.001823	-128.845	0.003804	76.257
	0.05	3.878	0.002459	84.45	0.002008	74.372	0.932	-12.944
	0.0007871	-130.54	0.002457	83.55	0.052	-15.665	0.0004982	176.609
	0.00253	96.066	0.001613	76.184	0.001989	75.776	0.0004992	177.888
	0.05	4.442						
407.15	0.064	-24.294	0.002909	92.432	0.001997	-131.057	0.931	-13.599
	0.002725	97.237	0.002906	92.597	0.049	8.306	0.003989	75.804
	0.0008227	-136.252	0.001688	75.326	0.001987	-131.478	0.003986	75.634
	0.051	4.219	0.002582	82.904	0.002076	74.779	0.931	-13.704
	0.0008216	-136.019	0.002575	83.241	0.052	-15.574	0.0005346	172.681
	0.002694	96.312	0.001669	76.652	0.002084	74.662	0.0005437	174.32
	0.051	4.927						
427	0.063	-24.811	0.00307	93.742	0.002161	-132.927	0.93	-14.328
	0.002873	96.975	0.003016	92.743	0.05	8.786	0.004181	74.861
	0.0008951	-137.4	0.001763	75.527	0.002165	-133.89	0.0042	74.831
	0.051	4.481	0.002717	82.529	0.002196	73.79	0.93	-14.358
	0.0008541	-138.498	0.002748	82.101	0.052	-15.59	0.0005879	168.906
	0.002819	97.175	0.001782	74.749	0.002191	73.599	0.0005749	171.533
	0.051	5.469						
446.85	0.063	-25.372	0.00318	93.424	0.002345	-136.095	0.93	-14.995
	0.002967	97.064	0.003173	93.591	0.05	9.29	0.004386	74.333
	0.0009056	-140.061	0.00186	74.385	0.002331	-135.042	0.004377	74.305
	0.052	4.704	0.002907	81.311	0.002338	73.639	0.93	-15.036
	0.0008853	-140.569	0.002885	81.711	0.052	-15.729	0.0006636	170.111
	0.002975	97.363	0.001853	74.739	0.002296	72.203	0.0006186	168.3
	0.051	5.891						
466.7	0.063	-25.939	0.003332	94.172	0.002489	-137.82	0.93	-15.623
	0.003126	98.032	0.003332	93.915	0.05	9.698	0.004571	73.548
	0.0009534	-143.545	0.001955	73.673	0.002485	-137.016	0.004561	73.341
	0.052	4.861	0.003077	80.448	0.002432	72.387	0.93	-15.695
	0.0009156	-141.082	0.003086	80.647	0.052	-15.91	0.0007005	166.316
	0.003098	97.937	0.001906	74.365	0.002415	72.128	0.0007138	166.797
	0.052	6.285						
486.55	0.063	-26.451	0.003502	94.403	0.002645	-140.415	0.93	-16.29
	0.003251	99.055	0.003514	94.508	0.051	10.003	0.004801	72.704
	0.0009915	-143.303	0.001997	72.854	0.002657	-139.534	0.004779	72.715
	0.053	5.005	0.003228	79.348	0.002513	70.948	0.93	-16.338
	0.0009293	-141.195	0.003228	78.889	0.052	-16.232	0.0007267	164.074
	0.003263	98.671	0.002014	72.681	0.002533	71.229	0.0007537	165.136
	0.052	6.644						
506.4	0.063	-27.064	0.003665	94.903	0.002866	-142.366	0.929	-16.96
	0.003382	99.999	0.003668	95.289	0.051	10.415	0.00498	71.783
	0.001028	-142.982	0.002092	72.387	0.002863	-142.221	0.004969	72.347
	0.054	5.16	0.003401	77.852	0.002666	70.353	0.931	-17.034
	0.001051	-146.829	0.003351	78.263	0.052	-16.681	0.0008233	160.968
	0.003399	99.324	0.00211	71.743	0.002625	69.982	0.0007869	162.641
	0.053	7.006						
526.25	0.063	-27.782	0.0038	95.689	0.003044	-144.526	0.93	-17.693
	0.003564	100.644	0.003803	95.574	0.052	10.789	0.005217	71.022
	0.001016	-145.267	0.002177	71.15	0.00311	-143.786	0.00517	71.068
	0.055	5.219	0.003537	76.996	0.002741	69.686	0.93	-17.748
	0.001078	-148.294	0.003567	76.883	0.052	-16.926	0.0008201	160.043
	0.003561	99.749	0.00217	71.995	0.002755	69.113	0.000844	163.613
	0.053	7.282						
546.1	0.062	-29.166	0.003987	95.622	0.003276	-146.861	0.93	-18.416
	0.003727	101.448	0.003947	96.031	0.052	11.189	0.005358	70.529
	0.001091	-146.733	0.002266	71.14	0.003306	-146.726	0.005375	70.459
	0.055	5.362	0.003691	75.477	0.002859	68.108	0.93	-18.497
	0.00106	-147.99	0.003729	75.773	0.053	-17.165	0.0008375	156.938
	0.003705	100.311	0.002245	70.95	0.002872	67.906	0.0008854	161.066
	0.054	7.495						
565.95	0.063	-29.779	0.004147	96.587	0.003524	-148.484	0.93	-19.149
	0.003874	102.324	0.004143	96.345	0.053	11.744	0.005552	69.721
	0.00113	-147.836	0.002322	70.633	0.003497	-149.278	0.005592	69.75
	0.056	5.598	0.003833	74.04	0.002972	67.09	0.929	-19.239
	0.001131	-148.811	0.003843	73.377	0.053	-17.682	0.0009276	158.668
	0.003912	101.623	0.002371	69.4	0.002991	66.818	0.0009386	159.835
	0.055	7.824						
585.8	0.063	-30.337	0.004348	96.848	0.003766	-151.8	0.93	-19.838
	0.004071	102.584	0.0043	97.065	0.053	12.039	0.005785	68.99
	0.001174	-151.819	0.002436	69.545	0.00371	-151.643	0.005797	68.55
	0.057	5.646	0.003942	72	0.003096	65.411	0.93	-19.938
	0.001151	-149.371	0.003995	72.151	0.053	-18.544	0.0009465	158.273
	0.004114	102.042	0.002398	69.061	0.003067	66.366	0.0009606	157.102
	0.055	8.029						
605.65	0.063	-30.859	0.004518	97.672	0.00403	-154.167	0.93	-20.508
	0.00425	102.913	0.004543	97.474	0.054	12.536	0.005962	67.946
	0.001182	-149.83	0.002533	68.511	0.004023	-154.506	0.005968	67.999
	0.058	5.653	0.004084	70.894	0.003173	65.138	0.93	-20.651
	0.001199	-151.356	0.0041	70.273	0.053	-19.32	0.0009762	158.747
	0.004265	103.149	0.002497	67.75	0.003216	64.287	0.0009955	155.845
	0.056	8.155						
625.5	0.063	-31.494	0.004716	98.26	0.004228	-157.088	0.929	-21.253
	0.004511	103.493	0.004732	97.914	0.054	12.92	0.006199	66.959
	0.001197	-148.731	0.002572	67.589	0.004242	-157.364	0.006201	67.093
	0.059	5.707	0.004196	68.898	0.003303	62.902	0.928	-21.28
	0.00116	-153.113	0.004188	68.245	0.053	-20.06	0.001003	157.96
	0.004504	103.773	0.002626	67.365	0.003298	63.773	0.001002	154.877
	0.056	8.301						
645.35	0.063	-32.295	0.004917	98.694	0.004464	-159.7	0.928	-21.913
	0.004684	104.344	0.004913	98.527	0.054	13.202	0.006351	66.001
	0.001286	-151.154	0.002713	66.105	0.004502	-160.493	0.006366	66.129
	0.059	5.668	0.004292	66.088	0.003383	62.116	0.927	-21.92
	0.001244	-150.613	0.0043	66.1	0.053	-21.054	0.001047	155.193
	0.004707	104.504	0.002644	67.384	0.003429	61.748	0.001042	155.823
	0.057	8.352						
665.2	0.063	-33.138	0.005142	98.777	0.00478	-163.273	0.928	-22.577
	0.004922	105.354	0.005112	99.369	0.055	13.529	0.00652	65.273
	0.001287	-152.651	0.002736	65.084	0.004728	-163.519	0.00654	65.701
	0.06	5.596	0.00433	64.143	0.003439	61.361	0.927	-22.642
	0.00129	-151.354	0.004441	64.535	0.053	-21.935	0.001038	159.147
	0.004952	105.182	0.002738	65.917	0.003508	60.125	0.001125	157.334
	0.057	8.378						
685.05	0.063	-34.068	0.005349	99.435	0.004955	-166.053	0.927	-23.265
	0.005185	105.244	0.005373	99.134	0.055	13.607	0.006693	64.331
	0.001341	-151.234	0.002803	64.687	0.004992	-166.716	0.006693	64.503
	0.06	5.327	0.004436	61.862	0.003546	59.114	0.928	-23.288
	0.00134	-152.153	0.004451	61.966	0.053	-23.039	0.001097	161.011
	0.005199	105.194	0.002794	64.603	0.003583	59.258	0.001113	158.067
	0.058	8.39						
704.9	0.063	-34.953	0.005611	99.541	0.005257	-169.879	0.927	-23.909
	0.005445	105.469	0.005622	99.877	0.055	13.754	0.006867	63.7
	0.001402	-150.403	0.002878	64	0.005268	-170.039	0.006875	63.43
	0.061	5.036	0.004435	60.119	0.003608	58.656	0.925	-23.968
	0.001437	-152.593	0.004437	60.205	0.053	-24.164	0.001124	159.72
	0.00549	105.579	0.002913	64.167	0.003653	58.406	0.001105	159.081
	0.058	8.215						
724.75	0.063	-36.103	0.005873	99.652	0.005471	-173.27	0.926	-24.56
	0.005723	105.517	0.005866	99.424	0.055	13.565	0.007002	62.858
	0.001481	-151.464	0.002957	63.552	0.005468	-173.494	0.007002	62.623
	0.062	4.57	0.0044	58.112	0.003728	57.028	0.925	-24.6
	0.001485	-151.757	0.004378	57.674	0.052	-25.342	0.001142	161.436
	0.005775	105.828	0.002976	63.028	0.00376	57.036	0.001174	160.358
	0.059	8.153						
744.6	0.063	-37.22	0.006057	99.854	0.005654	-176.954	0.924	-25.16
	0.005972	105.67	0.006138	99.504	0.055	13.478	0.00714	61.756
	0.00158	-150.439	0.003021	62.646	0.005698	-176.57	0.007148	62.086
	0.062	4.034	0.00436	56.09	0.003775	55.832	0.926	-25.201
	0.001583	-150.317	0.004382	55.866	0.052	-26.527	0.00121	164.375
	0.006019	105.775	0.003072	62.893	0.003749	55.607	0.001218	163.511
	0.059	7.969						
764.45	0.063	-38.327	0.006382	99.435	0.005878	-179.869	0.924	-25.852
	0.006278	105.643	0.006383	99.68	0.056	13.203	0.007295	61.305
	0.001658	-149.772	0.003077	61.95	0.005904	179.855	0.007296	60.966
	0.063	3.48	0.004313	54.321	0.003811	54.573	0.925	-25.903
	0.001688	-149.684	0.004257	53.763	0.052	-27.666	0.001275	165.904
	0.006313	105.348	0.003081	61.67	0.003784	53.773	0.001254	165.704
	0.06	7.856						
784.3	0.063	-39.649	0.006678	99.286	0.006043	176.672	0.927	-26.434
	0.0066	105.459	0.006708	99.543	0.056	12.796	0.007414	60.55
	0.001789	-150.36	0.003131	61.041	0.006037	176.807	0.007456	60.566
	0.064	2.74	0.004201	53.069	0.003866	54.613	0.925	-26.502
	0.001742	-149.842	0.004186	53.132	0.052	-29.004	0.001379	166.989
	0.006593	105.258	0.003144	60.788	0.00384	53.822	0.001415	168.462
	0.061	7.607						
804.15	0.063	-40.899	0.006942	98.966	0.006157	173.446	0.928	-27.259
	0.006916	104.744	0.006951	98.788	0.056	12.706	0.007602	59.966
	0.001884	-149.186	0.003217	60.087	0.006178	173.362	0.007593	59.767
	0.064	2.179	0.004084	52.946	0.003858	52.918	0.927	-27.18
	0.001905	-150.312	0.004039	52.436	0.051	-29.744	0.001468	170.518
	0.006947	104.898	0.003177	60.212	0.003854	52.66	0.00152	170.652
	0.061	7.578						
824	0.063	-41.93	0.007232	98.76	0.00626	170.803	0.927	-27.908
	0.007213	103.872	0.007266	98.303	0.057	12.162	0.007742	59.078
	0.002029	-151.463	0.003239	59.918	0.006317	170.251	0.00768	59.086
	0.065	1.528	0.003932	51.675	0.003907	51.793	0.928	-27.967
	0.002031	-151.162	0.003931	52.388	0.051	-31.111	0.00161	171.353
	0.007254	103.746	0.003299	59.175	0.003898	51.88	0.001596	171.394
	0.062	7.292						
843.85	0.063	-43.082	0.007508	97.978	0.006369	167.671	0.926	-28.606
	0.007464	103.17	0.007501	97.94	0.057	11.9	0.007885	58.668
	0.002193	-152.766	0.003366	59.503	0.006378	167.353	0.007874	58.463
	0.066	1.175	0.003781	52.742	0.003952	51.724	0.927	-28.685
	0.002203	-153.781	0.003776	53.518	0.05	-32.107	0.001697	172.428
	0.007523	103.291	0.003311	59.723	0.003983	51.207	0.001745	172.504
	0.063	7.277						
863.7	0.063	-44.149	0.007761	97.176	0.006425	164.97	0.926	-29.324
	0.007765	102.634	0.007761	97.081	0.058	11.623	0.007967	57.933
	0.00232	-154.716	0.003396	58.06	0.006411	164.725	0.008038	58.052
	0.067	0.618	0.003639	53.862	0.003953	51.373	0.926	-29.327
	0.002338	-154.692	0.00365	54.489	0.05	-33.509	0.001893	173.306
	0.007723	102.403	0.003371	58.115	0.003972	51.182	0.001927	172.41
	0.064	7.061						
883.55	0.063	-44.954	0.00803	96.693	0.00643	162.617	0.924	-29.929
	0.008009	101.64	0.008004	96.258	0.059	11.384	0.008103	57.945
	0.002443	-156.062	0.003427	58.476	0.00645	162.401	0.008124	57.597
	0.068	0.319	0.003535	56.037	0.00401	50.968	0.925	-30.101
	0.002451	-156.5	0.003551	56.297	0.049	-34.85	0.002104	173.617
	0.008016	101.391	0.003475	57.868	0.004042	50.109	0.002107	173.152
	0.064	6.913						
903.4	0.063	-45.454	0.008245	95.823	0.00646	160.105	0.922	-30.73
	0.008231	100.762	0.008209	95.493	0.059	11.294	0.008198	56.953
	0.002546	-157.227	0.003492	57.268	0.006462	160.053	0.008208	56.856
	0.069	0.008133	0.003413	57.892	0.004035	50.767	0.924	-30.712
	0.002623	-158.329	0.00342	58.408	0.048	-35.998	0.002254	172.851
	0.008222	100.926	0.003514	57.496	0.004085	49.632	0.002259	172.966
	0.065	6.741						
923.25	0.062	-45.768	0.008462	95.116	0.006514	158.466	0.924	-31.28
	0.008457	100.567	0.008478	94.968	0.06	11.234	0.008373	56.75
	0.002785	-160.112	0.003534	57.301	0.006486	158.32	0.008382	56.521
	0.07	-0.229	0.003319	61.377	0.004111	50.576	0.923	-31.371
	0.002743	-160.522	0.00336	61.355	0.047	-37.23	0.002427	171.954
	0.008456	100.243	0.003535	57.479	0.004062	49.491	0.002462	171.509
	0.066	6.627						
943.1	0.061	-46.464	0.008658	94.624	0.0065	156.676	0.922	-31.869
	0.008671	99.498	0.008661	94.559	0.06	11.268	0.008502	56.469
	0.002918	-161.368	0.003655	57.176	0.00654	156.923	0.008512	56.385
	0.07	-0.358	0.003383	64.23	0.004147	49.759	0.923	-31.923
	0.00293	-162.231	0.003335	64.58	0.046	-38.426	0.002585	170.294
	0.008662	99.737	0.003613	56.914	0.004147	50.268	0.002634	171.132
	0.066	6.503						
962.95	0.061	-47.34	0.008893	94.485	0.006529	155.457	0.923	-32.426
