!Hittite Microwave Corporation								
!12 Elizabeth Drive								
!Chelmsford, MA 01824								
!Tel: 978-250-3343								
!Fax: 978-250-3373	
!Device: HMC190MS8, DC - 3 GHz SPDT switch in MSOP-8 package
!Misc: Port 1 = RFC, Port 2 = RF1, Port 3 = RF2, RF2 Selected, Bias: +3VDC							
!
# MHZ S MA R 50

50 0.061 -45.809 6.465e-3 88.024 0.949 1.956
          7.596e-3 82.885 0.982 -11.158 5.316e-3 87.314
          0.949 2.069 4.6e-3 63.724 0.062 -46.596
69.75 0.048 -42.306 7.589e-3 76.069 0.954 1.13
          9.136e-3 79.668 0.977 -15.205 6.27e-3 74.218
          0.954 1.155 6.036e-3 72.48 0.048 -42.645
89.5 0.042 -41.486 8.357e-3 86.687 0.956 0.707
          8.504e-3 87.752 0.97 -19.175 7.633e-3 88.935
          0.956 0.722 8.284e-3 91.63 0.041 -41.252
109.25 0.038 -40.677 0.01 84.177 0.956 0.362
          9.953e-3 83.748 0.969 -23.104 9.763e-3 88.851
          0.959 0.329 9.603e-3 92.911 0.037 -40.023
129 0.036 -38.266 0.012 78.837 0.957 0.113
          0.013 77.131 0.968 -26.963 0.012 86.903
          0.958 0.121 0.012 85.691 0.035 -39.655
148.75 0.034 -38.136 0.016 78.915 0.957 0.027
          0.016 80.075 0.965 -30.663 0.015 87.143
          0.958 0.069 0.015 85.977 0.033 -39.862
168.5 0.033 -38.745 0.017 74.514 0.957 0.027
          0.017 76.483 0.965 -34.582 0.018 83.745
          0.958 0.083 0.017 82.436 0.031 -38.428
188.25 0.032 -38.865 0.019 71.138 0.958 -0.055
          0.019 71.973 0.965 -38.461 0.019 79.604
          0.959 -0.021 0.019 79.631 0.031 -38.266
208 0.031 -38.907 0.021 70.592 0.959 -0.233
          0.021 69.79 0.963 -42.247 0.02 77.437
          0.96 -0.226 0.02 79.072 0.03 -39.621
227.75 0.03 -40.119 0.023 70.252 0.96 -0.389
          0.022 69.212 0.96 -46.06 0.022 78.391
          0.961 -0.362 0.023 78.831 0.029 -40.832
247.5 0.028 -40.53 0.025 67.429 0.96 -0.511
          0.024 67.452 0.962 -49.655 0.023 76.971
          0.961 -0.517 0.023 76.106 0.028 -41.56
267.25 0.028 -42.2 0.027 65.768 0.962 -0.617
          0.026 65.455 0.959 -53.356 0.026 75.637
          0.961 -0.591 0.026 75.289 0.028 -41.623
287 0.027 -43.529 0.028 63.708 0.961 -0.711
          0.028 63.638 0.956 -56.927 0.027 75.028
          0.961 -0.725 0.028 74.93 0.027 -41.865
306.75 0.027 -43.732 0.03 61.72 0.96 -0.798
          0.03 61.893 0.954 -60.385 0.029 74.073
          0.961 -0.814 0.029 73.905 0.026 -42.506
326.5 0.026 -43.121 0.032 59.973 0.96 -0.874
          0.033 59.836 0.952 -63.815 0.03 72.442
          0.96 -0.831 0.031 72.092 0.025 -43.585
346.25 0.026 -43.562 0.033 57.492 0.959 -0.924
          0.033 56.915 0.952 -67.306 0.032 71.56
          0.961 -0.954 0.032 70.84 0.025 -45.195
366 0.026 -44.557 0.035 55.505 0.96 -1.017
          0.036 55.126 0.95 -70.624 0.033 70.485
          0.961 -0.988 0.034 69.907 0.024 -45.47
385.75 0.025 -44.754 0.036 53.183 0.961 -1.144
          0.036 53.69 0.949 -73.942 0.035 69.13
          0.961 -1.111 0.035 68.976 0.024 -46.269
405.5 0.024 -45.285 0.037 51.018 0.96 -1.223
          0.038 51.936 0.947 -77.172 0.036 67.947
          0.96 -1.165 0.036 68.228 0.023 -46.538
425.25 0.024 -45.549 0.038 49.593 0.96 -1.267
          0.039 50.179 0.945 -80.329 0.037 66.737
          0.959 -1.195 0.038 67.435 0.023 -46.798
445 0.023 -45.025 0.039 48.909 0.96 -1.322
          0.04 48.71 0.943 -83.462 0.039 65.344
          0.961 -1.302 0.039 66.285 0.022 -47.798
464.75 0.023 -45.775 0.041 46.915 0.961 -1.381
          0.041 46.068 0.941 -86.544 0.04 64.82
          0.961 -1.426 0.04 64.832 0.022 -48.073
484.5 0.022 -45.848 0.042 44.547 0.96 -1.498
          0.042 44.777 0.94 -89.5 0.041 63.879
          0.961 -1.471 0.042 62.95 0.022 -49.398
504.25 0.021 -46.342 0.043 42.313 0.96 -1.581
          0.043 43.261 0.939 -92.442 0.041 63.318
          0.961 -1.585 0.042 62.147 0.021 -50.292
524 0.02 -47.148 0.044 40.675 0.961 -1.652
          0.044 41.592 0.937 -95.361 0.043 62.763
          0.962 -1.633 0.043 61.945 0.021 -50.845
543.75 0.02 -47.546 0.045 39.359 0.961 -1.73
          0.045 39.887 0.934 -98.224 0.044 61.997
          0.962 -1.661 0.043 61.574 0.02 -51.084
563.5 0.019 -46.814 0.046 37.575 0.961 -1.82
          0.046 38.16 0.932 -100.994 0.045 61.079
          0.961 -1.845 0.045 60.494 0.019 -50.993
583.25 0.018 -48.493 0.046 35.928 0.961 -1.89
          0.047 36.223 0.932 -103.741 0.046 60.194
          0.961 -1.85 0.045 60.77 0.019 -51.971
603 0.018 -47.856 0.047 34.265 0.96 -1.969
          0.047 34.783 0.93 -106.367 0.046 59.583
          0.961 -1.898 0.046 60.269 0.019 -51.42
622.75 0.018 -47.901 0.047 33.136 0.96 -2.035
          0.048 33.138 0.929 -108.99 0.047 58.731
          0.961 -1.944 0.047 59.563 0.018 -51.408
642.5 0.018 -47.886 0.048 32.277 0.96 -2.086
          0.048 31.685 0.927 -111.542 0.048 57.977
          0.96 -2.001 0.048 59.068 0.018 -52.003
662.25 0.017 -47.174 0.049 31.283 0.959 -2.129
          0.049 30.556 0.925 -114.017 0.048 57.591
          0.961 -2.092 0.049 58.545 0.018 -52.448
682 0.016 -47.32 0.05 29.929 0.959 -2.167
          0.05 28.931 0.923 -116.593 0.049 57.332
          0.963 -2.237 0.05 56.71 0.017 -51.753
701.75 0.016 -44.952 0.051 27.817 0.96 -2.238
          0.05 27.515 0.921 -119 0.049 57.04
          0.962 -2.226 0.051 55.709 0.016 -51.455
721.5 0.016 -43.088 0.052 25.112 0.961 -2.336
          0.05 25.941 0.919 -121.369 0.05 56.289
          0.961 -2.338 0.05 54.586 0.016 -50.567
741.25 0.015 -40.906 0.051 22.831 0.962 -2.453
          0.05 24.371 0.918 -123.723 0.051 55.797
          0.961 -2.463 0.05 54.102 0.015 -49.569
761 0.014 -38.46 0.05 21.379 0.962 -2.575
          0.051 22.981 0.916 -126.024 0.051 55.579
          0.961 -2.569 0.05 54.427 0.015 -48.516
780.75 0.014 -36.211 0.05 20.718 0.961 -2.686
          0.051 21.826 0.913 -128.234 0.051 55.293
          0.96 -2.659 0.05 55.361 0.014 -47.367
800.5 0.013 -32.319 0.049 20.57 0.96 -2.763
          0.051 20.521 0.912 -130.445 0.052 54.732
          0.959 -2.687 0.051 56.668 0.014 -45.468
820.25 0.012 -29.05 0.05 20.408 0.958 -2.825
          0.052 19.381 0.91 -132.696 0.052 54.536
          0.959 -2.746 0.053 56.636 0.014 -44.432
840 0.012 -26.107 0.052 19.328 0.959 -2.852
          0.052 18.012 0.908 -134.844 0.052 54.396
          0.959 -2.749 0.054 55.426 0.013 -43.197
859.75 0.011 -22.91 0.053 17.48 0.959 -2.862
          0.052 16.676 0.907 -136.97 0.053 54.236
          0.96 -2.799 0.054 53.979 0.013 -41.125
879.5 0.011 -19.593 0.053 15.408 0.959 -2.895
          0.052 15.415 0.905 -139.064 0.053 54.012
          0.961 -2.92 0.054 52.971 0.013 -38.412
899.25 0.01 -17.129 0.053 13.797 0.96 -3
          0.052 14.03 0.902 -141.029 0.053 53.722
          0.961 -3.04 0.054 52.604 0.012 -36.013
919 0.011 -12.666 0.052 12.215 0.96 -3.114
          0.052 13.154 0.901 -143.112 0.054 53.665
          0.961 -3.154 0.053 52.84 0.012 -33.06
938.75 0.011 -10.309 0.052 11.453 0.959 -3.214
          0.052 11.768 0.899 -145.083 0.054 53.729
          0.96 -3.254 0.053 53.779 0.012 -30.18
958.5 0.011 -6.827 0.052 10.749 0.959 -3.285
          0.052 10.316 0.898 -147.061 0.054 53.715
          0.959 -3.268 0.054 54.426 0.012 -26.314
978.25 0.012 -3.291 0.052 9.679 0.958 -3.329
          0.053 9.023 0.897 -149.007 0.055 53.702
          0.959 -3.3 0.055 54.186 0.012 -22.297
998 0.013 -0.58 0.053 8.088 0.958 -3.364
          0.053 7.903 0.895 -150.89 0.055 53.743
          0.96 -3.404 0.056 53.073 0.013 -19.207
1017.75 0.013 2.69 0.053 6.174 0.958 -3.447
          0.052 6.669 0.894 -152.787 0.055 53.662
          0.959 -3.438 0.056 52.079 0.013 -17.021
1037.5 0.014 6.656 0.053 4.052 0.959 -3.514
          0.052 5.23 0.892 -154.636 0.055 53.637
          0.96 -3.585 0.054 52.298 0.013 -13.351
1057.25 0.014 10.603 0.052 2.627 0.959 -3.625
          0.052 3.815 0.891 -156.453 0.055 53.54
          0.96 -3.671 0.054 53.345 0.014 -9.518
1077 0.015 13.915 0.051 1.798 0.958 -3.741
          0.052 2.69 0.889 -158.238 0.056 53.513
          0.958 -3.706 0.054 54.403 0.014 -6.58
1096.75 0.016 17.141 0.05 1.337 0.958 -3.836
          0.052 1.704 0.887 -160.032 0.056 53.552
          0.956 -3.744 0.055 55.097 0.015 -4.114
1116.5 0.017 20.834 0.05 0.98 0.957 -3.905
          0.052 0.531 0.887 -161.866 0.056 53.576
          0.957 -3.83 0.057 55.208 0.015 -1.445
1136.25 0.017 23.483 0.051 0.55 0.957 -3.981
          0.052 -0.786 0.885 -163.628 0.056 53.582
          0.957 -3.865 0.058 53.702 0.016 0.21
1156 0.018 25.954 0.051 -0.391 0.957 -4.035
          0.051 -1.785 0.883 -165.301 0.056 53.744
          0.958 -3.96 0.058 52.701 0.017 2.153
1175.75 0.018 27.324 0.052 -1.815 0.956 -4.059
          0.051 -2.934 0.882 -167.047 0.056 53.941
          0.958 -4.05 0.057 52.084 0.018 3.866
1195.5 0.019 28.037 0.052 -3.673 0.956 -4.117
          0.051 -4.361 0.881 -168.753 0.056 54.102
          0.958 -4.127 0.056 52.151 0.018 5.322
1215.25 0.019 28.444 0.052 -5.815 0.957 -4.221
          0.051 -5.847 0.878 -170.382 0.056 54.186
          0.958 -4.218 0.055 52.968 0.019 6.375
1235 0.02 28.571 0.051 -7.97 0.957 -4.305
          0.05 -6.904 0.876 -172.026 0.057 54.196
          0.958 -4.363 0.055 54.249 0.02 6.77
1254.75 0.021 27.986 0.05 -9.532 0.957 -4.382
          0.05 -7.998 0.876 -173.696 0.057 54.457
          0.957 -4.399 0.055 55.383 0.021 7.416
1274.5 0.022 27.556 0.049 -10.668 0.957 -4.486
          0.05 -9.461 0.875 -175.297 0.057 54.7
          0.957 -4.51 0.056 56.129 0.022 7.555
1294.25 0.023 26.868 0.049 -11.516 0.957 -4.57
          0.05 -10.784 0.874 -176.916 0.057 54.937
          0.957 -4.621 0.057 56.51 0.023 7.63
1314 0.024 26.243 0.048 -12.29 0.956 -4.656
          0.049 -12.02 0.873 -178.529 0.057 55.138
          0.956 -4.696 0.058 56.386 0.024 7.753
1333.75 0.026 25.972 0.048 -13.166 0.956 -4.756
          0.049 -13.313 0.871 179.881 0.057 55.311
          0.955 -4.731 0.059 55.767 0.025 7.814
1353.5 0.028 25.798 0.048 -14.144 0.955 -4.817
          0.049 -14.575 0.871 178.213 0.057 55.587
          0.955 -4.767 0.059 55.104 0.026 7.637
1373.25 0.029 26.327 0.048 -14.903 0.955 -4.894
          0.048 -15.564 0.868 176.799 0.057 55.876
          0.956 -4.884 0.058 54.472 0.027 7.925
1393 0.031 26.568 0.048 -15.661 0.955 -4.99
          0.048 -16.925 0.869 175.204 0.058 56.176
          0.956 -4.934 0.057 54.52 0.028 7.549
1412.75 0.032 27.054 0.048 -16.888 0.954 -5.084
          0.048 -18.272 0.868 173.669 0.058 56.522
          0.955 -4.99 0.056 55.036 0.029 7.334
1432.5 0.033 27.89 0.049 -18.794 0.953 -5.146
          0.047 -19.606 0.866 172.206 0.058 56.881
          0.955 -5.09 0.056 55.978 0.031 7.215
1452.25 0.034 28.966 0.049 -21.338 0.953 -5.165
          0.047 -21.121 0.865 170.693 0.058 57.182
          0.956 -5.234 0.056 57.321 0.032 6.69
1472 0.035 30.291 0.048 -24.262 0.953 -5.236
          0.047 -22.489 0.864 169.247 0.058 57.408
          0.956 -5.379 0.056 58.37 0.033 6.125
1491.75 0.036 30.664 0.046 -26.033 0.954 -5.314
          0.047 -23.988 0.863 167.747 0.058 57.8
          0.954 -5.427 0.057 59.39 0.034 5.997
1511.5 0.036 30.987 0.045 -26.491 0.954 -5.449
          0.046 -25.408 0.861 166.327 0.058 58.149
          0.953 -5.504 0.057 60.029 0.035 5.446
1531.25 0.036 31.168 0.044 -26.131 0.954 -5.602
          0.046 -26.709 0.861 164.878 0.058 58.435
          0.953 -5.618 0.058 60.397 0.036 4.599
1551 0.037 31.005 0.044 -25.831 0.953 -5.736
          0.045 -27.952 0.861 163.384 0.058 58.703
          0.954 -5.732 0.06 60.366 0.037 3.736
1570.75 0.037 30.281 0.046 -26.681 0.952 -5.836
          0.045 -29.266 0.86 161.984 0.058 59.036
          0.953 -5.775 0.06 59.471 0.038 3.06
1590.5 0.037 29.335 0.047 -29.52 0.95 -5.857
          0.045 -30.729 0.859 160.575 0.058 59.517
          0.952 -5.762 0.06 58.389 0.039 2.396
1610.25 0.038 28.534 0.047 -33.145 0.95 -5.85
          0.044 -32.287 0.858 159.152 0.058 60.005
          0.952 -5.818 0.059 57.713 0.04 1.607
1630 0.039 27.206 0.045 -36.208 0.95 -5.902
          0.044 -33.968 0.857 157.725 0.058 60.487
          0.953 -5.933 0.057 58.132 0.041 0.573
1649.75 0.04 26.034 0.044 -37.973 0.951 -6
          0.044 -35.641 0.857 156.34 0.059 60.911
          0.953 -6.063 0.056 59.904 0.042 -0.441
1669.5 0.041 25.588 0.042 -38.35 0.952 -6.112
          0.044 -37.189 0.856 155.016 0.059 61.276
          0.952 -6.179 0.055 62.641 0.043 -1.235
1689.25 0.042 24.833 0.042 -38.212 0.951 -6.265
          0.043 -38.692 0.855 153.663 0.059 61.749
          0.952 -6.315 0.057 64.794 0.044 -2.042
1709 0.043 24.49 0.042 -38.935 0.951 -6.409
          0.043 -40.118 0.855 152.319 0.059 62.042
          0.951 -6.42 0.059 65.108 0.045 -3.055
1728.75 0.044 24.706 0.043 -40.22 0.95 -6.487
          0.043 -41.743 0.855 150.93 0.059 62.454
          0.95 -6.499 0.061 64.138 0.046 -4.044
1748.5 0.045 24.972 0.043 -42.042 0.949 -6.559
          0.043 -43.372 0.854 149.563 0.059 62.912
          0.949 -6.535 0.061 62.912 0.047 -5.01
1768.25 0.045 25.265 0.043 -44.209 0.948 -6.644
          0.042 -44.923 0.853 148.235 0.059 63.347
          0.948 -6.566 0.06 62.272 0.047 -5.987
1788 0.046 25.863 0.043 -46.422 0.947 -6.722
          0.042 -46.491 0.853 146.932 0.059 63.763
          0.949 -6.664 0.059 62.683 0.048 -6.997
1807.75 0.046 26.376 0.043 -48.431 0.948 -6.785
          0.042 -48.542 0.851 145.713 0.059 64.446
          0.951 -6.842 0.058 63.788 0.049 -7.995
1827.5 0.045 26.863 0.043 -50.882 0.948 -6.842
          0.042 -50.088 0.851 144.39 0.059 65.041
          0.949 -6.905 0.058 65.218 0.05 -9.061
1847.25 0.045 27.183 0.042 -53.11 0.948 -6.93
          0.042 -51.914 0.851 143.07 0.059 65.603
          0.949 -6.996 0.058 66.345 0.05 -10.251
1867 0.045 27.23 0.041 -54.543 0.948 -7.043
          0.041 -53.656 0.851 141.802 0.06 66.163
          0.949 -7.128 0.059 67.317 0.051 -11.456
1886.75 0.044 27.027 0.04 -55.042 0.948 -7.186
          0.041 -55.135 0.851 140.555 0.06 66.714
          0.948 -7.256 0.059 68.195 0.052 -12.613
1906.5 0.044 26.74 0.04 -55.093 0.948 -7.396
          0.041 -56.751 0.851 139.222 0.06 67.207
          0.947 -7.305 0.06 68.715 0.052 -13.768
1926.25 0.043 26.389 0.042 -55.927 0.946 -7.525
          0.041 -58.676 0.851 137.98 0.06 67.722
          0.946 -7.435 0.061 68.921 0.053 -14.937
1946 0.043 25.925 0.043 -59.161 0.944 -7.568
          0.041 -60.389 0.851 136.744 0.06 68.32
          0.946 -7.532 0.061 68.824 0.053 -16.118
1965.75 0.042 25.475 0.043 -63.416 0.943 -7.547
          0.041 -62.054 0.85 135.564 0.06 68.954
          0.946 -7.62 0.061 68.852 0.053 -17.45
1985.5 0.042 25.246 0.042 -67.261 0.944 -7.545
          0.041 -63.745 0.85 134.388 0.06 69.607
          0.945 -7.709 0.061 69.349 0.054 -18.721
2005.25 0.043 25.374 0.04 -69.456 0.946 -7.645
          0.041 -65.54 0.85 133.154 0.061 70.265
          0.946 -7.819 0.06 70.454 0.054 -19.737
2025 0.043 25.751 0.038 -69.259 0.947 -7.842
          0.041 -67.65 0.85 131.906 0.061 70.873
          0.947 -8.041 0.061 71.874 0.054 -20.9
2044.75 0.043 26.541 0.038 -67.817 0.946 -8.109
          0.041 -69.518 0.85 130.729 0.061 71.24
          0.944 -8.066 0.062 72.251 0.054 -21.991
2064.5 0.043 27.716 0.04 -67.491 0.944 -8.307
          0.041 -71.217 0.85 129.588 0.061 71.582
          0.943 -8.137 0.063 71.675 0.054 -23.339
2084.25 0.042 29.045 0.042 -69.261 0.941 -8.407
          0.041 -72.866 0.849 128.466 0.061 72.151
          0.942 -8.227 0.063 70.788 0.054 -24.736
2104 0.042 30.575 0.044 -72.999 0.939 -8.418
          0.041 -74.582 0.849 127.329 0.061 72.934
          0.94 -8.293 0.061 70.633 0.054 -26.005
2123.75 0.041 32.561 0.044 -77.559 0.939 -8.385
          0.042 -76.421 0.85 126.141 0.062 73.718
          0.94 -8.315 0.059 72.329 0.054 -27.131
2143.5 0.04 34.46 0.043 -80.643 0.94 -8.427
          0.042 -77.991 0.85 125.006 0.062 74.598
          0.942 -8.472 0.058 76.058 0.054 -28.706
2163.25 0.039 36.658 0.042 -82.09 0.941 -8.569
          0.042 -80.112 0.85 123.879 0.062 75.164
          0.943 -8.572 0.06 80.042 0.054 -30.156
2183 0.038 38.83 0.042 -83.004 0.941 -8.722
          0.042 -82.02 0.85 122.76 0.063 75.755
          0.943 -8.702 0.064 81.768 0.053 -31.67
2202.75 0.037 41.003 0.042 -84.104 0.94 -8.868
          0.042 -83.657 0.85 121.612 0.063 76.47
          0.943 -8.891 0.068 80.954 0.053 -33.264
2222.5 0.036 43.106 0.042 -85.738 0.939 -8.996
          0.043 -85.267 0.851 120.476 0.063 77.246
          0.941 -9.097 0.071 78.34 0.053 -34.863
2242.25 0.035 44.787 0.043 -87.716 0.938 -9.08
          0.043 -87.274 0.85 119.51 0.064 77.868
          0.939 -9.19 0.07 75.388 0.052 -36.349
2262 0.034 46.48 0.042 -88.82 0.938 -9.221
          0.043 -88.738 0.851 118.465 0.064 78.62
          0.939 -9.339 0.067 74.251 0.052 -37.978
2281.75 0.034 48.193 0.043 -89.709 0.938 -9.395
          0.043 -90.241 0.851 117.375 0.065 79.162
          0.937 -9.41 0.065 74.993 0.051 -39.715
2301.5 0.033 50.206 0.044 -90.822 0.937 -9.539
          0.044 -91.945 0.852 116.279 0.065 79.813
          0.935 -9.456 0.063 76.944 0.051 -41.468
2321.25 0.034 52.466 0.045 -92.412 0.936 -9.659
          0.044 -93.613 0.852 115.216 0.065 80.562
          0.935 -9.553 0.062 79.303 0.05 -43.179
2341 0.034 54.96 0.045 -94.53 0.936 -9.773
          0.045 -95.005 0.852 114.203 0.066 81.273
          0.936 -9.715 0.062 81.51 0.049 -44.904
2360.75 0.034 58.452 0.046 -96.921 0.935 -9.826
          0.045 -96.514 0.853 113.206 0.066 81.976
          0.935 -9.71 0.062 84.013 0.049 -47.114
2380.5 0.035 61.669 0.046 -98.38 0.935 -9.97
          0.046 -98.075 0.852 112.216 0.067 82.622
          0.935 -9.773 0.065 86.577 0.048 -49.237
2400.25 0.036 65.425 0.047 -99.248 0.934 -10.128
          0.046 -99.52 0.852 111.194 0.067 83.3
          0.936 -9.908 0.068 88.218 0.047 -51.453
2420 0.038 69.788 0.048 -100.606 0.933 -10.251
          0.047 -101.039 0.854 110.165 0.068 83.965
          0.937 -10.119 0.071 88.285 0.046 -53.857
2439.75 0.039 74.276 0.049 -102.9 0.932 -10.331
          0.048 -102.655 0.854 109.156 0.068 84.671
          0.938 -10.364 0.075 86.81 0.045 -56.482
2459.5 0.04 78.145 0.049 -105.765 0.931 -10.396
          0.048 -104.217 0.854 108.18 0.069 85.52
          0.935 -10.571 0.076 84.522 0.044 -59.309
2479.25 0.042 82.46 0.049 -107.838 0.933 -10.492
          0.049 -105.653 0.856 107.177 0.07 86.112
          0.934 -10.741 0.074 82.937 0.043 -62.306
2499 0.044 86.32 0.048 -108.356 0.934 -10.701
          0.05 -107.202 0.855 106.202 0.07 86.485
          0.932 -10.862 0.072 82.87 0.042 -65.235
2518.75 0.045 89.775 0.048 -107.534 0.933 -10.998
          0.05 -108.568 0.856 105.254 0.071 86.967
          0.931 -10.996 0.07 84.17 0.041 -68.355
2538.5 0.047 92.944 0.05 -106.819 0.931 -11.265
          0.051 -109.8 0.857 104.351 0.071 87.558
          0.93 -11.138 0.07 85.947 0.041 -71.714
2558.25 0.048 95.798 0.053 -107.725 0.928 -11.396
          0.051 -111.03 0.857 103.467 0.072 88.241
          0.929 -11.268 0.07 87.438 0.04 -75.239
2578 0.05 98.444 0.056 -111.132 0.925 -11.351
          0.052 -112.367 0.857 102.504 0.072 89.107
          0.928 -11.372 0.071 88.558 0.039 -78.781
2597.75 0.051 100.23 0.056 -115.52 0.925 -11.323
          0.053 -113.604 0.86 101.577 0.073 90.043
          0.928 -11.467 0.071 90.116 0.038 -82.783
2617.5 0.054 101.454 0.054 -118.341 0.928 -11.425
          0.053 -114.818 0.86 100.687 0.074 90.823
          0.927 -11.582 0.072 92.08 0.038 -86.535
2637.25 0.056 102.397 0.053 -118.933 0.93 -11.67
          0.054 -116.08 0.86 99.804 0.075 91.357
          0.928 -11.674 0.075 93.832 0.037 -90.469
2657 0.059 103.106 0.053 -117.823 0.93 -12.005
          0.055 -117.217 0.861 98.925 0.076 91.755
