!Hittite Microwave Corporation								
!12 Elizabeth Drive								
!Chelmsford, MA 01824								
!Tel: 978-250-3343								
!Fax: 978-250-3373								
!Device: HMC199MS8, DC-2.5GHz GaAs dual SPDT switch in 8 lead plastic surface mount Mini Small Outline Package								
!Misc: Port 1 = RFC1, Port 2 = RFC2, Port 3 = RF2, Port 4 = RF1, CtlA high, CtlB low, Vctl=0/+5V								
!
# MHZ S MA R 50

0 1.002 15.63e-6 0 -180 0 -180 0 -180
          0 -180 1.002 15.63e-6 0 -180 0 -180
          0 -180 0 -180 1.002 15.63e-6 0 -180
          0 -180 0 -180 0 -180 1.002 15.63e-6
20 5.355e-3 -32.278 705.4e-6 67.355 260.3e-6 -1.707 0.984 0.312
          651e-6 71.353 9.529e-3 -23.812 0.983 0.482 232.7e-6 2.228
          213.8e-6 -14.85 0.984 0.496 9.529e-3 -23.811 706.8e-6 66.112
          0.984 0.255 174.9e-6 -6.706 710.4e-6 68.631 6.353e-3 -21.123
40 6.147e-3 28.522 1.483e-3 83.174 170.3e-6 37.775 0.987 -0.063
          1.502e-3 83.428 9.725e-3 14.419 0.988 0.089 156.3e-6 49.163
          189.6e-6 47.761 0.987 0.059 0.01 13.991 1.453e-3 84.264
          0.987 -0.113 178.2e-6 46.453 1.425e-3 84.48 8.074e-3 28.229
60 8.157e-3 45.373 1.96e-3 81.188 336e-6 -10.629 0.986 -0.126
          1.972e-3 80.336 0.012 26.329 0.987 -0.049 349.1e-6 -3.449
          328.8e-6 -0.71 0.987 -0.029 0.012 25.923 1.949e-3 78.124
          0.988 -0.127 366.2e-6 -12.142 1.959e-3 79.537 0.01 40.502
80 9.984e-3 53.386 2.623e-3 84.827 251.7e-6 -4.958 0.987 -0.122
          2.656e-3 85.108 0.013 32.67 0.987 -0.023 272.1e-6 -3.684
          213e-6 -18.698 0.987 -0.042 0.013 33.141 2.591e-3 84.156
          0.987 -0.161 227.5e-6 -9.907 2.611e-3 83.739 0.012 49.317
100 0.012 56.603 3.356e-3 87.476 178.3e-6 -4.682 0.986 -0.13
          3.328e-3 87.638 0.014 38.591 0.987 -0.056 224.9e-6 -6.326
          186e-6 -5.656 0.987 -0.076 0.015 38.432 3.285e-3 84.797
          0.987 -0.17 201.4e-6 -5.506 3.277e-3 85.278 0.014 52.97
120 0.014 59.941 4.096e-3 87.693 263.5e-6 44.473 0.987 -0.173
          4.105e-3 87.691 0.016 42.972 0.987 -0.076 217.1e-6 10.292
          271.9e-6 43.209 0.987 -0.057 0.017 43.278 3.99e-3 86.92
          0.987 -0.174 218.5e-6 15.074 3.98e-3 86.48 0.016 54.39
140 0.016 61.044 4.838e-3 87.053 323.6e-6 21.18 0.985 -0.185
          4.894e-3 87.597 0.017 45.751 0.986 -0.041 313.8e-6 45.553
          385.3e-6 24.082 0.985 -0.118 0.018 45.525 4.895e-3 87.251
          0.985 -0.175 286.7e-6 48.295 4.931e-3 86.954 0.019 55.797
160 0.017 61.785 5.382e-3 87.633 265e-6 9.167 0.985 -0.176
          5.385e-3 87.253 0.019 48.059 0.985 -0.016 249e-6 9.377
          302.5e-6 -1.824 0.985 -0.067 0.02 48.208 5.325e-3 84.488
          0.985 -0.195 287.4e-6 12.779 5.308e-3 83.811 0.021 54.956
180 0.019 63.386 5.978e-3 88.559 188.8e-6 -7.826 0.986 -0.195
          6.006e-3 88.467 0.02 50.149 0.986 -0.026 243.7e-6 -20.306
          191.3e-6 -11.457 0.986 -0.114 0.021 49.985 5.949e-3 85.051
          0.986 -0.224 205.4e-6 -5.454 5.934e-3 84.624 0.023 55.509
200 0.02 64.122 6.636e-3 89.567 169e-6 7.811 0.986 -0.162
          6.711e-3 89.728 0.021 51.674 0.986 -0.032 143.1e-6 -2.92
          165.6e-6 15.59 0.985 -0.065 0.023 51.476 6.619e-3 85.013
          0.985 -0.202 97.72e-6 -23.616 6.625e-3 85.384 0.025 55.877
220 0.022 64.688 7.372e-3 90.381 148.3e-6 15.101 0.986 -0.142
          7.367e-3 90.094 0.023 53.132 0.986 0.042 106.7e-6 12.246
          150.5e-6 8.386 0.985 -0.092 0.024 52.316 7.241e-3 85.364
          0.985 -0.219 139e-6 6.037 7.266e-3 85.477 0.027 56.006
240 0.024 65.433 7.979e-3 89.934 197.8e-6 7.242 0.985 -0.161
          7.943e-3 90.207 0.024 54.228 0.985 0.063 71.03e-6 12.725
          165.9e-6 4.416 0.985 -0.049 0.026 53.103 7.908e-3 85.29
          0.986 -0.222 77.84e-6 -11.545 7.945e-3 85.286 0.029 56.269
260 0.025 65.809 8.642e-3 90.801 102.8e-6 -26.128 0.986 -0.156
          8.63e-3 90.64 0.025 54.823 0.986 0.023 94.41e-6 -22.424
          52.07e-6 -24.382 0.985 -0.04 0.027 53.327 8.534e-3 85.262
          0.985 -0.16 85.29e-6 9.297 8.555e-3 85.248 0.031 56.393
280 0.027 66.379 9.301e-3 91.297 7.277e-6 -36.541 0.985 -0.127
          9.281e-3 91.271 0.027 55.425 0.986 0.04 30.7e-6 -66.763
          38.18e-6 -33.811 0.985 -1.713e-3 0.029 53.724 9.213e-3 85.563
          0.984 -0.145 9.901e-6 94.824 9.224e-3 85.49 0.032 56.139
300 0.028 66.7 9.987e-3 91.496 60.8e-6 -159.575 0.984 -0.086
          9.985e-3 91.399 0.028 56.231 0.985 0.051 81.95e-6 174.582
          19.17e-6 178.565 0.985 -0.044 0.03 54.076 9.894e-3 85.436
          0.985 -0.245 72.33e-6 -163.747 9.884e-3 85.498 0.033 55.401
320 0.03 67.001 0.011 92.213 116.7e-6 -179.994 0.984 -0.115
          0.011 91.84 0.03 57.141 0.986 0.093 123.3e-6 159.147
          121.6e-6 110.296 0.985 -0.025 0.032 54.587 0.011 85.295
          0.985 -0.202 131.8e-6 169.04 0.011 85.243 0.035 55.004
340 0.031 67.319 0.011 92.284 105e-6 151.65 0.985 -0.125
          0.011 92.166 0.031 57.979 0.985 0.098 130e-6 -156.455
          48.76e-6 152.152 0.985 0.023 0.033 55.112 0.011 85.144
          0.985 -0.178 120.1e-6 -145.936 0.011 85.084 0.036 54.426
360 0.033 67.52 0.012 92.822 161.2e-6 168.987 0.984 -0.089
          0.012 92.548 0.032 58.61 0.984 0.098 273.9e-6 -169.099
          147.9e-6 177.437 0.985 0.055 0.035 55.452 0.012 85.183
          0.984 -0.185 270.2e-6 -178.095 0.012 84.899 0.038 53.632
380 0.034 67.662 0.013 93.052 228.5e-6 175.084 0.984 -0.039
          0.013 92.882 0.033 59.258 0.985 0.198 322.2e-6 -175.049
          226.1e-6 163.336 0.984 0.113 0.036 55.73 0.013 85.152
          0.983 -0.103 349.8e-6 -177.763 0.012 84.812 0.039 52.733
400 0.035 67.711 0.013 93.433 256.8e-6 173.896 0.984 -0.031
          0.013 93.2 0.034 59.665 0.984 0.211 488.9e-6 171.945
          248e-6 171.141 0.984 0.103 0.037 55.695 0.013 84.759
          0.984 -0.145 430.5e-6 172.644 0.013 84.716 0.041 52.241
420 0.037 67.81 0.014 93.629 284.8e-6 170.445 0.984 -0.035
          0.014 93.646 0.035 59.883 0.984 0.199 561.7e-6 167.911
          322.7e-6 172.75 0.984 0.098 0.038 55.462 0.014 84.591
          0.984 -0.128 544e-6 166.384 0.014 84.656 0.043 51.471
440 0.038 67.858 0.015 94.07 380e-6 -179.037 0.984 9.498e-3
          0.015 93.989 0.037 60.024 0.985 0.269 501.1e-6 161.189
          385.5e-6 174.646 0.986 0.115 0.04 55.04 0.014 84.596
          0.983 -0.143 501.3e-6 164.765 0.014 84.539 0.045 51.082
460 0.039 67.95 0.015 94.282 421.3e-6 -179.691 0.985 -0.034
          0.015 94.239 0.038 60.044 0.984 0.238 545.5e-6 165.411
          406.6e-6 172.399 0.984 0.201 0.041 54.553 0.015 84.643
          0.984 -0.088 568.5e-6 168.444 0.015 84.578 0.046 50.785
480 0.041 68.148 0.016 94.436 484.6e-6 167.589 0.984 -0.067
          0.016 94.386 0.039 60.174 0.984 0.197 604.5e-6 164.84
          457.3e-6 178.028 0.984 0.142 0.043 54.286 0.016 84.39
          0.984 -0.124 626.7e-6 165.907 0.016 84.418 0.047 50.486
500 0.042 68.032 0.016 94.812 577e-6 173.715 0.983 -0.012
          0.016 94.8 0.04 60.272 0.983 0.294 653.4e-6 162.682
          528.5e-6 172.809 0.983 0.173 0.044 54.052 0.016 84.113
          0.982 -0.09 675.7e-6 165.495 0.016 84.123 0.048 50.152
520 0.043 68.041 0.017 95.186 634.8e-6 174.013 0.982 0.033
          0.017 95.054 0.042 60.642 0.982 0.345 691.2e-6 162.752
          652.9e-6 172.96 0.983 0.207 0.046 54.181 0.017 84.309
          0.983 -0.055 695.1e-6 164.15 0.017 84.075 0.049 49.864
540 0.044 67.959 0.018 95.52 755.9e-6 172.136 0.982 0.03
          0.018 95.276 0.043 61.109 0.983 0.272 742.1e-6 172.53
          719.7e-6 172.909 0.983 0.271 0.047 54.463 0.018 84.398
          0.983 -7.885e-3 781.6e-6 170.53 0.018 84.109 0.05 49.345
560 0.045 67.878 0.018 95.919 771.2e-6 171.234 0.982 0.069
          0.018 95.718 0.044 61.515 0.981 0.334 939.3e-6 171.222
          774.8e-6 173.322 0.982 0.32 0.048 54.642 0.018 84.285
          0.982 -0.038 958.7e-6 168.945 0.018 84.245 0.05 48.722
580 0.046 67.911 0.019 96.254 860.4e-6 169.553 0.982 0.114
          0.019 96.053 0.045 62.07 0.982 0.358 1.058e-3 163.173
          860.5e-6 171.144 0.983 0.321 0.049 54.968 0.019 84.147
          0.984 -0.023 1.013e-3 161.636 0.019 83.953 0.051 48.035
600 0.047 67.743 0.02 96.497 953.4e-6 169.254 0.984 0.055
          0.02 96.482 0.045 62.446 0.983 0.336 1.066e-3 162.769
          913.7e-6 169.972 0.983 0.305 0.05 55.049 0.02 83.745
          0.983 -0.034 1.013e-3 158.687 0.02 83.679 0.052 47.3
620 0.048 67.578 0.02 96.632 1.004e-3 165.479 0.984 0.018
          0.02 96.575 0.046 62.388 0.984 0.341 1.058e-3 161.201
          973.8e-6 168.114 0.983 0.302 0.051 54.911 0.02 83.567
          0.983 -0.028 1.038e-3 160.05 0.02 83.376 0.053 46.411
640 0.049 67.212 0.021 97.21 976.5e-6 165.582 0.983 0.012
          0.021 97.004 0.047 61.9 0.982 0.325 1.098e-3 163.439
          982e-6 166.144 0.983 0.31 0.052 54.384 0.021 83.192
          0.982 -0.019 1.081e-3 161.62 0.021 83.174 0.054 45.558
660 0.05 66.871 0.022 97.462 959.8e-6 173.615 0.983 0.06
          0.022 97.345 0.047 60.817 0.982 0.302 1.139e-3 164.494
          993.2e-6 176.924 0.982 0.326 0.054 53.478 0.021 83.175
          0.982 4.727e-3 1.092e-3 163.392 0.021 83.032 0.055 44.882
680 0.051 66.612 0.022 97.842 1.193e-3 174.459 0.981 0.098
          0.022 97.709 0.048 59.24 0.98 0.478 1.261e-3 166.894
          1.159e-3 177.614 0.98 0.384 0.055 51.925 0.022 83.14
          0.981 0.047 1.228e-3 165.409 0.022 82.985 0.056 44.142
700 0.052 66.547 0.023 97.916 1.276e-3 174.956 0.983 0.124
          0.023 97.823 0.047 58.136 0.981 0.504 1.332e-3 167.092
          1.303e-3 174.979 0.979 0.425 0.057 49.527 0.023 82.941
          0.982 0.025 1.297e-3 166.153 0.023 82.908 0.056 43.528
720 0.053 66.428 0.023 98.143 1.366e-3 174.498 0.981 0.098
          0.024 98.185 0.046 59.278 0.979 0.636 1.404e-3 166.701
          1.376e-3 173.072 0.979 0.607 0.057 47.811 0.023 82.786
          0.982 0.103 1.387e-3 166.783 0.023 82.825 0.057 43.216
740 0.054 66.366 0.024 98.5 1.419e-3 173.922 0.98 0.174
          0.024 98.457 0.047 60.991 0.979 0.642 1.448e-3 165.652
          1.419e-3 173.418 0.979 0.613 0.057 47.424 0.024 82.483
          0.981 0.025 1.459e-3 167.179 0.024 82.533 0.057 42.681
760 0.054 66.372 0.025 99.061 1.514e-3 173.492 0.981 0.242
          0.025 99.023 0.048 62.027 0.98 0.692 1.509e-3 167.313
          1.504e-3 174.514 0.979 0.678 0.057 47.705 0.025 82.424
          0.98 0.06 1.49e-3 166.27 0.025 82.329 0.058 42.254
780 0.055 66.424 0.025 99.387 1.643e-3 174.546 0.983 0.253
          0.025 99.339 0.049 62.764 0.982 0.704 1.566e-3 170.042
          1.678e-3 173.828 0.98 0.71 0.058 48.035 0.025 82.345
          0.982 0.194 1.554e-3 170.454 0.025 82.297 0.058 41.932
800 0.055 66.316 0.026 99.639 1.758e-3 174.19 0.984 0.157
          0.026 99.643 0.05 63.261 0.982 0.623 1.742e-3 171.798
          1.764e-3 174.04 0.982 0.729 0.058 48.162 0.026 82.007
          0.982 0.199 1.699e-3 170.795 0.026 82.019 0.058 41.223
820 0.056 66.168 0.027 99.955 1.84e-3 172.506 0.983 0.148
          0.027 99.878 0.05 63.585 0.982 0.641 1.868e-3 170.49
          1.845e-3 173.59 0.982 0.659 0.059 48.129 0.027 81.818
          0.983 0.097 1.852e-3 169.94 0.027 81.776 0.058 40.523
840 0.056 65.886 0.027 100.035 1.935e-3 171.1 0.982 0.064
          0.027 100.114 0.051 63.872 0.982 0.578 1.972e-3 169.191
          1.959e-3 172.117 0.981 0.607 0.059 47.764 0.027 81.524
          0.982 0.063 1.946e-3 169.04 0.027 81.569 0.058 39.817
860 0.057 65.558 0.028 100.378 1.996e-3 171.719 0.981 0.022
          0.028 100.406 0.051 63.757 0.981 0.564 2.044e-3 168.327
          2.01e-3 171.529 0.981 0.628 0.059 47.007 0.028 81.316
          0.981 0.089 2.041e-3 168.473 0.028 81.324 0.059 39.098
880 0.057 65.116 0.029 100.739 2.09e-3 171.211 0.979 0.132
          0.029 100.755 0.051 63.493 0.979 0.65 2.092e-3 168.392
          2.078e-3 171.601 0.981 0.657 0.059 46.001 0.028 81.219
          0.98 0.134 2.094e-3 167.847 0.028 81.131 0.059 38.143
900 0.057 64.694 0.029 101.151 2.12e-3 171.413 0.978 0.332
          0.029 100.961 0.051 63.184 0.979 0.825 2.182e-3 168.887
          2.115e-3 171.939 0.979 0.661 0.06 45.014 0.029 81.158
          0.979 0.15 2.179e-3 168.846 0.029 80.971 0.06 37.339
920 0.058 64.604 0.03 101.394 2.237e-3 172.947 0.979 0.301
          0.03 101.183 0.051 62.784 0.978 0.797 2.291e-3 168.698
          2.211e-3 171.838 0.979 0.703 0.06 44.009 0.03 80.899
          0.979 0.117 2.294e-3 167.38 0.03 80.796 0.06 36.649
940 0.058 64.309 0.03 101.806 2.308e-3 172.735 0.981 0.266
          0.03 101.684 0.052 62.604 0.981 0.795 2.35e-3 167.968
          2.299e-3 172.028 0.98 0.766 0.061 43.266 0.03 80.736
          0.979 0.211 2.371e-3 168.189 0.03 80.611 0.06 36.142
960 0.058 64.294 0.031 102.195 2.416e-3 171.773 0.982 0.252
          0.031 101.942 0.052 62.507 0.982 0.835 2.453e-3 168.129
          2.421e-3 171.977 0.981 0.822 0.062 42.656 0.031 80.502
          0.981 0.194 2.464e-3 167.926 0.031 80.43 0.06 35.432
980 0.058 64.278 0.032 102.379 2.526e-3 171.112 0.983 0.206
          0.032 102.224 0.052 62.716 0.982 0.773 2.568e-3 167.841
          2.475e-3 171.715 0.982 0.839 0.062 42.237 0.032 80.286
          0.982 0.257 2.56e-3 168.224 0.032 80.205 0.06 34.85
1000 0.058 64.299 0.032 102.593 2.625e-3 170.639 0.982 0.159
          0.032 102.522 0.052 62.884 0.981 0.723 2.667e-3 167.072
          2.545e-3 170.94 0.982 0.783 0.063 41.904 0.032 80.066
          0.982 0.211 2.621e-3 168.033 0.032 79.93 0.06 34.335
1020 0.058 64.13 0.033 102.863 2.679e-3 171.29 0.981 0.121
          0.033 102.843 0.052 63.109 0.98 0.724 2.668e-3 167.424
          2.642e-3 171.543 0.981 0.759 0.063 41.474 0.033 79.757
          0.981 0.161 2.699e-3 168.173 0.033 79.746 0.06 33.934
1040 0.058 63.8 0.034 103.258 2.682e-3 171.658 0.978 0.145
          0.034 103.106 0.052 63.391 0.979 0.753 2.732e-3 167.82
          2.712e-3 171.564 0.98 0.761 0.063 40.823 0.033 79.642
          0.98 0.148 2.731e-3 167.647 0.033 79.594 0.06 33.452
1060 0.057 63.552 0.034 103.645 2.762e-3 171.276 0.978 0.204
          0.034 103.472 0.052 63.537 0.977 0.838 2.783e-3 168.252
          2.752e-3 172.058 0.979 0.772 0.063 39.925 0.034 79.502
          0.978 0.15 2.774e-3 167.538 0.034 79.46 0.059 32.837
1080 0.057 63.34 0.035 103.925 2.849e-3 173.075 0.979 0.231
          0.035 103.859 0.051 63.768 0.978 0.869 2.855e-3 168.913
          2.837e-3 172.868 0.98 0.779 0.062 39.018 0.034 79.382
          0.98 0.183 2.841e-3 167.812 0.034 79.317 0.059 32.222
1100 0.057 63 0.035 104.274 2.943e-3 174.498 0.979 0.304
          0.035 104.105 0.051 63.748 0.979 0.953 2.955e-3 169.609
          2.978e-3 173.564 0.98 0.827 0.062 37.893 0.035 79.231
          0.98 0.213 2.932e-3 169.115 0.035 79.116 0.058 31.456
1120 0.056 62.778 0.036 104.64 3.076e-3 174.453 0.98 0.297
          0.036 104.522 0.05 63.715 0.98 0.959 3.03e-3 168.624
          3.083e-3 173.912 0.98 0.891 0.062 36.638 0.036 79.056
          0.979 0.244 3.07e-3 168.99 0.036 78.874 0.058 30.632
1140 0.056 62.681 0.037 104.893 3.191e-3 173.558 0.981 0.237
          0.037 104.792 0.05 63.674 0.98 0.952 3.138e-3 168.46
          3.221e-3 173.307 0.98 0.862 0.062 35.425 0.036 78.719
          0.979 0.186 3.164e-3 168.73 0.036 78.648 0.057 29.572
1160 0.055 62.608 0.037 105.232 3.303e-3 173.321 0.98 0.221
          0.037 105.113 0.05 63.839 0.979 0.949 3.233e-3 169.255
          3.314e-3 173.751 0.98 0.91 0.062 34.445 0.037 78.485
          0.979 0.239 3.229e-3 168.449 0.037 78.473 0.057 28.647
1180 0.055 62.661 0.038 105.548 3.34e-3 173.17 0.979 0.19
          0.038 105.509 0.049 63.914 0.979 0.943 3.319e-3 169.481
          3.349e-3 173.383 0.981 0.883 0.062 33.459 0.037 78.269
          0.98 0.233 3.269e-3 168.169 0.038 78.277 0.056 27.594
1200 0.054 62.773 0.038 105.829 3.401e-3 173.206 0.979 0.186
          0.039 105.716 0.049 64.15 0.98 0.873 3.366e-3 168.492
          3.412e-3 172.949 0.98 0.891 0.062 32.683 0.038 77.957
          0.979 0.254 3.343e-3 168.443 0.038 77.884 0.056 26.767
1220 0.053 62.947 0.039 106.215 3.48e-3 172.879 0.979 0.179
          0.039 106.007 0.049 64.534 0.979 0.895 3.39e-3 168.091
          3.461e-3 172.706 0.979 0.879 0.062 31.855 0.039 77.745
          0.979 0.176 3.394e-3 168.372 0.039 77.551 0.056 26.064
1240 0.052 62.974 0.04 106.435 3.55e-3 172.648 0.978 0.149
          0.04 106.315 0.048 64.862 0.976 0.899 3.42e-3 168.042
          3.528e-3 172.555 0.979 0.87 0.062 30.899 0.039 77.541
          0.979 0.157 3.386e-3 168.08 0.039 77.374 0.056 25.533
1260 0.051 62.973 0.04 106.738 3.529e-3 172.869 0.976 0.133
          0.04 106.653 0.047 65.34 0.976 0.921 3.437e-3 168.148
          3.568e-3 173.179 0.979 0.881 0.061 29.812 0.04 77.282
          0.979 0.136 3.418e-3 168.656 0.04 77.226 0.055 25.251
1280 0.05 63.044 0.041 107.154 3.598e-3 173.379 0.977 0.29
          0.041 107.043 0.046 65.7 0.976 1.067 3.426e-3 168.798
          3.644e-3 173.493 0.978 0.901 0.06 28.561 0.04 77.137
          0.978 0.137 3.442e-3 169.274 0.04 77.03 0.055 24.59
1300 0.048 63.098 0.041 107.526 3.67e-3 173.651 0.977 0.354
          0.041 107.432 0.045 66.077 0.976 1.132 3.476e-3 169.781
          3.674e-3 173.377 0.977 0.966 0.06 27.238 0.041 76.978
          0.977 0.208 3.462e-3 169.408 0.041 76.943 0.054 23.831
1320 0.047 63.286 0.042 107.888 3.755e-3 173.668 0.979 0.351
          0.042 107.813 0.045 66.569 0.978 1.116 3.536e-3 171.065
          3.713e-3 173.74 0.977 1.003 0.059 26.002 0.042 76.702
          0.978 0.248 3.499e-3 169.743 0.042 76.636 0.053 23.069
1340 0.046 63.547 0.043 108.247 3.801e-3 174.045 0.98 0.282
          0.043 108.156 0.044 67.276 0.98 1.043 3.574e-3 170.923
          3.798e-3 173.769 0.979 1.029 0.059 24.9 0.042 76.408
          0.978 0.275 3.556e-3 170.331 0.042 76.332 0.052 22.14
1360 0.045 63.958 0.043 108.522 3.83e-3 173.936 0.98 0.143
          0.043 108.409 0.043 67.927 0.98 0.94 3.57e-3 170.707
          3.807e-3 173.775 0.979 1.016 0.059 23.848 0.043 76.114
          0.979 0.249 3.59e-3 170.424 0.043 76.086 0.051 20.896
1380 0.044 64.556 0.044 108.697 3.854e-3 174.355 0.978 0.047
          0.044 108.638 0.042 68.83 0.978 0.762 3.566e-3 170.964
          3.803e-3 174.045 0.978 0.941 0.058 22.763 0.043 75.729
          0.978 0.167 3.594e-3 170.968 0.043 75.749 0.05 19.689
1400 0.043 65.35 0.044 108.997 3.844e-3 174.765 0.976 0.038
          0.044 108.92 0.042 70.102 0.976 0.825 3.613e-3 171.692
          3.876e-3 174.554 0.978 0.85 0.057 21.789 0.044 75.56
          0.978 0.058 3.591e-3 171.381 0.044 75.492 0.049 18.732
1420 0.041 66.351 0.045 109.368 3.818e-3 174.723 0.975 0.152
          0.045 109.261 0.041 71.492 0.974 0.959 3.585e-3 172.161
          3.878e-3 174.609 0.976 0.841 0.056 20.729 0.044 75.526
          0.976 0.038 3.601e-3 171.975 0.044 75.339 0.048 17.691
1440 0.039 67.569 0.045 109.744 3.857e-3 175.244 0.976 0.186
          0.045 109.654 0.039 73.208 0.975 1.033 3.555e-3 172.322
          3.854e-3 175.156 0.975 0.842 0.055 19.468 0.045 75.319
          0.975 0.051 3.587e-3 172.412 0.045 75.206 0.047 16.894
1460 0.038 68.91 0.046 110.06 3.844e-3 175.503 0.976 0.154
          0.046 109.965 0.038 75.018 0.975 1.051 3.538e-3 173.398
          3.859e-3 175.486 0.975 0.869 0.054 17.968 0.046 74.973
          0.976 0.022 3.52e-3 172.857 0.046 74.912 0.046 16.473
1480 0.036 70.408 0.046 110.448 3.821e-3 176.256 0.976 0.114
          0.047 110.277 0.037 76.864 0.975 1.007 3.494e-3 174.049
          3.828e-3 176.407 0.975 0.923 0.052 16.264 0.046 74.598
          0.975 0.037 3.48e-3 173.411 0.046 74.453 0.045 16.173
1500 0.034 72.056 0.047 110.746 3.813e-3 176.471 0.976 0.041
          0.047 110.628 0.035 78.734 0.975 0.979 3.414e-3 175.104
          3.8e-3 176.661 0.974 0.926 0.051 14.264 0.047 74.238
