!Hittite Microwave Corporation								
!12 Elizabeth Drive								
!Chelmsford, MA 01824								
!Tel: 978-250-3343								
!Fax: 978-250-3373
!Device: HMC154S8, DC - 2.5 GHz GaAs MMIC Low Distortion T/R Switch in 8-lead SOIC package
!Misc: Port1=RFC, Port2= RF1, Port3=RF2, RF1 ON, Bias: +5VDC								
!
# MHZ S MA R 50

20 0.123 86.125 0.97 -7.769 1.971e-3 89.299
          0.99 -8.1 0.106 69.767 0.012 23.386
          0.014 7.511 6.15e-3 135.712 0.949 -7.767
36.4 6.127e-3 133.721 0.976 -1.919 6.181e-3 39.841
          0.975 -1.765 0.012 -14.099 0.011 61.423
          0.013 52.334 6.174e-3 -64.471 0.952 -11.497
52.8 7.896e-3 107.303 0.98 -2.874 0.011 71.96
          0.966 -2.411 8.179e-3 67.824 9.061e-3 84.503
          0.01 85.998 9.967e-3 62.74 0.953 -15.428
69.2 0.017 85.83 0.975 -3.746 9.139e-3 77.657
          0.974 -3.745 6.142e-3 79.053 8.601e-3 61.613
          6.643e-3 64.464 8.677e-3 91.936 0.95 -20.213
85.6 0.018 80.414 0.972 -4.479 0.013 79.09
          0.972 -4.263 0.01 96.462 0.014 69.156
          0.013 73.886 0.014 81.488 0.946 -24.574
102 0.016 62.031 0.972 -5 0.015 68.583
          0.97 -4.958 0.013 79.879 0.016 67.335
          0.016 69.357 0.016 69.426 0.944 -29.353
118.4 0.017 55.665 0.972 -5.718 0.017 66.263
          0.97 -5.679 0.015 81.1 0.018 66.015
          0.017 68.256 0.017 64.461 0.941 -33.958
134.8 0.02 64.492 0.971 -6.575 0.021 69.567
          0.972 -6.437 0.016 89.15 0.02 65.111
          0.019 70.336 0.019 64.258 0.936 -38.366
151.2 0.02 71.007 0.971 -7.299 0.023 65.649
          0.971 -7.272 0.018 90.102 0.022 59.9
          0.023 66.489 0.023 61.293 0.934 -42.878
167.6 0.023 61.677 0.97 -7.982 0.025 62.103
          0.971 -7.831 0.019 79.992 0.025 55.081
          0.026 60.12 0.024 52.604 0.93 -47.564
184 0.022 61.863 0.973 -8.71 0.027 59.379
          0.969 -8.749 0.02 74.741 0.026 52.85
          0.027 59.126 0.025 53.405 0.927 -52.078
200.4 0.022 59.543 0.973 -9.486 0.028 57.08
          0.97 -9.479 0.021 76.059 0.028 51.444
          0.028 58.386 0.027 52.332 0.923 -56.335
216.8 0.024 59.047 0.971 -10.232 0.031 55.548
          0.971 -10.122 0.022 78.563 0.029 50.441
          0.03 56.58 0.029 51.112 0.918 -60.57
233.2 0.025 61.314 0.97 -10.972 0.032 54.366
          0.971 -10.805 0.024 79.875 0.03 48.549
          0.032 54.344 0.031 50.467 0.912 -64.816
249.6 0.026 63.142 0.972 -11.798 0.033 52.593
          0.97 -11.603 0.029 80.411 0.032 44.572
          0.034 53.397 0.033 48.905 0.908 -68.883
266 0.026 67.903 0.973 -12.481 0.036 51.514
          0.976 -12.584 0.028 73.905 0.035 44.71
          0.036 52.135 0.034 45.406 0.912 -72.622
282.4 0.028 60.622 0.969 -13.215 0.037 48.872
          0.972 -13.08 0.028 76.191 0.036 42.275
          0.037 49.593 0.036 42.012 0.904 -76.652
298.8 0.029 58.22 0.969 -13.923 0.039 47.452
          0.97 -13.738 0.028 74.903 0.037 40.06
          0.038 48.027 0.037 40.021 0.896 -80.714
315.2 0.029 57.598 0.969 -14.576 0.04 46.691
          0.969 -14.511 0.029 72.54 0.038 38.393
          0.04 47.087 0.038 38.305 0.891 -84.661
331.6 0.029 55.494 0.967 -15.202 0.041 45.631
          0.967 -15.258 0.03 71.848 0.039 36.747
          0.041 45.947 0.039 36.195 0.887 -88.42
348 0.032 52.423 0.968 -15.895 0.043 43.888
          0.969 -15.938 0.031 72.28 0.04 34.225
          0.043 44.063 0.04 34.428 0.88 -92.016
364.4 0.032 53.766 0.968 -16.715 0.043 41.76
          0.968 -16.841 0.032 67.703 0.042 31.648
          0.044 42.55 0.042 32.349 0.877 -95.611
380.8 0.035 54.234 0.967 -17.426 0.045 40.049
          0.967 -17.518 0.033 66.186 0.043 28.994
          0.045 40.846 0.043 29.448 0.872 -99.145
397.2 0.035 53.183 0.966 -18.098 0.046 38.984
          0.966 -18.128 0.034 66.791 0.044 26.579
          0.046 38.952 0.044 27.437 0.868 -102.697
413.6 0.035 50.815 0.965 -18.78 0.047 37.737
          0.965 -18.773 0.034 67.303 0.044 24.832
          0.046 37.167 0.044 25.626 0.864 -106.167
430 0.035 48.42 0.964 -19.494 0.048 35.71
          0.966 -19.506 0.034 66.326 0.046 23.653
          0.047 35.612 0.045 23.319 0.862 -109.476
446.4 0.035 46.293 0.965 -20.231 0.049 33.74
          0.964 -20.31 0.037 65.949 0.046 21.691
          0.049 33.76 0.045 21.934 0.857 -112.737
462.8 0.036 46.43 0.966 -21.07 0.049 33.048
          0.965 -20.956 0.035 63.855 0.047 20.616
          0.049 33.14 0.046 20.315 0.852 -115.72
479.2 0.038 45.233 0.965 -21.785 0.05 31.47
          0.964 -21.656 0.037 64.825 0.047 18.398
          0.05 32.027 0.047 18.435 0.849 -118.85
495.6 0.039 44.235 0.964 -22.491 0.051 30.219
          0.964 -22.409 0.038 64.536 0.048 16.367
          0.051 30.719 0.047 16.289 0.845 -121.901
512 0.041 43.637 0.965 -23.199 0.052 29.131
          0.966 -23.193 0.038 62.22 0.048 14.508
          0.052 29.178 0.048 14.337 0.842 -124.775
528.4 0.04 42.432 0.965 -23.893 0.052 27.492
          0.968 -23.958 0.039 60.35 0.049 12.329
          0.052 27.387 0.049 12.987 0.839 -127.52
544.8 0.04 41.72 0.962 -24.746 0.052 26.01
          0.967 -24.554 0.04 59.522 0.049 11.011
          0.052 26.353 0.049 11.432 0.835 -130.379
561.2 0.04 38.387 0.962 -25.433 0.053 25.19
          0.965 -25.377 0.04 61.562 0.049 9.54
          0.053 25.158 0.049 9.591 0.834 -133.278
577.6 0.04 38.469 0.963 -26.101 0.053 23.977
          0.965 -26.126 0.04 59.249 0.049 8.18
          0.053 24.244 0.049 8.192 0.83 -135.916
594 0.04 38.318 0.964 -26.785 0.053 22.979
          0.965 -26.784 0.04 56.432 0.05 6.725
          0.054 23.464 0.049 6.759 0.826 -138.511
610.4 0.039 37.225 0.965 -27.492 0.054 22.285
          0.965 -27.468 0.04 55.529 0.05 5.117
          0.054 22.538 0.049 5.184 0.825 -141.159
626.8 0.04 37.594 0.962 -28.234 0.054 21.394
          0.964 -28.327 0.041 55.689 0.05 3.504
          0.054 21.29 0.05 3.754 0.822 -143.766
643.2 0.039 36.825 0.961 -29.212 0.054 20.251
          0.963 -28.991 0.039 53.243 0.05 2.189
          0.054 20.767 0.05 2.142 0.819 -146.045
659.6 0.039 36.451 0.962 -29.836 0.055 19.258
          0.963 -29.649 0.039 52.178 0.05 0.614
          0.055 19.188 0.05 0.405 0.816 -148.603
676 0.039 34.629 0.961 -30.453 0.055 18.683
          0.963 -30.392 0.039 49.502 0.05 -0.81
          0.055 18.146 0.05 -0.795 0.814 -150.95
692.4 0.039 33.04 0.959 -31.082 0.055 17.746
          0.962 -31.234 0.04 46.888 0.05 -2.176
          0.055 17.478 0.049 -1.975 0.813 -153.244
708.8 0.039 32.409 0.958 -31.769 0.055 16.415
          0.961 -32.023 0.039 45.897 0.05 -3.592
          0.055 16.855 0.049 -3.413 0.811 -155.574
725.2 0.039 31.117 0.96 -32.657 0.055 15.914
          0.962 -32.456 0.039 46.735 0.05 -5.005
          0.055 16.237 0.05 -4.69 0.809 -157.758
741.6 0.039 28.922 0.961 -33.434 0.055 14.781
          0.958 -33.225 0.038 45.986 0.049 -5.742
          0.055 14.997 0.05 -6.029 0.808 -160.036
758 0.038 27.058 0.959 -34.137 0.055 14.117
          0.958 -34.206 0.038 44.724 0.049 -7.431
          0.055 14.113 0.049 -7.372 0.805 -162.362
774.4 0.038 24.7 0.958 -34.938 0.055 13.435
          0.958 -34.905 0.037 44.145 0.049 -8.976
          0.056 13.375 0.049 -9.184 0.805 -164.543
790.8 0.038 22.333 0.958 -35.677 0.055 12.485
          0.958 -35.507 0.035 43.514 0.049 -10.351
          0.056 12.654 0.049 -10.714 0.805 -166.511
807.2 0.037 20.151 0.958 -36.26 0.055 11.543
          0.959 -36.264 0.035 42.512 0.049 -11.697
          0.055 11.941 0.049 -11.467 0.803 -168.37
823.6 0.036 17.744 0.957 -37.03 0.055 11.828
          0.955 -37.001 0.033 43.652 0.049 -12.628
          0.055 11.427 0.049 -12.531 0.802 -170.494
840 0.036 13.702 0.956 -37.705 0.055 10.54
          0.955 -37.878 0.032 40.701 0.048 -14.098
          0.056 10.736 0.048 -13.924 0.798 -172.469
856.4 0.036 8.645 0.958 -38.327 0.055 9.869
          0.957 -38.521 0.031 40.406 0.048 -15.159
          0.056 10.271 0.048 -15.089 0.799 -174.499
872.8 0.036 4.968 0.957 -39.071 0.055 9.305
          0.959 -39.158 0.029 42.652 0.047 -16.31
          0.055 9.657 0.048 -16.203 0.799 -176.371
889.2 0.036 3.193 0.955 -39.877 0.055 8.747
          0.959 -39.869 0.028 44.471 0.047 -17.47
          0.055 8.918 0.047 -17.339 0.797 -178.039
905.6 0.034 1.867 0.956 -40.591 0.055 8.318
          0.956 -40.601 0.027 43.123 0.047 -18.401
          0.055 8.307 0.047 -18.526 0.795 -179.66
922 0.034 -1.976 0.959 -41.272 0.055 7.901
          0.96 -41.207 0.025 42.957 0.047 -19.705
          0.055 7.975 0.047 -19.937 0.795 178.251
938.4 0.035 -8.117 0.957 -42.074 0.054 7.42
          0.958 -41.934 0.025 40.571 0.046 -20.863
          0.055 7.745 0.046 -20.815 0.79 176.543
954.8 0.034 -10.761 0.955 -42.851 0.054 6.791
          0.957 -42.864 0.024 41.535 0.045 -21.801
          0.055 7.017 0.046 -21.777 0.789 174.895
971.2 0.032 -15.43 0.955 -43.606 0.054 6.451
          0.956 -43.647 0.022 42.077 0.045 -22.756
          0.054 6.5 0.045 -22.782 0.79 173.252
987.6 0.032 -21.594 0.956 -44.31 0.054 6.333
          0.957 -44.325 0.02 41.41 0.045 -23.787
          0.054 6.164 0.045 -23.767 0.79 171.593
1004 0.032 -24.175 0.956 -44.936 0.054 5.962
          0.958 -45.215 0.018 42.122 0.044 -24.787
          0.054 5.436 0.044 -24.732 0.791 169.93
1020.4 0.033 -28.747 0.954 -45.728 0.054 5.574
          0.955 -45.776 0.016 41.699 0.044 -25.889
          0.054 5.73 0.044 -25.857 0.79 168.451
1036.8 0.032 -33.184 0.955 -46.513 0.054 5.067
          0.956 -46.497 0.015 41.184 0.043 -26.894
          0.054 5.224 0.043 -26.639 0.788 166.911
1053.2 0.031 -35.88 0.958 -47.362 0.054 4.762
          0.956 -47.194 0.013 40.877 0.043 -28.174
          0.054 4.869 0.043 -27.596 0.789 165.292
1069.6 0.031 -38.769 0.957 -48.098 0.054 4.248
          0.956 -48.026 0.011 41.207 0.042 -29.213
          0.054 4.497 0.042 -28.544 0.79 163.676
1086 0.031 -43.187 0.954 -48.746 0.053 3.583
          0.956 -48.919 8.694e-3 43.412 0.042 -29.887
          0.054 4.023 0.042 -29.435 0.787 162.164
1102.4 0.031 -48.522 0.953 -49.641 0.053 3.607
          0.955 -49.446 7.29e-3 49.01 0.041 -30.825
          0.053 3.751 0.041 -30.576 0.785 160.817
1118.8 0.031 -52.362 0.952 -50.353 0.053 3.784
          0.954 -50.307 4.664e-3 43.846 0.04 -31.766
          0.053 3.411 0.041 -31.708 0.786 159.271
1135.2 0.031 -58.148 0.952 -51.121 0.052 3.092
          0.951 -50.965 2.572e-3 50.762 0.04 -32.678
          0.053 3.232 0.04 -32.168 0.785 157.896
1151.6 0.032 -63.636 0.952 -51.947 0.052 2.796
          0.949 -51.625 2.191e-3 103.214 0.039 -33.407
          0.052 3.195 0.04 -33.035 0.784 156.484
1168 0.034 -67.929 0.953 -52.748 0.052 2.755
          0.951 -52.335 2.701e-3 147.504 0.039 -34.044
          0.052 3.112 0.039 -34.025 0.784 155.069
1184.4 0.036 -71.477 0.954 -53.459 0.052 2.587
          0.955 -53.105 3.598e-3 -164.921 0.038 -34.784
          0.052 2.867 0.038 -34.723 0.786 153.694
1200.8 0.038 -76.603 0.954 -54.116 0.052 2.542
          0.95 -54.002 5.7e-3 -167.44 0.038 -35.837
          0.052 2.646 0.037 -35.513 0.786 152.247
1217.2 0.038 -80.75 0.951 -54.873 0.052 2.621
          0.952 -54.698 8.999e-3 -163.034 0.037 -36.269
          0.052 2.567 0.037 -36.413 0.783 150.992
1233.6 0.04 -83.946 0.95 -55.516 0.051 2.739
          0.951 -55.479 0.011 -161.677 0.036 -36.637
          0.051 2.615 0.036 -37.154 0.781 149.837
1250 0.042 -86.918 0.95 -56.296 0.051 2.647
          0.95 -56.132 0.013 -159.545 0.036 -37.637
          0.051 2.753 0.036 -37.696 0.78 148.649
1266.4 0.044 -90.674 0.95 -57.143 0.051 2.556
          0.95 -56.818 0.015 -159.599 0.035 -38.677
          0.051 2.871 0.035 -38.224 0.781 147.433
1282.8 0.046 -95.12 0.949 -57.86 0.051 2.765
          0.95 -57.754 0.019 -162.697 0.034 -38.937
          0.051 2.888 0.034 -38.882 0.782 146.255
1299.2 0.048 -97.027 0.947 -58.504 0.051 2.9
          0.948 -58.498 0.022 -160.838 0.034 -39.524
          0.051 2.961 0.033 -39.203 0.781 145.114
1315.6 0.051 -100.951 0.949 -59.261 0.051 2.888
          0.948 -59.222 0.026 -163.016 0.033 -39.719
          0.05 2.757 0.033 -39.988 0.781 143.997
1332 0.053 -103.485 0.949 -59.95 0.05 3.13
          0.946 -59.972 0.029 -163.132 0.032 -40.522
          0.05 3.168 0.032 -40.494 0.781 142.886
1348.4 0.055 -106.269 0.948 -60.679 0.05 3.449
          0.944 -60.749 0.032 -162.185 0.032 -41.36
          0.05 3.473 0.031 -40.859 0.779 141.75
1364.8 0.057 -109.633 0.946 -61.471 0.05 3.603
          0.944 -61.509 0.035 -161.714 0.031 -42.035
          0.05 3.524 0.031 -41.431 0.778 140.596
1381.2 0.059 -112.603 0.945 -62.255 0.05 3.468
          0.946 -62.202 0.037 -162.532 0.03 -42.702
          0.05 3.764 0.03 -42.441 0.778 139.484
1397.6 0.064 -114.994 0.944 -62.957 0.05 3.755
          0.945 -62.978 0.042 -163.956 0.029 -42.518
          0.05 3.961 0.03 -42.67 0.78 138.556
1414 0.066 -117.696 0.943 -63.744 0.05 4.177
          0.945 -63.571 0.045 -164.544 0.029 -42.642
          0.05 4.292 0.029 -42.839 0.78 137.469
1430.4 0.068 -120.812 0.943 -64.516 0.05 4.463
          0.942 -64.388 0.047 -164.543 0.028 -43.467
          0.05 4.27 0.028 -43.497 0.778 136.448
1446.8 0.071 -123.413 0.944 -65.268 0.05 4.659
          0.94 -65.108 0.049 -164.856 0.028 -44.288
          0.049 4.663 0.028 -43.898 0.777 135.446
1463.2 0.074 -125.488 0.944 -65.984 0.05 4.884
          0.942 -65.643 0.053 -165.676 0.027 -44.552
          0.05 5.569 0.027 -43.824 0.778 134.431
1479.6 0.075 -127.992 0.942 -66.615 0.05 5.247
          0.941 -66.397 0.057 -166.412 0.026 -44.324
          0.05 5.897 0.026 -44.121 0.777 133.462
1496 0.078 -130.689 0.944 -67.307 0.05 5.632
          0.943 -67.395 0.06 -166.461 0.026 -44.717
          0.05 6.061 0.025 -45.072 0.778 132.556
1512.4 0.082 -132.49 0.942 -67.955 0.05 6.168
          0.943 -68.287 0.063 -167.346 0.025 -45.27
          0.05 6.345 0.025 -45.159 0.78 131.461
1528.8 0.085 -134.352 0.942 -68.616 0.05 6.552
          0.94 -69.052 0.066 -167.793 0.024 -44.941
          0.05 6.547 0.024 -44.881 0.78 130.394
1545.2 0.088 -136.184 0.943 -69.322 0.05 6.827
          0.939 -69.685 0.069 -168.101 0.023 -44.447
          0.05 6.908 0.023 -44.607 0.78 129.456
1561.6 0.091 -137.726 0.939 -70.137 0.05 7.149
          0.941 -70.31 0.074 -169.064 0.022 -44.538
          0.05 7.472 0.022 -44.498 0.781 128.625
1578 0.094 -138.917 0.936 -71.201 0.051 7.634
          0.943 -71.292 0.077 -169.606 0.021 -44.678
          0.05 7.541 0.022 -44.389 0.781 127.705
1594.4 0.098 -139.647 0.942 -71.949 0.05 8.159
          0.943 -71.908 0.08 -170.519 0.02 -44.801
          0.051 7.974 0.021 -43.753 0.782 126.626
1610.8 0.102 -141.482 0.942 -72.683 0.051 8.562
          0.941 -72.652 0.083 -170.606 0.02 -44.568
          0.051 8.717 0.02 -43.898 0.782 125.7
1627.2 0.105 -143.227 0.941 -73.448 0.051 8.87
          0.938 -73.367 0.086 -171.249 0.019 -44.037
          0.051 9.104 0.019 -43.723 0.783 124.795
1643.6 0.108 -144.716 0.939 -74.255 0.051 9.289
          0.938 -74.098 0.089 -172.1 0.019 -43.403
          0.052 9.433 0.018 -42.678 0.783 123.852
1660 0.11 -146.373 0.939 -75.072 0.052 9.96
          0.939 -74.929 0.094 -172.494 0.018 -42.674
          0.052 10.21 0.018 -41.035 0.783 122.877
1676.4 0.113 -148.334 0.94 -75.741 0.052 10.469
          0.943 -75.648 0.096 -174.14 0.017 -40.789
          0.052 10.573 0.017 -40.82 0.783 121.904
1692.8 0.117 -149.255 0.94 -76.609 0.052 10.842
          0.938 -76.511 0.1 -175.26 0.016 -40.061
          0.052 10.74 0.017 -40.33 0.785 121.086
1709.2 0.121 -150.063 0.94 -77.404 0.053 11.257
          0.936 -77.286 0.104 -175.5 0.015 -38.107
          0.053 11.16 0.016 -38.02 0.786 120.2
1725.6 0.124 -151.675 0.94 -78.182 0.053 11.678
          0.937 -78.112 0.108 -176.272 0.015 -36.083
          0.053 11.492 0.015 -35.922 0.786 119.263
1742 0.127 -153.804 0.94 -78.919 0.054 12.081
          0.94 -78.977 0.112 -177.409 0.014 -34.3
          0.054 11.795 0.014 -34.319 0.787 118.271
1758.4 0.13 -155.358 0.937 -79.562 0.054 12.419
          0.936 -79.757 0.114 -177.502 0.014 -32.143
          0.054 12.409 0.013 -32.016 0.785 117.213
1774.8 0.134 -156.774 0.938 -80.506 0.055 12.301
          0.937 -80.651 0.116 -178.702 0.013 -30.257
          0.055 12.774 0.013 -30.27 0.786 116.338
1791.2 0.138 -158.027 0.937 -81.299 0.055 12.894
          0.937 -81.337 0.121 -178.734 0.013 -27.392
          0.055 12.936 0.013 -27.682 0.786 115.537
1807.6 0.141 -159.337 0.934 -82.083 0.056 13.524
          0.935 -82.066 0.124 -178.905 0.012 -23.649
          0.056 13.448 0.012 -22.673 0.786 114.754
1824 0.143 -160.63 0.933 -82.893 0.056 14.15
          0.932 -82.783 0.127 -179.199 0.011 -19.481
          0.056 14.027 0.011 -18.405 0.786 113.881
1840.4 0.146 -161.963 0.933 -83.744 0.057 14.59
          0.932 -83.506 0.131 -179.653 0.011 -15.31
          0.057 14.384 0.011 -15.723 0.786 112.926
1856.8 0.149 -163.582 0.933 -84.626 0.058 14.42
          0.932 -84.414 0.134 179.406 0.011 -11.41
          0.058 14.502 0.011 -11.399 0.787 112.047
1873.2 0.153 -165.169 0.934 -85.156 0.059 14.942
          0.931 -85.356 0.138 178.934 0.011 -5.398
          0.058 14.821 0.011 -7.178 0.787 111.265
1889.6 0.155 -166.19 0.931 -85.851 0.059 15.518
          0.933 -85.976 0.14 178.618 0.011 -0.563
          0.059 15.347 0.011 -0.915 0.787 110.354
1906 0.158 -167.259 0.93 -86.696 0.06 15.766
          0.932 -86.853 0.144 177.888 0.011 3.409
          0.06 15.684 0.011 4.72 0.786 109.44
1922.4 0.162 -168.492 0.929 -87.626 0.061 15.96
          0.931 -87.768 0.147 176.995 0.011 7.923
          0.061 15.793 0.011 9.822 0.785 108.472
1938.8 0.166 -169.732 0.928 -88.555 0.061 16.323
          0.93 -88.462 0.15 176.294 0.011 13.782
          0.062 15.897 0.011 14.731 0.785 107.473
1955.2 0.168 -170.557 0.929 -89.389 0.062 16.483
          0.928 -89.181 0.155 175.583 0.011 19.507
          0.063 16.461 0.011 18.184 0.788 106.772
1971.6 0.17 -171.796 0.93 -90.307 0.064 16.524
          0.928 -89.917 0.158 174.899 0.012 23.248
          0.064 16.599 0.012 23.581 0.79 105.782
1988 0.173 -173.257 0.93 -90.893 0.065 16.668
          0.926 -90.939 0.159 174.751 0.013 26.429
          0.064 16.79 0.013 27.188 0.787 104.976
2004.4 0.175 -174.469 0.927 -91.692 0.066 16.723
          0.926 -91.767 0.163 174.149 0.013 29.404
          0.065 17.001 0.013 30.397 0.786 104.148
2020.8 0.178 -175.564 0.925 -92.603 0.066 16.795
          0.926 -92.493 0.167 173.051 0.014 32.655
          0.067 17.178 0.014 33.663 0.788 103.244
2037.2 0.181 -176.924 0.926 -93.322 0.068 17.079
          0.925 -93.387 0.17 172.03 0.015 36.286
          0.068 17.251 0.015 36.602 0.788 102.303
2053.6 0.184 -178.449 0.923 -94.191 0.069 17.447
          0.925 -94.157 0.172 171.375 0.016 38.391
          0.068 17.09 0.016 38.212 0.784 101.319
2070 0.186 -179.571 0.922 -94.832 0.07 17.592
          0.921 -94.878 0.175 170.944 0.017 40.533
          0.07 17.373 0.017 40.605 0.785 100.663
2086.4 0.189 179.099 0.922 -95.618 0.071 17.578
          0.92 -95.622 0.178 170.459 0.018 42.15
          0.071 17.71 0.018 42.566 0.786 99.778
2102.8 0.192 177.758 0.919 -96.552 0.072 17.506
          0.92 -96.504 0.181 169.608 0.019 44.138
          0.072 17.701 0.019 43.734 0.788 98.811
2119.2 0.194 176.349 0.914 -97.518 0.073 17.481
          0.92 -97.496 0.184 168.723 0.02 45.898
          0.073 17.495 0.02 44.526 0.788 97.905
2135.6 0.196 174.667 0.914 -98.352 0.074 17.591
          0.919 -98.418 0.187 168.462 0.021 45.917
          0.075 17.578 0.021 45.745 0.786 97.119
2152 0.201 173.578 0.918 -99.079 0.076 17.851
          0.914 -98.897 0.191 167.972 0.023 46.491
          0.076 17.481 0.023 46.791 0.784 96.363
2168.4 0.202 172.12 0.914 -99.99 0.077 17.536
          0.915 -99.955 0.193 167.225 0.024 47.162
