!Hittite Microwave Corporation								
!12 Elizabeth Drive								
!Chelmsford, MA 01824								
!Tel: 978-250-3343								
!Fax: 978-250-3373
!Device: HMC174MS8, DC - 3 GHz T/R Switch in 8-lead MSOP package
!Misc: Port1=RFC, Port2= RF1, Port3=RF2, RF1 ON, Bias: +3VDC								
!
# MHZ S MA R 50

30 0.027 -139.595 0.981 -0.653 5.225e-3 67.652
          0.981 -0.63 0.023 -124.01 4.899e-3 64.04
          5.047e-3 66.87 4.893e-3 64.594 0.959 -10.358
54.85 0.039 -115.804 0.967 -0.539 8.618e-3 66.643
          0.968 -0.524 0.037 -104.934 7.777e-3 65.576
          8.605e-3 67.104 7.719e-3 66.578 0.955 -18.143
79.7 0.029 -129.279 0.971 -2.049 0.012 70.561
          0.973 -2.08 0.026 -116.834 0.012 67.053
          0.012 71.205 0.012 67.525 0.95 -25.735
104.55 0.026 -139.106 0.971 -3.212 0.015 71.725
          0.972 -3.23 0.021 -125.933 0.015 68.436
          0.015 72.271 0.015 68.743 0.945 -33.339
129.4 0.025 -143.89 0.97 -4.138 0.019 69.85
          0.971 -4.1 0.02 -130.373 0.018 67.595
          0.019 70.319 0.018 67.963 0.939 -40.856
154.25 0.025 -145.914 0.97 -4.929 0.022 66.211
          0.971 -4.874 0.019 -131.226 0.021 64.383
          0.022 66.435 0.022 64.565 0.934 -48.094
179.1 0.025 -144.781 0.972 -5.701 0.025 62.181
          0.972 -5.678 0.02 -128.365 0.025 60.668
          0.026 62.191 0.025 60.678 0.93 -55.131
203.95 0.027 -141.704 0.971 -6.452 0.028 60.479
          0.971 -6.501 0.021 -124.243 0.028 57.647
          0.028 60.533 0.028 57.721 0.923 -62.052
228.8 0.029 -139.992 0.968 -7.219 0.031 58.338
          0.969 -7.277 0.023 -121.876 0.03 54.634
          0.031 58.748 0.03 54.921 0.917 -68.671
253.65 0.03 -138.771 0.967 -7.93 0.033 55.894
          0.968 -7.988 0.025 -120.067 0.032 51.669
          0.033 56.28 0.033 51.878 0.911 -75.073
278.5 0.031 -137.518 0.967 -8.588 0.035 53.732
          0.967 -8.694 0.026 -118.075 0.034 49.006
          0.036 53.466 0.035 48.634 0.905 -81.264
303.35 0.032 -136.089 0.968 -9.271 0.037 52.279
          0.968 -9.481 0.027 -115.739 0.036 46.901
          0.038 51.168 0.037 45.674 0.899 -87.167
328.2 0.034 -135.336 0.97 -10.137 0.04 49.6
          0.969 -10.206 0.029 -114.497 0.039 44.095
          0.04 49.135 0.038 43.65 0.893 -92.846
353.05 0.036 -134.266 0.968 -10.966 0.041 46.751
          0.968 -11.023 0.031 -112.637 0.04 40.566
          0.041 47.083 0.04 40.848 0.886 -98.231
377.9 0.038 -133.768 0.965 -11.682 0.042 44.974
          0.966 -11.721 0.033 -111.461 0.041 38.406
          0.043 45.083 0.041 38.531 0.88 -103.479
402.75 0.04 -133.435 0.965 -12.322 0.043 44.023
          0.966 -12.364 0.036 -110.432 0.042 37.369
          0.044 43.253 0.042 36.614 0.874 -108.546
427.6 0.042 -133.152 0.966 -12.983 0.045 42.989
          0.966 -13.058 0.038 -109.434 0.043 36.258
          0.046 41.603 0.044 34.755 0.868 -113.384
452.45 0.044 -133.405 0.967 -13.79 0.047 40.628
          0.967 -13.84 0.04 -109.16 0.045 33.453
          0.047 39.941 0.045 32.797 0.862 -118.019
477.3 0.046 -133.638 0.966 -14.57 0.048 38.527
          0.966 -14.653 0.042 -108.416 0.046 30.795
          0.048 38.301 0.046 30.732 0.856 -122.471
502.15 0.048 -134.127 0.964 -15.307 0.048 37.465
          0.965 -15.364 0.044 -108.022 0.046 29.402
          0.048 36.996 0.046 28.846 0.851 -126.752
527 0.05 -134.63 0.964 -15.972 0.049 36.698
          0.965 -16.041 0.046 -107.692 0.047 28.238
          0.049 35.677 0.047 27.088 0.846 -130.884
551.85 0.051 -135.186 0.965 -16.643 0.05 35.568
          0.965 -16.767 0.049 -107.525 0.048 26.648
          0.05 34.371 0.048 25.427 0.84 -134.877
576.7 0.053 -135.887 0.965 -17.411 0.051 33.847
          0.965 -17.578 0.051 -107.648 0.049 24.492
          0.051 33.218 0.048 23.82 0.835 -138.756
601.55 0.055 -136.648 0.965 -18.246 0.052 32.489
          0.964 -18.331 0.053 -107.845 0.049 22.564
          0.051 32.068 0.049 22.138 0.831 -142.613
626.4 0.057 -137.375 0.963 -18.967 0.052 31.759
          0.963 -19.07 0.055 -107.906 0.049 21.37
          0.052 31.125 0.049 20.75 0.826 -146.263
651.25 0.059 -138.299 0.963 -19.672 0.053 30.947
          0.963 -19.776 0.057 -108.123 0.05 20.093
          0.052 30.182 0.049 19.322 0.821 -149.858
676.1 0.061 -139.433 0.963 -20.339 0.053 30.126
          0.963 -20.448 0.059 -108.423 0.05 18.883
          0.053 29.254 0.049 17.938 0.817 -153.334
700.95 0.063 -140.715 0.963 -21.03 0.054 29.203
          0.963 -21.142 0.061 -108.753 0.05 17.557
          0.053 28.38 0.05 16.629 0.812 -156.699
725.8 0.064 -142.056 0.962 -21.845 0.054 27.933
          0.964 -21.937 0.063 -109.129 0.051 15.694
          0.053 27.607 0.05 15.373 0.808 -160.026
750.65 0.066 -143.321 0.964 -22.635 0.054 26.365
          0.962 -22.761 0.065 -109.706 0.051 13.705
          0.053 26.996 0.05 14.298 0.803 -163.256
775.5 0.067 -144.691 0.962 -23.402 0.053 26.154
          0.961 -23.554 0.067 -110.224 0.049 12.998
          0.054 26.265 0.05 13.094 0.798 -166.446
800.35 0.068 -146.035 0.96 -24.104 0.054 26.908
          0.96 -24.204 0.069 -110.751 0.049 13.214
          0.054 25.737 0.05 11.951 0.794 -169.602
825.2 0.07 -147.314 0.96 -24.732 0.055 26.884
          0.961 -24.786 0.071 -111.181 0.051 12.645
          0.054 25.292 0.05 10.922 0.79 -172.697
850.05 0.071 -148.704 0.962 -25.369 0.057 25.031
          0.963 -25.462 0.073 -111.648 0.052 10.258
          0.054 24.807 0.049 9.984 0.786 -175.714
874.9 0.072 -150.571 0.966 -26.209 0.056 22.004
          0.964 -26.436 0.074 -112.597 0.051 6.694
          0.054 24.304 0.05 9.04 0.783 -178.673
899.75 0.073 -152.149 0.962 -27.189 0.054 21.941
          0.963 -27.292 0.076 -113.112 0.049 5.971
          0.055 23.604 0.049 7.709 0.78 178.27
924.6 0.074 -153.739 0.958 -27.885 0.053 24.008
          0.959 -27.992 0.077 -113.844 0.048 7.461
          0.055 23.282 0.049 6.746 0.775 175.359
949.45 0.075 -155.26 0.957 -28.428 0.055 24.886
          0.958 -28.553 0.079 -114.68 0.049 7.84
          0.055 23.047 0.049 5.992 0.772 172.483
974.3 0.076 -157.067 0.959 -29.042 0.057 23.5
          0.961 -29.19 0.08 -115.665 0.051 5.934
          0.055 22.818 0.048 5.263 0.768 169.616
999.15 0.078 -159.413 0.962 -29.893 0.057 20.67
          0.964 -30.057 0.082 -116.798 0.05 2.489
          0.055 22.556 0.048 4.398 0.763 166.763
1024 0.078 -161.641 0.964 -30.878 0.055 19.576
          0.964 -30.885 0.083 -117.678 0.048 0.797
          0.055 22.078 0.048 3.321 0.761 163.915
1048.85 0.079 -163.443 0.96 -31.684 0.054 21.058
          0.96 -31.723 0.085 -118.351 0.047 1.694
          0.055 21.876 0.048 2.483 0.758 161.092
1073.7 0.079 -165.446 0.957 -32.342 0.055 22.279
          0.957 -32.392 0.086 -119.288 0.047 2.303
          0.055 21.764 0.047 1.745 0.755 158.302
1098.55 0.08 -167.51 0.957 -32.976 0.056 22.418
          0.958 -33.06 0.087 -120.401 0.047 1.832
          0.055 21.725 0.047 1.066 0.752 155.534
1123.4 0.081 -169.695 0.959 -33.669 0.057 21.584
          0.959 -33.771 0.089 -121.642 0.047 0.4
          0.055 21.681 0.046 0.416 0.749 152.792
1148.25 0.082 -172.207 0.961 -34.451 0.057 20.475
          0.961 -34.489 0.09 -123.015 0.047 -1.302
          0.055 21.536 0.046 -0.226 0.747 150.08
1173.1 0.082 -174.906 0.962 -35.242 0.056 19.351
          0.962 -35.461 0.09 -124.428 0.046 -3.045
          0.055 21.42 0.045 -0.88 0.743 147.314
1197.95 0.083 -177.396 0.962 -36.167 0.055 19.14
          0.96 -36.392 0.091 -125.448 0.044 -3.892
          0.055 21.191 0.045 -1.729 0.74 144.6
1222.8 0.083 -179.824 0.959 -37.014 0.054 20.472
          0.956 -37.101 0.092 -126.585 0.043 -3.157
          0.055 21.194 0.044 -2.542 0.737 141.831
1247.65 0.084 177.698 0.956 -37.648 0.055 22.246
          0.953 -37.662 0.093 -127.897 0.043 -1.968
          0.055 21.324 0.043 -3.12 0.734 139.093
1272.5 0.085 175.137 0.955 -38.139 0.057 22.725
          0.954 -38.218 0.093 -129.369 0.044 -2.074
          0.055 21.494 0.043 -3.417 0.731 136.404
1297.35 0.086 172.537 0.96 -38.812 0.059 20.165
          0.961 -38.928 0.094 -131.039 0.044 -5.186
          0.056 21.744 0.042 -3.608 0.728 133.654
1322.2 0.087 168.666 0.966 -39.898 0.056 17.938
          0.962 -40.178 0.094 -132.986 0.042 -7.911
          0.056 21.478 0.042 -4.181 0.727 131.098
1347.05 0.087 165.887 0.962 -41.01 0.053 19.4
          0.957 -41.083 0.094 -133.928 0.039 -6.998
          0.056 21.41 0.041 -4.943 0.724 128.459
1371.9 0.088 163.106 0.955 -41.762 0.054 22.344
          0.951 -41.662 0.095 -135.326 0.039 -4.699
          0.056 21.656 0.04 -5.45 0.723 125.759
1396.75 0.089 160.161 0.952 -42.243 0.056 23.727
          0.951 -42.144 0.096 -137.125 0.039 -3.842
          0.056 22.097 0.039 -5.596 0.722 123.068
1421.6 0.09 157.101 0.956 -42.767 0.058 21.923
          0.957 -42.818 0.096 -138.944 0.04 -5.966
          0.056 22.433 0.039 -5.579 0.72 120.427
1446.45 0.091 153.469 0.961 -43.747 0.057 19.596
          0.959 -43.913 0.096 -141.281 0.038 -8.89
          0.056 22.134 0.038 -6.006 0.718 117.757
1471.3 0.093 150.161 0.959 -44.776 0.055 20.704
          0.955 -44.81 0.096 -142.853 0.036 -8.081
          0.056 22.324 0.037 -6.326 0.717 114.986
1496.15 0.094 146.823 0.956 -45.547 0.055 22.331
          0.952 -45.478 0.096 -144.71 0.035 -6.778
          0.056 22.716 0.036 -6.414 0.716 112.421
1521 0.096 143.486 0.955 -46.235 0.056 23.015
          0.952 -46.129 0.097 -146.795 0.035 -6.354
          0.057 23.154 0.035 -6.315 0.714 109.85
1545.85 0.097 140.209 0.955 -46.993 0.056 23.057
          0.953 -46.907 0.097 -149.02 0.034 -6.444
          0.057 23.431 0.035 -6.217 0.713 107.187
1570.7 0.099 136.997 0.954 -47.861 0.056 23.665
          0.953 -47.823 0.097 -151.305 0.033 -5.856
          0.057 23.461 0.034 -6.26 0.713 104.493
1595.55 0.101 133.658 0.952 -48.483 0.057 24.382
          0.95 -48.552 0.097 -153.462 0.033 -5.287
          0.057 23.94 0.033 -5.822 0.712 102.019
1620.4 0.104 130.102 0.957 -49.235 0.058 22.937
          0.955 -49.337 0.097 -156.13 0.032 -6.611
          0.058 24.173 0.032 -5.284 0.711 99.527
1645.25 0.107 126.541 0.96 -50.306 0.057 22.483
          0.955 -50.342 0.096 -158.937 0.031 -6.858
          0.058 24.486 0.031 -4.895 0.709 96.956
1670.1 0.109 123.224 0.955 -51.365 0.055 24.416
          0.951 -51.232 0.096 -161.405 0.029 -4.671
          0.058 24.783 0.03 -4.623 0.709 94.417
1694.95 0.111 120.184 0.945 -52.099 0.056 27.506
          0.946 -51.841 0.096 -163.697 0.029 -1.291
          0.058 25.123 0.029 -4.175 0.71 91.895
1719.8 0.114 117.181 0.943 -52.401 0.06 27.91
          0.946 -52.345 0.096 -166.746 0.03 -0.556
          0.059 25.762 0.029 -3.071 0.712 89.231
1744.65 0.118 113.819 0.957 -53.08 0.061 23.903
          0.953 -53.321 0.097 -169.648 0.029 -4.248
          0.059 25.947 0.028 -1.838 0.715 86.951
1769.5 0.122 110.177 0.959 -54.592 0.058 23.425
          0.95 -54.587 0.096 -172.929 0.026 -4.001
          0.06 26.029 0.027 -0.99 0.713 84.44
1794.35 0.125 107.012 0.95 -55.811 0.056 26.734
          0.943 -55.318 0.096 -175.708 0.025 0.259
          0.06 26.454 0.026 0.044 0.712 81.989
1819.2 0.128 104.182 0.94 -56.379 0.058 30.179
          0.94 -55.643 0.097 -178.635 0.025 4.866
          0.06 27.185 0.025 1.655 0.711 79.555
1844.05 0.132 101.38 0.939 -56.545 0.063 30.143
          0.948 -56.109 0.098 177.71 0.026 6.194
          0.061 27.852 0.025 3.853 0.713 77.126
1868.9 0.138 98.583 0.952 -57.288 0.064 26.199
          0.958 -57.438 0.099 174.263 0.025 3.695
          0.062 27.736 0.024 5.959 0.715 74.985
1893.75 0.142 94.983 0.952 -58.72 0.061 26.133
          0.953 -58.864 0.099 170.556 0.023 5.5
          0.062 27.744 0.024 7.547 0.715 72.673
1918.6 0.146 92.15 0.946 -59.751 0.06 28.572
          0.943 -59.6 0.1 167.457 0.022 10.043
          0.062 28.161 0.023 9.472 0.716 70.386
1943.45 0.151 89.441 0.94 -60.446 0.062 30.34
          0.939 -60.117 0.101 164.15 0.022 13.915
          0.063 28.804 0.022 11.985 0.719 68.019
1968.3 0.155 86.635 0.939 -61.091 0.064 30.555
          0.943 -60.866 0.103 160.518 0.022 16.338
          0.064 29.239 0.022 14.847 0.721 65.669
1993.15 0.161 83.847 0.941 -61.962 0.065 30.112
          0.947 -62.03 0.105 156.893 0.022 18.456
          0.065 29.169 0.022 17.673 0.723 63.489
2018 0.166 81.253 0.938 -62.808 0.066 30.801
          0.942 -62.86 0.106 153.376 0.022 22.014
          0.065 29.531 0.022 20.806 0.725 61.332
2042.85 0.172 78.872 0.94 -63.474 0.067 30.072
          0.94 -63.509 0.109 149.839 0.022 23.979
          0.066 30.041 0.021 24.084 0.726 59.126
2067.7 0.178 76.259 0.944 -64.615 0.067 28.95
          0.942 -64.617 0.111 145.816 0.021 26.128
          0.067 30.194 0.021 27.563 0.727 56.907
2092.55 0.184 73.549 0.94 -65.99 0.065 29.965
          0.938 -65.93 0.113 142.325 0.021 30.386
          0.068 30.054 0.022 30.501 0.73 54.755
2117.4 0.189 70.992 0.927 -67.05 0.065 33.324
          0.927 -66.83 0.115 139.544 0.021 36.537
          0.068 30.227 0.022 33.073 0.731 52.677
2142.25 0.195 68.8 0.915 -67.193 0.071 36.2
          0.92 -66.656 0.12 136.594 0.023 41.87
          0.068 31.57 0.022 36.518 0.732 50.611
2167.1 0.2 67.06 0.928 -66.965 0.077 32.247
          0.936 -66.807 0.123 133.169 0.025 40.8
          0.07 32.527 0.022 40.894 0.735 48.626
2191.95 0.21 64.701 0.944 -68.444 0.074 27.72
          0.95 -68.68 0.129 129.224 0.024 39.255
          0.072 31.926 0.023 44.228 0.738 46.553
2216.8 0.217 61.746 0.942 -70.524 0.069 28.551
          0.942 -70.826 0.131 125.289 0.023 42.67
          0.073 30.912 0.024 45.85 0.741 44.582
2241.65 0.221 59.281 0.923 -71.962 0.068 33.318
          0.921 -71.932 0.134 122.468 0.023 49.66
          0.072 30.812 0.025 47.123 0.743 42.618
2266.5 0.227 57.668 0.904 -72.096 0.073 37.484
          0.904 -71.566 0.14 120.549 0.025 55.895
          0.072 32.152 0.025 49.571 0.746 40.589
2291.35 0.233 55.719 0.91 -71.494 0.082 35.212
          0.915 -70.914 0.145 116.839 0.029 55.613
          0.074 33.815 0.026 53.669 0.747 38.614
2316.2 0.242 54.238 0.928 -72.715 0.081 30.127
          0.939 -72.381 0.151 114.155 0.029 52.853
          0.077 33.55 0.027 56.734 0.749 36.722
2341.05 0.251 51.576 0.929 -74.521 0.077 29.827
          0.941 -74.602 0.156 110.611 0.029 54.509
          0.079 32.448 0.029 57.841 0.75 34.859
2365.9 0.257 49.192 0.918 -75.886 0.076 31.869
          0.93 -76.236 0.161 107.685 0.029 58.086
          0.079 31.932 0.031 58.549 0.752 33.065
2390.75 0.263 47.323 0.908 -76.694 0.078 33.66
          0.915 -77.077 0.165 105.318 0.031 61.127
          0.079 32.135 0.032 59.602 0.753 31.303
2415.6 0.269 45.562 0.906 -77.372 0.08 33.749
          0.905 -77.564 0.171 102.85 0.033 62.326
          0.08 32.55 0.033 61.043 0.755 29.508
2440.45 0.276 43.675 0.9 -78.354 0.081 34.635
          0.898 -77.994 0.178 100.333 0.034 64.207
          0.081 33.166 0.034 62.378 0.759 27.666
2465.3 0.283 41.877 0.893 -78.46 0.086 35.251
          0.904 -78.206 0.184 97.829 0.037 65.861
          0.083 33.869 0.035 64.223 0.76 25.95
2490.15 0.291 40.397 0.903 -78.842 0.09 32.24
          0.922 -79.221 0.191 95.548 0.04 63.912
          0.086 33.929 0.037 66.031 0.762 24.231
2515 0.301 38.19 0.916 -80.403 0.088 28.847
          0.929 -81.42 0.198 92.575 0.04 61.367
          0.088 32.79 0.04 66.469 0.764 22.537
2539.85 0.308 35.553 0.912 -82.806 0.082 29.201
          0.91 -83.894 0.203 89.51 0.038 62.22
          0.088 31.24 0.042 65.448 0.766 20.866
2564.7 0.307 33.924 0.879 -84.499 0.079 35.983
          0.868 -84.726 0.204 87.98 0.038 69.304
          0.086 31.206 0.042 64.395 0.768 19.176
2589.55 0.317 32.685 0.854 -83.213 0.091 40.17
          0.859 -82.749 0.216 86.543 0.045 74.087
          0.086 34.094 0.042 66.612 0.768 17.568
2614.4 0.323 31.515 0.876 -82.408 0.103 34.47
          0.896 -82.53 0.222 84.338 0.052 69.043
          0.092 35.304 0.045 69.585 0.77 15.915
2639.25 0.336 29.592 0.904 -84.132 0.1 27.862
          0.924 -85.104 0.232 81.907 0.051 62.74
          0.096 33.66 0.049 69.889 0.771 14.343
2664.1 0.345 26.917 0.906 -87.049 0.09 26.956
          0.911 -88.469 0.238 79.098 0.048 61.848
          0.097 31.272 0.052 67.893 0.772 12.842
2688.95 0.343 24.539 0.874 -89.063 0.086 32.875
          0.865 -90.19 0.238 76.701 0.046 67.781
          0.095 30.532 0.053 65.761 0.774 11.368
2713.8 0.35 24.132 0.842 -88.52 0.094 38.43
          0.838 -88.741 0.247 76.8 0.052 73.551
          0.094 32.644 0.052 66.608 0.775 9.877
2738.65 0.358 22.598 0.853 -87.735 0.105 35.3
          0.86 -88.137 0.256 74.47 0.059 70.531
          0.098 33.999 0.055 68.795 0.777 8.225
2763.5 0.366 20.956 0.867 -88.782 0.106 31.613
          0.873 -89.582 0.264 72.471 0.061 66.771
          0.102 33.273 0.058 68.879 0.779 6.756
2788.35 0.373 19.116 0.871 -90.294 0.104 30.216
          0.869 -91.379 0.271 70.54 0.061 65.336
          0.103 32.236 0.061 68.083 0.781 5.252
2813.2 0.379 17.345 0.867 -91.602 0.103 30.33
          0.858 -92.627 0.278 68.684 0.062 65.511
          0.104 31.773 0.062 67.464 0.782 3.757
2838.05 0.385 15.83 0.863 -92.665 0.104 30.198
          0.855 -93.28 0.284 66.937 0.063 65.46
          0.106 31.879 0.065 67.433 0.782 2.349
2862.9 0.39 14.119 0.855 -94.255 0.102 30.895
          0.851 -94.648 0.29 65.172 0.063 66.042
          0.108 31.228 0.067 66.748 0.782 0.809
2887.75 0.394 12.806 0.831 -94.992 0.105 34.389
          0.832 -95.325 0.296 64.157 0.066 69.29
          0.107 31.223 0.068 65.867 0.783 -0.554
2912.6 0.4 11.5 0.827 -94.347 0.115 34.703
          0.827 -94.925 0.306 62.8 0.073 69.556
          0.109 32.298 0.07 66.655 0.784 -1.963
2937.45 0.409 10.27 0.846 -94.405 0.121 30.659
          0.842 -95.209 0.316 61.207 0.079 65.562
          0.114 32.739 0.073 67.683 0.785 -3.354
2962.3 0.418 8.646 0.867 -96.371 0.118 25.819
          0.861 -97.179 0.324 59.215 0.078 60.608
          0.119 31.575 0.078 67.311 0.785 -4.729
2987.15 0.424 6.176 0.856 -99.895 0.106 26.542
          0.85 -100.457 0.33 56.816 0.071 60.842
          0.12 29.137 0.082 64.649 0.787 -6.141
3012 0.421 5.348 0.81 -100.926 0.108 34.068
          0.805 -101.166 0.331 56.342 0.073 68.102
          0.116 29.009 0.081 62.738 0.788 -7.478
3036.85 0.43 4.428 0.798 -99.191 0.123 35.26
          0.798 -99.635 0.344 55.356 0.084 69.261
          0.118 31.08 0.081 64.159 0.787 -8.828
3061.7 0.439 3.228 0.82 -98.917 0.132 30.58
          0.821 -99.772 0.355 53.765 0.092 64.454
          0.124 31.482 0.086 65.194 0.787 -10.22
3086.55 0.447 1.455 0.841 -100.968 0.13 25.833
          0.837 -101.936 0.363 51.767 0.092 59.39
          0.129 29.896 0.091 64.236 0.788 -11.63
3111.4 0.453 -0.538 0.833 -104.098 0.12 25.757
          0.822 -104.708 0.369 49.949 0.086 58.875
          0.13 27.752 0.095 61.67 0.789 -12.985
3136.25 0.452 -1.595 0.797 -105.213 0.121 30.921
          0.785 -105.399 0.372 49.057 0.087 63.682
          0.127 27.737 0.094 60.102 0.788 -14.177
3161.1 0.461 -2.669 0.791 -104.292 0.132 31.019
          0.79 -104.338 0.385 47.822 0.097 63.732
          0.131 29.266 0.096 61.403 0.788 -15.618
3185.95 0.469 -4.226 0.804 -104.962 0.137 28.118
          0.804 -105.608 0.394 46.17 0.101 60.472
          0.137 28.59 0.101 61.08 0.788 -16.935
3210.8 0.474 -5.959 0.804 -106.675 0.136 26.82
          0.799 -107.864 0.401 44.531 0.101 58.683
          0.139 26.889 0.105 59.106 0.787 -18.294
3235.65 0.477 -7.415 0.793 -108.147 0.135 27.438
          0.776 -109.27 0.408 43.17 0.102 58.888
          0.138 25.918 0.106 57.316 0.787 -19.645
3260.5 0.482 -8.483 0.781 -108.561 0.14 28.068
          0.758 -108.847 0.417 41.984 0.106 59.301
          0.138 26.719 0.106 57.386 0.787 -20.928
3285.35 0.491 -9.919 0.787 -109.26 0.145 25.976
