!Hittite Microwave Corporation								
!12 Elizabeth Drive								
!Chelmsford, MA 01824								
!Tel: 978-250-3343								
!Fax: 978-250-3373								
!Device: HMC182S14, DC-2 GHz GaAS MMIC SP4T Non-Reflective Switch in 14-lead SOIC package								
!Misc: Port 1 = RFCom, Port 2 = RF1, Port 3 = RF2, Port 4 = RF3, Port 5 = RF4, RF2 selected, Vctl=0/-5V							
!
# MHZ S MA R 50

30	0.122	-42.918	0.0002159	94.343	0.907	3.951	0.00009328	-67.288
	0.0002589	91.282	0.0001932	96.469	0.081	-36.423	0.00003968	68.927
	0.00015	92.732	0.0001195	79.906	0.906	3.916	0.00004838	83.356
	0.121	-44.198	0.0001938	85.751	0.00004107	-30.826	0.0001105	-80.517
	0.0001731	81.509	0.0001982	93.388	0.079	-35.388	0.0002917	93.403
	0.0002729	93	0.0001531	68.248	0.00008344	-103.296	0.0003096	84.246
	0.081	-36.343						
49.85	0.086	-31.79	0.0003284	86.649	0.92	0.623	0.0001895	-85.185
	0.0004114	89.963	0.0003182	92.838	0.061	-22.817	0.0000571	51.195
	0.0002401	82.29	0.0002131	84.273	0.92	0.616	0.00004299	89.052
	0.084	-33.332	0.000262	85.996	0.0001234	-77.451	0.0001648	-77.874
	0.0002698	88.042	0.0002964	90.127	0.059	-22.002	0.0004704	82.731
	0.0004055	88.4	0.0002415	85.586	0.00009665	-103.894	0.0005241	86.169
	0.061	-23.152						
69.7	0.075	-26.777	0.000448	87.245	0.923	-0.811	0.000255	-88.716
	0.0005628	89.393	0.0004535	89.83	0.055	-16.684	0.00003992	63.824
	0.0003551	83.677	0.0002943	84	0.924	-0.828	0.00003717	67.485
	0.073	-28.354	0.0003688	83.894	0.0001345	-87.824	0.0002579	-82.57
	0.0003435	83.583	0.0003858	83.191	0.054	-16.342	0.0006729	84.409
	0.0005461	87.828	0.0003161	89.352	0.0001228	-99.282	0.0006881	85.498
	0.055	-17.527						
89.55	0.07	-24.099	0.0005963	86.738	0.926	-1.871	0.0003508	-95.615
	0.0007097	88.01	0.00061	90.316	0.052	-12.953	0.00004264	83.241
	0.0004578	84.833	0.0003657	86.047	0.926	-1.896	0.00003383	77.785
	0.067	-25.479	0.0004735	86.579	0.0001561	-88.624	0.0003686	-93.502
	0.0004321	82.509	0.0004834	84.396	0.052	-12.653	0.0008758	84.916
	0.0007203	89.254	0.0003854	85.042	0.0001883	-96.667	0.000858	85.089
	0.052	-13.987						
109.4	0.067	-22.465	0.0007134	88.241	0.927	-2.806	0.0004423	-94.013
	0.0008429	87.774	0.0007227	89.218	0.05	-10.157	0.00005206	99.851
	0.000535	85.959	0.0004309	84.878	0.927	-2.794	0.00005209	115.515
	0.063	-23.585	0.0005735	88.289	0.0002442	-90.137	0.0004353	-95.014
	0.0005334	82.976	0.0005794	86.428	0.05	-9.861	0.00108	84.452
	0.0008826	89.624	0.0004542	85.341	0.0002578	-92.372	0.00107	84.941
	0.051	-11.29						
129.25	0.065	-21.265	0.0008311	90.722	0.928	-3.646	0.0005361	-95.71
	0.001011	87.475	0.0007969	87.631	0.049	-7.874	0.00006536	137.503
	0.0006235	85.663	0.0005057	84.436	0.928	-3.643	0.00005853	106.391
	0.061	-22.259	0.0007077	88.825	0.0002894	-99.161	0.0005145	-96.473
	0.0006163	83.989	0.0006757	87.547	0.049	-7.628	0.001298	82.715
	0.001039	88.334	0.00055	86.704	0.0003151	-97.699	0.00128	84.732
	0.05	-9.137						
149.1	0.063	-20.436	0.0009624	90.744	0.929	-4.472	0.0006375	-99.303
	0.001168	88.104	0.0009275	90.245	0.049	-5.946	0.0000731	140.965
	0.0007072	85.316	0.000612	85.142	0.928	-4.46	0.00007808	109.593
	0.059	-21.471	0.0008176	87.154	0.0003395	-104.317	0.0006237	-98.513
	0.0007092	83.934	0.0007745	88.454	0.048	-5.723	0.001478	82.888
	0.001199	88.568	0.0006239	85.325	0.0003523	-100.202	0.001461	83.434
	0.049	-7.403						
168.95	0.062	-20.037	0.001092	90.301	0.929	-5.28	0.0007254	-99.567
	0.001298	89.134	0.00108	89.942	0.048	-4.225	0.0000762	139.014
	0.0008081	84.644	0.000709	83.251	0.928	-5.276	0.0001046	135.012
	0.058	-20.827	0.00092	86.542	0.0003819	-106.575	0.0007255	-100.154
	0.0007948	82.323	0.0009028	89.855	0.048	-3.961	0.001635	82.73
	0.001316	88.728	0.0006837	84.045	0.000392	-102.43	0.001652	83.219
	0.048	-5.836						
188.8	0.061	-19.726	0.001208	90.045	0.93	-6.077	0.0008118	-103.372
	0.001446	89.27	0.001203	91.028	0.048	-2.693	0.00009487	141.351
	0.0009122	83.002	0.000796	84.369	0.929	-6.086	0.0001401	142.268
	0.057	-20.35	0.001014	88.3	0.0004317	-106.574	0.0008187	-102.848
	0.0008939	81.332	0.001026	89.238	0.048	-2.347	0.00184	82.17
	0.001462	89.363	0.0007703	80.362	0.0004692	-104.744	0.001855	82.866
	0.048	-4.407						
208.65	0.06	-19.559	0.001348	89.878	0.93	-6.819	0.0008904	-106.293
	0.001597	89.197	0.00131	91.629	0.048	-1.327	0.000146	141.268
	0.001	80.939	0.0008613	82.551	0.929	-6.848	0.0001734	154.906
	0.056	-20.121	0.001135	88.727	0.0005236	-109.387	0.0009138	-105.208
	0.001006	80.555	0.001112	88.694	0.048	-0.952	0.002055	81.778
	0.001578	90.044	0.0008414	80.277	0.0005067	-107.431	0.002046	82.623
	0.048	-3.188						
228.5	0.06	-19.496	0.001453	91.953	0.93	-7.571	0.0009944	-108.613
	0.001765	89.63	0.001435	91.477	0.048	-0.012	0.0001745	146.723
	0.001097	80.439	0.0009295	80.056	0.928	-7.592	0.0001862	144.885
	0.056	-19.782	0.001218	88.544	0.0005557	-113.846	0.0009905	-108.131
	0.001078	79.758	0.001237	89.933	0.048	0.356	0.002236	81.552
	0.001746	89.376	0.0009337	80.244	0.0005451	-112.018	0.002238	81.821
	0.048	-2.073						
248.35	0.059	-19.513	0.001584	91.94	0.93	-8.3	0.001089	-109.845
	0.001887	91.012	0.001552	91.545	0.048	1.268	0.000198	157.14
	0.001188	80.614	0.001012	79.928	0.929	-8.351	0.0002124	146.998
	0.055	-19.594	0.001327	89.788	0.0005963	-114.266	0.001102	-110.323
	0.001198	81.09	0.001335	90.798	0.048	1.587	0.002466	80.951
	0.001915	89.117	0.001018	81.162	0.0006118	-115.393	0.00244	80.006
	0.048	-0.953						
268.2	0.059	-19.727	0.001697	92.451	0.93	-9.008	0.001158	-111.384
	0.002023	90.548	0.001671	92.193	0.048	2.448	0.0002295	159.553
	0.001278	79.684	0.001113	79.176	0.929	-9.071	0.0002393	153.911
	0.055	-19.464	0.001454	89.286	0.0006575	-115.088	0.001193	-113.011
	0.001324	81.092	0.001459	90.334	0.049	2.787	0.002651	80.474
	0.002068	90.037	0.001111	80.852	0.0006596	-118.555	0.002646	79.654
	0.048	0.025						
288.05	0.059	-19.942	0.001833	92.663	0.93	-9.743	0.001255	-113.591
	0.00221	89.711	0.001816	92.634	0.048	3.461	0.0002776	154.24
	0.001369	79.242	0.001186	79.156	0.929	-9.797	0.0002971	154.112
	0.054	-19.306	0.001568	88.9	0.0007036	-119.01	0.001295	-113.481
	0.001409	79.755	0.001586	90.467	0.049	3.822	0.002838	79.388
	0.002224	90.158	0.001188	79.011	0.0007402	-121.149	0.002855	78.561
	0.049	0.947						
307.9	0.058	-20.066	0.001942	92.934	0.93	-10.513	0.001349	-114.972
	0.002377	89.865	0.001973	93.306	0.048	4.438	0.0003122	147.123
	0.001482	79.059	0.001279	79.179	0.93	-10.544	0.0003493	153.563
	0.054	-19.178	0.00167	89.915	0.0007487	-121.544	0.001416	-115.913
	0.001505	77.882	0.0017	90.126	0.049	4.82	0.003068	78.407
	0.00238	90.555	0.001255	78.246	0.0008046	-121.534	0.003041	78.363
	0.049	1.79						
327.75	0.058	-20.46	0.002057	92.919	0.93	-11.258	0.001481	-116.446
	0.002527	91.262	0.002086	92.733	0.048	5.402	0.0003729	152.886
	0.00164	77.383	0.00133	78.298	0.931	-11.255	0.0003587	150.991
	0.054	-19.396	0.001802	89.291	0.0008093	-124.905	0.001496	-118.126
	0.001616	76.129	0.001815	89.663	0.05	5.683	0.003253	77.992
	0.002521	90.494	0.001319	78.509	0.0008424	-123.585	0.003253	78.625
	0.049	2.482						
347.6	0.058	-20.462	0.002183	93.719	0.931	-11.982	0.001598	-118.942
	0.00266	90.636	0.00221	93.064	0.049	6.225	0.0004118	156.751
	0.001745	76.437	0.001431	76.728	0.932	-12.022	0.0004347	154.965
	0.053	-19.398	0.001893	88.748	0.0008825	-128.461	0.001592	-119.589
	0.001717	75.694	0.001926	89.273	0.05	6.573	0.003472	76.844
	0.002695	91.419	0.001414	78.22	0.000886	-128.76	0.003492	77.382
	0.049	3.201						
367.45	0.058	-20.833	0.002315	94.41	0.931	-12.723	0.001706	-121.732
	0.002847	91.2	0.002336	93.686	0.049	7	0.0004698	152.661
	0.001839	75.506	0.001502	77.289	0.931	-12.716	0.0004981	155.709
	0.053	-19.737	0.002021	89.271	0.0009139	-129.041	0.001714	-121.555
	0.001828	74.428	0.0021	88.233	0.051	7.293	0.00366	75.671
	0.002852	91.849	0.001532	77.232	0.0009212	-129.911	0.003681	75.902
	0.05	3.882						
387.3	0.058	-21.216	0.002461	94.366	0.93	-13.447	0.00182	-122.872
	0.002975	91.349	0.002462	93.915	0.049	7.71	0.000534	151.203
	0.001898	73.939	0.001573	76.589	0.931	-13.447	0.000547	155.544
	0.053	-20.254	0.002192	90.248	0.000982	-130.65	0.00184	-122.83
	0.001947	73.317	0.002192	89.121	0.051	7.935	0.003868	75.541
	0.002994	91.333	0.001605	76.857	0.0009928	-131.658	0.003903	75.235
	0.05	4.506						
407.15	0.058	-21.61	0.002606	93.918	0.93	-14.204	0.001961	-124.828
	0.003118	91.292	0.002607	94.868	0.049	8.292	0.0005894	148.179
	0.002008	74.234	0.001683	75.991	0.93	-14.189	0.0006131	151.602
	0.053	-20.685	0.002324	89.87	0.001061	-132.847	0.001957	-124.75
	0.00206	73.626	0.002321	89.668	0.052	8.516	0.004046	74.734
	0.003144	91.426	0.001678	75.651	0.001061	-133.106	0.004058	74.77
	0.05	5.034						
427	0.057	-22.055	0.002697	95.05	0.93	-14.94	0.002124	-127.551
	0.003295	91.382	0.00276	95.501	0.049	8.829	0.0006663	151.478
	0.002126	72.705	0.001769	74.588	0.93	-14.893	0.0006574	153.606
	0.053	-21.192	0.00246	89.134	0.001139	-136.921	0.002084	-127.857
	0.002158	73.299	0.002475	89.407	0.053	9.047	0.004233	73.674
	0.003295	91.692	0.00175	75.394	0.001117	-134.607	0.004252	74.34
	0.051	5.485						
446.85	0.057	-22.565	0.002853	95.706	0.929	-15.611	0.002235	-129.647
	0.003459	91.578	0.002879	95.552	0.05	9.264	0.0007533	151.017
	0.00227	70.939	0.001849	74.83	0.929	-15.61	0.000729	155.987
	0.053	-21.832	0.002585	89.293	0.001212	-137.42	0.002201	-129.778
	0.002266	71.375	0.002597	89.421	0.054	9.409	0.00445	72.74
	0.003466	92.432	0.001831	74.083	0.001179	-137.476	0.004466	73.399
	0.051	5.93						
466.7	0.057	-23.081	0.003043	95.142	0.929	-16.263	0.002345	-131.857
	0.003604	91.756	0.003027	95.872	0.05	9.638	0.0008376	151.757
	0.002358	70.496	0.001916	74.287	0.929	-16.287	0.0008125	154.466
	0.053	-22.388	0.002718	88.331	0.001233	-140.981	0.002349	-131.682
	0.002393	70.404	0.002752	89.002	0.055	9.813	0.004677	72.234
	0.003643	92.277	0.00194	74.027	0.001247	-141.749	0.004675	72.243
	0.052	6.362						
486.55	0.057	-23.643	0.003166	94.758	0.929	-16.977	0.002461	-133.127
	0.00377	92.202	0.003154	95.642	0.051	10.032	0.0009229	151.005
	0.002474	68.821	0.00204	73.509	0.93	-16.975	0.0008969	150.289
	0.053	-22.99	0.002881	88	0.001301	-140.372	0.002461	-133.048
	0.002495	69.42	0.002872	89.069	0.055	10.075	0.004901	71.576
	0.003787	92.217	0.002035	72.824	0.001297	-142.287	0.004902	71.536
	0.052	6.731						
506.4	0.057	-24.153	0.003282	95.557	0.93	-17.72	0.002583	-134.064
	0.003946	92.252	0.003323	95.609	0.051	10.442	0.0009814	152.515
	0.002549	68.292	0.00207	72.533	0.93	-17.702	0.0009423	152.38
	0.052	-23.525	0.003046	88.312	0.001384	-142.336	0.002617	-135.072
	0.002596	68.121	0.003045	88.359	0.056	10.222	0.005098	70.187
	0.003954	92.027	0.002082	72.107	0.00136	-143.604	0.00513	70.477
	0.053	6.999						
526.25	0.057	-24.942	0.00341	95.85	0.931	-18.475	0.00274	-136.691
	0.004162	92.322	0.003496	96.285	0.052	10.768	0.00106	149.263
	0.002692	66.988	0.002155	71.656	0.93	-18.452	0.001026	149.385
	0.052	-24.012	0.003193	88.47	0.001441	-145.953	0.002692	-137.284
	0.002726	67.102	0.00319	87.412	0.057	10.368	0.00532	69.417
	0.004134	92.686	0.002199	71.653	0.001472	-145.44	0.005293	69.492
	0.053	7.389						
546.1	0.057	-26.381	0.003593	96.108	0.931	-19.126	0.002894	-139.054
	0.004277	92.78	0.003606	96.593	0.052	11.252	0.001065	151.979
	0.002852	66.024	0.002297	71.485	0.931	-19.209	0.001118	150.149
	0.053	-24.487	0.003409	87.419	0.001525	-147.007	0.002877	-139.611
	0.002829	64.492	0.003353	86.844	0.058	10.536	0.005551	68.377
	0.004339	92.061	0.002264	71.564	0.001499	-147.285	0.005537	68.566
	0.054	7.606						
565.95	0.057	-27.046	0.003737	97.185	0.93	-19.905	0.00304	-140.708
	0.00446	92.924	0.003739	96.537	0.053	11.685	0.001175	148.359
	0.002932	63.246	0.002339	71.113	0.93	-19.917	0.001172	147.255
	0.052	-24.724	0.00351	86.431	0.001559	-148.343	0.003034	-140.758
	0.002924	63.216	0.003513	86.252	0.059	10.595	0.005735	67.329
	0.004447	93.001	0.002342	70.22	0.001581	-150.982	0.005718	67.315
	0.054	7.946						
585.8	0.057	-27.68	0.003914	97.325	0.93	-20.574	0.003199	-142.588
	0.004645	93.097	0.003889	97.014	0.053	12.013	0.001259	147.607
	0.003003	62.247	0.002407	69.755	0.93	-20.661	0.001261	148.769
	0.052	-25.335	0.003647	86.536	0.001619	-150.894	0.00317	-143.22
	0.00306	62.297	0.003701	85.96	0.06	10.324	0.005919	66.09
	0.004671	92.835	0.002427	69.567	0.001653	-151.947	0.005915	66.071
	0.055	8.1						
605.65	0.057	-28.166	0.004058	97.513	0.931	-21.283	0.003327	-145.039
	0.004829	93.326	0.004076	97.679	0.054	12.396	0.001352	147.69
	0.003157	60.65	0.002531	68.478	0.93	-21.403	0.001368	148.521
	0.052	-25.869	0.003827	85.95	0.001721	-153.453	0.003359	-145.065
	0.003126	60.624	0.003804	85.318	0.061	10.03	0.00613	64.928
	0.004797	92.667	0.002495	68.323	0.001696	-153.252	0.006105	64.691
	0.055	8.244						
625.5	0.057	-28.742	0.004191	96.964	0.929	-22.073	0.003479	-147.497
	0.004996	93.223	0.004197	97.968	0.054	12.839	0.001421	146.349
	0.003213	58.212	0.002574	68.061	0.93	-22.117	0.001423	147.365
	0.052	-26.426	0.003978	85.06	0.001782	-155.396	0.00351	-147.642
	0.003235	58.835	0.003965	85.113	0.062	9.757	0.006288	63.5
	0.005004	93.033	0.002584	67.625	0.001775	-155.274	0.006285	63.365
	0.056	8.43						
645.35	0.057	-29.496	0.004396	97.456	0.929	-22.805	0.003646	-150.005
	0.005162	93.593	0.004348	97.672	0.054	13.161	0.001521	146.649
	0.003353	56.721	0.002691	67.45	0.928	-22.798	0.001552	144.843
	0.052	-27.198	0.004166	84.187	0.001808	-156.763	0.003618	-149.693
	0.003315	56.961	0.004128	83.948	0.063	9.352	0.006465	62.067
	0.005187	93.529	0.002668	66.698	0.00186	-156.801	0.00644	62.045
	0.057	8.474						
665.2	0.056	-30.211	0.00455	98.19	0.929	-23.48	0.003796	-152.929
	0.005326	93.186	0.004551	97.982	0.055	13.41	0.001637	144.81
	0.003411	54.645	0.002736	66.043	0.929	-23.42	0.001652	144.377
	0.052	-27.902	0.004301	83.434	0.001918	-159.082	0.003776	-152.376
	0.003375	54.635	0.004308	83.115	0.064	8.722	0.006609	61.049
	0.005358	93.732	0.002754	65.652	0.001917	-158.234	0.006618	60.968
	0.057	8.423						
685.05	0.056	-30.978	0.004772	97.916	0.929	-24.195	0.003946	-154.913
	0.005521	93.326	0.004728	98.303	0.055	13.575	0.001744	144.656
	0.003437	53.309	0.002802	64.811	0.928	-24.129	0.001707	145.266
	0.052	-28.99	0.004411	82.706	0.002027	-160.683	0.003932	-154.653
	0.003438	53.237	0.004475	82.262	0.064	8.048	0.006767	60.043
	0.00551	93.664	0.002811	65.552	0.001955	-159.535	0.006729	59.631
	0.058	8.351						
704.9	0.056	-31.807	0.004869	98.413	0.928	-24.934	0.004061	-157.239
	0.00571	93.115	0.004897	98.346	0.055	13.603	0.001791	144.284
	0.003533	51.702	0.002864	63.7	0.928	-24.818	0.001828	144.557
	0.052	-29.965	0.004591	81.419	0.002132	-161.952	0.004077	-157.229
	0.003547	50.947	0.004564	81.315	0.065	7.385	0.006828	58.137
	0.005769	93.847	0.002904	64.026	0.00207	-161.908	0.006878	58.494
	0.058	8.435						
724.75	0.056	-32.672	0.005104	98.157	0.927	-25.5	0.004189	-159.187
	0.00595	93.557	0.005057	98.747	0.055	13.545	0.001873	143.287
	0.003529	49.565	0.002941	63.264	0.928	-25.573	0.001917	143.633
	0.051	-31.236	0.004729	80.544	0.002135	-163.106	0.004183	-159.233
	0.003563	49.18	0.00469	80.366	0.066	6.493	0.006965	57.086
	0.005919	93.685	0.002933	64.038	0.002106	-163.288	0.006951	57.144
	0.059	8.174						
744.6	0.056	-33.484	0.005199	98.508	0.927	-26.234	0.004278	-161.617
	0.006116	93.511	0.005248	98.633	0.055	13.42	0.002009	143.189
	0.003594	48.067	0.003026	62.7	0.929	-26.204	0.001992	142.177
	0.051	-32.618	0.004872	79.53	0.002261	-165.065	0.004335	-161.811
	0.003572	48.257	0.004895	79.29	0.066	5.694	0.007031	55.895
	0.006138	93.257	0.002994	62.69	0.002242	-163.44	0.007053	56.23
	0.059	8.105						
764.45	0.056	-34.259	0.005362	98.365	0.929	-26.956	0.004419	-163.747
	0.006322	93.116	0.005417	98.937	0.056	13.188	0.002129	142.27
	0.003555	45.684	0.003035	61.625	0.929	-26.948	0.002081	142.442
	0.051	-33.791	0.004935	78.615	0.002294	-165.167	0.004434	-163.945
	0.00359	45.22	0.004974	78.058	0.066	4.935	0.007133	54.931
	0.006344	94.041	0.003057	61.854	0.002291	-164.669	0.007118	54.707
	0.06	7.96						
784.3	0.056	-35.206	0.005579	98.544	0.93	-27.568	0.004506	-165.882
	0.006547	93.544	0.005598	98.742	0.056	12.795	0.002222	141.712
	0.003555	43.745	0.003098	60.85	0.929	-27.637	0.002195	140.664
	0.051	-35.319	0.005076	77.363	0.002388	-167.238	0.004509	-166.288
	0.003527	43.823	0.005081	77.745	0.066	4.093	0.00715	54.314
	0.006584	93.584	0.003151	61.64	0.002379	-166.838	0.007166	53.951
	0.061	7.651						
804.15	0.056	-36.114	0.005824	98.839	0.93	-28.432	0.004599	-167.529
	0.006742	93.711	0.005778	98.702	0.056	12.568	0.002327	141.133
	0.003547	42.555	0.003166	60.807	0.93	-28.452	0.002309	140.728
	0.05	-36.08	0.005163	76.413	0.002443	-169.147	0.004567	-168.182
	0.003563	43.656	0.005162	76.458	0.066	3.564	0.007183	53.302
	0.006751	93.019	0.003206	59.93	0.00247	-168.697	0.007183	53.351
	0.061	7.605						
824	0.056	-36.83	0.005923	98.854	0.929	-29.13	0.004636	-169.114
	0.00696	93.557	0.005998	98.396	0.057	12.102	0.002445	140.238
	0.003471	42.071	0.003257	60.016	0.93	-29.15	0.002426	140.533
	0.051	-37.305	0.00528	76.215	0.002547	-170.448	0.004621	-169.258
	0.003491	41.652	0.005317	76.146	0.066	2.945	0.007249	53.184
	0.007016	93.283	0.003246	59.791	0.002576	-170.577	0.007266	52.986
	0.062	7.369						
843.85	0.056	-37.558	0.006176	98.602	0.929	-29.888	0.004704	-171.451
	0.007185	93.324	0.006213	98.33	0.057	11.84	0.002534	139.246
	0.003459	41.459	0.003266	59.107	0.93	-29.918	0.00252	139.7
	0.05	-38.128	0.005345	75.727	0.002636	-170.544	0.00471	-171.143
	0.003475	41.539	0.005364	75.67	0.067	2.658	0.007275	52.3
	0.007161	93.064	0.003347	59.093	0.00263	-171.143	0.007234	52.032
	0.063	7.277						
863.7	0.056	-38.364	0.00639	98.479	0.929	-30.666	0.00477	-172.783
	0.007358	92.961	0.006385	98.651	0.058	11.614	0.002612	138.766
	0.003459	41.339	0.003362	59.261	0.929	-30.638	0.002663	139.189
	0.05	-39.19	0.005406	74.589	0.002758	-172.601	0.004764	-172.866
	0.00341	40.752	0.005443	74.942	0.066	2.416	0.0073	52.058
	0.007366	92.746	0.003421	58.409	0.002705	-172.299	0.007299	51.905
	0.064	7.168						
883.55	0.056	-38.738	0.006553	98.756	0.926	-31.321	0.004819	-174.07
	0.00756	92.892	0.006546	98.29	0.059	11.434	0.002734	138.878
	0.003437	40.827	0.00344	58.413	0.928	-31.416	0.002789	139.559
	0.05	-40.136	0.00549	74.839	0.002807	-174.056	0.004813	-174.261
	0.003408	40.37	0.005498	74.85	0.066	2.321	0.007326	51.934
	0.007578	92.421	0.003447	57.715	0.002821	-173.8	0.007318	52.061
	0.064	7.04						
903.4	0.056	-38.886	0.006696	97.998	0.924	-32.124	0.004824	-175.256
	0.007744	92.612	0.00674	98.177	0.059	11.308	0.002854	138.361
	0.003348	41.404	0.003497	57.437	0.926	-32.083	0.002911	139.021
	0.05	-40.789	0.005621	74.076	0.002928	-174.262	0.004842	-175.308
	0.003324	40.963	0.005559	74.64	0.066	2.347	0.007391	51.417
	0.007753	92.506	0.00352	57.662	0.002896	-175.262	0.007367	51.971
	0.065	6.885						
923.25	0.055	-39.022	0.0069	97.871	0.926	-32.712	0.004922	-175.645
	0.00792	92.362	0.006911	98.424	0.06	11.205	0.002995	137.534
	0.003342	41.306	0.003553	57.023	0.925	-32.783	0.003011	137.818
	0.049	-41.56	0.005669	74.626	0.003046	-176.598	0.004887	-175.584
	0.00333	41.331	0.005647	74.55	0.066	2.422	0.007451	52.154
	0.007897	92.378	0.003551	57.423	0.002995	-175.555	0.007458	52.12
	0.066	6.755						
943.1	0.055	-39.386	0.007076	97.817	0.923	-33.322	0.004999	-176.062
	0.008118	92.223	0.007106	98.399	0.061	11.261	0.003144	136.411
	0.003336	42.33	0.003584	56.899	0.925	-33.402	0.003128	137.306
	0.049	-42.299	0.005776	74.319	0.00313	-178.432	0.005011	-176.381
	0.003324	41.618	0.005718	74.51	0.066	2.626	0.007504	52.272
	0.008134	92.261	0.003691	56.75	0.003114	-177.562	0.00752	52.055
	0.066	6.583						
962.95	0.055	-39.99	0.007268	97.862	0.924	-33.945	0.00509	-177.09
	0.008314	91.907	0.007294	98.281	0.061	11.304	0.00334	136.879
