!Hittite Microwave Corporation								
!12 Elizabeth Drive								
!Chelmsford, MA 01824								
!Tel: 978-250-3343								
!Fax: 978-250-3373								
!Device: HMC182S14, DC-2 GHz GaAS MMIC SP4T Non-Reflective Switch in 14-lead SOIC package								
!Misc: Port 1 = RFCom, Port 2 = RF1, Port 3 = RF2, Port 4 = RF3, Port 5 = RF4, RF1 selected, Vctl=0/-5V							
!
# MHZ S MA R 50

30	0.125	-44.935	0.907	4.286	0.00003446	-31.237	0.00008295	85.305
	0.0003008	93.143	0.906	4.276	0.126	-45.317	0.0000541	93.008
	0.00002518	-73.084	0.0001095	-75.59	0.00005252	109.03	0.00005539	63.162
	0.078	-34.119	0.0003682	91.492	0.0001559	84.333	0.00009875	106.009
	0.00002511	-26.69	0.0003589	88.841	0.079	-35.402	0.0003097	83.097
	0.0002964	89.182	0.00008643	-72.271	0.0001783	81.838	0.0003077	87.794
	0.081	-36.223						
49.85	0.086	-33.974	0.92	0.901	0.00007895	73.344	0.0001197	91.465
	0.000464	86.659	0.919	0.905	0.086	-34.589	0.00009607	98.235
	0.00005434	-104.964	0.0001724	-94.047	0.00008928	109.964	0.00008367	67.981
	0.059	-20.951	0.0005928	86.732	0.0002592	84.244	0.000158	85.961
	0.00004812	-96.367	0.0006267	87.242	0.06	-21.899	0.0004978	83.481
	0.0004659	88.854	0.0001118	-93.744	0.000239	77.172	0.0004971	84.731
	0.061	-23.025						
69.7	0.074	-28.705	0.924	-0.54	0.0001071	81.092	0.0001615	83.154
	0.0006596	87.198	0.924	-0.543	0.074	-29.346	0.0001221	73.958
	0.000102	-119.301	0.0002212	-90.418	0.0001252	80.022	0.0001134	78.814
	0.054	-15.683	0.0008111	86.273	0.000345	87.365	0.0002048	82.699
	0.00006992	-90.025	0.0008328	86.676	0.054	-16.147	0.0006849	85.61
	0.000656	86.953	0.0001831	-93.253	0.0003539	78.988	0.0006918	86.004
	0.055	-17.406						
89.55	0.069	-25.597	0.926	-1.591	0.0001206	86.005	0.0001963	77.221
	0.0008252	87.64	0.926	-1.586	0.068	-26.328	0.0001428	78.355
	0.0001371	-92.481	0.0002758	-93.386	0.0001297	85.496	0.0001553	83.04
	0.052	-12.475	0.001047	86.529	0.000442	83.041	0.0002011	81.293
	0.0001332	-83.565	0.00103	86.182	0.052	-12.628	0.0008652	84.825
	0.0008393	88.097	0.0002539	-92.768	0.0004638	84.355	0.000891	84.801
	0.052	-13.867						
109.4	0.065	-23.559	0.927	-2.448	0.0001409	84.049	0.0002054	80.228
	0.0009981	88.55	0.927	-2.432	0.064	-24.4	0.0001686	85.194
	0.0001659	-92.141	0.0003326	-94.306	0.0001354	98.936	0.0001815	98.976
	0.05	-10.155	0.001278	85.121	0.0005643	83.044	0.0001974	85.551
	0.000198	-86.286	0.001265	84.698	0.05	-9.9	0.001067	84.006
	0.000999	87.962	0.0003025	-96.048	0.0005483	85.204	0.0011	85.121
	0.05	-11.251						
129.25	0.063	-22.255	0.928	-3.224	0.0001624	92.907	0.0002214	90.613
	0.001177	87.715	0.928	-3.243	0.062	-23.007	0.0001912	82.266
	0.0001915	-91.145	0.0003711	-97.296	0.0001679	96.29	0.0002112	102.598
	0.049	-8.316	0.001509	84.883	0.0006707	84.932	0.000251	90.587
	0.0002169	-95.366	0.00148	84.077	0.049	-7.669	0.001274	84.403
	0.001178	88.209	0.0003679	-98.202	0.0006529	83.518	0.001302	84.667
	0.05	-9.138						
149.1	0.062	-21.226	0.929	-4.017	0.0001953	102.431	0.0002831	94.778
	0.001354	88.031	0.928	-4.007	0.06	-22.018	0.0002337	87.866
	0.0002162	-105.545	0.0004322	-101.447	0.0001986	92.811	0.0002433	101.806
	0.049	-6.759	0.001746	83.961	0.0007855	84.409	0.0002853	96.972
	0.0002254	-102.055	0.001714	83.525	0.048	-5.797	0.00146	84.002
	0.001375	88.277	0.0004365	-102.171	0.000765	81.383	0.001475	83.895
	0.049	-7.403						
168.95	0.061	-20.406	0.929	-4.761	0.0002231	95.917	0.000325	93.581
	0.001563	88.493	0.928	-4.775	0.058	-21.325	0.0002701	97.578
	0.0002699	-114.939	0.0005025	-100.926	0.0002243	95.718	0.0002605	100.649
	0.048	-5.34	0.002016	83.142	0.0008857	81.901	0.0002945	98.405
	0.0002646	-108.582	0.001959	82.902	0.048	-4.016	0.001653	82.555
	0.001546	88.476	0.000503	-102.827	0.0008717	81.293	0.001663	83.027
	0.048	-5.829						
188.8	0.06	-19.94	0.93	-5.466	0.0002549	102.878	0.0003807	98.171
	0.001719	88.002	0.928	-5.528	0.057	-20.931	0.000306	102.883
	0.0003111	-113.923	0.0005634	-102.694	0.0002503	106.369	0.0002794	103.188
	0.048	-4.096	0.002246	82.707	0.0009406	82.541	0.0003357	99.051
	0.0003356	-103.045	0.002211	82.004	0.048	-2.412	0.001844	82.53
	0.001708	88.454	0.0005691	-104.606	0.0009859	82.277	0.001863	82.455
	0.048	-4.433						
208.65	0.06	-19.647	0.93	-6.149	0.0002847	110.486	0.0004355	100.185
	0.001879	87.259	0.929	-6.229	0.056	-20.645	0.0003084	109.078
	0.0003707	-114.02	0.000639	-104.549	0.0002859	115.407	0.0003129	106.859
	0.048	-2.991	0.002433	80.787	0.001021	82.552	0.0004013	97.481
	0.0004096	-108.834	0.002464	80.683	0.048	-0.997	0.002048	83.152
	0.001867	88.452	0.0006387	-107.838	0.001059	81.816	0.002046	82.336
	0.048	-3.229						
228.5	0.059	-19.446	0.929	-6.874	0.0003287	114.109	0.000442	103.396
	0.002063	87.814	0.929	-6.928	0.055	-20.217	0.0003434	111.466
	0.0004245	-118.821	0.00072	-107.981	0.0003187	113.856	0.0003423	106.872
	0.048	-1.949	0.002672	80.216	0.001169	81.292	0.0004598	103.11
	0.0004265	-117.295	0.002709	79.768	0.048	0.363	0.002219	82.774
	0.002036	87.883	0.0007044	-109.457	0.001142	81.039	0.002215	81.22
	0.048	-2.057						
248.35	0.059	-19.274	0.929	-7.562	0.0003506	118.331	0.000493	105.65
	0.002242	88.027	0.929	-7.597	0.054	-19.909	0.0003941	110.61
	0.0004477	-121.151	0.0007587	-111.8	0.0003598	116.058	0.0003581	111.97
	0.048	-0.996	0.002922	79.899	0.001277	79.827	0.0004934	105.362
	0.0004649	-122.1	0.002965	79.462	0.048	1.603	0.002422	81.174
	0.002229	87.724	0.0007657	-110.471	0.001254	80.996	0.00243	80.464
	0.048	-0.994						
268.2	0.059	-19.289	0.929	-8.208	0.0003883	119.217	0.0005545	109.302
	0.002412	88.29	0.929	-8.271	0.054	-19.82	0.0004341	111.71
	0.0005158	-125.45	0.0008268	-112.456	0.0004157	122.254	0.0004237	113.819
	0.048	-0.09	0.003204	79.064	0.00135	79.201	0.0005299	103.631
	0.0005101	-127.321	0.003202	79.066	0.049	2.751	0.002631	80.435
	0.002447	87.782	0.0008449	-113.116	0.001369	78.766	0.002636	80.073
	0.048	-0.016						
288.05	0.059	-19.392	0.929	-8.914	0.0004855	121.44	0.0006125	108.128
	0.002605	88.969	0.929	-8.947	0.053	-19.716	0.0004788	118.148
	0.0005772	-126.926	0.000926	-114.407	0.0004444	121.035	0.0004697	113.286
	0.049	0.662	0.003478	78.241	0.001474	78.461	0.000599	104.013
	0.0005511	-127.239	0.003446	78.184	0.049	3.797	0.002794	78.753
	0.002619	88.463	0.0008856	-116.068	0.001473	77.764	0.002828	79.793
	0.049	0.923						
307.9	0.06	-19.375	0.93	-9.629	0.0005161	121.908	0.0006416	107.182
	0.002767	88.036	0.93	-9.672	0.052	-19.696	0.0005352	118.938
	0.0006275	-129.957	0.0009799	-117.002	0.0004983	119.5	0.0005246	117.833
	0.049	1.443	0.003706	77.743	0.001586	77.822	0.0006709	105.196
	0.0006131	-132.251	0.003728	76.938	0.049	4.74	0.002991	77.853
	0.002781	87.923	0.0009293	-118.383	0.00157	77.702	0.003013	78.477
	0.049	1.766						
327.75	0.06	-19.462	0.931	-10.292	0.0005251	124.921	0.0007011	106.153
	0.002945	88.375	0.93	-10.339	0.052	-19.881	0.0005688	120.416
	0.0006487	-134.474	0.001031	-118.014	0.0005636	123.612	0.0005985	117.753
	0.049	2.13	0.003946	76.11	0.001682	75.829	0.0007253	105.882
	0.000628	-132.348	0.003975	76.06	0.05	5.636	0.003229	78.202
	0.002954	88.229	0.001026	-120.779	0.0017	77.312	0.003247	77.861
	0.049	2.457						
347.6	0.06	-19.795	0.931	-10.999	0.0005677	124.019	0.0007241	106.318
	0.003138	89.04	0.93	-11.031	0.051	-19.967	0.0006535	121.578
	0.0007298	-137.413	0.001108	-120.085	0.0006119	125.973	0.0006877	117.693
	0.049	2.727	0.004209	74.652	0.001784	75.488	0.0007878	107.275
	0.0006995	-134.997	0.004197	74.855	0.05	6.482	0.003422	77.951
	0.003121	88.409	0.001122	-121.242	0.001833	77.03	0.003456	77.33
	0.049	3.24						
367.45	0.061	-20.471	0.931	-11.704	0.0006361	128.138	0.0007824	109.669
	0.003312	89.242	0.931	-11.72	0.051	-20.29	0.0007404	122.346
	0.0007971	-138.28	0.001161	-121.741	0.0006623	124.611	0.0007427	120.919
	0.05	3.197	0.004489	73.962	0.001893	75.407	0.0008367	108.28
	0.0007863	-137.03	0.004467	74.002	0.051	7.228	0.003641	76.491
	0.003302	88.897	0.001162	-122.827	0.001905	76.085	0.003655	76.462
	0.05	3.941						
387.3	0.061	-21.055	0.931	-12.34	0.0007474	125.015	0.0008903	110.565
	0.003488	89.213	0.931	-12.373	0.05	-20.631	0.0007536	121.202
	0.0008732	-141.139	0.001229	-122.841	0.0007393	126.251	0.0007879	123.227
	0.05	3.599	0.004769	73.177	0.002006	74.97	0.000902	109.442
	0.0008737	-140.956	0.004739	73.11	0.051	7.823	0.003852	75.903
	0.003474	88.327	0.00128	-124.16	0.002001	74.738	0.003837	75.465
	0.05	4.514						
407.15	0.061	-21.723	0.931	-13.03	0.0007791	127.815	0.0009639	110.904
	0.003655	88.793	0.93	-13.063	0.05	-21.123	0.0008357	122.895
	0.0009106	-146.599	0.001302	-125.493	0.0007927	127.408	0.0008731	124.912
	0.051	3.946	0.005049	72.052	0.002074	74.376	0.0009892	110.756
	0.0008849	-144.166	0.005017	71.72	0.052	8.405	0.004038	75.369
	0.003655	88.232	0.001347	-126.651	0.002114	74.605	0.00406	74.636
	0.051	5						
427	0.062	-22.464	0.931	-13.707	0.0008511	126.57	0.001014	111.191
	0.003847	87.859	0.93	-13.71	0.049	-21.639	0.0009077	124.075
	0.0009478	-147.65	0.001362	-129.109	0.0008481	127.841	0.0009262	126.633
	0.051	4.218	0.00529	70.624	0.002171	73.499	0.001032	111.599
	0.0009771	-148.082	0.005284	70.469	0.053	8.938	0.004268	73.96
	0.003872	88.539	0.001417	-130.151	0.002215	74.365	0.004246	74.201
	0.051	5.495						
446.85	0.062	-23.295	0.931	-14.388	0.000924	129.069	0.001061	111.737
	0.004026	88.278	0.93	-14.382	0.049	-22.355	0.001021	125.541
	0.001017	-149.611	0.001477	-130.624	0.00093	131.209	0.0009827	127.321
	0.052	4.42	0.005567	69.012	0.002311	72.675	0.001079	113.679
	0.001026	-150.683	0.005564	69.168	0.054	9.351	0.004473	73.194
	0.004049	89.134	0.00148	-130.115	0.002301	72.715	0.004449	72.744
	0.051	5.984						
466.7	0.062	-24.294	0.93	-14.98	0.0009799	130.331	0.001161	112.8
	0.004222	88.459	0.93	-15.011	0.048	-23.052	0.001107	126.465
	0.001092	-153.641	0.001524	-132.084	0.001007	129.193	0.001082	125.646
	0.052	4.535	0.005824	67.966	0.002399	72.329	0.001138	114.195
	0.001101	-151.941	0.005826	68.17	0.055	9.689	0.004646	72.202
	0.004247	89.155	0.00153	-130.663	0.002432	70.81	0.004637	72.052
	0.052	6.375						
486.55	0.062	-25.147	0.93	-15.595	0.001049	130.875	0.001225	112.643
	0.004416	88.779	0.93	-15.612	0.048	-23.801	0.001194	128.484
	0.001177	-155.875	0.001599	-134.106	0.001087	129.619	0.001161	127.432
	0.053	4.673	0.006121	66.477	0.002541	70.516	0.00125	112.952
	0.001165	-156.277	0.006112	66.64	0.055	9.938	0.00489	71.504
	0.004428	88.683	0.001583	-133.264	0.002536	70.07	0.004865	71.532
	0.052	6.674						
506.4	0.063	-25.922	0.931	-16.253	0.001157	129.302	0.001283	113.778
	0.004636	88.507	0.93	-16.313	0.047	-24.56	0.001299	127.209
	0.001241	-157.746	0.001696	-136.016	0.001156	130.579	0.001255	127.33
	0.054	4.762	0.006404	65.104	0.002633	69.114	0.0013	114.609
	0.001305	-156.985	0.006401	65.282	0.056	10.136	0.005083	70.023
	0.004596	88.917	0.001667	-134.94	0.002664	69.648	0.005109	70.668
	0.053	7.039						
526.25	0.063	-27.012	0.931	-16.992	0.001218	128.588	0.001349	114.808
	0.004809	88.857	0.93	-16.983	0.047	-25.072	0.001388	126.015
	0.00133	-161.365	0.001791	-137.865	0.001203	128.997	0.001374	128.162
	0.055	4.924	0.006703	63.41	0.00273	68.833	0.001374	114.238
	0.001337	-158.372	0.006662	63.774	0.057	10.23	0.005283	69.032
	0.004789	88.177	0.00175	-136.881	0.002749	69.125	0.005295	69.287
	0.053	7.329						
546.1	0.064	-28.929	0.932	-17.671	0.001305	130.751	0.001463	113.242
	0.004972	88.588	0.931	-17.698	0.046	-25.405	0.001465	128.273
	0.00144	-165.31	0.001884	-139.214	0.001293	129.422	0.001464	128.666
	0.056	5.043	0.006957	62.27	0.002868	67.837	0.001472	113.975
	0.00142	-164.131	0.00694	62.048	0.058	10.27	0.005482	68.145
	0.004992	88.057	0.001835	-139.354	0.002839	68.299	0.005491	68.125
	0.054	7.671						
565.95	0.065	-29.675	0.931	-18.39	0.001365	131.566	0.001521	113.802
	0.005151	88.544	0.931	-18.359	0.046	-26.11	0.001572	127.585
	0.001509	-166.706	0.00193	-141.093	0.001386	131.031	0.001566	127.46
	0.056	5.295	0.007242	60.375	0.00294	67.425	0.001548	113.193
	0.001534	-164.919	0.007222	60.458	0.059	10.361	0.005675	67.206
	0.005207	88.547	0.001938	-140.723	0.002975	66.243	0.005675	67.421
	0.054	7.976						
585.8	0.065	-30.478	0.931	-19.033	0.001471	131.459	0.001627	114.143
	0.005367	88.167	0.931	-19.072	0.046	-26.646	0.001648	128.653
	0.001613	-168.032	0.002009	-142.982	0.00147	130.558	0.001665	128.501
	0.057	5.349	0.007496	58.631	0.003048	64.915	0.001626	114.834
	0.001629	-169.065	0.007499	58.297	0.06	10.13	0.005884	65.982
	0.00538	88.611	0.002029	-142.84	0.003063	65.321	0.005923	65.655
	0.055	8.1						
605.65	0.066	-31.509	0.931	-19.634	0.001562	130.833	0.001761	114.092
	0.005559	88.395	0.931	-19.762	0.045	-27.369	0.001801	128.165
	0.001729	-172.798	0.002097	-144.574	0.001535	129.681	0.001786	128.018
	0.058	5.374	0.00772	56.502	0.003168	63.985	0.001699	113.49
	0.001766	-171.788	0.007703	56.438	0.061	9.881	0.006054	64.899
	0.005612	88.295	0.002101	-143.795	0.003155	64.332	0.006111	65.053
	0.056	8.22						
625.5	0.066	-32.635	0.93	-20.375	0.001639	130.893	0.001799	113.949
	0.005746	87.885	0.93	-20.354	0.044	-28.008	0.00191	126.575
	0.001827	-174.72	0.002195	-146.655	0.001692	130.016	0.001933	128.152
	0.059	5.407	0.007945	54.832	0.003265	63.193	0.001791	113.447
	0.001836	-174.593	0.007984	54.414	0.062	9.661	0.006265	63.754
	0.005769	88.264	0.002184	-145.459	0.003286	62.562	0.006237	63.738
	0.056	8.396						
645.35	0.067	-33.865	0.929	-21.01	0.001735	130.764	0.001866	113.87
	0.005907	88.113	0.929	-20.98	0.044	-28.972	0.002042	127.192
	0.001907	-177.455	0.002261	-147.973	0.001751	130.771	0.002057	127.07
	0.059	5.407	0.00819	52.267	0.003354	61.733	0.001912	113.172
	0.001877	-177.039	0.008176	52.366	0.063	9.195	0.006434	62.567
	0.005952	88.15	0.002274	-147.183	0.003362	61.589	0.006414	62.143
	0.057	8.451						
665.2	0.068	-35.137	0.93	-21.686	0.001828	130.122	0.001931	113.018
	0.006137	88.401	0.929	-21.658	0.043	-29.965	0.002176	127.521
	0.002032	179.539	0.002359	-149.325	0.001869	129.049	0.00218	127.091
	0.06	5.309	0.008403	50.294	0.003461	60.415	0.002001	114.065
	0.002017	-179.574	0.008353	50.204	0.064	8.633	0.006567	61.137
	0.006155	87.89	0.002366	-150.192	0.003444	61.121	0.00656	60.761
	0.057	8.445						
685.05	0.068	-36.655	0.929	-22.326	0.001897	129.874	0.002035	114.184
	0.006293	88.203	0.928	-22.305	0.042	-31.29	0.002316	126.792
	0.002129	175.585	0.002464	-150.498	0.001983	128.819	0.002309	126.01
	0.061	5.052	0.008485	48.137	0.003515	59.401	0.002054	113.899
	0.002088	176.623	0.008514	47.959	0.064	8.056	0.006699	59.801
	0.006346	88.454	0.002458	-151.319	0.003534	58.789	0.006696	59.538
	0.058	8.398						
704.9	0.069	-38.164	0.929	-23.051	0.002004	129.775	0.002124	112.861
	0.006524	88.025	0.928	-22.914	0.042	-32.714	0.00245	125.062
	0.002187	173.478	0.002534	-153.496	0.00203	129.34	0.002465	126.22
	0.061	4.75	0.008617	45.746	0.003603	57.817	0.002151	113.545
	0.002192	173.956	0.008645	45.707	0.065	7.438	0.006862	58.203
	0.00653	88.129	0.002505	-153.325	0.003606	57.361	0.006833	58.634
	0.058	8.333						
724.75	0.069	-39.907	0.929	-23.556	0.002118	128.716	0.002265	112.891
	0.006751	87.947	0.929	-23.594	0.041	-34.373	0.002623	125.038
	0.002274	171.629	0.002619	-155.241	0.002132	129.103	0.002568	125.271
	0.062	4.287	0.008684	43.42	0.003719	56.625	0.002254	113.457
	0.00228	171.016	0.008695	43.389	0.065	6.595	0.006935	57.447
	0.006734	87.91	0.002612	-155.006	0.003652	57.056	0.006951	56.977
	0.059	8.188						
744.6	0.07	-41.584	0.928	-24.221	0.002216	129.144	0.002299	112.896
	0.006878	87.992	0.93	-24.219	0.04	-36.438	0.00271	124.671
	0.002362	167.81	0.002679	-156.896	0.002234	129.578	0.002744	124.555
	0.062	3.725	0.008713	41.403	0.003765	55.256	0.002331	112.398
	0.002355	168.208	0.008741	41.364	0.066	5.752	0.007035	56.043
	0.006962	88.192	0.002718	-156.585	0.003715	55.706	0.007059	56.267
	0.059	8.122						
764.45	0.07	-43.256	0.93	-24.902	0.002289	129.384	0.002401	111.963
	0.007077	87.573	0.93	-24.855	0.039	-38.171	0.002863	123.709
	0.002419	164.704	0.002725	-158.598	0.002361	128.23	0.002882	123.654
	0.063	3.196	0.008702	39.038	0.003795	54.344	0.002403	112.714
	0.002429	164.891	0.008692	39.243	0.066	5.05	0.007069	54.968
	0.007086	87.996	0.002794	-157.666	0.003766	54.97	0.007084	55.467
	0.06	7.921						
784.3	0.07	-45.033	0.93	-25.463	0.002455	129.684	0.002443	111.785
	0.007297	87.882	0.93	-25.502	0.039	-40.523	0.003031	122.511
	0.002503	161.936	0.002877	-159.296	0.002413	128.533	0.00305	121.997
	0.064	2.418	0.008642	37.38	0.003809	53.852	0.002445	111.763
	0.002514	161.596	0.008652	37.398	0.066	4.181	0.007158	54.148
	0.007314	87.698	0.002843	-159.223	0.003814	53.052	0.007134	53.993
	0.061	7.728						
804.15	0.07	-46.418	0.931	-26.278	0.002531	129.253	0.002493	111.67
	0.007515	87.839	0.93	-26.218	0.038	-41.789	0.003136	121.317
	0.002553	159.2	0.002942	-161.112	0.002549	129.73	0.003172	120.93
	0.064	2.001	0.008516	35.607	0.003848	52.78	0.00257	112.448
	0.002543	159.705	0.008526	35.526	0.067	3.727	0.007199	53.728
	0.007524	87.701	0.002952	-161.453	0.00387	52.536	0.007199	53.342
	0.061	7.621						
824	0.07	-47.878	0.929	-26.916	0.002621	128.255	0.002606	111.697
	0.007714	87.418	0.932	-26.935	0.038	-43.721	0.003289	120.002
	0.002591	156.576	0.003043	-162.579	0.002672	128.779	0.003339	120.294
	0.065	1.292	0.008382	34.512	0.003862	52.475	0.00263	112.21
	0.0026	156.417	0.00841	34.303	0.067	3.083	0.007266	52.356
	0.00773	87.833	0.003041	-163.433	0.003866	51.391	0.007282	52.611
	0.062	7.351						
843.85	0.07	-49.07	0.93	-27.613	0.002771	129.058	0.002692	111.676
	0.007881	87.274	0.931	-27.682	0.037	-45.103	0.003441	119.201
	0.002652	153.88	0.00317	-164.647	0.002772	129.119	0.003438	119.245
	0.066	0.879	0.008287	33.366	0.003941	51.188	0.002678	111.855
	0.002646	153.812	0.008278	33.195	0.067	2.77	0.007316	52.59
	0.007927	87.625	0.003112	-164.043	0.003937	51.078	0.007275	52.379
	0.063	7.353						
863.7	0.07	-50.532	0.929	-28.302	0.002895	129.144	0.002751	112.281
	0.008125	87.679	0.93	-28.343	0.036	-47.006	0.003544	118.217
	0.002666	152.295	0.003219	-165.569	0.002867	128.765	0.003601	118.357
	0.067	0.357	0.00813	32.393	0.003969	50.473	0.00277	112.312
	0.002681	153.231	0.008094	32.427	0.067	2.506	0.007309	52.226
	0.008127	87.476	0.003222	-165.133	0.003943	50.79	0.007316	52.306
	0.064	7.187						
883.55	0.071	-51.631	0.927	-28.934	0.003005	129.188	0.002808	111.932
	0.008331	87.174	0.929	-29.089	0.036	-48.786	0.003732	117.459
	0.002706	150.23	0.00328	-167.779	0.003011	128.679	0.003689	116.929
	0.068	0.002667	0.007958	31.892	0.00401	50.305	0.002831	111.839
	0.002695	150.436	0.007956	31.97	0.067	2.403	0.007382	52.077
	0.008294	87.345	0.003268	-167.768	0.004062	50.177	0.007383	51.642
	0.064	7.033						
903.4	0.07	-52.257	0.925	-29.679	0.00308	128.933	0.002897	112.594
	0.008448	87.376	0.927	-29.679	0.035	-50.031	0.003772	116.35
	0.002721	149.371	0.00336	-168.985	0.003134	128.894	0.003819	116.739
	0.069	-0.317	0.007796	31.886	0.004003	50.022	0.002895	113.485
	0.002723	149.548	0.00783	32.06	0.067	2.405	0.00741	51.785
	0.008492	87.396	0.003366	-169.112	0.00405	50.495	0.007386	51.853
	0.065	6.9						
923.25	0.07	-52.911	0.927	-30.216	0.003201	128.627	0.002992	112.087
	0.008721	87.109	0.926	-30.318	0.034	-51.803	0.003956	116.006
	0.002735	148.133	0.003495	-170.51	0.003238	129.355	0.003891	115.678
	0.07	-0.529	0.007663	31.93	0.004081	49.556	0.002958	113.055
	0.002761	147.655	0.007691	32.352	0.067	2.378	0.007468	51.969
	0.008678	87.24	0.003477	-170.221	0.004115	49.628	0.007482	51.743
	0.066	6.763						
943.1	0.07	-53.98	0.926	-30.849	0.003328	128.961	0.003041	113.666
	0.00887	87.144	0.926	-30.877	0.033	-53.376	0.004049	115.488
	0.002783	146.296	0.003574	-171.657	0.003356	129.023	0.004064	115.494
	0.071	-0.7	0.007542	32.498	0.004131	49.812	0.003072	113.765
	0.002755	146.569	0.007568	32.415	0.067	2.569	0.007568	52.218
	0.008923	87.167	0.003571	-171.03	0.004133	49.357	0.007561	51.822
