!Hittite Microwave Corporation								
!12 Elizabeth Drive								
!Chelmsford, MA 01824								
!Tel: 978-250-3343								
!Fax: 978-250-3373								
!Device: HMC183QS24, DC-2 GHz GaAS MMIC SP8T Non-Reflective Switch in 24-lead QSOP package								
!Misc: Port 1 = RFCom, Port 2 = RF1, Port 3 = RF2, Port 4 = RF3, Port 5 = RF4, Port 6 = RF5, Port 7 = RF6, Port 8 = RF7, Port 9 = RF8, RF2 selected, Vctl=0/-5V							
!
# MHZ S MA R 50

30	0.1	-41.212	0.0002066	92.672	0.902	2.666	0.000101	-125.648
	0.00006284	-43.77	0.00003992	99.935	0.00008135	121.735	0.00004371	50.584
	0.0002122	88.883	0.0001748	87.485	0.051	-88.384	0.00007193	118.238
	0.00009714	112.95	0.00007678	58.241	0.00006517	95.046	0.0000459	147.548
	0.00007638	87.34	0.00003446	104.525	0.901	2.606	0.00003467	23.479
	0.109	-36.641	0.0002686	81.442	0.00007264	68.518	0.00004472	48.276
	0.000026	-14.82	0.00009266	164.977	0.00005431	-75.74	0.0001534	-95.515
	0.00008434	96.586	0.000303	92.787	0.051	-88.657	0.0004575	85.617
	0.00008781	79.113	0.00005304	-39.443	0.00006869	117.993	0.0000269	47.484
	0.0000643	-85.108	0.00007368	67.318	0.00007258	82.118	0.0004621	80.391
	0.03	-85.89	0.0001529	42.568	0.0001161	90.367	0.00006815	37.113
	0.00005367	94.211	0.0000645	-29.678	0.00004805	122.484	0.00007365	122.278
	0.00007626	79.726	0.0001598	86.052	0.058	-62.013	0.00006874	38.372
	0.0001239	77.103	0.00004449	90.215	0.00006989	116.297	0.00002804	34.998
	0.00005635	126.391	0.0001016	93.444	0.00005014	19.404	0.0004724	87.323
	0.06	-78.069	0.0003021	84.506	0.00009751	83.694	0.0001105	88.865
	0.0001	139.232	0.0000231	-9.45	0.00003734	31.253	0.00004396	86.435
	0.0001067	81.438	0.0002897	90.953	0.041	-83.201	0.0003146	84.292
	0.0001173	105.532	0.00007164	-4.655	0.00006259	-69.943	0.0000403	11.391
	0.0000769	98.521	0.00009991	57.832	0.00008557	76.881	0.00036	79.62
	0.049	-77.568						
49.85	0.072	-26.429	0.00029	99.69	0.918	-0.513	0.0001722	-115.008
	0.00009378	-71.672	0.00002447	78.46	0.00009351	111.842	0.00008276	110.285
	0.00024	83.577	0.0003215	99.165	0.014	-106.806	0.00005275	100.685
	0.0001397	87.923	0.0001066	72.143	0.00007746	72.739	0.00003954	88.885
	0.00007316	97.137	0.000101	89.959	0.917	-0.543	0.00005829	101.753
	0.082	-21.701	0.0004492	87.824	0.00009492	72.597	0.00003181	77.899
	0.00004174	88.269	0.00006413	147.338	0.00008889	-102.557	0.0001624	-109.882
	0.000124	76.346	0.0004433	89.629	0.015	-107.532	0.0006958	82.335
	0.0001431	73.739	0.00006868	77.965	0.00006731	76.229	0.00003852	61.525
	0.00009649	-84.854	0.0001033	62.899	0.0000839	52.372	0.0006971	82.738
	0.001684	178.21	0.00027	82.045	0.000146	70.933	0.00007561	32.942
	0.00005505	77.55	0.00002983	133.047	0.00007237	83.583	0.00002772	112.514
	0.0001404	67.622	0.0002808	81.459	0.024	-33.385	0.00007594	33.541
	0.0002204	83.281	0.0000953	74.273	0.00007046	82.611	0.00006338	36.711
	0.00008278	130.299	0.00009122	82.224	0.0001103	84.382	0.0007097	84.591
	0.02	-73.502	0.0004478	90.336	0.000147	88.704	0.0001146	90.248
	0.00008771	95.968	0.000003272	-159.941	0.00008029	64.671	0.00008342	93.174
	0.0001756	73.9	0.0004825	88.497	0.008392	-87.969	0.0005297	87.316
	0.0002365	85.617	0.0001144	68.828	0.00008225	-99.599	0.00005283	47.905
	0.00008567	90.474	0.00009184	82.776	0.0001226	61.69	0.0005566	84.543
	0.013	-66.214						
69.7	0.067	-22.094	0.0004239	97.519	0.92	-1.901	0.0002329	-105.368
	0.0001458	-73.969	0.00006481	-178.234	0.0001114	107.459	0.0001311	101.737
	0.0003291	92.796	0.0004463	100.146	0.005017	-148.128	0.0001019	114.849
	0.0001778	87.307	0.0001485	74.37	0.0000974	99.753	0.00005576	47.988
	0.00007675	77.997	0.0001543	88.185	0.92	-1.921	0.00008609	111.048
	0.076	-15.457	0.000619	86.146	0.000145	53.404	0.00002511	-7.802
	0.0000548	93.037	0.00006302	102.005	0.0001242	-100.365	0.0002305	-112.432
	0.0001692	85.626	0.000642	86.038	0.006454	-139.956	0.000955	84.112
	0.0001861	80.237	0.00008994	96.876	0.00005327	59.153	0.00008044	74.238
	0.0001232	-73.172	0.000145	63.516	0.0001436	55.575	0.0009602	83.301
	0.007965	101.986	0.0003909	81.325	0.0002059	70.779	0.0001164	77.367
	0.00006331	80	0.00002848	-165.778	0.00009045	74.221	0.00002981	-13.377
	0.0001795	70.625	0.0004231	80.695	0.02	-7.807	0.0001167	77.752
	0.0002725	87.319	0.0001438	82.311	0.00009151	86.065	0.0001019	77.204
	0.00007443	138.546	0.0001028	79.864	0.0001834	79.56	0.0009375	85.433
	0.009748	-57.903	0.0006343	85.776	0.0002103	85.048	0.0001336	93.83
	0.00005921	96.253	0.00005885	121.675	0.0001101	82.509	0.0001336	87.743
	0.0002565	76.295	0.0006625	85.819	0.0009583	-89.666	0.000744	84.97
	0.0003638	88.717	0.0001257	88.081	0.000131	-106.065	0.00008086	79.043
	0.00006945	82.002	0.0001232	82.837	0.0001686	70.809	0.0007592	87.298
	0.005229	-20.899						
89.55	0.066	-22.889	0.0005657	94.782	0.919	-2.834	0.0003031	-105.126
	0.0001975	-84.955	0.00006396	-107.924	0.0001261	106.403	0.0001883	92.492
	0.0004406	95.437	0.0005811	99.482	0.00498	150.315	0.0001455	114.412
	0.0002159	85.425	0.0001975	75.456	0.0001049	90.586	0.00007669	67.081
	0.00009538	77.532	0.0001715	84.787	0.919	-2.826	0.0001469	115.046
	0.074	-13.883	0.0007925	88.12	0.0001587	53.316	0.00002262	29.866
	0.00008599	82.107	0.00007042	106.43	0.0001566	-100.286	0.0003033	-112.29
	0.0002345	85.1	0.0008137	87.448	0.004952	177.973	0.001245	84.058
	0.0002405	82.513	0.0001457	81.909	0.0000784	78.715	0.0001012	76.349
	0.000186	-74.741	0.00018	83.287	0.0001546	56.914	0.001235	84.797
	0.011	97.964	0.0005196	82.921	0.000245	76.784	0.0001761	86.018
	0.00008907	80.695	0.00001667	-83.713	0.0001025	88.378	0.00003199	17.027
	0.0002182	73.055	0.0005312	81.938	0.019	7.645	0.0001764	86.308
	0.0003287	86.046	0.0001811	84.116	0.0001372	99.678	0.0001124	80.466
	0.00007863	130.592	0.0001432	80.203	0.0002466	78.902	0.0012	86.202
	0.005859	-35.038	0.0007933	84.662	0.0002358	89.689	0.000165	99.365
	0.00008514	80.701	0.00008128	107.33	0.0001357	96.466	0.0001569	82.047
	0.000346	82.6	0.0008114	86.859	0.001744	99.717	0.0009417	86.173
	0.0004649	91.232	0.0001362	87.942	0.0001377	-111.08	0.0001017	84.446
	0.00006722	67.473	0.0001638	83.677	0.0002254	76.63	0.0009819	87.432
	0.005337	30.849						
109.4	0.065	-25.34	0.0007048	98.197	0.918	-3.581	0.0003726	-106.844
	0.0002396	-88.705	0.0000311	-86.659	0.0001527	108.333	0.0002449	91.988
	0.0005386	94.52	0.0006981	97.987	0.006944	127.202	0.0001736	108.705
	0.0002419	89.048	0.000217	77.423	0.0001294	71.948	0.0001007	72.811
	0.0001041	92.785	0.0001977	79.52	0.918	-3.573	0.0001822	132.093
	0.073	-13.916	0.0009759	89.553	0.0001495	59.432	0.00002344	75.542
	0.00009951	108.489	0.0001052	109.063	0.0001824	-107.677	0.0003407	-106.349
	0.0002756	90.104	0.0009779	88.797	0.005625	151.677	0.00151	85.295
	0.0002716	85.789	0.0001848	83.617	0.0001395	87.934	0.0001082	81.477
	0.0002432	-88.328	0.0002247	82.229	0.0001399	48.12	0.001491	84.825
	0.014	95.949	0.0006193	83.725	0.0002874	83.273	0.0001975	80.016
	0.0001427	82.089	0.0000169	-29.813	0.0001383	96.575	0.00004375	78.906
	0.0002785	79.481	0.000614	84.009	0.02	17.194	0.0001977	80.253
	0.0004165	85.641	0.0002065	89.67	0.000176	97.689	0.000129	82.275
	0.0001128	103.114	0.0001925	82.536	0.0002832	83.315	0.001489	85.963
	0.004624	-5.784	0.0009755	85.813	0.0002722	80.923	0.0002107	108.001
	0.0001182	72.937	0.00007109	125.233	0.0001535	74.187	0.0001903	65.977
	0.0004202	86.566	0.0009924	86.664	0.003232	98.585	0.001168	87.035
	0.0005399	92.34	0.0001418	89.664	0.000164	-107.623	0.0001185	77.496
	0.0001037	74.484	0.0001996	80.964	0.0002596	79.532	0.001172	86.027
	0.007424	51.616						
129.25	0.065	-27.958	0.0008089	100.081	0.917	-4.23	0.000442	-106.55
	0.0003166	-84.063	0.00002062	-92.074	0.0001948	96.536	0.0003038	99.489
	0.0006326	93.373	0.0008082	99.06	0.008774	116.626	0.0002108	121.741
	0.0003145	90.303	0.0002289	78.339	0.0001539	85.179	0.000123	77.465
	0.0001164	96.705	0.0002108	80.181	0.917	-4.25	0.0002231	123.986
	0.073	-14.527	0.001137	89.989	0.0001654	66.025	0.00004179	49.872
	0.00009493	109.716	0.0001344	105.85	0.0002094	-115.596	0.0004014	-102.902
	0.0002891	87.215	0.001141	88.891	0.006746	136.647	0.001751	85.723
	0.0003306	83.594	0.0002052	82.701	0.0001561	81.128	0.0001146	84.815
	0.0002946	-87.733	0.0002647	80.765	0.0001594	44.707	0.001757	85.112
	0.016	94.742	0.0007348	83.711	0.000344	85.925	0.0002203	76.602
	0.0001678	73.554	0.00002033	-34.487	0.0001701	88.423	0.00003998	48.982
	0.0003196	82.007	0.0007094	83.712	0.021	23.504	0.0002204	76.803
	0.0004875	83.863	0.000235	85.028	0.0001955	96.806	0.0001311	94.363
	0.0001216	100.691	0.0002184	80.439	0.0003303	84.329	0.001771	86.031
	0.004975	17.632	0.001142	86.87	0.000303	82.321	0.0002894	99.424
	0.0001242	80.323	0.00009735	135.307	0.0001627	86.763	0.0002098	66.585
	0.000483	86.893	0.001199	85.745	0.00421	95.158	0.00138	87.108
	0.0006113	91.744	0.0001773	87.296	0.000222	-109.364	0.0001347	86.168
	0.0001473	88.618	0.0002513	81.635	0.0002947	82.319	0.00134	86.726
	0.009402	59.082						
149.1	0.065	-30.807	0.0009466	98.172	0.916	-4.853	0.0004711	-109.406
	0.0003795	-80.812	0.00004779	-115.488	0.0001967	97.452	0.0003389	96.892
	0.0006981	93.627	0.0009456	99.31	0.011	111.119	0.0002556	124.455
	0.0003774	86.265	0.0002615	79.788	0.0001634	90.096	0.0001385	92.087
	0.0001582	93.372	0.0002263	80.978	0.915	-4.86	0.0002385	120.532
	0.072	-15.342	0.001318	90.567	0.0001995	57.299	0.0000517	54.748
	0.0001302	89.166	0.0001379	112.68	0.0002553	-110.716	0.0004776	-105.146
	0.0003495	85.8	0.0013	89.361	0.007853	127.348	0.002025	85.028
	0.0003898	82.245	0.0002374	88.362	0.0001567	77.044	0.0001223	93.265
	0.0003692	-85.893	0.0002802	80.669	0.0001745	51.399	0.002014	85.997
	0.018	93.514	0.0008398	85.345	0.0003808	83.353	0.0002531	75.855
	0.0001635	79.79	0.00004182	-110.532	0.0001763	77.721	0.00003914	84.923
	0.0003657	81.058	0.0008092	81.626	0.022	28.835	0.0002532	76.028
	0.0005702	83.538	0.0002708	87.936	0.0002152	95.904	0.0001356	84.139
	0.0001315	109.198	0.000241	79.419	0.0003635	82.476	0.002047	86.238
	0.005578	33.78	0.001315	86.847	0.0003465	89.637	0.0003414	94.942
	0.0001565	90.321	0.0001181	118.459	0.0001843	97.452	0.0002248	74.605
	0.0005384	84.235	0.001351	87.313	0.004987	93.051	0.001566	87.437
	0.000694	90.889	0.0002572	86.779	0.0002452	-111.846	0.0001518	77.343
	0.0001797	79.439	0.0002709	79.371	0.000361	87.065	0.00156	87.184
	0.011	63.653						
168.95	0.065	-33.78	0.001089	98.913	0.915	-5.468	0.0005359	-111.878
	0.0004437	-86.434	0.00007781	-112.378	0.0002316	104.533	0.0003901	95.406
	0.0007915	93.685	0.001096	99.155	0.012	108.015	0.00027	123.047
	0.0004312	83.295	0.0003218	78.197	0.0001904	87.436	0.0001643	91.676
	0.0001977	88.08	0.0002736	82.398	0.914	-5.462	0.0002723	128.083
	0.072	-16.533	0.001481	91.25	0.0001945	45.341	0.00004605	109.829
	0.000151	108.14	0.0001309	125.62	0.0002805	-110.556	0.0005781	-110.79
	0.0004202	85.155	0.001496	91.656	0.009075	122.285	0.002265	85.453
	0.0004183	83.099	0.0002552	89.548	0.0002224	78.942	0.0001406	94.401
	0.0004611	-90.749	0.0002964	81.094	0.0001872	45.372	0.002249	86.069
	0.019	92.64	0.0009055	84.845	0.0004016	79.703	0.0002727	79.162
	0.0001506	83.591	0.00005999	-144.379	0.0001774	75.259	0.00002823	80.282
	0.0004336	82.553	0.0009207	84.089	0.023	33.393	0.0002728	79.315
	0.0006322	83.736	0.0003043	86.991	0.0002344	100.059	0.000178	82.344
	0.0001702	103.057	0.0002588	73.499	0.0004004	80.74	0.002291	87.21
	0.006324	45.462	0.001489	86.806	0.0004352	85.562	0.0003827	90.43
	0.0001955	81.532	0.0001145	98.939	0.0002064	87.672	0.000249	74.221
	0.0006152	84.481	0.001515	87.287	0.005765	93.554	0.001745	87.34
	0.0007753	91.838	0.0002863	82.39	0.0002817	-112.672	0.0001763	67.281
	0.0001987	78.332	0.0002824	82.854	0.0003967	83.063	0.001767	86.288
	0.013	66.629						
188.8	0.066	-36.865	0.001201	100.009	0.914	-6.055	0.0006195	-111.867
	0.0004871	-90.264	0.00005138	-106.531	0.0002669	105.153	0.0004323	92.852
	0.0008839	93.147	0.0012	99.683	0.014	105.146	0.0003029	129.111
	0.0004588	82.332	0.0003377	77.748	0.0002189	80.267	0.0001944	85.331
	0.0002353	81.147	0.000309	90.797	0.914	-6.087	0.0003521	132.701
	0.072	-17.95	0.001636	90.362	0.0001676	45.909	0.00003634	144.557
	0.000166	114.624	0.0001314	127.108	0.0002825	-109.38	0.0006418	-112.898
	0.0004247	79.674	0.001699	92.318	0.01	118.845	0.00251	85.368
	0.0004808	85.602	0.0002789	84.969	0.0002541	82.875	0.0001608	88.117
	0.0005406	-94.049	0.0002973	80.73	0.0001792	45.059	0.002536	85.901
	0.021	92.107	0.001012	84.126	0.0004828	80.934	0.0003074	80.183
	0.0001807	85.168	0.00008033	-147.6	0.0002141	81.409	0.0000457	86.095
	0.0004576	83.77	0.001018	85.624	0.024	36.948	0.0003076	80.324
	0.0006837	81.952	0.0003401	82.157	0.0002223	101.634	0.0002001	86.846
	0.0001746	100.638	0.0002882	76.906	0.000478	81.074	0.002546	86.981
	0.007212	52.259	0.001664	87.138	0.0004665	86.424	0.0004158	89.737
	0.0002339	86.005	0.0001298	93.53	0.0002162	80.824	0.0002585	81.7
	0.0007014	84.921	0.001685	86.924	0.006347	93.735	0.001962	87.362
	0.0008817	93.845	0.0002923	81.696	0.0003122	-108.869	0.0001866	78.972
	0.0002133	76.227	0.000303	84.349	0.0004388	81.823	0.001971	87.1
	0.014	68.876						
208.65	0.066	-40.325	0.00134	99.984	0.912	-6.596	0.0006813	-113.481
	0.0005443	-93.511	0.00007176	-119.339	0.0002982	102.524	0.000484	98.077
	0.0009544	93.791	0.001323	99.724	0.016	102.571	0.0003644	132.591
	0.0004844	85.71	0.0003404	83.079	0.0002308	81.244	0.0002324	83.018
	0.0002547	75.666	0.0003088	92.74	0.913	-6.665	0.0003859	136.216
	0.072	-19.407	0.001816	90.537	0.0001765	41.039	0.0000382	148.73
	0.0001784	107.52	0.0001565	116.479	0.0003199	-106.377	0.0006713	-115.637
	0.0004748	81.725	0.001847	91.681	0.011	115.948	0.002797	85.722
	0.0005323	86.036	0.0003154	82.673	0.000268	83.746	0.0001925	84.257
	0.000574	-93.043	0.0003355	83.436	0.0001718	53.353	0.002804	85.962
	0.023	91.163	0.001102	84.24	0.000527	81.496	0.0003732	78.234
	0.0002242	84.889	0.00009382	-131.409	0.0002422	87.305	0.00006218	143.223
	0.0005042	83.773	0.001127	83.797	0.026	39.421	0.0003733	78.365
	0.000728	82.389	0.0003647	82.185	0.0002615	97.511	0.0001995	88.779
	0.000165	105.8	0.0003332	80.566	0.0005182	85.64	0.002808	86.383
	0.008031	56.08	0.001851	87.115	0.0004732	85.384	0.000457	97.569
	0.0002194	94.16	0.0001477	109.541	0.0002492	82.551	0.0003	80.988
	0.0007655	84.938	0.001869	87.856	0.006718	93.36	0.002159	88.459
	0.0009723	92.689	0.0003187	81.062	0.0003364	-108.865	0.0001892	90.638
	0.0002142	74.776	0.0003367	84.215	0.0005037	86.422	0.002174	87.771
	0.015	70.567						
228.5	0.067	-43.571	0.0015	101.01	0.911	-7.139	0.0007516	-114.769
	0.0006436	-94.997	0.0001137	-129.271	0.0003263	97.758	0.0004865	96.624
	0.001055	95.264	0.001483	100.562	0.017	101.02	0.0004454	132.755
	0.0005059	85.032	0.0003808	83.459	0.0002391	82.069	0.0002378	85.833
	0.0002628	80.972	0.0003332	92.906	0.912	-7.2	0.0004307	135.648
	0.072	-20.911	0.001991	91.515	0.0001567	49.346	0.0000514	131.906
	0.0002042	116.35	0.0001846	120.259	0.0003779	-111.046	0.0007419	-116.884
	0.0005534	83.784	0.002004	91.964	0.012	114.018	0.003058	85.683
	0.0006078	86.152	0.0003171	86.356	0.0002814	82.206	0.0002027	78.622
	0.0006625	-92.318	0.0003931	84.733	0.0001487	49.588	0.003026	85.688
	0.025	90.609	0.001242	84.279	0.0005338	83.661	0.0003908	77.796
	0.000246	80.045	0.0001159	-146.482	0.0002446	89.177	0.00003824	112.573
	0.0005788	83.618	0.001213	83.25	0.027	41.959	0.0003909	77.917
	0.0007892	84.391	0.000386	86.583	0.0003138	98.205	0.0001989	84.191
	0.0001887	104.179	0.0003598	78.672	0.0005612	81.16	0.003075	87.191
	0.008693	59.297	0.002012	88.207	0.0005077	85.36	0.0005124	99.951
	0.0002269	87.811	0.0001781	120.121	0.0002619	83.673	0.0003555	79.201
	0.0008226	86.434	0.002024	88.308	0.007044	93.032	0.002365	88.436
	0.001058	93.608	0.000343	81.242	0.0003782	-111.317	0.0002293	86.383
	0.0002193	77.94	0.0003885	86.371	0.00054	85.385	0.002354	87.852
	0.017	71.751						
248.35	0.068	-46.684	0.001631	101.101	0.91	-7.678	0.0008404	-117.743
	0.000763	-95.342	0.0001467	-141.015	0.0003456	101.436	0.0005051	96.975
	0.00112	94.419	0.00163	102.279	0.018	99.621	0.000501	137.665
	0.0005868	82.447	0.0004501	84.061	0.0002684	77.658	0.0002308	88.65
	0.0002833	86.128	0.0003484	85.492	0.911	-7.748	0.0004911	138.6
	0.072	-22.233	0.002133	91.948	0.0001424	57.602	0.00005441	149.409
	0.0002124	107.312	0.0001928	123.245	0.0004166	-114.026	0.0008217	-117.392
	0.0005789	82.591	0.002153	91.855	0.013	112.391	0.003321	85.766
	0.0006416	82.841	0.0003431	84.759	0.0002813	78.241	0.0002278	80.985
	0.0007568	-95.191	0.0004318	81.051	0.0001423	41.189	0.003278	86.22
	0.026	89.957	0.001354	83.34	0.0006196	82.827	0.000415	79.07
	0.0002623	80.807	0.0001595	-147.655	0.0002757	83.74	0.0000547	148.841
	0.0006248	83.869	0.001336	82.465	0.028	44.302	0.0004151	79.182
	0.000874	86.472	0.0004057	85.32	0.0003455	102.37	0.000242	84.572
	0.0002309	104.795	0.0003645	82.264	0.0006024	79.556	0.003365	87.649
	0.009386	62.027	0.002175	88.709	0.000546	88.326	0.0005715	98.041
	0.000247	80.64	0.0002101	122.573	0.0002923	84.713	0.0003795	79.195
	0.000904	85.438	0.002175	88.647	0.007388	91.91	0.002576	88.862
	0.001158	94.724	0.0003709	85.992	0.0004123	-117.466	0.0002264	84.175
	0.0002529	80.473	0.0004183	84.397	0.0005877	84.619	0.002538	87.947
	0.018	72.673						
268.2	0.069	-49.829	0.001778	101.486	0.91	-8.245	0.0008894	-118.578
	0.0008299	-95.846	0.0001608	-141.92	0.0003625	105.904	0.000588	98.932
	0.001238	95.214	0.001791	102.807	0.02	98.314	0.0005769	142.235
	0.0006402	83.244	0.0004814	83.649	0.0002811	78.987	0.0002496	82.485
	0.0002639	89.835	0.0003948	85.314	0.911	-8.274	0.0005699	144.909
	0.073	-23.682	0.002317	92.389	0.0001312	50.191	0.00008984	166.807
	0.0002376	104.793	0.0002088	115.845	0.0004503	-119.15	0.000887	-116.852
	0.0006061	84.44	0.00233	92.619	0.014	110.487	0.003562	86.615
	0.0006741	81.631	0.0003826	86.482	0.0003058	80.387	0.0002083	78.639
	0.0008188	-95.878	0.0004397	79.132	0.000121	32.5	0.003528	86.601
	0.028	89.331	0.001419	82.549	0.0006818	79.679	0.0004363	77.073
	0.0002783	80.415	0.0001587	-141.751	0.0003192	84.15	0.00009165	153.302
	0.0006796	81.81	0.001427	83.029	0.029	45.86	0.0004365	77.179
	0.0009707	86.664	0.0004871	84.695	0.0003988	105.107	0.0002562	84.362
	0.0002545	110.358	0.0003753	83.461	0.000654	79.223	0.003607	88.16
	0.01	63.839	0.002343	88.908	0.0006324	87.739	0.0005905	98.893
	0.0002981	80.337	0.0002255	121.317	0.0003283	88.238	0.0004155	75.233
	0.0009898	87.155	0.002368	88.582	0.007864	91.699	0.002763	88.518
	0.001243	94.119	0.0004104	84.047	0.000458	-117.201	0.0002307	82.007
	0.0002932	85.437	0.0004597	87.603	0.0006358	83.772	0.002745	88.127
	0.019	73.404						
288.05	0.07	-53.096	0.001932	103.123	0.91	-8.83	0.0009856	-118.431
	0.0008798	-99.303	0.0001805	-148.552	0.000367	106.082	0.0006446	101.298
	0.001321	95.65	0.001915	102.598	0.021	97.09	0.0006537	142.862
	0.000674	84.782	0.0004854	83.231	0.0003299	86.855	0.000276	88.952
	0.0002877	82.219	0.0004139	84.373	0.911	-8.82	0.0006628	146.273
	0.073	-25.198	0.002471	93.119	0.00008532	56.884	0.0001047	178.262
	0.0002475	105.494	0.0002382	116.369	0.00048	-122.198	0.0009409	-118.395
	0.0006496	85.366	0.002511	92.279	0.014	109.299	0.003817	86.425
	0.0007253	81.781	0.0004284	83.032	0.0003443	77.028	0.0002437	83.232
	0.0009105	-97.674	0.0004952	79.846	0.00008963	36.886	0.003781	86.184
	0.03	88.904	0.001543	81.911	0.0007026	79.679	0.0004586	77.124
	0.000277	80.707	0.00019	-137.277	0.0003494	84.391	0.0001069	149.971
	0.0007119	83.526	0.001513	83.553	0.03	47.539	0.0004587	77.223
	0.001029	86.581	0.0005022	85.742	0.0004081	104.548	0.0002791	83.551
	0.0002744	112.58	0.0004142	82.283	0.0006871	81.136	0.00388	87.968
	0.011	65.244	0.002531	88.939	0.000697	87.935	0.0006342	98.243
	0.0003301	84.076	0.0002792	119.613	0.0003385	82.456	0.00047	78.437
	0.001024	87.748	0.002533	88.448	0.008144	91.809	0.00295	88.55
