!Hittite Microwave Corporation								
!12 Elizabeth Drive								
!Chelmsford, MA 01824								
!Tel: 978-250-3343								
!Fax: 978-250-3373								
!Device: HMC183QS24, DC-2 GHz GaAS MMIC SP8T Non-Reflective Switch in 24-lead QSOP package								
!Misc: Port 1 = RFCom, Port 2 = RF1, Port 3 = RF2, Port 4 = RF3, Port 5 = RF4, Port 6 = RF5, Port 7 = RF6, Port 8 = RF7, Port 9 = RF8, RF1 selected, Vctl=0/-5V							
!
# MHZ S MA R 50

30	0.098	-44.97	0.902	2.73	0.00002128	-134.123	0.00004462	108.957
	0.00003419	53.633	0.00009802	98.34	0.00008091	102.567	0.00004173	80.567
	0.0001369	130.986	0.903	2.725	0.109	-37.461	0.0001378	66.651
	0.00005234	100.826	0.00002995	52.778	0.00002929	-63.154	0.00004794	63.575
	0.00005694	97.553	0.00007305	-40.483	0.00007553	167.51	0.0001966	74.868
	0.05	-95.455	0.0003057	84.558	0.00009794	110.314	0.00003368	90.146
	0.00005367	52.997	0.00007238	106.494	0.00002485	61.589	0.00003143	70.852
	0.00007019	31.013	0.0002995	91.034	0.051	-88.234	0.0004591	86.037
	0.00007202	63.319	0.00005908	43.993	0.00006093	66.878	0.00006087	90.09
	0.00002019	18.042	0.00002149	38.51	0.0001561	91.249	0.0004569	89.106
	0.03	-85.698	0.0001278	76.388	0.0001031	56.43	0.00006107	66.812
	0.00006732	78.6	0.00009015	-10.07	0.00001901	-55.457	0.0000699	52.575
	0.0001003	95.064	0.0001927	82.161	0.059	-60.946	0.00006158	68.091
	0.0001509	73.974	0.0001004	83.564	0.0000444	67.409	0.000019	105.656
	0.00001624	-51.114	0.00004865	61.469	0.0001259	76.603	0.000484	83.445
	0.059	-78.198	0.0002747	92.037	0.00009652	61.131	0.00006282	11.229
	0.00003042	104.788	0.00004238	114.995	0.00005071	96.252	0.00006992	93.492
	0.00008293	99.236	0.0002723	90.055	0.042	-83.591	0.0003473	87.677
	0.0001875	84.563	0.00003832	-93.343	0.00005166	41.758	0.00004836	114.951
	0.00007606	112.755	0.0000628	65.557	0.00005561	58.221	0.0003583	73.65
	0.049	-77.412						
49.85	0.067	-31.889	0.918	-0.342	0.00002622	-165.925	0.00004293	139.877
	0.00003249	-46.638	0.00006299	44.298	0.00006207	109.951	0.0001071	72.77
	0.000222	95.903	0.918	-0.341	0.081	-22.493	0.0002499	83.593
	0.00009687	99.351	0.00004353	-4.676	0.00004599	-148.35	0.00006228	94.755
	0.00006096	124.106	0.00007763	-78.543	0.00005215	160.579	0.0002772	89.32
	0.017	-126.649	0.000476	88.083	0.0001774	83.956	0.00006468	68.989
	0.00006318	100.667	0.00006676	52.857	0.00004098	89.01	0.00005442	159.361
	0.0001032	94.258	0.0004884	89.987	0.015	-106.54	0.0007256	86.152
	0.0001531	77.94	0.00009206	82.211	0.00004609	93.462	0.00005655	66.06
	0.00002711	30.365	0.00005017	80.791	0.0002243	78.388	0.000701	82.353
	0.001597	178.967	0.0002794	85	0.0001501	68.687	0.0001005	70.781
	0.00006088	91.747	0.0000512	110.333	0.00005061	-13.77	0.00008225	60.82
	0.0001533	78.316	0.0002708	84.447	0.026	-32.091	0.0001009	71.395
	0.0001763	81.202	0.00008884	112.394	0.00008334	117.725	0.00002956	-83.802
	0.00003545	81.471	0.00009365	67.797	0.0001557	90.106	0.0007455	83.439
	0.019	-73.331	0.0004917	90.145	0.0001324	67.233	0.0001053	93.324
	0.0000329	115.671	0.00007998	107.577	0.00005684	79.378	0.00007401	83.629
	0.0001648	82.797	0.0004714	85.668	0.008731	-90.05	0.0005361	82.065
	0.0002411	90.474	0.00008516	-97.75	0.00007102	65.311	0.00006449	151.244
	0.00007828	79.761	0.00007458	71.474	0.0001174	78.702	0.0005228	81.16
	0.013	-66.873						
69.7	0.06	-26.758	0.918	-1.558	0.0000615	-179.538	0.00005647	162.923
	0.00005296	-64.878	0.00004393	26.001	0.00009358	93.188	0.0001531	80.056
	0.0003131	89.89	0.919	-1.606	0.074	-16.674	0.0004029	89.055
	0.000124	90.069	0.00006269	-34.966	0.00004299	-158.107	0.00008621	87.658
	0.00006856	139.255	0.00008561	-74.647	0.0001047	162.198	0.0003735	89.837
	0.012	-156.654	0.000679	87.776	0.0003019	78.243	0.0001138	66.702
	0.00008925	88.895	0.00009071	65.201	0.00005478	75.406	0.00004863	167.881
	0.0001002	95.167	0.0006838	87.339	0.006333	-141.074	0.0009732	86.607
	0.000191	73.193	0.000127	70.833	0.0001022	91.02	0.0000646	59.947
	0.00002894	-42.613	0.00006646	9.474	0.0002828	81.521	0.0009769	83.449
	0.007664	102.853	0.0004006	83.44	0.0001848	77.268	0.0001324	77.133
	0.00008429	78.894	0.00005659	145.412	0.00006017	4.806	0.0001209	85.141
	0.0002051	77.94	0.0003718	84.765	0.021	-8.092	0.0001326	77.543
	0.0002401	82.327	0.0001132	100.3	0.0001304	104.198	0.00001835	-13.097
	0.00006762	110.844	0.0001413	83.279	0.0001885	88.756	0.0009962	85.092
	0.008379	-52.188	0.0006395	88.646	0.0001691	82.379	0.0001269	102.828
	0.00006579	126.57	0.0001142	83.373	0.00009246	62.71	0.0001402	79.69
	0.0002655	83.206	0.0006514	87.035	0.001346	-104.366	0.0007375	85.739
	0.0002951	91.426	0.00006558	-101.433	0.00009014	89.827	0.0001285	84.39
	0.00008442	95.316	0.0001297	84.179	0.0001884	84.899	0.0007467	85.728
	0.005231	-22.162						
89.55	0.057	-26.219	0.918	-2.337	0.00007331	-179.751	0.00007172	145.413
	0.00007267	-55.617	0.0000291	99.944	0.0001304	101.786	0.0002082	84.292
	0.0004047	92.44	0.918	-2.426	0.072	-14.487	0.000535	91.146
	0.0001452	88.395	0.00008262	-22.535	0.00003566	-58.709	0.00009389	108.307
	0.00005782	134.72	0.00009773	-98.833	0.00009699	-176.566	0.0005178	90.184
	0.011	-176.327	0.0008917	85.482	0.0003525	78.479	0.0001669	72.023
	0.0001083	73.836	0.0001181	72.439	0.00007317	76.608	0.00004416	117.54
	0.0001197	92.736	0.0008607	85.658	0.005096	175.856	0.001249	84.928
	0.0002425	84.492	0.0001643	79.924	0.0001096	84.236	0.0001027	89.817
	0.00006991	-39.542	0.00007222	-28.018	0.0003599	82.291	0.001232	84.216
	0.011	98.84	0.0005087	82.728	0.0002199	82.523	0.0001778	89.601
	0.0001008	73.184	0.00006179	112.694	0.00003275	-68.51	0.0001774	84.705
	0.0002333	78.73	0.0004823	85.468	0.021	5.176	0.0001779	89.909
	0.0003119	80.501	0.0001681	80.696	0.0001561	102.938	0.00005876	112.467
	0.0001183	93.924	0.0001581	83.695	0.000235	87.459	0.001262	86.028
	0.005072	-13.221	0.0008039	87.778	0.0002172	86.877	0.0001752	98.35
	0.0000729	149.538	0.0001074	85.645	0.0001066	79.134	0.0001725	86.079
	0.00035	85.917	0.000812	87.792	0.001404	102.408	0.000936	86.04
	0.0003969	93.264	0.00006902	-122.872	0.0001095	67.62	0.0001383	80.61
	0.0001056	91.789	0.0001938	88.88	0.0002219	80.818	0.000965	86.512
	0.005236	27.667						
109.4	0.056	-27.588	0.916	-2.956	0.00007594	168.978	0.00008848	133.794
	0.00007147	-39.108	0.00002546	144.973	0.0001713	100.234	0.000271	94.04
	0.0004826	92.252	0.917	-3.03	0.07	-13.825	0.0006297	91.646
	0.0001956	88.911	0.00008601	-27.701	0.00001547	95.424	0.00009313	120.628
	0.00006525	92.767	0.0001356	-110.816	0.00007122	-176.482	0.0006208	91.311
	0.011	171.513	0.001098	86.208	0.0004074	78.182	0.0002017	71.637
	0.0001172	71.157	0.0001421	68.142	0.0001183	74.266	0.00005924	113.539
	0.000164	88.376	0.001046	85.479	0.005936	148.483	0.001498	84.194
	0.0003029	86.021	0.0002005	72.65	0.00009463	84.117	0.0001284	83.435
	0.0001177	-54.212	0.00009783	-43.381	0.0004172	82.18	0.001487	85.003
	0.014	95.527	0.0006075	84.52	0.0002813	86.639	0.0002078	82.451
	0.0001201	75.888	0.00005192	118.123	0.00003097	-99.302	0.0002215	88.035
	0.000296	82.049	0.0005539	84.168	0.022	14.259	0.0002079	82.696
	0.0003954	85.265	0.0001969	85.168	0.0001727	101.246	0.00007973	107.665
	0.0001553	87.373	0.0001855	81.983	0.0002523	82.104	0.001504	86.975
	0.005233	23.319	0.001004	87.084	0.0002648	79.556	0.000247	90.945
	0.00009198	139.066	0.0001415	89.402	0.0001169	89.938	0.0001649	88.994
	0.0004152	86.221	0.000984	88.696	0.002867	93.259	0.001147	86.319
	0.000492	94.666	0.0001168	-103.564	0.0001294	67.775	0.0001119	79.568
	0.0001179	75.519	0.0002268	86.325	0.0002676	79.703	0.001159	86.683
	0.007002	48.783						
129.25	0.055	-29.903	0.915	-3.516	0.00008067	170.123	0.0001005	117.484
	0.0001193	-37.996	0.00002464	130.159	0.0002274	94.084	0.0002947	97.535
	0.0005486	91.963	0.916	-3.547	0.069	-14.052	0.0007462	92.024
	0.0002669	89.984	0.0001157	-33.258	0.000034	-141.327	0.00007789	112.724
	0.00009567	103.923	0.000187	-113.173	0.00007588	165.639	0.0007225	90.803
	0.011	162.756	0.001253	85.87	0.0004581	84.01	0.0002416	76.322
	0.0001575	78.327	0.000153	81.139	0.000133	78.765	0.00007386	125.193
	0.0002474	94.085	0.001228	85.162	0.007042	135.164	0.001729	85.196
	0.0003217	89.277	0.0002141	84.352	0.0001402	87.87	0.0001239	83.9
	0.0001304	-56.561	0.0001177	-43.392	0.0004913	78.907	0.001734	85.252
	0.016	93.464	0.0006816	86.536	0.0003275	84.029	0.0002121	76.438
	0.0001319	84.166	0.00004242	116.738	0.00007012	-102.577	0.0002438	83.033
	0.000371	81.545	0.0006852	82.038	0.023	20.946	0.0002122	76.646
	0.0004733	84.792	0.0002398	86.327	0.0002078	98.469	0.00009328	112.446
	0.00017	77.438	0.0002259	80.899	0.0003293	77.849	0.001752	86.616
	0.006423	41.747	0.001176	87.344	0.000285	82.154	0.0003176	92.613
	0.00009622	114.05	0.0001913	83.402	0.0001623	81.99	0.0001961	82.14
	0.0004699	86.338	0.001184	87.225	0.003801	90.674	0.001362	86.217
	0.0005529	91.523	0.0001525	-106.126	0.0001422	77.17	0.0001063	92.785
	0.0001186	70.953	0.0002317	86.387	0.0003178	84.62	0.001376	86.698
	0.008867	55.938						
149.1	0.055	-32.736	0.913	-4.037	0.0001036	169.642	0.00009976	123.087
	0.0001615	-59.678	0.00002736	134.832	0.0002493	99.742	0.0003257	93.984
	0.0006515	93.595	0.914	-4.049	0.069	-14.631	0.0008711	92.088
	0.0002927	92.111	0.0001587	-52.47	0.00004743	-90.952	0.00007791	114.999
	0.0001054	116.158	0.0002041	-114.777	0.0001304	170.155	0.0008316	93.083
	0.011	155.741	0.001384	86.768	0.0005485	87.16	0.0002871	81.993
	0.0002303	80.853	0.000153	82.68	0.0001493	81.374	0.0001051	137.966
	0.000298	93.354	0.001411	86.386	0.008102	127	0.002001	85.436
	0.0003551	86.353	0.0002236	90.002	0.0001785	84.145	0.0001331	83.328
	0.0001793	-69.546	0.0001455	-55.733	0.0005746	79.318	0.001972	85.404
	0.017	92.814	0.0007937	83.894	0.0003523	76.661	0.0002485	76.316
	0.0001448	79.336	0.00002485	108.59	0.00008653	-104.203	0.0002892	88.604
	0.0004138	82.266	0.0008278	81.627	0.024	25.525	0.0002485	76.498
	0.0005289	84.692	0.0002971	82.969	0.0002466	93.268	0.00008228	114.492
	0.0001962	76.791	0.000238	76.34	0.0004061	82.4	0.00201	87.077
	0.008002	52.441	0.001362	86.376	0.0003421	84.332	0.0003488	95.347
	0.00009792	126.101	0.0001721	78.89	0.000187	79.916	0.0002299	80.018
	0.0005162	86.086	0.001333	87.429	0.00473	89.468	0.001591	87.312
	0.00063	92.455	0.0001543	-119.057	0.0001646	81.353	0.0001251	90.499
	0.0001425	70.682	0.0002545	85.957	0.0003632	83.326	0.001574	87.222
	0.011	60.797						
168.95	0.054	-35.498	0.912	-4.531	0.0001227	158.259	0.0001156	131
	0.0001764	-61.215	0.00005136	81.684	0.0002571	95.202	0.0003698	96.022
	0.0007316	93.737	0.912	-4.543	0.069	-15.455	0.0009618	92.172
	0.0003114	96.596	0.0001663	-62.802	0.00004397	-75.121	0.0000924	95.574
	0.0001173	115.464	0.0002358	-113.795	0.0001545	164.333	0.0009631	94.828
	0.012	150.042	0.001559	88.097	0.0006355	85.182	0.0003054	81.855
	0.0002296	76.55	0.0001837	80.305	0.0001979	86.217	0.00009867	131.104
	0.0003096	88.884	0.001578	86.68	0.009402	121.098	0.002277	85.984
	0.000416	80.744	0.0002438	87.619	0.0002078	82.878	0.0001632	80.538
	0.0002248	-72.297	0.0001652	-58.806	0.00061	80.958	0.00225	86.042
	0.019	92.19	0.0009244	81.658	0.0004129	77.787	0.0002659	74.603
	0.0001741	76.355	0.00002841	97.478	0.0000585	-148.571	0.000309	90.781
	0.0004345	84.593	0.0009182	81.56	0.025	29.259	0.0002659	74.766
	0.0005851	85.132	0.0003237	81.515	0.00027	90.36	0.00009811	118.123
	0.0002133	87.583	0.0002393	78.248	0.0004317	85.505	0.002271	87.718
	0.00948	59.392	0.001535	86.988	0.000395	86.966	0.0003796	94.306
	0.000132	110.865	0.0002116	79.458	0.0002047	79.018	0.0002454	82.312
	0.0005988	86.445	0.001502	87.258	0.005591	89.832	0.001777	86.643
	0.000726	94.954	0.0001898	-118.483	0.0002039	83.367	0.0001558	79.049
	0.0002029	71.118	0.0002882	86.634	0.0004259	83.355	0.001764	87.917
	0.012	64.5						
188.8	0.054	-38.301	0.911	-4.996	0.0001518	157.978	0.0001331	118.816
	0.0002212	-62.187	0.00005818	107.756	0.0003049	95.66	0.0004304	96.494
	0.000812	95.092	0.911	-5.006	0.069	-16.541	0.00106	93.579
	0.0003434	99.952	0.0001764	-62.309	0.00005759	-102.046	0.0001099	90.827
	0.0001203	120.883	0.0002478	-117.077	0.0001719	160.448	0.001099	96.652
	0.012	145.465	0.00174	87.631	0.0006948	81.918	0.0003165	78.098
	0.0002082	83.708	0.0002319	80.32	0.0002177	92.807	0.0001081	127.251
	0.0003276	93.846	0.001748	87.279	0.011	116.917	0.002508	86.449
	0.0004942	83.563	0.0002759	87.484	0.0002191	81.351	0.0001729	78.254
	0.000252	-67.609	0.0001715	-60.4	0.0006576	83.45	0.002526	86.177
	0.021	91.1	0.00104	83.533	0.0004707	82.141	0.0002886	78.241
	0.0001871	79.838	0.00005198	113.005	0.00005565	-151.288	0.0003228	82.004
	0.0004786	83.565	0.001005	82.591	0.026	32.758	0.0002886	78.387
	0.0006634	83.135	0.0003374	80.322	0.000311	95.27	0.0001363	110.168
	0.0002385	84.146	0.0002913	76.248	0.0004888	84.085	0.002552	86.668
	0.011	64.218	0.001699	88.071	0.0004307	89.945	0.0004473	94.691
	0.0001512	123.47	0.0002403	81.263	0.0002696	72.445	0.0002814	80.13
	0.0006936	84.003	0.001698	86.807	0.006231	89.952	0.00196	86.95
	0.0008337	95.923	0.0002369	-120.39	0.0002439	85.624	0.0001771	85.185
	0.0002291	79.915	0.0003235	82.873	0.0004935	82.428	0.00196	87.857
	0.014	66.858						
208.65	0.055	-41.544	0.91	-5.433	0.0001746	151.608	0.000146	133.931
	0.0002569	-75.193	0.00008968	129.732	0.000339	94.546	0.0004661	98.094
	0.0008968	96.285	0.91	-5.428	0.069	-17.74	0.00117	94.707
	0.0003538	99.315	0.0002155	-67.627	0.0000575	-138.451	0.0001333	115.387
	0.0001319	118.952	0.0002593	-123.799	0.0001864	160.345	0.001188	95.476
	0.013	142.508	0.001928	87.855	0.0007421	82.908	0.0003352	77.449
	0.0002372	88.224	0.0002761	80.741	0.0002235	85.423	0.0001914	129.279
	0.0003491	95.04	0.001945	87.769	0.012	114.248	0.002763	86.318
	0.000556	86.662	0.0003172	83.641	0.0002629	85.286	0.0001861	85.708
	0.0002978	-71.552	0.0002083	-67.204	0.0007687	83.808	0.002785	86.084
	0.023	90.358	0.001132	83.303	0.0005271	83.04	0.0003208	78.646
	0.0001821	87.145	0.00008393	149.585	0.00009079	-103.385	0.0003585	80.716
	0.0005326	84.251	0.001109	81.618	0.027	35.864	0.0003208	78.78
	0.0007376	85.645	0.0003573	80.492	0.0003329	93.756	0.0001609	109.704
	0.0002621	85.891	0.0003443	79.268	0.0005216	79.59	0.002831	86.23
	0.012	66.805	0.001867	87.123	0.0004788	90.263	0.0005039	97.855
	0.0001189	130.791	0.0002542	77.922	0.0002995	80.395	0.0003167	83.484
	0.0007609	85.711	0.00186	88.024	0.006648	89.145	0.002183	87.274
	0.0009174	94.822	0.0002685	-122.722	0.0002517	81.539	0.0001763	84.71
	0.0002326	86.882	0.0003903	86.437	0.0005168	83.525	0.002182	87.944
	0.015	68.667						
228.5	0.056	-44.715	0.908	-5.805	0.0002222	151.094	0.0001804	146.739
	0.000296	-77.2	0.0001083	154.444	0.0003544	95.436	0.0005049	98.438
	0.0009605	99.392	0.909	-5.839	0.069	-18.817	0.001268	95.609
	0.0003947	100.967	0.0002238	-71.995	0.00008134	-136.932	0.0001313	119.99
	0.0001412	121.462	0.0002757	-131.569	0.0002162	156.445	0.001259	96.106
	0.013	139.926	0.002126	88.326	0.0007903	84.338	0.0003684	81.957
	0.0002575	86.077	0.0002886	80.955	0.0002305	86.839	0.0001877	131.243
	0.0003882	101.274	0.002146	87.566	0.012	112.747	0.00305	86.33
	0.0005977	86.376	0.0003555	82.849	0.0002757	84.422	0.0002253	81.993
	0.000325	-77.191	0.0002522	-76.554	0.0008578	82.631	0.003009	85.827
	0.025	89.843	0.001221	82.414	0.0005865	80.759	0.0003594	82.267
	0.0002085	89.08	0.00009037	153.584	0.00009216	-141.781	0.0004097	80.499
	0.0005564	82.692	0.001207	82.395	0.028	38.092	0.0003594	82.391
	0.000832	86.792	0.0004097	83.899	0.0003776	94.085	0.0001781	120.752
	0.0002841	86.317	0.0003491	85.186	0.0005581	78.495	0.003109	87.063
	0.013	69.747	0.002017	87.433	0.0005295	81.483	0.0005317	97.546
	0.0001402	119.757	0.0003044	81.771	0.0002873	84.173	0.0003367	83.433
	0.0008255	84.99	0.002045	87.406	0.00711	89.198	0.002365	87.383
	0.0009933	95.745	0.0002973	-122.519	0.0002415	84.182	0.0002054	83.966
	0.0002234	84.989	0.0003909	88.653	0.000561	84.554	0.002376	88.133
	0.016	69.554						
248.35	0.056	-47.804	0.908	-6.192	0.0002943	160.966	0.0001943	145.694
	0.0003613	-78.589	0.0001042	158.346	0.0003943	96.221	0.0005427	96.857
	0.001063	99.674	0.907	-6.252	0.069	-19.995	0.00137	95.694
	0.0004289	106.754	0.0002935	-83.259	0.0001224	-127.719	0.0001749	114.325
	0.0001519	116.095	0.0003261	-130.143	0.0002574	164.347	0.001356	96.635
	0.014	137.522	0.002314	88.101	0.000906	82.662	0.000423	81.214
	0.0002745	84.837	0.0002998	86.32	0.0002669	87.585	0.000174	134.976
	0.0004371	103.926	0.002329	87.302	0.013	110.428	0.00331	86.065
	0.0006329	83.605	0.0003662	81.093	0.0002945	78.825	0.000245	78.089
	0.0003399	-86.606	0.0002842	-79.805	0.0009312	83.361	0.003265	86.055
	0.026	89.239	0.001321	84.05	0.0006588	80.719	0.0003934	82.68
	0.0002544	82.535	0.00008895	166.428	0.0001067	-137.791	0.0004372	81.629
	0.0006454	82.198	0.001338	83.694	0.029	40.198	0.0003934	82.794
	0.0009199	86.758	0.0004359	87.794	0.0004324	97.695	0.0001606	118.799
	0.0003012	85.3	0.0003625	84.914	0.0006026	80.929	0.003322	87.744
	0.014	72.736	0.002207	87.537	0.0005827	85.355	0.0005659	97.128
	0.0001885	114.101	0.0002869	85.484	0.0002941	83.234	0.0003917	77.771
	0.0008779	85.218	0.002215	87.255	0.007415	88.501	0.002557	88.081
	0.00106	96.89	0.0003194	-124.949	0.000267	85.543	0.0002366	93.6
	0.0002421	81.373	0.0004235	83.024	0.0005974	82.958	0.002551	88.456
	0.017	70.37						
268.2	0.057	-51.207	0.908	-6.586	0.0003339	163.715	0.0002358	146.129
	0.0004052	-86.816	0.00009539	161.346	0.000436	100.701	0.0005951	97.651
	0.00117	99.456	0.907	-6.66	0.069	-21.571	0.001503	96.432
	0.0004615	104.676	0.000335	-89.8	0.0001432	-125.404	0.000189	125.619
	0.0001749	121.377	0.0003781	-130.515	0.0003126	171.231	0.001508	97.105
	0.014	135.732	0.002479	87.604	0.0009747	82.897	0.0004947	79.249
	0.0002974	78.688	0.0003082	84.026	0.0002982	84.886	0.0001947	146.242
	0.0004569	105.147	0.002505	88.543	0.014	109.187	0.003544	86.277
	0.0007003	81.554	0.0004267	80.842	0.0003217	80.656	0.0002538	77.851
	0.0003877	-88.956	0.0003046	-81.252	0.0009802	82.625	0.003507	86.203
	0.028	88.855	0.00144	83.051	0.0006656	79.112	0.0004215	79.16
	0.0002702	83.383	0.00008401	146.278	0.0001362	-129.693	0.0004593	84.039
	0.0006778	83.5	0.001458	81.953	0.03	42.33	0.0004215	79.267
	0.0009812	86.121	0.0004521	83.209	0.0004313	99.378	0.00017	117.512
	0.0003219	86.138	0.0004158	84.489	0.0006715	80.986	0.003579	87.553
	0.015	74.988	0.002364	87.865	0.0006415	87.098	0.0005909	99.909
	0.0002052	114.748	0.0003098	83.245	0.0003096	83.628	0.0004477	76.844
	0.0009365	84.164	0.002376	87.656	0.007899	88.778	0.002773	87.798
	0.001153	98.661	0.0003458	-126.091	0.0002995	82.632	0.0002611	78.521
	0.0002898	78.079	0.0004703	83.855	0.0006425	84.971	0.002768	88.279
	0.018	71.087						
288.05	0.058	-54.642	0.908	-7.014	0.0003533	163.935	0.0002603	151.136
	0.0004785	-92.258	0.0001055	154.26	0.0004835	102.179	0.0006718	98.768
	0.001249	100.516	0.908	-7.121	0.069	-23.043	0.001604	98.694
	0.0004818	107.631	0.000369	-91.202	0.0001643	-121.271	0.0001982	131.823
	0.0002385	123.691	0.0003804	-139.039	0.0003491	168.361	0.001634	98.161
	0.014	133.712	0.002681	89.314	0.001021	83.333	0.0005193	83.58
	0.0003295	83.137	0.0003245	84.015	0.000315	81.571	0.0002414	144.155
	0.0004908	105.263	0.002638	88.902	0.015	108.292	0.003788	86.347
	0.0007449	84.047	0.0004358	78.605	0.0003677	84.287	0.0002423	76.247
	0.000463	-90.032	0.0003675	-87.648	0.001036	83.171	0.003761	86.717
	0.03	88.398	0.001535	82.784	0.0007087	79.66	0.0004405	80.379
	0.0003002	80.508	0.00009204	146.755	0.0001458	-126.022	0.000526	83.516
	0.0007205	83.568	0.001554	81.965	0.031	44.221	0.0004405	80.48
	0.001045	86.268	0.0005024	81.023	0.0004413	100.889	0.0001841	115.746
	0.000358	86.116	0.0004425	85.175	0.0006713	79.683	0.00387	87.994
	0.016	76.908	0.002545	88.984	0.0006779	86.695	0.0006445	100.253
	0.0002285	125.971	0.0003447	87.075	0.0003416	82.848	0.0004428	75.318
	0.001022	84.633	0.00254	87.8	0.008328	88.895	0.002981	88.461
