!Hittite Microwave Corporation								
!12 Elizabeth Drive								
!Chelmsford, MA 01824								
!Tel: 978-250-3343								
!Fax: 978-250-3373								
!Device: HMC182S14, DC-2 GHz GaAS MMIC SP4T Non-Reflective Switch in 14-lead SOIC package								
!Misc: Port 1 = RFCom, Port 2 = RF1, Port 3 = RF2, Port 4 = RF3, Port 5 = RF4, RF4 selected, Vctl=0/-5V							
!
# MHZ S MA R 50

30	0.127	-43.716	0.0002933	93.774	0.0001122	111.151	0.00004361	101.654
	0.906	4.343	0.000258	87.629	0.081	-36.289	0.0003066	81.208
	0.0001923	76.993	0.00008209	-132.455	0.00007795	122.687	0.0002872	78.319
	0.078	-34.147	0.0003532	83.229	0.00002735	-86.816	0.00005071	55.184
	0.0001496	64.346	0.0003479	88.415	0.079	-35.217	0.00006397	88.683
	0.906	4.288	0.00007457	-97.217	0.00002962	-13.722	0.00007446	53.955
	0.126	-45.562						
49.85	0.088	-32.957	0.0004738	88.941	0.00016	91.62	0.00004204	92.51
	0.92	0.972	0.0004333	85.527	0.06	-22.715	0.0005006	81.912
	0.0002664	85.747	0.0001125	-96.079	0.0001245	91.245	0.0004825	86.118
	0.059	-21.009	0.0005887	89.417	0.00001341	-101.356	0.00006314	66.527
	0.0002414	81.846	0.0005827	87.613	0.059	-21.842	0.00007621	81.073
	0.921	0.961	0.00009681	-97.7	0.00003756	-57.343	0.00009978	73.66
	0.086	-35.119						
69.7	0.077	-28.139	0.0006268	88.395	0.0001913	90.057	0.00007019	97.601
	0.924	-0.445	0.0006217	87.535	0.055	-16.922	0.000715	85.695
	0.0003372	82.311	0.0001462	-94.005	0.0002016	89.053	0.0006656	86.754
	0.054	-15.668	0.000799	86.771	0.00004417	-108.191	0.00006843	81.426
	0.0003242	86.991	0.0008327	86.788	0.054	-16.121	0.0001072	75.371
	0.924	-0.463	0.0001467	-93.587	0.00006346	-98.153	0.0001116	78.027
	0.074	-30.19						
89.55	0.072	-25.689	0.0007981	88.802	0.0002381	87.286	0.00007	94.244
	0.926	-1.462	0.0007968	88.078	0.052	-13.112	0.0009043	85.499
	0.0004364	81.086	0.0001853	-96.725	0.000242	88.456	0.0008583	83.912
	0.051	-12.541	0.001029	84.809	0.00006553	-73.591	0.00006565	90.046
	0.0004348	80.995	0.001051	85.814	0.052	-12.537	0.0001381	76.4
	0.925	-1.485	0.0002105	-86.708	0.00009565	-93.912	0.0001303	75.478
	0.068	-27.266						
109.4	0.068	-24.261	0.0009713	87.086	0.0002691	89.433	0.0000578	90.164
	0.927	-2.341	0.0009673	87.487	0.05	-10.151	0.001082	83.727
	0.0005469	82.727	0.000249	-99.487	0.0002841	88.392	0.00108	83.713
	0.05	-10.143	0.001267	84.518	0.00009468	-99.519	0.00006712	87.237
	0.0005429	79.556	0.00127	84.161	0.05	-9.784	0.000144	79.303
	0.926	-2.326	0.000274	-87.595	0.00009321	-103.782	0.0001641	83.603
	0.064	-25.425						
129.25	0.066	-23.245	0.001122	87.424	0.000314	86.209	0.0000808	82.887
	0.928	-3.148	0.001136	87.545	0.049	-7.86	0.001291	84.068
	0.0006383	83.075	0.0002919	-102.553	0.0003354	93.239	0.001289	82.537
	0.049	-8.268	0.001483	84.351	0.0001217	-102.246	0.00007564	108.891
	0.0006282	79.51	0.001516	84.828	0.049	-7.586	0.0001537	89.461
	0.928	-3.102	0.0003176	-94.91	0.0001019	-118.566	0.0001617	91.709
	0.062	-24.429						
149.1	0.065	-22.712	0.001261	87.866	0.0003846	91.013	0.0001077	97.452
	0.928	-3.921	0.001297	88.27	0.049	-5.901	0.001499	83.809
	0.0007433	83.12	0.000338	-104.192	0.0003544	91.302	0.001482	82.122
	0.048	-6.717	0.001733	84.633	0.0001388	-103.62	0.00009852	113.235
	0.0007046	81.744	0.001742	83.241	0.048	-5.691	0.0001743	98.927
	0.929	-3.866	0.0003517	-100.811	0.000144	-122.072	0.0001635	98.104
	0.06	-23.626						
168.95	0.064	-22.449	0.00144	88.96	0.0004141	91.798	0.0001483	121.566
	0.929	-4.638	0.001457	88.098	0.048	-4.204	0.001687	83.632
	0.0008396	82.429	0.0004002	-105.981	0.0004075	93.13	0.001644	82.312
	0.048	-5.283	0.001981	83.607	0.000195	-118.906	0.0001128	124.191
	0.0008083	82.766	0.001976	81.931	0.048	-3.944	0.0001968	104.679
	0.929	-4.65	0.0003944	-104.588	0.0001706	-123.629	0.000202	103.31
	0.059	-22.943						
188.8	0.063	-22.348	0.001634	88.464	0.0004459	94.343	0.000172	120.018
	0.93	-5.335	0.001648	87.133	0.048	-2.654	0.001874	82.377
	0.0009141	83.056	0.0004656	-107.237	0.000433	94.029	0.001839	82.196
	0.048	-4.037	0.002198	82.319	0.0002155	-126.227	0.00014	127.019
	0.00091	81.651	0.002226	81.521	0.048	-2.386	0.0002298	108.279
	0.928	-5.399	0.0004241	-106.638	0.0002043	-125.082	0.0002531	109.643
	0.058	-22.539						
208.65	0.062	-22.505	0.001818	88.502	0.0005145	97.85	0.0001612	124.635
	0.93	-6.04	0.001807	88.221	0.048	-1.247	0.002037	81.47
	0.001001	81.789	0.0005207	-109.922	0.0004692	96.844	0.002036	81.207
	0.048	-2.939	0.002439	81.056	0.0002209	-121.8	0.0001659	139.454
	0.001027	81.176	0.002452	81.325	0.048	-0.924	0.0002379	110.886
	0.929	-6.094	0.0004805	-111.925	0.0002381	-131.127	0.0002637	113.412
	0.057	-22.319						
228.5	0.061	-22.77	0.002001	89.277	0.0005322	97.226	0.0002169	130.564
	0.93	-6.733	0.001959	88.844	0.048	0.046	0.002253	80.932
	0.001085	80.894	0.0005388	-113.337	0.0005607	99.528	0.002221	81.527
	0.048	-1.878	0.002674	80.19	0.0002362	-130.253	0.0002114	141.026
	0.001137	80.496	0.002711	80.97	0.048	0.399	0.0002684	115.586
	0.929	-6.782	0.0005481	-112.2	0.0002569	-139.516	0.0003175	113.649
	0.056	-22.123						
248.35	0.061	-22.856	0.002129	88.974	0.0006225	100.362	0.0002518	140.937
	0.929	-7.392	0.002147	88.139	0.048	1.286	0.002483	80.746
	0.001201	80.16	0.000581	-113.463	0.000611	98.869	0.002406	80.931
	0.048	-0.908	0.002937	79.627	0.0003019	-139.456	0.0002522	140.866
	0.001211	79.385	0.002951	79.677	0.048	1.615	0.0003232	115.652
	0.929	-7.465	0.0005827	-112.892	0.000282	-143.242	0.0003648	121.742
	0.055	-21.891						
268.2	0.06	-23.167	0.002282	88.697	0.0006943	99.649	0.0002833	141.564
	0.929	-8.05	0.002312	87.913	0.048	2.444	0.002647	80.372
	0.001301	79.681	0.0006438	-115.163	0.0006659	101.687	0.002603	80.242
	0.048	-0.025	0.003198	78.693	0.0003484	-141.356	0.0002817	139.293
	0.001298	78.25	0.003187	79.088	0.049	2.782	0.0003859	119.281
	0.93	-8.106	0.00066	-114.724	0.0003306	-138.491	0.0003962	120.598
	0.055	-21.83						
288.05	0.06	-23.561	0.002454	88.262	0.0006999	102.553	0.0003661	142.17
	0.93	-8.713	0.002473	88.683	0.048	3.551	0.002823	79.144
	0.0014	78.894	0.0006853	-119.295	0.0007432	100.852	0.002819	79.527
	0.048	0.806	0.003446	77.92	0.000389	-141.379	0.0003225	140.671
	0.001401	78.398	0.003459	78.123	0.049	3.884	0.0004414	125.237
	0.931	-8.769	0.0007291	-117.541	0.0003681	-142.919	0.0004518	124.61
	0.054	-21.855						
307.9	0.06	-23.997	0.002619	88.545	0.000782	104.092	0.000377	140.179
	0.931	-9.41	0.002634	89.003	0.048	4.582	0.00301	78.33
	0.001513	77.323	0.000741	-121.917	0.0008004	102.433	0.003009	78.404
	0.049	1.539	0.003747	77.213	0.000405	-142.856	0.0004111	143.059
	0.001518	78.397	0.003713	76.713	0.049	4.843	0.0005009	130.055
	0.931	-9.461	0.0007821	-119.889	0.0003723	-145.319	0.0004926	127.656
	0.054	-21.894						
327.75	0.06	-24.453	0.002804	88.222	0.0008533	102.698	0.0004264	145.627
	0.932	-10.105	0.002798	89.455	0.048	5.447	0.003194	78.158
	0.001635	76.156	0.000811	-121.257	0.0008494	104.586	0.003184	77.852
	0.049	2.191	0.004003	76.243	0.0004374	-146.848	0.000457	145.625
	0.001624	77.057	0.003955	75.572	0.05	5.657	0.0005461	127.3
	0.932	-10.109	0.0008453	-123.275	0.0004174	-147.732	0.0005247	129.962
	0.053	-22.079						
347.6	0.059	-25.064	0.002959	88.47	0.0008814	105.774	0.0004988	147.85
	0.932	-10.787	0.002981	88.275	0.048	6.299	0.003419	77.686
	0.00173	75.453	0.0008699	-122.726	0.0009013	104.369	0.003403	78.082
	0.049	2.812	0.004265	74.96	0.0004828	-146.645	0.0004903	147.591
	0.001733	76.347	0.004236	74.7	0.05	6.534	0.00059	126.647
	0.931	-10.783	0.0008694	-123.166	0.0005034	-153.117	0.0006073	132.363
	0.053	-22.22						
367.45	0.059	-25.629	0.00313	89.078	0.0009984	105.625	0.0005667	148.028
	0.932	-11.453	0.003143	87.993	0.049	7.001	0.003621	76.759
	0.001805	73.488	0.000953	-127.526	0.0009863	104.936	0.003632	76.862
	0.05	3.282	0.004506	74.064	0.0005385	-151.997	0.0005423	148.351
	0.001842	75.502	0.004489	73.4	0.051	7.301	0.0006594	128.852
	0.931	-11.477	0.0009369	-125.398	0.0005177	-155.73	0.000687	132.333
	0.052	-22.497						
387.3	0.059	-26.235	0.003314	88.908	0.001075	108.087	0.0006164	145.535
	0.931	-12.096	0.003292	88.199	0.049	7.701	0.003812	75.902
	0.001941	73.623	0.001006	-126.913	0.001045	106.72	0.003826	75.694
	0.05	3.662	0.004778	73.529	0.0005736	-152.246	0.000591	149.94
	0.001919	74.292	0.004753	72.741	0.052	7.974	0.0007126	129.465
	0.931	-12.148	0.0009978	-129.54	0.0005454	-155.155	0.0007495	131.244
	0.052	-22.894						
407.15	0.059	-26.876	0.003476	88.474	0.001141	107.543	0.0006745	145.118
	0.931	-12.784	0.0035	87.888	0.049	8.315	0.004015	75.523
	0.002039	72.719	0.001083	-129.212	0.001103	109.011	0.003981	75.36
	0.051	4.021	0.005038	71.962	0.000635	-158.214	0.0006935	148.529
	0.002033	72.867	0.004997	72.081	0.052	8.546	0.0008136	129.179
	0.93	-12.806	0.001052	-130.587	0.0006038	-155.396	0.0007787	129.775
	0.052	-23.249						
427	0.059	-27.568	0.003642	88.419	0.001179	106.964	0.0007504	147.769
	0.931	-13.436	0.003681	88.059	0.049	8.876	0.004201	74.401
	0.002141	72.095	0.001116	-130.723	0.001192	109.651	0.004218	75.202
	0.051	4.326	0.005321	70.647	0.0007094	-163.093	0.0007795	146.857
	0.002117	71.986	0.005287	70.532	0.053	9.031	0.0008773	131.271
	0.93	-13.438	0.001125	-132.181	0.0006654	-159.563	0.0008703	132.787
	0.051	-23.63						
446.85	0.059	-28.27	0.003838	88.797	0.001295	108.4	0.0008383	148.181
	0.931	-14.067	0.003839	88.717	0.05	9.361	0.004401	73.889
	0.002286	71.04	0.001186	-132.947	0.001228	110.393	0.00439	74.544
	0.052	4.553	0.00557	69.176	0.000737	-162.297	0.0008494	147.919
	0.002229	71.104	0.005611	68.863	0.054	9.539	0.0009405	131.473
	0.931	-14.077	0.001185	-134.474	0.0007235	-165.876	0.0009573	133.561
	0.051	-24.168						
466.7	0.059	-29.07	0.004029	89.784	0.001359	109.593	0.0009191	148.163
	0.93	-14.666	0.003986	88.812	0.05	9.684	0.004594	73.749
	0.002365	69.837	0.001248	-136.388	0.001372	109.375	0.004568	72.895
	0.052	4.698	0.005852	67.989	0.0007914	-166.138	0.0009257	149.42
	0.002356	69.355	0.005854	67.675	0.055	9.87	0.001026	132.497
	0.93	-14.676	0.001255	-136.436	0.0007959	-165.213	0.001042	133.214
	0.051	-24.75						
486.55	0.059	-29.855	0.004185	89.089	0.001422	109.066	0.001005	146.618
	0.931	-15.284	0.004193	88.891	0.051	10.053	0.004806	72.554
	0.002491	68.643	0.001316	-138.328	0.001438	111.235	0.004801	72.553
	0.053	4.809	0.006127	66.352	0.0008282	-168.734	0.001005	147.236
	0.00249	68.9	0.006116	66.265	0.055	10.131	0.00112	131.782
	0.931	-15.294	0.001312	-138.383	0.0008571	-166.257	0.001124	132.742
	0.051	-25.565						
506.4	0.059	-30.648	0.004421	88.769	0.0015	110.472	0.001096	147.699
	0.931	-15.934	0.00441	88.871	0.051	10.424	0.00501	72.03
	0.002606	67.421	0.001373	-140.182	0.001493	110.488	0.005011	71.78
	0.054	4.931	0.006399	65.166	0.0008921	-170.271	0.001093	146.61
	0.002588	66.923	0.006407	64.996	0.056	10.359	0.001232	131.202
	0.931	-15.942	0.001378	-140.211	0.0008933	-170.725	0.001229	132.892
	0.05	-26.239						
526.25	0.059	-31.675	0.004574	88.689	0.001581	111.005	0.001173	147.138
	0.932	-16.605	0.004591	88.545	0.052	10.828	0.005193	71.126
	0.002688	66.147	0.001415	-141.524	0.001586	111.882	0.005196	71.04
	0.055	5.052	0.006684	63.257	0.0009415	-172.342	0.001192	147.151
	0.002697	65.082	0.00672	63.435	0.057	10.516	0.001326	130.758
	0.931	-16.621	0.001447	-143.143	0.0009691	-170.736	0.001349	130.737
	0.05	-26.913						
546.1	0.059	-33.391	0.004759	88.824	0.001682	111.101	0.001285	147.064
	0.932	-17.273	0.004739	88.658	0.052	11.173	0.005385	70.191
	0.002816	64.005	0.001492	-144.16	0.001667	113.037	0.005382	70.23
	0.055	5.117	0.006957	61.665	0.001052	-172.402	0.001318	147.112
	0.002854	63.454	0.006981	61.543	0.058	10.632	0.001428	131.813
	0.932	-17.346	0.001492	-144.259	0.001066	-176.171	0.001426	130.898
	0.05	-27.643						
565.95	0.059	-34.254	0.004964	88.696	0.001796	112.547	0.001366	147.651
	0.931	-18.007	0.004972	88.718	0.053	11.775	0.005564	69.51
	0.002907	62.833	0.001611	-144.328	0.001792	112.488	0.00557	69.347
	0.056	5.457	0.007247	59.804	0.0011	-174.631	0.001386	148.104
	0.002956	62.692	0.007271	59.864	0.059	10.553	0.001543	132.649
	0.931	-18.013	0.001547	-144.616	0.001154	-178.954	0.001503	132.022
	0.05	-28.559						
585.8	0.059	-35.089	0.005145	88.858	0.001894	112.906	0.001478	146.748
	0.932	-18.605	0.005112	88.748	0.053	12.034	0.005786	68.807
	0.003017	61.373	0.001635	-146.729	0.001852	113.082	0.005773	68.399
	0.057	5.434	0.007542	57.901	0.001221	-178.676	0.001499	147.569
	0.003058	61.349	0.007553	58.104	0.06	10.403	0.001627	131.815
	0.932	-18.7	0.001639	-146.626	0.001188	179.951	0.001639	132.246
	0.049	-29.262						
605.65	0.059	-35.92	0.005309	88.794	0.001967	113.847	0.001588	145.905
	0.931	-19.236	0.005326	88.79	0.054	12.45	0.005928	68.038
	0.003121	59.728	0.001729	-148.828	0.001972	113.106	0.00599	67.715
	0.058	5.463	0.00783	56.032	0.001282	179.547	0.001609	146.342
	0.003173	59.793	0.007809	55.827	0.061	10.172	0.001779	131.311
	0.932	-19.349	0.001695	-148.621	0.001284	179.324	0.001739	130.361
	0.049	-30.22						
625.5	0.059	-36.742	0.005475	88.239	0.002065	113.688	0.001701	143.519
	0.931	-19.947	0.005473	88.509	0.054	12.883	0.006132	66.481
	0.003217	57.211	0.001804	-150.766	0.002053	112.841	0.006146	66.964
	0.059	5.525	0.008018	53.768	0.001319	176.074	0.001721	143.7
	0.003236	57.197	0.008032	53.898	0.062	9.898	0.001857	129.76
	0.931	-20.01	0.001789	-150.572	0.001384	177.828	0.001879	129.187
	0.049	-31.212						
645.35	0.059	-37.816	0.005684	88.628	0.002174	113.471	0.0018	143.869
	0.93	-20.543	0.00563	88.911	0.054	13.239	0.006359	65.926
	0.00331	56.326	0.001875	-151.324	0.002192	113.848	0.00633	65.575
	0.059	5.451	0.008253	51.709	0.001384	175.732	0.001807	145.349
	0.003335	55.929	0.008237	51.575	0.063	9.424	0.002005	129.053
	0.93	-20.62	0.001855	-152.531	0.001385	174.741	0.001987	129.122
	0.049	-32.264						
665.2	0.059	-38.852	0.005853	88.578	0.002311	113.148	0.00193	142.637
	0.931	-21.183	0.005875	88.825	0.055	13.472	0.006487	65.03
	0.003399	54.791	0.001971	-154.365	0.00231	113.265	0.006508	65.014
	0.06	5.304	0.008449	49.129	0.001504	171.964	0.001963	142.713
	0.003437	54.123	0.008447	49.274	0.064	8.785	0.002163	128.916
	0.93	-21.233	0.001906	-155.092	0.001494	172.534	0.002134	128.924
	0.048	-33.337						
685.05	0.059	-39.862	0.006071	88.55	0.002421	112.849	0.002051	141.925
	0.931	-21.825	0.006049	88.678	0.055	13.596	0.00671	64.057
	0.003464	51.638	0.002002	-155.994	0.002419	113.931	0.006648	64.096
	0.06	4.999	0.008598	46.727	0.001557	170.913	0.002055	141.309
	0.00345	52.893	0.00858	46.641	0.065	8.125	0.002279	127.344
	0.932	-21.865	0.001989	-155.281	0.001581	171.134	0.002304	127.885
	0.048	-34.619						
704.9	0.059	-40.991	0.006229	88.416	0.002492	113.469	0.002174	140.429
	0.931	-22.557	0.00627	88.765	0.055	13.689	0.006821	62.882
	0.003511	50.829	0.002064	-157.856	0.002486	113.776	0.00684	63.141
	0.061	4.742	0.008677	44.336	0.001659	169.253	0.002159	139.098
	0.003517	50.339	0.008675	44.406	0.065	7.324	0.002405	126.582
	0.93	-22.498	0.00213	-156.349	0.001616	168.076	0.002377	125.657
	0.047	-35.778						
724.75	0.059	-42.227	0.006437	88.593	0.00266	113.235	0.002338	139.05
	0.929	-23.023	0.006469	88.367	0.055	13.545	0.006979	62.332
	0.00354	48.354	0.002168	-159.518	0.002615	113.331	0.007042	62.54
	0.062	4.135	0.008753	41.972	0.00168	166.683	0.002277	139.035
	0.003517	48.3	0.008715	41.898	0.066	6.497	0.002518	125.59
	0.93	-23.121	0.002209	-159.565	0.001707	166.275	0.002528	124.994
	0.047	-37.008						
744.6	0.059	-43.306	0.006651	88.442	0.002763	112.976	0.002416	137.336
	0.93	-23.643	0.006598	88.341	0.055	13.42	0.007146	62.021
	0.003518	46.166	0.002212	-160.715	0.002718	113.227	0.007179	61.707
	0.062	3.702	0.008762	39.464	0.001777	164.846	0.002473	137.606
	0.003526	46.422	0.00876	39.165	0.066	5.651	0.002663	124.075
	0.931	-23.72	0.002255	-160.78	0.001796	165.333	0.002617	122.846
	0.047	-38.513						
764.45	0.059	-44.411	0.006841	88.37	0.00284	112.503	0.0025	136.484
	0.93	-24.374	0.006803	88.388	0.056	13.178	0.00727	60.483
	0.003538	43.216	0.002322	-163.202	0.002845	112.692	0.00731	60.73
	0.063	3.093	0.008729	37.105	0.001821	163.772	0.002517	135.964
	0.003533	44.013	0.008691	37.046	0.066	4.764	0.002784	122.044
	0.93	-24.365	0.00236	-162.553	0.001905	164.632	0.002802	122.273
	0.046	-39.465						
784.3	0.059	-45.673	0.006991	88.417	0.002971	111.849	0.002654	135.377
	0.932	-24.945	0.007023	88.248	0.056	12.786	0.00742	60.454
	0.003533	43.05	0.002387	-164.111	0.002996	112.165	0.007395	59.996
	0.063	2.364	0.008592	34.989	0.001892	161.642	0.002669	134.629
	0.003513	42.811	0.008611	34.643	0.067	3.947	0.002921	121.258
	0.93	-24.993	0.002405	-164.045	0.001943	161.624	0.002889	121.645
	0.045	-41.047						
804.15	0.059	-46.875	0.007208	88.378	0.003053	111.901	0.002768	134.513
	0.932	-25.691	0.007234	88.027	0.056	12.628	0.007532	59.274
	0.003498	41.271	0.00247	-165.989	0.003098	112.292	0.007523	59.501
	0.064	1.904	0.008447	33.126	0.002021	159.2	0.00274	134.028
	0.003478	41.63	0.008447	33.563	0.067	3.418	0.002953	119.668
	0.932	-25.671	0.002507	-166.578	0.002014	160.754	0.003015	120.164
	0.045	-41.755						
824	0.059	-47.926	0.007415	87.803	0.003183	111.984	0.002824	132.674
	0.931	-26.329	0.007467	87.922	0.057	12.17	0.007679	58.949
	0.003454	40.837	0.002576	-167.688	0.003209	112.084	0.007679	58.633
	0.065	1.205	0.008267	31.625	0.002078	157.853	0.002857	132.363
	0.003462	41.058	0.008229	31.638	0.067	2.77	0.003094	118.571
	0.932	-26.418	0.002579	-168.188	0.002094	159.083	0.003095	118.52
	0.045	-43.157						
843.85	0.06	-48.894	0.007603	88.126	0.003353	110.749	0.002993	131.381
	0.93	-27.057	0.007605	87.53	0.057	11.942	0.007741	58.406
	0.003423	40.205	0.002656	-168.563	0.003347	111.798	0.007785	57.89
	0.066	0.811	0.008082	30.947	0.002149	156.559	0.002945	130.583
	0.003439	40.494	0.008072	30.693	0.066	2.446	0.003213	117.826
	0.931	-27.108	0.002658	-168.472	0.002187	155.814	0.003175	117.725
	0.044	-44.215						
863.7	0.06	-50.079	0.007804	87.818	0.003443	111.511	0.002984	130.921
	0.929	-27.747	0.007839	87.727	0.058	11.681	0.007944	57.513
	0.003389	40.095	0.002703	-170.518	0.003443	111.263	0.007901	58.106
	0.067	0.361	0.007848	30.139	0.002257	154.62	0.00305	130.421
	0.003367	39.939	0.007839	29.986	0.066	2.221	0.003298	116.704
	0.93	-27.739	0.002738	-170.696	0.002254	155.87	0.003275	116.456
	0.043	-45.6						
883.55	0.06	-50.829	0.008053	87.555	0.003558	110.381	0.003084	130.801
	0.928	-28.341	0.008029	87.34	0.059	11.403	0.008048	57.338
	0.003332	39.688	0.002822	-171.657	0.003542	111.017	0.008037	57.223
	0.068	-0.024	0.007662	29.958	0.002303	154.252	0.003076	129.558
	0.003357	39.776	0.00767	30.123	0.066	2.095	0.003423	115.621
	0.929	-28.513	0.002833	-172.887	0.002286	154.688	0.003369	116.109
	0.043	-47.161						
903.4	0.06	-51.407	0.00817	87.425	0.003648	110.804	0.003149	130.128
	0.926	-29.075	0.008222	87.576	0.059	11.353	0.008159	56.735
	0.003327	38.478	0.002921	-172.952	0.003679	110.026	0.008167	56.943
	0.069	-0.258	0.007449	29.844	0.00237	152.897	0.003166	129.948
	0.003285	39.568	0.007409	30.156	0.066	2.209	0.003484	114.553
	0.928	-29.085	0.00294	-173.342	0.002379	153.017	0.003451	116.009
	0.042	-48.47						
923.25	0.06	-52	0.008416	87.484	0.003731	110.009	0.00326	129.464
	0.927	-29.62	0.008366	87.261	0.06	11.276	0.008271	56.388
	0.003309	40.468	0.003044	-174.164	0.003783	110.654	0.008325	56.087
	0.069	-0.528	0.007287	30.513	0.002423	151.654	0.003243	128.688
	0.003295	40.799	0.007292	30.405	0.066	2.289	0.003536	114.541
	0.926	-29.676	0.003047	-174.373	0.002493	152.209	0.003498	115.117
	0.041	-49.98						
943.1	0.059	-52.937	0.008578	87.337	0.003907	110.957	0.003333	128.3
	0.926	-30.209	0.008608	87.358	0.06	11.295	0.00843	56.241
	0.003266	41.856	0.003084	-176.537	0.003853	110.65	0.008479	55.938
	0.07	-0.651	0.007155	31.57	0.002533	152.108	0.003303	129.287
	0.003221	41.025	0.007133	31.246	0.066	2.484	0.003642	114.131
