!Hittite Microwave Corporation								
!12 Elizabeth Drive								
!Chelmsford, MA 01824								
!Tel: 978-250-3343								
!Fax: 978-250-3373								
!Device: HMC183QS24, DC-2 GHz GaAS MMIC SP8T Non-Reflective Switch in 24-lead QSOP package								
!Misc: Port 1 = RFCom, Port 2 = RF1, Port 3 = RF2, Port 4 = RF3, Port 5 = RF4, Port 6 = RF5, Port 7 = RF6, Port 8 = RF7, Port 9 = RF8, RF5 selected, Vctl=0/-5V							
!
# MHZ S MA R 50

30	0.102	-42.01	0.0003295	92.624	0.00009044	23.747	0.0000389	159.081
	0.000154	-98.314	0.9	2.663	0.0001206	-78.877	0.00001095	135.141
	0.0001586	80.17	0.0003279	82.748	0.051	-89.736	0.0003553	71.454
	0.00008809	98.707	0.00004172	77.956	0.000178	-84.544	0.00005968	-164.553
	0.00006871	129.112	0.0001003	72.847	0.00008284	82.234	0.0003915	85.895
	0.051	-95.603	0.0002809	85.628	0.0001614	76.069	0.000006691	152.049
	0.00005628	64.848	0.00004449	112.134	0.00007251	52.999	0.00004946	-107.545
	0.0001239	95.993	0.0003	89.785	0.051	-87.846	0.0004626	86.204
	0.00005759	100.474	0.00006082	38.457	0.00007527	-11.627	0.00003499	104.089
	0.0001042	-103.738	0.00008841	93.484	0.0001603	92.079	0.0004496	89.547
	0.03	-84.244	0.0001182	89.143	0.00007095	55.836	0.0001013	84.041
	0.00001955	153.414	0.899	2.583	0.0001274	-72.187	0.00006049	163.095
	0.00004068	99.48	0.0001193	74.614	0.111	-36.745	0.0001468	78.443
	0.0001165	92.771	0.00005785	-96.855	0.0001588	-101.725	0.00007526	98.355
	0.00004802	86.881	0.00007047	48.03	0.00008698	107.381	0.0003937	90.659
	0.059	-79.14	0.0003265	83.349	0.00008331	114.825	0.00002627	-102.006
	0.00002901	-8.539	0.00007187	50.902	0.0000458	74.649	0.0000638	68.626
	0.0001452	110.77	0.0003076	78.332	0.041	-84.824	0.0003303	82.269
	0.0001655	56.27	0.00005155	-45.651	0.00003576	86.484	0.00007269	83.186
	0.00006077	7.745	0.00007219	-142.259	0.00006783	92.949	0.0003682	90.659
	0.048	-79.351						
49.85	0.073	-26.658	0.0004761	94.784	0.0001331	108.662	0.00004037	-179.234
	0.0002106	-97.084	0.917	-0.704	0.0002084	-79.203	0.00002751	163.588
	0.0002036	109.088	0.0004644	87.495	0.014	-111.87	0.0005247	84.943
	0.0001172	86.676	0.00008694	73.402	0.0002599	-98.324	0.00007686	98.052
	0.00007299	80.607	0.0001015	93.326	0.0001086	93.061	0.0005782	82.849
	0.017	-125.28	0.0004816	84.206	0.0002194	76.658	0.00004913	121.823
	0.00008254	79.488	0.00006591	86.956	0.00002543	77.185	0.000019	4.744
	0.000162	78.301	0.0004925	82.366	0.014	-105.974	0.000705	84.89
	0.00008276	82.489	0.0001012	72.462	0.00008486	84.825	0.00001743	63.954
	0.0001453	-101.032	0.00009399	89.13	0.0002263	80.145	0.0006962	84.683
	0.00101	159.261	0.0001731	75.512	0.0001473	81.287	0.000125	68.072
	0.00004479	82.829	0.916	-0.763	0.0002735	-91.561	0.00002092	156.124
	0.0000852	91.358	0.0001667	70.099	0.083	-20.936	0.0001799	59.237
	0.0001971	99.407	0.00007853	-98.668	0.0002476	-104.158	0.000051	92.485
	0.00004804	90.619	0.0001075	68.907	0.0001765	81.837	0.000568	88.312
	0.02	-76.822	0.0004706	84.123	0.0001238	73.602	0.00002572	-112.483
	0.00005	77.394	0.0000856	74.872	0.00008106	93.507	0.000114	80.1
	0.0001613	89.213	0.0004818	83.4	0.00853	-96.714	0.0005294	85.964
	0.0001741	82.113	0.00009324	72.648	0.00005334	87.197	0.00003723	87.119
	0.00008859	61.003	0.0001008	-134.426	0.0001327	87.076	0.0005484	86.447
	0.012	-72.77						
69.7	0.067	-21.255	0.000666	90.952	0.000181	98.237	0.00003954	-179.207
	0.0002892	-86.315	0.918	-2.233	0.0003073	-85.244	0.00005833	-115.388
	0.0002588	104.154	0.0006698	87.467	0.005907	-156.236	0.0007448	85.634
	0.0001958	80.726	0.0001349	70.373	0.0003392	-102.551	0.00009353	91.84
	0.00009481	68.217	0.00009832	86.459	0.0001666	97.277	0.0007729	85.268
	0.011	-158.012	0.0007008	86.652	0.0002724	79.495	0.00004994	78.937
	0.0000949	68.598	0.0001008	81.695	0.00005047	73.838	0.00004777	134.311
	0.0001698	84.157	0.0006796	84.327	0.005767	-138.864	0.0009546	83.981
	0.00009824	88.338	0.0001339	81.968	0.0000911	80.106	0.00004524	48.613
	0.0002624	-88.014	0.0001107	80.821	0.0003023	77.887	0.0009329	83.667
	0.007692	98.872	0.0002108	74.687	0.0001989	79.379	0.0001454	80.859
	0.00009106	91.879	0.918	-2.279	0.000381	-100.933	0.00001133	119.332
	0.0001168	90.601	0.0002252	72.391	0.077	-14.214	0.0001864	64.938
	0.0002711	93.886	0.0000641	-107.074	0.0003223	-105.829	0.00005295	94.538
	0.00009788	87.751	0.000146	64.059	0.0002209	78.169	0.0007906	87.966
	0.008781	-64.79	0.0006464	86.464	0.0001697	75.004	0.00006707	-158.379
	0.0000654	83.873	0.00008216	95.128	0.0001102	89.798	0.0001242	73.19
	0.0002484	88.881	0.0006778	86.648	0.001735	-144.387	0.0007352	86.878
	0.0002951	91.16	0.0001094	79.501	0.00007844	94.246	0.00004229	91.1
	0.0001148	80.85	0.0001052	-101.913	0.0002015	93.496	0.0007494	85.236
	0.003591	-29.792						
89.55	0.065	-20.701	0.0008546	89.724	0.0002343	98.115	0.00005369	141.353
	0.0003974	-88.583	0.917	-3.284	0.00038	-90.957	0.00008024	-147.481
	0.0003618	96.641	0.0008651	88.791	0.005982	156.428	0.0009602	84.741
	0.0002532	81.201	0.0001668	75.321	0.0004389	-102.417	0.0001207	101.35
	0.0001181	75.456	0.0001354	84.211	0.0002341	96.637	0.0009714	85.985
	0.01	-179.586	0.0008652	85.274	0.0003505	79.728	0.0000512	67.102
	0.0001146	72.548	0.0001124	83.637	0.0001064	90.477	0.00005012	145.347
	0.0001935	76.14	0.0008557	86.974	0.00444	174.579	0.001225	84.435
	0.00012	88.354	0.0001514	83.367	0.0001221	67.683	0.00009108	66.992
	0.0003566	-87.059	0.0001633	78.865	0.0003504	84.655	0.001198	83.089
	0.011	96.267	0.0002706	74.973	0.0002301	83.576	0.0002016	83.26
	0.000101	81.974	0.916	-3.286	0.0004623	-102.651	0.00005971	159.566
	0.000139	89.562	0.0002768	73.841	0.075	-11.522	0.00023	69.46
	0.0003169	88.374	0.00008743	-108.634	0.000399	-108.136	0.00008561	101.634
	0.000139	78.997	0.0001588	72.653	0.0002461	76.317	0.001005	88.317
	0.004677	-42.122	0.0008165	88.368	0.0002482	83.173	0.00008987	-170.906
	0.00008135	77.873	0.0001125	96.528	0.0001449	77.968	0.000154	82.94
	0.0003146	92.385	0.0008438	87.854	0.002355	127.127	0.0009523	86.127
	0.0004057	92.693	0.0001282	72.135	0.0001141	89.896	0.00006977	93.45
	0.0001372	83.215	0.0001234	-111.725	0.0002561	87.455	0.000947	86.387
	0.004113	44.041						
109.4	0.064	-21.807	0.001042	89.343	0.0002793	95.402	0.00007244	119.242
	0.0004692	-86.98	0.916	-4.131	0.0004423	-93.325	0.00009498	-168.098
	0.0004741	93.707	0.001059	89.963	0.007797	134.156	0.001173	86.074
	0.0002652	87.142	0.0002185	73.813	0.0005445	-100.614	0.0001463	82.272
	0.0001315	78.257	0.0001699	74.647	0.000289	104.405	0.001182	86.564
	0.011	167.777	0.001038	86.33	0.0004015	78.627	0.00005619	117.012
	0.0001344	82.303	0.0001273	85.253	0.0001208	81.254	0.00007174	103.701
	0.0002539	81.377	0.001056	86.108	0.005349	146.958	0.001486	84.797
	0.0001569	89.522	0.0001595	80.976	0.0001398	81.03	0.0001005	74.637
	0.0004463	-87.835	0.0002074	76.707	0.0004262	80.453	0.001495	84.444
	0.014	94.335	0.0003254	72.27	0.0002752	79.803	0.0002136	81.396
	0.0001118	67.096	0.915	-4.124	0.0005401	-100.648	0.00005637	152.81
	0.0001691	89.007	0.0003496	72.285	0.073	-10.338	0.0002375	68.092
	0.0004015	88.071	0.0001188	-110.072	0.0004976	-108.277	0.0001219	88.121
	0.0001236	80.947	0.0001773	78.796	0.0003087	82.677	0.00122	88.453
	0.003378	-5.081	0.0009922	87.066	0.0002951	83.451	0.0001114	-150.427
	0.00009828	74.047	0.000159	88.592	0.0001478	81.69	0.0001977	84.535
	0.0003559	90.914	0.0009998	87.517	0.003777	113.547	0.001202	86.389
	0.0004549	93.151	0.0001708	82.194	0.0001541	84.336	0.00009611	104.116
	0.0001501	75.788	0.0001527	-121.73	0.0002927	82.564	0.001158	86.196
	0.006488	63.105						
129.25	0.063	-23.751	0.001235	90.316	0.0003577	95.595	0.00007517	122.787
	0.000547	-86.689	0.915	-4.887	0.0005362	-91.529	0.0001022	-168.292
	0.0005522	94.79	0.001243	90.963	0.009605	123.105	0.001381	87.036
	0.0003019	88.146	0.0002221	70.771	0.0006304	-100.733	0.0001271	77.321
	0.0001503	75.52	0.0001848	74.464	0.0003335	101.034	0.001381	86.824
	0.011	159.507	0.001229	87.158	0.0004693	80.192	0.00007181	127.028
	0.0001475	87.187	0.0001613	81.301	0.0001385	76.618	0.0001004	127.283
	0.0003152	86.479	0.001232	86.488	0.006635	131.95	0.001733	84.76
	0.0002142	95.82	0.0001926	87.445	0.0001329	79.944	0.0001147	81.416
	0.0005394	-90.891	0.0002484	87.108	0.0005037	80.082	0.001741	84.895
	0.016	93.261	0.0003824	73.927	0.0003212	75.55	0.0002061	77.597
	0.0001417	85.023	0.914	-4.936	0.0006396	-100.528	0.00002718	109.085
	0.0002111	87.303	0.0003863	69.278	0.072	-9.947	0.0002345	63.576
	0.000487	87.909	0.0001326	-107.705	0.0005839	-107.862	0.000155	86.112
	0.0001256	72.4	0.0002109	80.068	0.0003636	83.402	0.001458	89.319
	0.003817	27.719	0.001173	86.49	0.0003282	84.101	0.00009551	-149.397
	0.0001306	79.991	0.0001674	86.168	0.0001345	88.928	0.0002082	79.435
	0.0004782	88.975	0.001173	85.706	0.004613	112.215	0.001412	86.425
	0.0005239	92.843	0.0002238	87.12	0.0001513	88.77	0.0001255	84.007
	0.0001391	73.896	0.0001794	-114.565	0.0003113	83.615	0.001367	86.425
	0.008539	68.275						
149.1	0.063	-25.847	0.001422	91.261	0.0004286	96.078	0.00006586	125.465
	0.0006775	-90.408	0.914	-5.623	0.0006173	-93.83	0.0001182	-145.769
	0.0006305	95.396	0.001424	90.868	0.011	116.522	0.001559	87.219
	0.0003476	84.016	0.0002292	72.613	0.0007264	-103.106	0.0001333	86.595
	0.0001792	80.324	0.0002474	85.602	0.0003814	100.57	0.001586	87.103
	0.012	153.166	0.001411	87.123	0.0005844	82.076	0.00008033	128.868
	0.0001665	76.896	0.0001952	84.868	0.0001852	90.406	0.0001074	135.235
	0.0003417	89.24	0.001388	87.015	0.007948	123.819	0.002001	85.304
	0.0002429	99.238	0.0002221	86.983	0.0001826	80.246	0.0001294	66.735
	0.0006369	-93.193	0.0002824	85.358	0.0005387	82.26	0.001999	84.702
	0.018	92.627	0.0004274	73.589	0.0003594	80.247	0.0002499	70.293
	0.0001616	86.992	0.912	-5.673	0.000748	-103.284	0.00006454	137.003
	0.0002391	91.154	0.0004141	65.852	0.071	-9.861	0.0002813	58.761
	0.0005478	87.879	0.0001619	-106.828	0.0006286	-107.763	0.0001681	90.595
	0.000169	69.53	0.0002183	79.435	0.0003955	82.948	0.001638	89.455
	0.004779	44.264	0.001328	86.933	0.0003559	86.305	0.0001025	-152.671
	0.0001725	85.643	0.0001892	85.078	0.0001653	79.461	0.0002336	75.558
	0.0005665	90.044	0.001372	85.385	0.00541	106.759	0.001581	87.631
	0.0006335	91.663	0.0002454	86.52	0.0001858	83.27	0.0001239	88.321
	0.000175	80.25	0.0001871	-116.699	0.0003633	85.971	0.001543	86.651
	0.01	71.472						
168.95	0.063	-27.978	0.001585	90.672	0.000459	98.125	0.0001026	122.371
	0.0008111	-93.71	0.912	-6.343	0.0006924	-97.878	0.0001282	-153.611
	0.0007028	94.856	0.001591	90.136	0.013	111.887	0.001764	86.494
	0.0004147	84.817	0.0002704	82.059	0.0008353	-104.657	0.0001562	91.765
	0.0001815	77.922	0.0002803	87.309	0.0004324	101.272	0.001795	87.578
	0.012	147.862	0.00159	88.028	0.0006465	82.032	0.0000742	135.073
	0.0002055	77.857	0.0002027	78.184	0.0001929	91.838	0.0001011	136.905
	0.0003584	90.981	0.001571	86.962	0.00896	119.007	0.002282	85.701
	0.0002612	98.742	0.0002351	80.675	0.0001988	89.208	0.0001342	60.081
	0.0007461	-92.656	0.0003024	80.828	0.0005876	83.237	0.002255	84.578
	0.02	91.544	0.0004693	74.176	0.0004061	83.307	0.0002722	75.351
	0.0001913	93.579	0.912	-6.34	0.0008701	-104.596	0.00009117	148.121
	0.0002669	98.16	0.0004644	69.392	0.071	-10.247	0.0002932	63.571
	0.0006048	90.254	0.0001859	-110.12	0.0007486	-107.722	0.0001386	85.102
	0.0002117	77.552	0.0002481	80.376	0.000423	81.67	0.001827	89.255
	0.005697	54.073	0.001493	86.99	0.0003979	85.992	0.0001473	-165.909
	0.0002059	87.131	0.0002269	82.622	0.0002251	79.614	0.0002495	75.879
	0.0006074	91.482	0.001533	86.568	0.006208	103.436	0.001782	87.831
	0.0007357	94.18	0.0002485	82.124	0.0001913	83.381	0.0001351	92.288
	0.0002115	83.72	0.0002012	-114.111	0.0004053	89.265	0.001759	86.784
	0.012	73.721						
188.8	0.063	-30.476	0.001773	91.615	0.0005072	97.002	0.0001297	131.565
	0.0009038	-94.43	0.911	-7.02	0.000802	-101.875	0.0001289	-157.417
	0.0007837	96.112	0.001801	90.942	0.015	108.879	0.001992	86.626
	0.000456	86.137	0.0002612	77.706	0.0008971	-105.799	0.0001899	81.518
	0.0002076	85.356	0.0003043	82.142	0.0004893	98.394	0.001989	87.786
	0.013	145.241	0.001758	87.288	0.0006962	81.059	0.0001129	130.884
	0.0002384	87.142	0.0002154	86.233	0.0001878	81.772	0.0001341	142.248
	0.0004293	85.066	0.00175	87.297	0.01	115.475	0.002526	86.181
	0.0002932	94.964	0.0002829	82.53	0.0002214	84.96	0.0001483	73.829
	0.0008524	-92.752	0.0003454	85.736	0.0006693	85.4	0.00249	85.153
	0.021	90.563	0.0004919	70.846	0.0004681	82.576	0.0002902	79.794
	0.0002281	85.15	0.911	-7.055	0.0009376	-103.825	0.0001112	148.823
	0.0003018	100.23	0.0005144	70.524	0.07	-10.813	0.0003017	67.415
	0.0006755	89.828	0.0002268	-119.503	0.0008599	-108.885	0.00017	80.965
	0.0002343	82.756	0.000299	83.991	0.0004536	80.06	0.002069	88.921
	0.006503	59.258	0.001665	86.713	0.0004573	85.714	0.0001411	-176.379
	0.0002225	80.32	0.0002444	80.172	0.0002597	81.682	0.0002867	75.306
	0.0006751	92.828	0.001662	87.615	0.006609	103.142	0.001972	87.316
	0.0008142	95.027	0.0002868	83.098	0.0001564	87.209	0.0001537	94.917
	0.0002399	79.923	0.0002355	-111.636	0.0004358	88.863	0.001996	87.201
	0.013	75.083						
208.65	0.063	-33.208	0.001965	92.56	0.0005466	99.466	0.0001423	135.987
	0.0009832	-95.574	0.909	-7.689	0.0008811	-103.865	0.0001905	-160.606
	0.0008727	94.875	0.001985	91.688	0.016	106.801	0.002181	87.548
	0.0004753	86.711	0.0003286	74.557	0.001019	-107.039	0.0002274	76.291
	0.0002455	89.882	0.0003243	81.442	0.0005314	95.145	0.002185	87.592
	0.013	141.892	0.001927	87.462	0.0007477	84.403	0.0001344	143.868
	0.0002681	85.132	0.0002513	82.752	0.0002154	83.575	0.0001818	130.192
	0.0005013	85.033	0.001935	86.741	0.011	114.313	0.002755	86.211
	0.0003091	96.318	0.0003197	85.206	0.000261	76.421	0.0001754	83.546
	0.0009851	-94.281	0.0004003	81.088	0.0007646	84.868	0.002757	85.932
	0.023	90.022	0.0005128	72.133	0.0005322	83.475	0.0003379	78.887
	0.0002462	82.998	0.909	-7.715	0.001013	-105.373	0.0001072	151.8
	0.0003109	94.657	0.0005581	71.682	0.07	-11.279	0.0003465	67.993
	0.0007616	89.162	0.0002823	-128.874	0.0009445	-109.266	0.000216	83.5
	0.0002451	83.287	0.0003262	85.363	0.0005246	78.781	0.002301	89.775
	0.007546	62.857	0.001862	87.294	0.0004815	85.368	0.0001572	-174.118
	0.0002352	77.819	0.0002442	89.364	0.0002529	81.364	0.0003765	72.98
	0.0007745	93.89	0.001838	87.396	0.006918	102.944	0.002147	87.363
	0.0008903	95.45	0.0003403	84.623	0.0002062	81.98	0.0001763	88.014
	0.0002508	80.069	0.0002803	-121.545	0.0004783	84.455	0.002164	87.228
	0.014	75.942						
228.5	0.063	-35.748	0.002153	92.289	0.0005711	98.925	0.000175	140.385
	0.001089	-97.076	0.908	-8.343	0.0009587	-103.518	0.0002142	-165.324
	0.0009378	96.429	0.002145	92.348	0.017	104.192	0.002379	87.375
	0.0005256	84.607	0.0004115	79.858	0.001138	-107.325	0.0002359	78.697
	0.0002481	87.425	0.0003554	84.786	0.0006027	96.306	0.002377	87.324
	0.014	138.435	0.002108	87.478	0.0008177	83.283	0.000128	157.055
	0.0002903	84.107	0.00027	80.37	0.0002579	83.899	0.0001957	147.76
	0.0005446	85.574	0.002144	87.451	0.012	112.675	0.003002	85.606
	0.0003518	97.943	0.0003391	83.259	0.0002524	83.296	0.0002057	81.928
	0.001117	-96.076	0.0004236	79.672	0.000842	83.198	0.003007	85.626
	0.025	89.697	0.0005825	75.551	0.0005817	81.125	0.0003654	75.855
	0.0002554	87.15	0.909	-8.317	0.001122	-107.107	0.0001087	153.744
	0.0003536	96.578	0.0005411	74.5	0.069	-11.847	0.0003768	65.703
	0.0008594	91.778	0.0002955	-126.043	0.001029	-111.208	0.000222	88.034
	0.0002576	82.149	0.000337	78.412	0.0005925	80.832	0.002486	89.902
	0.00853	65.471	0.002049	88.275	0.0005348	85.017	0.0001972	-170.531
	0.0002481	85.907	0.0002511	91.152	0.0002605	83.563	0.0004082	77.069
	0.0008362	93.053	0.002016	87.23	0.007501	102.71	0.002391	87.427
	0.0009274	95.549	0.0003588	85.546	0.0002398	83.516	0.0002005	81.045
	0.0002184	86.587	0.0002935	-125.518	0.000535	85.078	0.002374	87.891
	0.016	76.507						
248.35	0.063	-38.25	0.002345	92.807	0.0006151	100.383	0.0001987	146.169
	0.001189	-96.019	0.907	-8.984	0.00105	-105.458	0.0002433	-168.082
	0.001034	97.497	0.002338	92.641	0.019	102.595	0.002613	87.537
	0.0005831	84.237	0.000427	83.138	0.001256	-108.623	0.0002401	83.916
	0.0002684	86.845	0.0003722	84.675	0.0006366	98.66	0.002608	87.719
	0.014	136.004	0.002286	87.534	0.0008976	83.389	0.0001576	159.248
	0.0002904	88.655	0.0002881	82.068	0.0002875	83.878	0.0002155	138.336
	0.0005853	86.115	0.002298	88.063	0.013	110.088	0.003286	85.732
	0.0003657	97.138	0.0003712	81.583	0.0002568	83.48	0.0002108	83.344
	0.001238	-96.243	0.0004483	82.531	0.0009124	81.783	0.003276	86.001
	0.027	89.126	0.000592	74.493	0.0006209	78.379	0.0003869	76.512
	0.0002491	84.967	0.908	-8.964	0.001241	-109.335	0.00014	139.56
	0.0004107	98.532	0.0005589	72.375	0.069	-12.339	0.0003941	66.498
	0.0008981	93.457	0.0003412	-128.249	0.001129	-113.097	0.000216	81.598
	0.0002884	85.579	0.0003671	80.163	0.0006476	81.859	0.002673	90.522
	0.009194	68.286	0.002212	88.494	0.0006024	86.251	0.0002259	-173.167
	0.0002484	83.506	0.0002716	85.381	0.0002582	85.539	0.0003949	80.588
	0.000912	94.5	0.002196	87.806	0.007836	102.619	0.002576	87.884
	0.001027	96.444	0.0003915	86.502	0.0002621	86.574	0.0002358	77.836
	0.0002308	82.732	0.0003047	-126.841	0.000608	86.189	0.002569	88.301
	0.017	76.843						
268.2	0.064	-40.719	0.002537	93.868	0.0006901	99.774	0.0002332	150.072
	0.001342	-96.372	0.907	-9.634	0.001146	-107.559	0.0002529	-166.808
	0.001134	97.17	0.00253	92.434	0.02	101.072	0.002814	87.971
	0.0006381	85.754	0.0004295	85.845	0.001354	-110.907	0.0002456	84.118
	0.0003188	84.777	0.0003962	85.562	0.0007112	100.682	0.002811	87.858
	0.015	133.966	0.002449	88.036	0.0009609	84.487	0.0002001	153.574
	0.0003039	85.987	0.000307	81.409	0.0002998	83.307	0.0002551	140.723
	0.0006528	85.048	0.002476	87.916	0.014	108.993	0.003542	85.84
	0.0004052	103.492	0.0003792	84.929	0.0002715	77.584	0.0002476	87.108
	0.001359	-97.913	0.0004584	83.97	0.0009679	84.041	0.003537	86.308
	0.028	88.667	0.0005955	71.961	0.0006645	80.252	0.0004212	83.173
	0.0002725	88.549	0.908	-9.611	0.001325	-110.316	0.000148	140.719
	0.0004091	99.282	0.0005989	71.222	0.068	-12.963	0.000416	73.537
	0.0009647	94.574	0.0003762	-132.364	0.001214	-113.794	0.0002345	84.975
	0.0003235	86.992	0.0004193	86.782	0.0006937	80.97	0.002879	90.906
	0.009781	70.968	0.00236	88.076	0.0006456	87.619	0.0002455	-171.145
	0.0002748	83.564	0.0003154	82.948	0.0003216	87.139	0.0004186	81.528
	0.0009727	93.656	0.002378	88.025	0.008298	101.627	0.002758	87.452
	0.001117	97.876	0.000426	87.107	0.0003084	88.414	0.0002715	83.024
	0.0002579	78.555	0.0003406	-123.552	0.0006381	86.456	0.002734	88.829
	0.018	76.912						
288.05	0.064	-43.433	0.002714	93.195	0.0007819	101.514	0.000238	147.27
	0.001499	-98.807	0.907	-10.285	0.00123	-107.86	0.0002926	-165.847
	0.001212	98.067	0.002762	93.07	0.021	99.854	0.00299	87.865
	0.0006682	84.49	0.0004723	83.743	0.00142	-111.621	0.000285	88.04
	0.0003278	81.702	0.0004472	87.559	0.0007694	103.613	0.002993	87.81
	0.015	132.459	0.002648	88.673	0.001029	84.114	0.0001965	146.61
	0.0003434	86.575	0.0003212	83.667	0.0003244	86.36	0.0002777	150.43
	0.0006793	84.037	0.002665	87.766	0.015	107.919	0.003765	85.851
	0.0004264	108.203	0.0004204	85.992	0.0003493	81.367	0.0002494	90.65
	0.00148	-99.662	0.0004819	85.124	0.0009989	84.326	0.003755	86.415
	0.03	88.194	0.0005892	73.174	0.0007183	80.868	0.0004749	79.517
	0.000288	80.993	0.908	-10.282	0.001404	-110.815	0.0001718	146.791
	0.0004428	101.715	0.0005943	72.584	0.068	-13.806	0.0004723	70.785
	0.001031	95.36	0.0004053	-134.125	0.001308	-115.423	0.0002674	89.032
	0.0003429	90.328	0.0004369	85.162	0.0007029	79.876	0.003089	91.745
	0.01	72.251	0.002544	88.338	0.0006863	86.1	0.0002635	-171.434
	0.0003042	87.02	0.0003661	83.524	0.0003647	84.562	0.0004692	80.06
	0.001041	94.584	0.002529	88.205	0.008557	101.071	0.002962	88.123
