!Hittite Microwave Corporation								
!12 Elizabeth Drive								
!Chelmsford, MA 01824								
!Tel: 978-250-3343								
!Fax: 978-250-3373								
!Device: HMC183QS24, DC-2 GHz GaAS MMIC SP8T Non-Reflective Switch in 24-lead QSOP package								
!Misc: Port 1 = RFCom, Port 2 = RF1, Port 3 = RF2, Port 4 = RF3, Port 5 = RF4, Port 6 = RF5, Port 7 = RF6, Port 8 = RF7, Port 9 = RF8, RF3 selected, Vctl=0/-5V							
!
# MHZ S MA R 50

30	0.096	-49.115	0.000292	89.649	0.00008811	-108.595	0.906	2.429
	0.0001642	-99.06	0.00003618	-132.189	0.00007295	55.481	0.00008773	117.355
	0.0001438	90.886	0.0003014	90.426	0.051	-89.007	0.000376	83.767
	0.0002123	-108.447	0.00005664	72.871	0.00002756	-15.92	0.00003679	62.711
	0.00005632	53.217	0.00008302	69.91	0.00005017	144.562	0.0003872	85.076
	0.05	-94.494	0.0002404	78.746	0.0001139	121.025	0.0001061	17.881
	0.00004569	24.427	0.00006939	61.416	0.00006826	45.172	0.905	2.39
	0.0001148	-72.572	0.0003127	93.449	0.109	-35.416	0.0002673	64.968
	0.00002774	67.437	0.00003368	-129.992	0.00003065	-38.042	0.00004299	-75.08
	0.0001899	-85.416	0.00007324	66.7	0.0001637	63.124	0.0003426	88.468
	0.03	-86.987	0.0001744	84.046	0.0001264	73.641	0.00007629	153.196
	0.00008085	-7.07	0.00003931	-111.356	0.00006966	115.115	0.00008751	79.595
	0.00006193	45.037	0.0001759	65.63	0.058	-62.693	0.00007694	154.437
	0.00009756	82.345	0.00005872	56.995	0.00004686	131.532	0.00005764	130.072
	0.00005622	148.075	0.00002944	6.166	0.00008837	61.189	0.0004674	85.129
	0.06	-78.621	0.0003309	84.359	0.00005345	88.429	0.00006579	-17.942
	0.0000902	118.851	0.00005335	58.539	0.00007093	89.478	0.00006456	76.555
	0.00009332	14.302	0.0003265	91.456	0.041	-84.511	0.0002976	88.254
	0.0001398	68.035	0.00007692	32.2	0.00006263	67.659	0.00004047	-162.116
	0.00004572	71.121	0.00009129	72.647	0.00009473	80.611	0.000375	87.867
	0.049	-78.779						
49.85	0.061	-38.089	0.0004643	92.687	0.0001383	-114.147	0.92	-0.779
	0.0003112	-96.569	0.00006721	-97.019	0.00006218	71.691	0.00009447	83.374
	0.0002666	89.28	0.0004797	92.681	0.014	-108.941	0.0005718	83.487
	0.0001941	-93.189	0.0000748	88.889	0.00005676	87.671	0.00005478	52.752
	0.00007967	63.046	0.00008449	78.722	0.0001123	-113.397	0.0005768	85.301
	0.017	-123.445	0.0004629	85.063	0.0001876	83.886	0.0001395	73.809
	0.00005348	86.47	0.00008091	80.496	0.00006013	86.084	0.919	-0.839
	0.0001958	-91.612	0.0004575	90.944	0.084	-20.224	0.0004451	82.642
	0.00006399	97.289	0.00002209	60.834	0.000021	77.564	0.00008822	-107.841
	0.0003242	-91.278	0.00009998	81.369	0.0002288	75.344	0.0004907	83.991
	0.00196	-179.096	0.0002851	78.832	0.0001722	79.286	0.0001255	77.532
	0.00007924	73.795	0.00005437	-96.592	0.00007943	108.27	0.00009814	79.584
	0.00007972	66.153	0.0002988	77.876	0.024	-34.023	0.0001261	78.138
	0.0001774	72.403	0.00009042	36.079	0.00006433	112.213	0.00005468	97.384
	0.00008177	95.854	0.00006934	99.215	0.0001372	82.571	0.0007102	86.523
	0.02	-74.45	0.000477	86.984	0.0001192	76.41	0.00009787	98.004
	0.00006614	85.051	0.00006322	85.035	0.00004587	145.515	0.00008407	89.538
	0.0001652	76.507	0.0004799	87.409	0.008585	-94.424	0.0005317	85.684
	0.0002232	92.642	0.00009013	76.845	0.00005821	54.333	0.00006963	-125.762
	0.00006262	69.077	0.000109	87.794	0.0001181	102.476	0.0005656	86.333
	0.013	-70.76						
69.7	0.051	-32.418	0.0006179	91.541	0.0001667	-112.073	0.92	-2.192
	0.0004369	-93.139	0.0001029	-113.537	0.00005125	116.151	0.0001429	99.128
	0.0003685	88.008	0.000634	91.375	0.005388	-153.91	0.0007842	86.033
	0.0002047	-97.52	0.0001262	78.565	0.00008068	74.818	0.00006164	58.749
	0.0001162	56.338	0.00008083	83.539	0.0001941	-116.084	0.0007353	83.877
	0.011	-154.148	0.0006313	87.685	0.00027	78.335	0.0001394	83.517
	0.00006365	71.41	0.00009609	84.509	0.00004693	100.4	0.92	-2.224
	0.0002717	-102.932	0.0006221	91.378	0.078	-14.463	0.0006205	81.165
	0.0001145	102.739	0.0000852	101.434	0.00004883	87.794	0.0001025	-89.98
	0.0004327	-93.137	0.0001292	72.185	0.0002993	85.043	0.0006632	82.877
	0.007834	104.741	0.0003728	82.811	0.0002079	77.495	0.0001415	83.551
	0.00007006	72.9	0.00007008	-80.549	0.0001049	74.792	0.0001322	89.43
	0.00009846	80.588	0.0004079	83.017	0.019	-7.507	0.0001418	83.947
	0.0002672	80.205	0.0001307	56.84	0.0000984	101.756	0.00006698	72.025
	0.0001125	67.127	0.000112	102.161	0.0001769	82.787	0.0009675	86.434
	0.009593	-61.897	0.0006159	86.665	0.0001782	81.492	0.0001394	93.496
	0.00008351	91.594	0.00007593	78.227	0.00004041	118.259	0.0001287	81.395
	0.0002604	76.25	0.000642	85.425	0.001535	-142.826	0.0007591	84.788
	0.0003529	88.854	0.0001276	88.391	0.0001	79.476	0.0001018	-104.554
	0.00009314	77.087	0.0001037	78.287	0.0001815	87.148	0.00074	86.544
	0.004265	-26.26						
89.55	0.047	-30.737	0.0008092	91.03	0.000223	-110.299	0.919	-3.116
	0.0005805	-93.984	0.00008361	-104.397	0.00008057	114.52	0.0001966	96.418
	0.0004283	87.484	0.0008002	92.363	0.005399	153.138	0.0009786	87.007
	0.0003076	-98.62	0.0001603	78.67	0.00009388	63.821	0.00008428	62.928
	0.0001203	69.524	0.0001261	81.669	0.0002346	-122.509	0.0009353	86.138
	0.009926	-176.73	0.0007865	87.735	0.0003435	81.73	0.0001651	87.901
	0.0001258	69.255	0.0001088	81.274	0.00007294	96.494	0.918	-3.129
	0.0003459	-106.338	0.0007983	90.755	0.076	-12.902	0.0007673	84.281
	0.0001335	87.011	0.0001037	81.783	0.0001231	131.817	0.0001497	-95.16
	0.0005439	-94.997	0.0001811	70.928	0.0003713	83.052	0.0008081	82.656
	0.011	100.115	0.0004828	86.986	0.0002837	78.906	0.000171	82.149
	0.0001018	77.154	0.00006613	-84.886	0.0001167	80.256	0.0001369	83.837
	0.00009617	72.654	0.0004976	81.286	0.019	8.066	0.0001712	82.451
	0.0003379	85.241	0.0001669	67.957	0.0001278	106.468	0.00009157	71.186
	0.0001277	75.743	0.0001067	100.518	0.0002147	78.593	0.001248	85.861
	0.005475	-41.508	0.0007827	85.782	0.0002295	84.978	0.0002031	89.155
	0.0001176	92.906	0.00009822	82.518	0.00008283	102.361	0.0001677	81.424
	0.0003431	83.151	0.0008094	86.411	0.002429	127.509	0.0009448	85.838
	0.0004308	88.941	0.0001533	83.512	0.0001096	81.779	0.0001509	-105.115
	0.0001212	72.434	0.0001614	75.404	0.0002356	77.166	0.0009451	86.593
	0.00462	35.95						
109.4	0.045	-30.641	0.0009769	89.969	0.0002642	-107.713	0.917	-3.83
	0.0007196	-94.768	0.0001001	-84.198	0.0001142	108.846	0.0002473	95.041
	0.0005181	88.928	0.0009739	92.995	0.007222	130.806	0.001165	86.236
	0.0004293	-99.268	0.0002156	81.551	0.0001266	70.363	0.0001256	70.237
	0.0001708	81.471	0.0001802	87.351	0.0002576	-120.255	0.001167	85.971
	0.01	169.618	0.000994	90.274	0.0004132	83.299	0.0002118	87.99
	0.000168	76.018	0.0001427	86.33	0.0001037	87.135	0.916	-3.852
	0.0004169	-102.222	0.0009789	91.139	0.074	-12.558	0.000919	84.256
	0.0001254	90.777	0.00008975	92.727	0.0001106	123.183	0.0002061	-103.655
	0.0006896	-94.396	0.0002286	84.777	0.0004147	77.701	0.000944	84.135
	0.014	97.495	0.0005986	83.778	0.0003308	82.372	0.0002144	76.3
	0.0001248	81.078	0.00009176	-97.001	0.000122	75.409	0.0001602	80.812
	0.0001434	78.467	0.0006073	83.435	0.02	17.296	0.0002146	76.546
	0.0004056	83.793	0.0001954	77.622	0.0001504	109.191	0.0001362	79.77
	0.0001465	88.474	0.0001096	89.519	0.0002832	73.8	0.001514	86.067
	0.004234	-10.182	0.0009788	85.422	0.000272	83.941	0.0002537	95.582
	0.0001261	70.067	0.0001397	83.131	0.0001049	118.184	0.0001694	87.21
	0.0004016	85.008	0.000981	86.628	0.0038	113.059	0.001136	85.55
	0.0005136	92.318	0.0001488	82.301	0.0001129	86.138	0.0001957	-109.956
	0.0001114	79.594	0.0002348	81.482	0.0002867	83.401	0.00118	85.998
	0.006705	54.414						
129.25	0.044	-31.032	0.001138	90.903	0.0003255	-112.346	0.915	-4.479
	0.0008444	-94.414	0.0001268	-100.393	0.000146	101.06	0.0002887	98.499
	0.0006344	92.463	0.001155	92.412	0.009089	120.04	0.001392	86.535
	0.0005139	-104.952	0.0002652	81.808	0.0001614	79.597	0.000143	79.481
	0.0001807	78.897	0.0002095	93.117	0.0003147	-118.105	0.001383	87.392
	0.01	160.43	0.001175	90.968	0.0004707	82.146	0.0002445	84.15
	0.0001593	81.759	0.0001523	79.888	0.0001493	88.308	0.915	-4.502
	0.0005155	-104.133	0.001168	91.119	0.073	-12.812	0.001082	84.313
	0.0001303	84.938	0.0001294	104.42	0.00009054	109.819	0.0002558	-103.462
	0.0008478	-93.848	0.000258	80.938	0.0004876	81.662	0.001104	85.114
	0.016	95.459	0.0006932	81.531	0.0003309	84.444	0.0002238	82.407
	0.0001403	79.806	0.0001395	-111.352	0.0001526	83.268	0.0002207	82.009
	0.000166	77.983	0.0007091	85.104	0.021	24.145	0.0002239	82.611
	0.0004792	83.012	0.0002283	86.092	0.0001566	106.555	0.0001253	75.817
	0.0001676	84.014	0.0001686	98.261	0.0003537	77.878	0.001784	86.758
	0.004572	20.219	0.001152	85.265	0.000299	87.412	0.0002721	92.21
	0.0001584	78.804	0.0001788	78.732	0.0001047	116.794	0.0002065	84.055
	0.0004751	84.742	0.001157	87.348	0.004857	105.622	0.001358	85.961
	0.0006176	91.542	0.0001965	87.461	0.00014	96.538	0.0002422	-105.835
	0.0001185	89.434	0.0002436	77.925	0.0003381	85.814	0.001396	87.37
	0.00857	62.115						
149.1	0.044	-31.925	0.001326	92.869	0.0003836	-116.169	0.913	-5.108
	0.0009827	-96.272	0.0001568	-102.123	0.0001483	108.991	0.0003336	94.66
	0.0007124	93.662	0.001344	92.373	0.011	112.809	0.001614	86.597
	0.0005795	-103.793	0.0002746	79.1	0.0001777	85.454	0.000154	81.848
	0.0001651	76.636	0.0002423	88.165	0.0003622	-119.477	0.001594	87.828
	0.011	154.653	0.001328	90.12	0.0005534	83.501	0.0002706	79.798
	0.0001859	87.873	0.0001657	84.063	0.0001991	77.377	0.913	-5.139
	0.000596	-105.723	0.001343	90.801	0.073	-13.619	0.001217	84.061
	0.0001476	89.169	0.000183	100.269	0.0001263	114.275	0.0002953	-104.243
	0.0009992	-96.271	0.0002747	75.095	0.0005756	83.789	0.001265	84.383
	0.018	93.905	0.0007811	81.233	0.0003718	80.939	0.0002566	84.85
	0.0001777	81.205	0.0001401	-98.818	0.0001713	83.329	0.0002871	85.9
	0.0001671	81.959	0.0007793	84.363	0.022	30.046	0.0002567	85.026
	0.0005519	83.304	0.0002658	86.143	0.000162	98.975	0.0001162	77.218
	0.0001899	81.671	0.0001967	103.26	0.0003873	79.68	0.002056	86.899
	0.005443	38.258	0.001331	86.538	0.0003543	88.518	0.0003133	88.351
	0.0001759	86.031	0.0001913	83.586	0.0001226	107.882	0.0002306	80.859
	0.0005135	83.839	0.001348	87.068	0.005671	101.557	0.001584	86.749
	0.000703	89.767	0.0002604	87.115	0.0001565	90.453	0.0002681	-104.2
	0.0001402	86.2	0.0002483	79.049	0.0003619	84.19	0.001583	88.149
	0.01	66.503						
168.95	0.044	-33.435	0.001486	92.473	0.000434	-120.414	0.912	-5.732
	0.00109	-97.173	0.0001771	-103.935	0.0001776	114.19	0.00039	91.051
	0.0008016	92.621	0.00153	93.055	0.013	108.442	0.0018	87.345
	0.0006279	-105.153	0.0003191	86.671	0.0002091	83.004	0.0001747	76.051
	0.000206	83.767	0.0002833	87.681	0.0004019	-123.11	0.001792	86.873
	0.011	149.295	0.0015	90.572	0.0006493	82.908	0.0003107	78.136
	0.0002139	79.028	0.0001946	84.186	0.0001708	83.215	0.912	-5.752
	0.0006509	-106.7	0.001507	90.699	0.072	-14.359	0.001363	84.565
	0.0001467	91.816	0.0002167	109.544	0.0001229	114.795	0.0003471	-106.079
	0.001145	-97.675	0.0003014	78.241	0.0006324	83.495	0.001392	83.503
	0.02	92.936	0.0009044	83.643	0.0004258	82.524	0.00027	87.445
	0.0001994	74.719	0.0001501	-98.341	0.0001798	79.046	0.0003277	83.46
	0.0001771	84.874	0.0008998	84.315	0.023	34.276	0.0002701	87.603
	0.000615	85.532	0.0002996	80.844	0.000191	101.326	0.0001887	86.395
	0.0002013	82.374	0.0001842	100.38	0.0004345	81.429	0.002324	86.874
	0.00611	46.93	0.001504	87.267	0.0004219	86.561	0.0003567	92.756
	0.0001914	82.559	0.000182	82.276	0.0001318	118.183	0.000253	83.251
	0.0005839	82.527	0.001511	86.358	0.006411	101	0.001742	87.724
	0.0007983	90.999	0.0002721	88.93	0.0001848	87.424	0.000322	-106.03
	0.0001668	81.233	0.000298	82.482	0.0004046	86.337	0.001771	88.233
	0.012	69.014						
188.8	0.044	-35.147	0.001645	92.466	0.000492	-122.743	0.912	-6.318
	0.001266	-98.953	0.0001982	-113.837	0.0002253	109.935	0.0004127	92.326
	0.0008929	93.549	0.001686	93.386	0.014	105.818	0.002	87.015
	0.00069	-109.088	0.0003592	86.605	0.000221	81.528	0.0001897	82.264
	0.0002201	81.713	0.0003104	84.55	0.0004374	-123.362	0.00199	87.152
	0.012	144.742	0.001684	90.784	0.0007217	82.512	0.0003398	86.474
	0.0002214	86.616	0.000241	81.436	0.000193	87.869	0.911	-6.357
	0.0007273	-109.583	0.001697	91.331	0.072	-15.3	0.001505	85.568
	0.0001866	92.12	0.0002328	103.958	0.0001114	121.004	0.000365	-105.977
	0.001251	-97.154	0.0003315	76.304	0.0006899	82.759	0.00151	85.164
	0.021	92.147	0.001025	84.817	0.0004564	82.3	0.0003096	85.595
	0.0002272	73.825	0.000183	-114.121	0.0002209	82.061	0.0003215	82.727
	0.0001914	90.324	0.001049	83.947	0.025	37.411	0.0003097	85.74
	0.0006916	87.349	0.0003368	78.147	0.0002174	103.039	0.0002054	93.048
	0.0002457	80.754	0.000189	94.334	0.0004838	80.367	0.00258	87.204
	0.006871	53.485	0.001656	88.166	0.0004743	87.223	0.0004017	97.566
	0.0002052	84.622	0.000186	84.198	0.0001438	127.99	0.0003177	86.813
	0.0006845	84.669	0.001676	87.634	0.007063	100.592	0.001938	88.243
	0.0009016	93.221	0.0002801	89.502	0.0002164	92.027	0.0003618	-107.334
	0.0001839	80.605	0.0003233	85.376	0.0004699	86.937	0.001955	88.015
	0.013	70.746						
208.65	0.044	-36.806	0.001816	93.028	0.0005388	-126.472	0.911	-6.882
	0.001464	-99.91	0.0002494	-116.815	0.0002562	108.961	0.000444	94.665
	0.0009831	95.346	0.001845	93.245	0.016	103.761	0.0022	87.034
	0.0007805	-107.058	0.0003871	83.127	0.0002259	84.163	0.0001792	79.309
	0.0002319	85.969	0.0003181	86.713	0.0004982	-122.252	0.002214	87.966
	0.012	141.466	0.001872	91.884	0.0007835	82.303	0.0003555	87.22
	0.0002529	83.843	0.0002645	82.223	0.0002486	78.277	0.91	-6.933
	0.0008063	-110.473	0.001878	91.233	0.072	-16.293	0.001624	86.425
	0.0002313	94.939	0.0002112	103.193	0.00016	115.882	0.0003945	-108.178
	0.001428	-98.367	0.0003517	82.267	0.0007473	80.764	0.00164	85.659
	0.023	91.459	0.00115	83.141	0.0004983	79.245	0.000344	80.678
	0.000221	84.413	0.0002518	-118.793	0.0002679	82.85	0.0003478	84.931
	0.0002055	90.541	0.001121	83.722	0.026	40.414	0.000344	80.81
	0.0007428	84.829	0.0003985	83.663	0.0002467	113.78	0.0002161	86.662
	0.0002696	85.083	0.0002422	98.556	0.0005218	77.639	0.002831	87.604
	0.007856	58.146	0.001846	88.258	0.0004993	85.895	0.0004627	95.576
	0.0002068	89.186	0.0002407	83.28	0.0001783	117.148	0.0003762	81.459
	0.0007589	84.797	0.001851	88.946	0.007384	99.846	0.002176	88.236
	0.001014	93.016	0.0003148	88.745	0.0002348	86.174	0.00041	-110.525
	0.0001896	87.082	0.0003611	88.319	0.0004921	88.715	0.002162	88.024
	0.015	72.135						
228.5	0.045	-38.897	0.002012	93.478	0.0005787	-129.413	0.909	-7.451
	0.001628	-101.741	0.0002749	-119.925	0.0003043	109.875	0.0004908	97.946
	0.001092	95.913	0.00205	93.204	0.017	102.078	0.002389	87.287
	0.0008644	-108.851	0.0004239	79.851	0.0002808	87.247	0.000201	81.143
	0.0002547	81.914	0.0003459	88.064	0.0005645	-124.303	0.002388	87.911
	0.013	138.236	0.002039	92.512	0.0008304	80.836	0.0003653	82.126
	0.0002676	79.931	0.0002711	80.014	0.0002517	78.298	0.909	-7.475
	0.0008936	-111.73	0.002056	92.052	0.072	-17.469	0.001768	86.481
	0.0002249	93.925	0.0002395	96.397	0.0001821	119.372	0.0004445	-116.589
	0.001607	-99.877	0.0003941	86.796	0.000829	82.302	0.001772	86.49
	0.025	90.827	0.001275	82.115	0.0005532	80.665	0.0003446	79.18
	0.0002294	91.683	0.0002556	-117.566	0.0002761	82.145	0.0003952	80.864
	0.0002157	90.415	0.00123	83.746	0.027	43.012	0.0003446	79.305
	0.0008177	84.481	0.0004015	84.987	0.0002661	116.283	0.0002584	81.961
	0.0002795	85.772	0.0002526	104.526	0.0005571	78.304	0.003076	87.537
	0.008677	60.83	0.002017	88.163	0.0005291	84.858	0.000515	95.246
	0.0002431	82.8	0.000277	86.42	0.0001815	119.724	0.0003637	78.457
	0.0007942	83.306	0.00202	88.727	0.007888	99.608	0.002374	87.599
	0.001118	94.158	0.0003557	89.683	0.0002424	81.611	0.000416	-111.699
	0.0002235	86.872	0.0004225	87.578	0.0005341	88.089	0.002361	88.57
	0.016	73.568						
248.35	0.046	-41.165	0.002205	93.719	0.0006144	-128.433	0.909	-7.998
	0.001764	-101.953	0.0002887	-119.733	0.0003156	113.848	0.0005507	97.326
	0.001166	93.266	0.002204	93.685	0.018	100.407	0.002568	87.505
	0.0009383	-110.279	0.0004172	78.244	0.0003048	87.316	0.0002505	87.376
	0.0002858	80.2	0.0003844	86.185	0.0006422	-127.052	0.002578	87.867
	0.013	135.895	0.002192	92.981	0.0008938	82.918	0.0003983	85.368
	0.0003022	83.965	0.0003031	81.496	0.0002699	84.21	0.908	-8.024
	0.0009603	-112.512	0.0022	92.3	0.072	-18.756	0.001919	87.218
	0.0002097	94.777	0.0002756	103.463	0.0002097	105.494	0.0004746	-115.352
	0.001737	-102.226	0.0004255	87.372	0.0009081	83.427	0.001912	87.23
	0.027	90.377	0.001352	82.868	0.0006223	79.644	0.0003784	84.717
	0.0002457	82.857	0.0002698	-115.738	0.000289	85.747	0.0004253	79.124
	0.0002382	99.739	0.00136	83.583	0.028	45.142	0.0003785	84.834
	0.0009283	84.117	0.000428	83.967	0.0002965	110.186	0.0002602	89.745
	0.0002754	84.963	0.0002653	101.984	0.0005955	81.359	0.00334	87.604
	0.009364	63.693	0.002191	88.297	0.0006003	83.499	0.0005541	99.162
	0.0002815	80.679	0.0003164	84.45	0.0001934	121.665	0.0003912	77.72
	0.0008573	84.299	0.002184	87.977	0.008311	99.298	0.002556	87.958
	0.001229	94.755	0.0003749	84.28	0.0002678	84.911	0.0004381	-113.218
	0.0002569	82.925	0.0004648	84.174	0.0005793	84.779	0.002562	87.84
	0.017	74.717						
268.2	0.047	-43.246	0.002385	94.124	0.0006696	-129.289	0.908	-8.566
	0.001916	-102.586	0.0003268	-125.795	0.0003421	109.551	0.0006002	97.58
	0.00123	93.127	0.002374	93.814	0.02	98.921	0.002774	87.99
	0.001039	-113.091	0.0004368	80.802	0.0003069	81.454	0.0002698	83.507
	0.0003059	81.621	0.0003982	86.057	0.0007103	-129.81	0.002801	88.189
	0.014	133.845	0.002369	93.486	0.0009797	83.083	0.000449	85.111
	0.0003498	87.677	0.0003148	82.898	0.0003023	78.855	0.908	-8.565
	0.001036	-113.873	0.002356	92.882	0.072	-20.069	0.00202	88.352
	0.0002325	97.401	0.0002731	101.397	0.0002381	110.457	0.0005184	-113.255
	0.001908	-102.824	0.0004411	86.245	0.0009669	83.312	0.002026	87.88
	0.029	89.903	0.001458	83.408	0.0007021	81.57	0.0003802	81.179
	0.000292	79.171	0.0003341	-124.685	0.0003212	86.652	0.0004873	82.011
	0.0002331	103.741	0.001445	83.302	0.03	47.274	0.0003803	81.289
	0.0009744	85.233	0.0004589	84.654	0.0003235	106.17	0.0002494	90.95
	0.0002843	86.241	0.0002909	105.506	0.0006603	78.025	0.003633	87.686
	0.01	66.467	0.002348	87.93	0.0006524	82.69	0.000593	100.349
	0.0003105	80.69	0.0003257	83.978	0.0002174	120.098	0.0004392	78.004
	0.0009536	85.297	0.002331	87.772	0.008839	98.69	0.002748	88.092
	0.001296	95.45	0.0003757	88.473	0.0003155	88.331	0.0005021	-114.996
	0.0002692	78.937	0.0004663	80.561	0.0006156	85.56	0.002761	88.137
	0.018	75.027						
288.05	0.048	-45.606	0.002541	94.157	0.0007269	-131.554	0.908	-9.155
	0.002055	-103.354	0.000337	-126.723	0.0003756	109.692	0.0006437	99.785
	0.001358	95.397	0.002556	94.13	0.021	97.785	0.003012	88.679
	0.001143	-115.358	0.0005022	84.991	0.0003342	82.244	0.0002744	83.81
	0.0003034	82.494	0.0004218	85.162	0.000737	-131.754	0.003022	88.342
	0.014	131.92	0.002538	93.25	0.00105	83.004	0.0005017	81.217
	0.0003806	86.433	0.0003435	89.975	0.0003235	84.975	0.908	-9.138
	0.001114	-114.123	0.002528	93.489	0.072	-21.534	0.002126	89.759
	0.0002495	98.904	0.0002871	102.859	0.0002309	113.997	0.00054	-114.495
	0.002087	-103.227	0.0004711	85.49	0.00104	81.399	0.00214	88.542
	0.03	89.534	0.001548	83.195	0.0007257	81.392	0.0004265	79.15
	0.0003208	83.348	0.0003229	-127.074	0.0003391	87.598	0.0005021	81.534
	0.0002442	106.898	0.001538	83.108	0.031	49.28	0.0004266	79.254
	0.001019	84.876	0.0005018	84.82	0.0003601	107.173	0.0002754	86.642
	0.0003466	89.45	0.0002902	106.468	0.0006882	78.356	0.003841	87.93
	0.011	67.729	0.002553	87.516	0.0006694	84.148	0.0006056	99.102
	0.0003326	82.018	0.0003417	82.419	0.0002351	127.146	0.0004485	79.949
	0.001038	85.565	0.002532	87.678	0.009275	98.422	0.002947	88.186
	0.001363	95.824	0.0004172	85.576	0.0003517	81.834	0.0005586	-117.931
