!Hittite Microwave Corporation								
!12 Elizabeth Drive								
!Chelmsford, MA 01824								
!Tel: 978-250-3343								
!Fax: 978-250-3373								
!Device: HMC194MS8, DC-3 GHz GaAS MMIC SPDT switch in 8-lead MSOP package								
!Misc: Port 1 = RFCom, Port 2 = RF1, Port 3 = RF2, RF1 selected, Vctl=0/+5V							
!
# MHZ S MA R 50

90 0.033 7.592 0.935 -0.662 396.1e-6 8.618
          0.937 -0.636 0.041 7.098 574.5e-6 38.337
          734.2e-6 49.948 1.816e-3 84.568 0.997 -2.66
109.55 0.035 12.901 0.936 -0.917 919.4e-6 79.94
          0.936 -0.891 0.042 10.516 459.7e-6 61.099
          1.619e-3 82.297 937.8e-6 105.511 0.997 -3.16
129.1 0.037 11.142 0.936 -1.027 806e-6 33.26
          0.935 -1.083 0.043 9.069 366.4e-6 68.705
          659.6e-6 47.195 513.5e-6 8.922 0.998 -3.692
148.65 0.036 9.395 0.932 -0.918 430.1e-6 68.593
          0.93 -0.954 0.043 7.705 683.6e-6 63.739
          748.8e-6 48.65 732.4e-6 60.387 0.998 -4.191
168.2 0.037 9.774 0.931 -0.783 958.9e-6 66.919
          0.93 -0.772 0.044 8.005 1.234e-3 58.581
          1.188e-3 63.486 1.295e-3 60.346 0.997 -4.706
187.75 0.037 9.403 0.931 -0.718 1.071e-3 61.912
          0.931 -0.682 0.045 7.922 1.274e-3 55.027
          1.126e-3 59.283 1.331e-3 45.087 0.997 -5.238
207.3 0.037 8.388 0.933 -0.747 648.5e-6 65.996
          0.933 -0.722 0.045 7.385 853.3e-6 57.75
          699.9e-6 46.321 910.3e-6 42.604 0.998 -5.778
226.85 0.037 9.029 0.934 -0.818 815.9e-6 69.219
          0.935 -0.807 0.045 7.729 774.5e-6 63.218
          987.6e-6 69.826 969.5e-6 57.461 0.997 -6.311
246.4 0.039 8.55 0.934 -0.93 863e-6 50.426
          0.934 -0.911 0.046 7.23 917.7e-6 47.95
          857.4e-6 72.029 725.7e-6 51.77 0.998 -6.84
265.95 0.039 8.408 0.932 -0.969 963.5e-6 100.472
          0.933 -0.936 0.047 7.749 980.1e-6 60.315
          724.9e-6 35.448 821.6e-6 85.277 0.999 -7.381
285.5 0.04 8.069 0.931 -0.972 1.038e-3 96.841
          0.931 -0.937 0.048 7.524 1.157e-3 62.24
          1.25e-3 55.584 772.5e-6 69.722 0.998 -7.878
305.05 0.041 7.772 0.93 -0.962 1.301e-3 71.356
          0.929 -0.935 0.048 6.914 1.426e-3 62.457
          1.762e-3 93.973 806.7e-6 41.363 0.997 -8.372
324.6 0.041 7.762 0.93 -0.952 1.798e-3 89.115
          0.93 -0.93 0.049 6.794 1.648e-3 77.452
          1.474e-3 85.934 1.324e-3 73.385 0.997 -8.908
344.15 0.042 7.981 0.93 -0.939 1.246e-3 74.798
          0.93 -0.901 0.05 7.141 1.603e-3 72.38
          1.407e-3 69.65 1.552e-3 88.224 0.998 -9.391
363.7 0.043 7.715 0.93 -0.958 1.192e-3 74.688
          0.93 -0.977 0.051 6.741 1.199e-3 57.538
          1.428e-3 62.754 1.258e-3 83.448 0.998 -9.907
383.25 0.043 7.577 0.93 -1.044 1.236e-3 78.716
          0.929 -0.963 0.052 6.97 1.307e-3 62.33
          1.428e-3 77.658 1.431e-3 79.35 0.998 -10.419
402.8 0.044 7.709 0.929 -1.07 1.359e-3 82.667
          0.929 -0.956 0.053 7.42 1.557e-3 71.172
          1.353e-3 90.972 1.657e-3 72.242 0.998 -10.895
422.35 0.045 7.998 0.929 -0.997 1.455e-3 82.769
          0.929 -0.99 0.054 7.455 1.659e-3 74.096
          1.343e-3 91.601 1.727e-3 66.832 0.998 -11.374
441.9 0.046 7.961 0.929 -0.966 1.225e-3 74.585
          0.929 -0.926 0.056 6.401 1.746e-3 81.373
          1.852e-3 96.236 2.091e-3 85.651 1 -12.002
461.45 0.046 7.303 0.93 -1.02 1.471e-3 80.897
          0.93 -0.98 0.056 6.231 1.693e-3 72.036
          1.452e-3 99.342 1.873e-3 80.216 0.999 -12.488
481 0.047 7.233 0.93 -1.03 1.564e-3 88.535
          0.93 -1.034 0.057 6.376 1.822e-3 74.657
          1.141e-3 76.178 1.745e-3 75.843 0.999 -12.919
500.55 0.047 6.063 0.929 -1.043 1.558e-3 84.414
          0.93 -1.073 0.058 6.123 1.977e-3 73.555
          1.102e-3 71.773 1.768e-3 73.191 1 -13.375
520.1 0.048 4.983 0.929 -1.071 1.557e-3 76.97
          0.93 -1.109 0.059 5.766 1.998e-3 68.561
          1.333e-3 86.418 1.889e-3 70.979 1 -13.862
539.65 0.049 6.173 0.929 -1.106 1.681e-3 84.225
          0.93 -1.166 0.059 5.998 1.818e-3 68.761
          1.724e-3 92.543 1.983e-3 68.037 0.999 -14.339
559.2 0.05 6.191 0.929 -1.14 1.949e-3 81.834
          0.928 -1.2 0.061 5.811 2.027e-3 67.202
          2.319e-3 99.209 1.994e-3 75.796 1.001 -14.818
578.75 0.051 6.518 0.928 -1.174 1.931e-3 85.328
          0.928 -1.206 0.062 5.539 1.972e-3 68.89
          1.833e-3 93.157 2.285e-3 75.964 1 -15.328
598.3 0.051 6.059 0.928 -1.209 2.055e-3 85.907
          0.927 -1.239 0.063 5.184 1.987e-3 68.932
          1.729e-3 88.958 2.286e-3 75.777 1.001 -15.818
617.85 0.052 5.436 0.928 -1.241 2.043e-3 83.846
          0.927 -1.258 0.064 4.915 2.164e-3 69.957
          1.857e-3 91.219 2.12e-3 75.51 1.001 -16.259
637.4 0.052 5.376 0.927 -1.268 1.748e-3 83.742
          0.928 -1.222 0.065 4.873 2.397e-3 73.427
          1.839e-3 96.505 2.105e-3 75.675 1.001 -16.686
656.95 0.053 5.629 0.926 -1.293 1.867e-3 95.511
          0.926 -1.158 0.066 4.782 2.217e-3 72.286
          1.823e-3 87.007 2.606e-3 82.237 0.999 -17.295
676.5 0.054 5.326 0.925 -1.222 2.098e-3 95.31
          0.926 -1.113 0.067 4.482 2.203e-3 81.587
          1.624e-3 92.613 2.453e-3 81.106 1.001 -17.745
696.05 0.055 5.205 0.925 -1.151 2.18e-3 99.064
          0.927 -1.115 0.069 4.449 2.368e-3 82.77
          1.69e-3 94.669 2.408e-3 82.628 1.002 -18.176
715.6 0.055 5.557 0.926 -1.108 2.271e-3 99.864
          0.927 -1.138 0.07 4.527 2.508e-3 78.946
          1.914e-3 95.382 2.467e-3 79.64 1.002 -18.628
735.15 0.056 6.132 0.927 -1.117 2.36e-3 95.712
          0.928 -1.192 0.072 4.626 2.488e-3 75.125
          2.18e-3 95.874 2.47e-3 73.218 1.002 -19.088
754.7 0.057 6.208 0.929 -1.197 2.248e-3 91.845
          0.929 -1.322 0.073 4.773 2.301e-3 75.835
          2.4e-3 94.908 2.199e-3 73.795 1.002 -19.504
774.25 0.058 6.65 0.929 -1.327 2.284e-3 96.423
          0.927 -1.322 0.075 4.577 2.495e-3 72.587
          2.161e-3 99.237 2.628e-3 73.435 1.002 -19.96
793.8 0.059 6.646 0.928 -1.453 2.267e-3 96.391
          0.926 -1.416 0.076 4.381 2.697e-3 76.177
          2.484e-3 98.048 2.443e-3 69.036 1.003 -20.386
813.35 0.059 6.448 0.927 -1.532 2.255e-3 96.171
          0.924 -1.459 0.077 4.314 2.666e-3 75.485
          2.534e-3 95.886 2.54e-3 69.961 1.003 -20.85
832.9 0.059 6.372 0.925 -1.549 2.229e-3 98.124
          0.923 -1.424 0.078 4.35 2.564e-3 73.845
          2.326e-3 95.687 2.752e-3 74.658 1.003 -21.296
852.45 0.06 6.627 0.924 -1.505 2.176e-3 102.368
          0.924 -1.347 0.079 4.406 2.644e-3 77.492
          2.231e-3 98.462 2.644e-3 76.849 1.002 -21.66
872 0.061 6.761 0.924 -1.427 2.293e-3 103.355
          0.923 -1.286 0.081 4.505 2.739e-3 75.47
          2.432e-3 99.244 2.78e-3 71.419 1.004 -22.113
891.55 0.061 7.038 0.925 -1.41 2.525e-3 100.756
          0.926 -1.358 0.082 4.361 2.74e-3 77.103
          2.689e-3 98.084 2.871e-3 72.099 1.003 -22.519
911.1 0.062 7.285 0.926 -1.434 2.547e-3 100.485
          0.926 -1.392 0.083 4.393 2.808e-3 75.389
          2.729e-3 102.869 2.934e-3 72.052 1.004 -22.952
930.65 0.063 7.407 0.926 -1.482 2.457e-3 101.398
          0.926 -1.48 0.084 4.4 2.871e-3 72.329
          2.611e-3 105.246 2.968e-3 73.073 1.004 -23.412
950.2 0.063 7.552 0.926 -1.548 2.404e-3 102.654
          0.926 -1.622 0.086 4.333 2.884e-3 70.688
          2.496e-3 101.922 3.003e-3 75.304 1.005 -23.869
969.75 0.064 8.232 0.925 -1.643 2.489e-3 105.933
          0.924 -1.594 0.087 4.53 2.922e-3 71.899
          2.623e-3 102.969 3.113e-3 73.843 1.005 -24.274
989.3 0.065 8.494 0.923 -1.609 2.544e-3 105.707
          0.923 -1.567 0.088 4.634 2.895e-3 72.817
          2.433e-3 99.31 2.882e-3 73.451 1.005 -24.552
1008.85 0.066 8.884 0.923 -1.582 2.465e-3 110.16
          0.923 -1.523 0.09 4.782 2.967e-3 74.506
          2.558e-3 105.266 2.773e-3 70.547 1.005 -25.051
1028.4 0.067 9.271 0.923 -1.527 2.54e-3 111.017
          0.924 -1.509 0.091 4.958 3.128e-3 75.877
          2.679e-3 110.968 2.914e-3 71.554 1.005 -25.507
1047.95 0.067 9.683 0.924 -1.489 2.739e-3 109.214
          0.925 -1.544 0.092 5.225 3.187e-3 74.801
          2.642e-3 111.771 3.205e-3 74.212 1.005 -25.85
1067.5 0.069 10.25 0.925 -1.552 2.82e-3 111.241
          0.925 -1.633 0.094 5.627 2.929e-3 69.561
          2.477e-3 108.231 3.389e-3 71.461 1.004 -26.175
1087.05 0.07 11.051 0.925 -1.653 2.741e-3 109.323
          0.925 -1.872 0.096 5.675 3.04e-3 68.38
          2.54e-3 107.834 3.125e-3 72.678 1.006 -26.65
1106.6 0.071 11.651 0.925 -1.783 2.906e-3 108.569
          0.922 -1.836 0.097 5.951 2.989e-3 67.635
          2.611e-3 109.395 2.99e-3 74.485 1.006 -27.004
1126.15 0.072 12.082 0.924 -1.883 2.748e-3 110.015
          0.92 -1.787 0.098 6.321 2.937e-3 67.688
          2.551e-3 109.978 2.97e-3 72.852 1.005 -27.362
1145.7 0.073 12.653 0.922 -1.936 2.575e-3 111.911
          0.919 -1.725 0.1 6.537 2.935e-3 67.312
          2.594e-3 111.731 3.04e-3 70.77 1.005 -27.729
1165.25 0.073 13.455 0.92 -1.946 2.701e-3 112.469
          0.919 -1.621 0.101 6.505 2.974e-3 66.196
          2.844e-3 115.442 3.1e-3 70.947 1.005 -28.098
1184.8 0.075 13.765 0.919 -1.936 2.714e-3 112.578
          0.92 -1.578 0.102 6.695 2.96e-3 68.195
          2.716e-3 113.887 2.868e-3 69.342 1.005 -28.514
1204.35 0.075 13.992 0.919 -1.864 2.686e-3 113.769
          0.922 -1.619 0.103 6.816 2.959e-3 69.435
          2.791e-3 112.969 2.968e-3 69.824 1.006 -28.91
1223.9 0.075 14.603 0.919 -1.795 2.688e-3 117.066
          0.923 -1.707 0.105 6.827 3.025e-3 69.944
          2.827e-3 118.067 3.118e-3 67.394 1.006 -29.281
1243.45 0.076 15.149 0.92 -1.753 2.744e-3 118.994
          0.924 -1.816 0.106 6.945 3.118e-3 69.105
          2.823e-3 121.261 3.176e-3 65.654 1.007 -29.672
1263 0.077 15.543 0.921 -1.757 2.806e-3 119.354
          0.923 -1.928 0.107 7.194 3.213e-3 67.472
          2.756e-3 120.461 3.128e-3 65.651 1.007 -30.071
1282.55 0.078 16.163 0.922 -1.823 2.768e-3 121.88
          0.922 -2.033 0.108 7.346 3.31e-3 66.846
          2.594e-3 121.528 3.098e-3 64.857 1.005 -30.402
1302.1 0.079 16.868 0.922 -1.888 2.731e-3 120.59
          0.92 -2.123 0.109 7.391 3.271e-3 65.439
          2.725e-3 124.816 3.028e-3 65.983 1.005 -30.789
1321.65 0.08 17.554 0.922 -1.994 2.733e-3 123.308
          0.919 -2.103 0.11 7.6 3.123e-3 61.146
          2.676e-3 125.476 3.116e-3 63.619 1.006 -31.207
1341.2 0.081 18.206 0.922 -2.049 2.788e-3 124.37
          0.917 -2.061 0.111 7.854 3.038e-3 59.952
          2.651e-3 126.456 3.171e-3 62.716 1.007 -31.566
1360.75 0.082 18.867 0.921 -2.079 2.86e-3 124.872
          0.916 -2 0.113 8.075 3.019e-3 60.809
          2.694e-3 127.261 3.131e-3 61.608 1.007 -31.878
1380.3 0.083 19.62 0.92 -2.153 2.871e-3 127.809
          0.916 -1.907 0.115 8.241 3.008e-3 59.874
          2.764e-3 126.743 3.051e-3 57.703 1.006 -32.201
1399.85 0.084 20.579 0.919 -2.279 2.647e-3 129.515
          0.918 -1.894 0.116 8.478 3.038e-3 56.888
          2.809e-3 129.061 3.254e-3 60.486 1.005 -32.581
1419.4 0.085 21.481 0.917 -2.317 2.639e-3 130.563
          0.919 -1.924 0.118 8.606 2.977e-3 57.979
          2.802e-3 134.409 3.243e-3 59.08 1.006 -32.99
1438.95 0.087 22.308 0.914 -2.253 2.698e-3 133.229
          0.919 -1.976 0.119 8.738 2.908e-3 56.888
          2.895e-3 134.218 3.071e-3 55.063 1.007 -33.343
1458.5 0.087 23.137 0.914 -2.113 2.766e-3 135.522
          0.92 -2.057 0.121 8.891 2.906e-3 54.954
          2.975e-3 134.928 3.001e-3 53.732 1.007 -33.67
1478.05 0.088 24.029 0.915 -1.964 2.853e-3 136.768
          0.921 -2.157 0.122 9.054 2.985e-3 53.732
          2.966e-3 139.316 3.082e-3 56.137 1.007 -34.011
1497.6 0.089 24.965 0.918 -1.918 3.068e-3 140.065
          0.92 -2.226 0.123 9.199 3.06e-3 52.609
          2.948e-3 138.454 2.901e-3 53.971 1.007 -34.382
1517.15 0.09 25.823 0.922 -2.071 2.91e-3 138.163
          0.919 -2.317 0.124 9.4 3.1e-3 49.961
          2.84e-3 143.353 2.963e-3 51.829 1.007 -34.735
1536.7 0.091 26.789 0.922 -2.327 2.775e-3 136.138
          0.918 -2.446 0.125 9.571 3.032e-3 47.903
          2.852e-3 143.722 2.776e-3 50.375 1.007 -35.127
1556.25 0.092 27.552 0.92 -2.584 2.719e-3 137.109
          0.916 -2.515 0.126 9.774 2.954e-3 45.443
          2.962e-3 142.725 2.729e-3 49.333 1.006 -35.503
1575.8 0.093 28.102 0.916 -2.725 2.74e-3 140.907
          0.913 -2.481 0.127 9.977 2.849e-3 43.209
          3.009e-3 143.297 2.89e-3 48.203 1.006 -35.829
1595.35 0.094 28.673 0.912 -2.642 2.784e-3 145.226
          0.912 -2.359 0.129 10.109 2.649e-3 42.761
          2.799e-3 147.21 3.029e-3 46.419 1.006 -36.109
1614.9 0.095 29.059 0.91 -2.39 2.711e-3 152.052
          0.912 -2.205 0.13 10.105 2.828e-3 42.257
          2.923e-3 150.389 2.786e-3 45.404 1.007 -36.563
1634.45 0.096 29.99 0.912 -2.182 2.824e-3 155.843
          0.914 -2.176 0.13 10.194 2.938e-3 39.657
          2.759e-3 153.875 2.842e-3 40.894 1.007 -36.954
1654 0.097 31.082 0.915 -2.158 2.903e-3 157.779
          0.917 -2.183 0.131 10.547 2.887e-3 35.475
          2.78e-3 155.861 2.858e-3 36.229 1.007 -37.315
1673.55 0.098 32.188 0.917 -2.289 2.991e-3 158.522
          0.918 -2.282 0.132 10.968 2.847e-3 31.784
          2.861e-3 158.344 2.864e-3 32.133 1.007 -37.673
1693.1 0.1 33.215 0.919 -2.488 3.106e-3 158.879
          0.918 -2.515 0.133 11.249 2.921e-3 29.562
          2.825e-3 162.537 2.925e-3 28.904 1.007 -38.045
1712.65 0.102 34.042 0.918 -2.679 2.917e-3 160.474
          0.917 -2.755 0.134 11.534 2.725e-3 24.705
          2.93e-3 164.158 2.867e-3 27.968 1.007 -38.411
1732.2 0.104 34.875 0.916 -2.779 2.993e-3 164.076
          0.914 -2.836 0.136 11.727 2.799e-3 24.101
          3.218e-3 167.577 2.859e-3 23.532 1.007 -38.77
1751.75 0.105 35.769 0.914 -2.798 3.114e-3 167.809
          0.911 -2.756 0.137 11.88 2.686e-3 21.843
          3.206e-3 168.672 2.839e-3 19.392 1.007 -39.141
1771.3 0.107 36.628 0.913 -2.813 3.183e-3 171.356
          0.91 -2.614 0.138 12.022 2.669e-3 18.467
          3.266e-3 170.57 2.865e-3 17.723 1.007 -39.529
1790.85 0.108 37.46 0.912 -2.83 3.215e-3 174.713
          0.91 -2.512 0.139 12.139 2.846e-3 14.797
          3.432e-3 174.228 2.914e-3 16.917 1.007 -39.919
1810.4 0.109 38.4 0.911 -2.766 3.326e-3 178.352
          0.913 -2.54 0.14 12.162 2.998e-3 11.37
          3.245e-3 176.923 2.858e-3 11.306 1.007 -40.277
1829.95 0.111 39.184 0.91 -2.679 3.273e-3 -179.822
          0.914 -2.607 0.14 12.3 3.027e-3 11.048
          3.428e-3 -178.619 2.982e-3 12.618 1.008 -40.651
1849.5 0.112 40.252 0.912 -2.6 3.42e-3 -176.683
          0.914 -2.69 0.141 12.448 3.143e-3 7.115
          3.477e-3 -178.711 3.143e-3 7.442 1.008 -41.106
1869.05 0.114 41.231 0.915 -2.624 3.587e-3 -174.717
          0.915 -2.788 0.141 12.641 3.307e-3 2.052
          3.53e-3 -176.652 3.235e-3 2.739 1.008 -41.542
1888.6 0.115 42.062 0.917 -2.805 3.682e-3 -173.581
          0.914 -2.873 0.142 12.895 3.456e-3 -2.278
          3.609e-3 -172.083 3.361e-3 0.664 1.008 -41.908
1908.15 0.117 42.833 0.916 -3.133 3.671e-3 -171.854
          0.914 -2.917 0.142 13.203 3.514e-3 -5.016
          3.677e-3 -168.307 3.622e-3 -0.233 1.007 -42.219
1927.7 0.119 43.558 0.913 -3.382 3.575e-3 -170.884
          0.913 -3.019 0.143 13.447 3.397e-3 -9.121
          3.709e-3 -169.194 3.461e-3 -6.066 1.006 -42.677
1947.25 0.121 44.069 0.908 -3.355 3.72e-3 -165.258
          0.912 -3.112 0.144 13.619 3.434e-3 -9.743
          4e-3 -165.172 3.705e-3 -8.423 1.006 -43.111
1966.8 0.122 44.547 0.905 -3.105 3.899e-3 -160.712
          0.911 -3.113 0.144 13.749 3.698e-3 -9.562
          4.176e-3 -161.086 3.883e-3 -11.95 1.006 -43.539
1986.35 0.124 45.232 0.905 -2.79 4.233e-3 -156.939
          0.911 -3.082 0.145 13.922 4.068e-3 -10.908
          4.169e-3 -158.122 4.052e-3 -15.39 1.007 -43.95
2005.9 0.126 46.197 0.911 -2.604 4.703e-3 -153.931
          0.912 -3.088 0.145 14.213 4.418e-3 -14.793
          4.081e-3 -156.026 4.256e-3 -17.555 1.007 -44.358
2025.45 0.128 47.183 0.918 -2.757 4.909e-3 -154.818
          0.912 -3.159 0.145 14.653 4.716e-3 -19.871
          4.241e-3 -152.773 4.282e-3 -19.619 1.008 -44.851
2045 0.131 47.894 0.92 -3.241 5.099e-3 -154.739
          0.912 -3.308 0.146 14.987 4.95e-3 -25.197
          4.6e-3 -150.632 4.591e-3 -24.658 1.007 -45.304
2064.55 0.134 48.569 0.918 -3.693 5.073e-3 -153.745
          0.909 -3.424 0.147 15.276 4.931e-3 -28.993
          4.919e-3 -148.265 4.784e-3 -25.946 1.006 -45.69
2084.1 0.136 49.102 0.911 -3.926 5.015e-3 -151.304
          0.907 -3.408 0.148 15.42 4.931e-3 -29.81
          5.133e-3 -147.786 5.037e-3 -26.519 1.005 -46.085
2103.65 0.138 49.555 0.905 -3.867 5.034e-3 -147.34
          0.905 -3.253 0.149 15.353 5.074e-3 -28.865
          5.35e-3 -147.374 5.381e-3 -28.2 1.005 -46.544
2123.2 0.14 50.141 0.902 -3.562 5.181e-3 -142.321
          0.906 -3.045 0.149 15.114 5.351e-3 -29.208
          5.769e-3 -142.877 5.703e-3 -31.086 1.007 -47.082
2142.75 0.141 51.102 0.904 -3.324 5.794e-3 -139.071
          0.912 -3.027 0.148 15.29 6.036e-3 -29.25
          5.956e-3 -142.883 6.12e-3 -31.564 1.006 -47.536
2162.3 0.143 52.233 0.908 -3.3 6.375e-3 -139.156
          0.916 -3.23 0.148 15.702 6.524e-3 -32.699
          6.154e-3 -142.591 6.45e-3 -35.142 1.006 -48.029
2181.85 0.146 53.059 0.91 -3.429 6.682e-3 -139.5
          0.918 -3.577 0.148 16.007 6.905e-3 -35.918
          6.475e-3 -141.137 6.739e-3 -38.561 1.005 -48.496
2201.4 0.149 53.632 0.91 -3.602 6.834e-3 -139.523
          0.917 -3.953 0.149 16.187 7.204e-3 -38.405
          6.852e-3 -139.661 7.019e-3 -39.933 1.005 -48.963
2220.95 0.151 54.151 0.909 -3.711 7.029e-3 -139.081
          0.913 -4.236 0.149 16.32 7.474e-3 -40.327
          7.164e-3 -139.013 7.312e-3 -39.443 1.005 -49.47
2240.5 0.153 54.663 0.909 -3.716 7.273e-3 -136.418
          0.908 -4.338 0.149 16.315 7.949e-3 -40.355
          7.328e-3 -136.589 7.601e-3 -42.721 1.005 -50.004
2260.05 0.155 55.194 0.91 -3.774 7.782e-3 -135.952
          0.904 -4.171 0.148 16.422 8.181e-3 -42.618
          7.532e-3 -136.321 8.08e-3 -43.65 1.005 -50.538
2279.6 0.157 55.81 0.911 -3.925 8.091e-3 -135.157
          0.902 -3.973 0.148 16.663 8.706e-3 -44.524
          7.836e-3 -134.344 8.566e-3 -44.164 1.005 -51.045
2299.15 0.16 56.353 0.911 -4.104 8.28e-3 -134.406
          0.902 -3.826 0.147 16.91 9.137e-3 -46.232
          8.2e-3 -132.462 9.014e-3 -45.29 1.004 -51.54
2318.7 0.162 56.797 0.909 -4.238 8.442e-3 -133.53
          0.903 -3.776 0.147 17.083 9.355e-3 -47.812
          8.562e-3 -131.568 9.433e-3 -46.803 1.003 -52.066
2338.25 0.164 57.317 0.907 -4.261 8.609e-3 -131.178
          0.907 -3.831 0.147 17.22 9.729e-3 -48.815
          8.856e-3 -130.449 9.887e-3 -47.021 1.003 -52.689
2357.8 0.167 57.949 0.906 -4.263 9.278e-3 -128.88
          0.909 -3.824 0.146 17.392 0.01 -49.28
          9.37e-3 -128.614 0.011 -48.734 1.004 -53.336
2377.35 0.17 58.6 0.907 -4.297 9.835e-3 -128.053
          0.911 -3.928 0.146 17.611 0.011 -49.682
          9.824e-3 -128.456 0.011 -49.536 1.003 -53.848
2396.9 0.173 59.219 0.908 -4.41 0.01 -127.716
          0.913 -4.13 0.145 17.857 0.011 -50.681
          0.01 -127.929 0.011 -50.527 1.002 -54.397
2416.45 0.176 59.753 0.907 -4.563 0.011 -127.331
          0.914 -4.402 0.145 18.052 0.012 -52.017
          0.011 -127.226 0.012 -51.751 1.001 -55.027
2436 0.178 60.203 0.904 -4.662 0.011 -126.43
          0.914 -4.707 0.144 18.115 0.012 -52.799
          0.011 -127.305 0.013 -52.711 1.002 -55.68
2455.55 0.181 60.861 0.904 -4.536 0.011 -123.297
          0.911 -5.03 0.143 18.053 0.013 -51.543
          0.012 -125.99 0.013 -53.473 1.001 -56.228
2475.1 0.184 61.487 0.905 -4.403 0.012 -122.57
          0.908 -5.167 0.142 17.896 0.014 -51.006
          0.012 -124.786 0.014 -55.021 1.001 -56.829
2494.65 0.186 62.189 0.91 -4.458 0.013 -123.197
          0.905 -5.092 0.14 17.909 0.015 -53.031
          0.013 -123.71 0.014 -55.346 1.001 -57.479
