!Hittite Microwave Corporation								
!12 Elizabeth Drive								
!Chelmsford, MA 01824							
!Tel: 978-250-3343								
!Fax: 978-250-3373								
!Device: HMC195, DC-2.5 GHz GaAS MMIC T/R switch in SOT26 package								
!Misc: Port1 = RFCom, Port2 = RF1, Port3=RF2, RF1 selected								
!
# MHZ S MA R 50

30 9.256e-3 -100.063 0.974 0.359 6.532e-3 43.699
          0.974 0.318 9.219e-3 -98.692 6.388e-3 44.73
          6.47e-3 44.283 6.421e-3 45.26 0.966 -8.533
54.85 0.016 -93.376 0.975 0.451 9.59e-3 59.427
          0.975 0.444 0.016 -92.003 9.358e-3 58.926
          9.513e-3 59.87 9.371e-3 59.179 0.962 -14.951
79.7 9.133e-3 -93.082 0.976 -0.098 0.013 64.982
          0.976 -0.117 8.859e-3 -90.901 0.013 62.828
          0.013 65.35 0.013 63.098 0.959 -21.436
104.55 8.178e-3 -92.107 0.975 -0.345 0.016 66.683
          0.975 -0.365 7.978e-3 -88.817 0.016 63.498
          0.016 67.126 0.016 63.76 0.955 -27.93
129.4 8.79e-3 -90.297 0.974 -0.452 0.02 67.391
          0.974 -0.459 8.519e-3 -87.415 0.019 63.681
          0.02 67.781 0.019 63.855 0.951 -34.332
154.25 9.653e-3 -86.011 0.974 -0.479 0.023 67.312
          0.974 -0.476 8.9e-3 -85.344 0.022 63.214
          0.023 67.29 0.023 63.268 0.947 -40.551
179.1 0.011 -83.292 0.974 -0.531 0.027 66.649
          0.973 -0.512 9.681e-3 -83.507 0.026 61.519
          0.027 66.382 0.026 61.398 0.941 -46.563
203.95 0.013 -81.554 0.974 -0.557 0.03 64.369
          0.973 -0.567 0.012 -81.177 0.029 59.367
          0.03 64.445 0.029 59.459 0.935 -52.458
228.8 0.015 -80.63 0.973 -0.57 0.033 62.852
          0.972 -0.596 0.014 -81.257 0.032 57.051
          0.033 63.199 0.032 57.336 0.929 -58.205
253.65 0.017 -80.313 0.971 -0.57 0.035 61.641
          0.972 -0.6 0.016 -81.618 0.034 54.972
          0.036 61.887 0.034 55.14 0.923 -63.776
278.5 0.019 -80.355 0.97 -0.57 0.038 60.46
          0.971 -0.605 0.018 -81.606 0.036 53.222
          0.038 60.255 0.037 52.957 0.916 -69.14
303.35 0.022 -80.551 0.97 -0.589 0.04 59.415
          0.97 -0.638 0.02 -81.372 0.039 51.522
          0.04 58.77 0.039 50.831 0.909 -74.274
328.2 0.024 -80.98 0.971 -0.617 0.043 57.597
          0.971 -0.658 0.022 -81.489 0.041 48.95
          0.042 57.43 0.041 48.795 0.903 -79.184
353.05 0.026 -81.509 0.969 -0.692 0.044 55.78
          0.97 -0.697 0.024 -81.955 0.042 46.628
          0.044 56.085 0.042 46.944 0.896 -83.924
377.9 0.028 -82.558 0.969 -0.681 0.046 54.671
          0.969 -0.703 0.026 -82.989 0.043 45.047
          0.046 54.811 0.044 45.169 0.889 -88.498
402.75 0.031 -83.527 0.969 -0.631 0.047 54.156
          0.968 -0.677 0.028 -84.168 0.045 43.947
          0.047 53.695 0.045 43.453 0.882 -92.916
427.6 0.034 -84.147 0.968 -0.609 0.049 53.639
          0.969 -0.647 0.031 -85.139 0.046 42.706
          0.049 52.779 0.046 41.81 0.876 -97.161
452.45 0.037 -84.852 0.97 -0.628 0.05 52.163
          0.969 -0.658 0.034 -85.782 0.048 40.514
          0.05 52.025 0.047 40.276 0.871 -101.16
477.3 0.039 -85.888 0.968 -0.703 0.051 51.075
          0.968 -0.684 0.036 -86.975 0.048 38.716
          0.051 51.159 0.048 38.857 0.865 -104.944
502.15 0.042 -86.938 0.968 -0.648 0.052 50.792
          0.968 -0.69 0.038 -88.238 0.049 37.774
          0.052 50.464 0.049 37.517 0.859 -108.629
527 0.045 -87.714 0.967 -0.59 0.053 50.562
          0.967 -0.708 0.041 -89.58 0.05 36.874
          0.053 49.864 0.05 36.186 0.855 -112.223
551.85 0.047 -88.453 0.967 -0.572 0.054 50.006
          0.967 -0.711 0.043 -90.922 0.05 35.567
          0.053 49.342 0.05 34.834 0.85 -115.674
576.7 0.05 -89.426 0.967 -0.59 0.054 49.14
          0.967 -0.671 0.046 -92.191 0.051 33.836
          0.054 48.886 0.05 33.481 0.845 -118.944
601.55 0.054 -90.366 0.966 -0.646 0.055 48.602
          0.966 -0.67 0.049 -93.486 0.051 32.389
          0.055 48.38 0.051 32.275 0.84 -122.115
626.4 0.057 -91.244 0.966 -0.658 0.055 48.412
          0.965 -0.748 0.051 -94.532 0.051 31.587
          0.055 48.138 0.051 31.292 0.836 -125.109
651.25 0.06 -92.069 0.966 -0.646 0.055 48.291
          0.965 -0.768 0.054 -95.571 0.051 30.78
          0.055 47.875 0.051 30.345 0.83 -128.082
676.1 0.064 -93.062 0.964 -0.585 0.056 48.213
          0.964 -0.744 0.056 -95.94 0.051 29.993
          0.055 47.701 0.051 29.506 0.823 -130.801
700.95 0.068 -94.68 0.962 -0.517 0.056 48.09
          0.964 -0.677 0.058 -95.862 0.051 29.213
          0.055 47.697 0.05 28.856 0.816 -133.147
725.8 0.071 -97.168 0.963 -0.526 0.056 47.801
          0.964 -0.566 0.062 -96.329 0.051 28.332
          0.056 47.88 0.05 28.4 0.816 -135.22
750.65 0.072 -98.412 0.965 -0.554 0.056 47.429
          0.965 -0.593 0.066 -97.823 0.051 27.092
          0.056 48.176 0.05 27.719 0.816 -137.712
775.5 0.075 -99.288 0.964 -0.559 0.055 48.034
          0.964 -0.692 0.069 -98.942 0.05 26.887
          0.056 48.176 0.05 26.821 0.816 -140.188
800.35 0.078 -100.306 0.964 -0.535 0.056 49.178
          0.964 -0.624 0.073 -100.197 0.05 27.092
          0.056 48.358 0.05 26.17 0.815 -142.517
825.2 0.081 -101.395 0.964 -0.507 0.057 49.545
          0.964 -0.527 0.076 -101.464 0.051 26.567
          0.056 48.694 0.05 25.661 0.813 -144.745
850.05 0.084 -102.504 0.965 -0.509 0.058 48.618
          0.965 -0.548 0.078 -102.635 0.051 24.835
          0.056 49.069 0.049 25.148 0.811 -146.916
874.9 0.087 -103.732 0.967 -0.585 0.057 47.48
          0.965 -0.703 0.081 -103.791 0.05 22.71
          0.056 49.424 0.049 24.63 0.809 -149.007
899.75 0.09 -104.496 0.963 -0.773 0.055 48.546
          0.964 -0.784 0.084 -104.588 0.048 22.763
          0.056 49.607 0.049 23.803 0.809 -151.075
924.6 0.093 -105.596 0.961 -0.63 0.055 50.878
          0.961 -0.753 0.086 -105.646 0.047 24.122
          0.056 50.206 0.048 23.46 0.807 -153.03
949.45 0.096 -106.59 0.961 -0.476 0.056 51.926
          0.96 -0.607 0.09 -106.583 0.048 24.183
          0.055 50.893 0.047 23.142 0.805 -154.981
974.3 0.099 -107.661 0.964 -0.47 0.057 51.345
          0.963 -0.54 0.093 -107.597 0.048 22.593
          0.055 51.543 0.047 22.786 0.803 -156.868
999.15 0.102 -108.972 0.967 -0.634 0.057 50.209
          0.967 -0.69 0.095 -108.827 0.047 20.445
          0.055 52.112 0.046 22.411 0.802 -158.637
1024 0.105 -109.797 0.963 -0.826 0.055 50.731
          0.964 -0.8 0.098 -109.47 0.045 19.979
          0.055 52.526 0.046 21.739 0.801 -160.451
1048.85 0.107 -110.751 0.961 -0.759 0.054 52.931
          0.961 -0.815 0.1 -110.308 0.044 21.119
          0.055 53.362 0.045 21.54 0.798 -162.178
1073.7 0.111 -111.756 0.96 -0.673 0.054 54.639
          0.959 -0.765 0.103 -111.242 0.044 21.648
          0.055 54.193 0.044 21.223 0.797 -163.898
1098.55 0.114 -112.876 0.96 -0.628 0.055 55.454
          0.96 -0.724 0.107 -112.18 0.044 21.296
          0.055 55.07 0.043 20.964 0.797 -165.556
1123.4 0.117 -114.07 0.962 -0.665 0.055 55.611
          0.962 -0.716 0.11 -113.138 0.043 20.341
          0.055 55.995 0.043 20.777 0.796 -167.136
1148.25 0.12 -115.229 0.963 -0.785 0.055 55.726
          0.963 -0.74 0.112 -114.185 0.042 19.348
          0.055 56.909 0.042 20.526 0.796 -168.677
1173.1 0.123 -116.332 0.964 -0.832 0.054 56.175
          0.965 -0.936 0.114 -115.151 0.041 18.628
          0.055 57.805 0.041 20.208 0.793 -170.361
1197.95 0.125 -117.251 0.962 -0.968 0.053 57.493
          0.962 -1.161 0.117 -115.944 0.039 18.691
          0.054 58.642 0.04 19.85 0.793 -171.848
1222.8 0.128 -118.29 0.958 -0.986 0.053 59.75
          0.957 -1.178 0.12 -116.784 0.038 19.724
          0.054 59.73 0.039 19.688 0.792 -173.378
1247.65 0.132 -119.438 0.956 -0.832 0.053 61.944
          0.954 -0.995 0.123 -117.681 0.038 20.775
          0.054 61.02 0.038 19.812 0.791 -174.861
1272.5 0.135 -120.644 0.957 -0.651 0.055 62.909
          0.956 -0.781 0.126 -118.662 0.038 20.618
          0.054 62.392 0.037 20.104 0.79 -176.256
1297.35 0.139 -121.904 0.964 -0.785 0.055 61.823
          0.963 -0.836 0.129 -119.815 0.037 18.27
          0.054 63.72 0.036 20.208 0.789 -177.669
1322.2 0.14 -123.055 0.964 -1.225 0.053 62.083
          0.964 -1.309 0.131 -120.766 0.035 17.183
          0.054 64.54 0.035 19.835 0.788 -179.008
1347.05 0.143 -123.97 0.957 -1.352 0.051 64.99
          0.956 -1.51 0.134 -121.567 0.033 19.066
          0.054 65.7 0.034 19.648 0.787 179.475
1371.9 0.146 -125.096 0.953 -1.138 0.052 68.425
          0.95 -1.288 0.136 -122.494 0.032 21.282
          0.053 67.282 0.033 19.891 0.786 178.002
1396.75 0.149 -126.356 0.954 -0.885 0.054 70.208
          0.951 -0.982 0.14 -123.501 0.032 21.729
          0.054 69.004 0.032 20.358 0.785 176.592
1421.6 0.153 -127.589 0.96 -0.94 0.055 69.612
          0.957 -1.001 0.143 -124.505 0.031 19.9
          0.054 70.467 0.031 20.692 0.783 175.23
1446.45 0.155 -128.972 0.961 -1.417 0.054 69.518
          0.959 -1.429 0.145 -125.645 0.029 18.683
          0.054 71.351 0.03 20.609 0.782 174.008
1471.3 0.158 -130.129 0.955 -1.591 0.052 72.188
          0.952 -1.585 0.148 -126.416 0.027 20.213
          0.054 72.85 0.028 20.889 0.78 172.554
1496.15 0.16 -131.35 0.95 -1.527 0.053 74.729
          0.948 -1.43 0.15 -127.345 0.026 21.718
          0.054 74.49 0.027 21.447 0.778 171.202
1521 0.163 -132.801 0.948 -1.493 0.054 76.416
          0.948 -1.348 0.153 -128.483 0.025 22.473
          0.054 76.153 0.026 22.142 0.776 169.911
1545.85 0.166 -134.363 0.947 -1.513 0.054 77.784
          0.948 -1.433 0.155 -129.745 0.024 22.977
          0.055 77.732 0.024 22.861 0.774 168.62
1570.7 0.168 -135.803 0.945 -1.451 0.054 79.827
          0.944 -1.541 0.157 -130.965 0.023 24.2
          0.055 79.222 0.023 23.614 0.772 167.317
1595.55 0.17 -137.299 0.943 -1.304 0.055 81.606
          0.94 -1.476 0.159 -131.97 0.022 25.322
          0.055 81.156 0.022 24.956 0.77 166.224
1620.4 0.172 -138.735 0.943 -1.485 0.056 81.98
          0.943 -1.16 0.16 -132.866 0.02 25.335
          0.056 83.003 0.021 26.433 0.768 164.985
1645.25 0.173 -139.732 0.939 -1.701 0.055 83.628
          0.941 -1.229 0.161 -133.514 0.019 26.666
          0.057 84.51 0.019 27.842 0.766 163.863
1670.1 0.174 -140.675 0.934 -1.527 0.055 87.035
          0.938 -1.28 0.161 -134.093 0.017 30.254
          0.057 86.006 0.018 29.638 0.764 162.741
1694.95 0.175 -141.745 0.932 -0.918 0.057 90.613
          0.936 -1.046 0.163 -134.637 0.016 34.698
          0.058 87.778 0.016 32.082 0.764 161.561
1719.8 0.177 -142.734 0.944 -0.359 0.061 91.07
          0.941 -0.689 0.165 -134.975 0.016 36.418
          0.059 89.858 0.015 35.036 0.763 160.411
1744.65 0.181 -144.088 0.955 -0.941 0.061 89.137
          0.95 -1.056 0.168 -135.912 0.014 36.219
          0.06 91.118 0.014 38.014 0.762 159.275
1769.5 0.182 -144.754 0.948 -1.753 0.059 90.888
          0.944 -1.572 0.169 -136.091 0.012 41.058
          0.061 92.043 0.013 41.94 0.762 158.011
1794.35 0.185 -145.622 0.938 -1.791 0.059 95.179
          0.937 -1.501 0.172 -136.445 0.011 49.294
          0.062 93.509 0.012 47.4 0.762 156.72
1819.2 0.188 -146.65 0.935 -1.202 0.062 98.56
          0.938 -0.996 0.175 -137.073 0.01 57.549
          0.063 95.466 0.011 54.405 0.762 155.476
1844.05 0.191 -147.712 0.944 -0.684 0.067 98.541
          0.949 -0.63 0.178 -137.868 0.01 63.799
          0.065 97.314 9.74e-3 62.666 0.76 154.304
1868.9 0.194 -149.257 0.952 -1.226 0.067 96.559
          0.959 -1.205 0.182 -138.964 9.173e-3 70.427
          0.066 97.982 9.167e-3 71.664 0.758 153.131
1893.75 0.196 -150.389 0.945 -2.058 0.065 98.489
          0.948 -1.973 0.184 -139.567 8.439e-3 82.278
          0.067 98.61 8.788e-3 82.56 0.759 151.897
1918.6 0.199 -151.552 0.937 -2.037 0.066 101.796
          0.94 -1.88 0.187 -140.092 8.5e-3 95.523
          0.068 100.129 8.795e-3 93.838 0.757 150.667
1943.45 0.203 -152.664 0.938 -1.712 0.069 103.851
          0.941 -1.59 0.19 -140.839 9.146e-3 107.186
          0.069 101.83 9.231e-3 104.963 0.757 149.453
1968.3 0.206 -153.854 0.942 -1.545 0.072 104.495
          0.948 -1.611 0.193 -141.828 0.01 116.529
          0.071 103.161 0.01 114.821 0.757 148.306
1993.15 0.209 -155.256 0.942 -1.739 0.073 105.081
          0.949 -2.09 0.196 -142.884 0.011 124.323
          0.073 103.96 0.011 122.526 0.755 147.215
2018 0.212 -156.383 0.942 -1.854 0.075 106.413
          0.941 -2.287 0.199 -143.759 0.012 131.464
          0.074 105.086 0.012 129.681 0.754 145.807
2042.85 0.216 -157.812 0.947 -2.041 0.077 106.342
          0.944 -2.255 0.202 -144.692 0.014 135.853
          0.076 106.269 0.013 135.403 0.753 144.631
2067.7 0.219 -159.236 0.946 -2.698 0.076 106.612
          0.946 -2.63 0.204 -145.501 0.015 139.498
          0.078 106.976 0.015 139.61 0.753 143.479
2092.55 0.222 -160.382 0.934 -3.113 0.076 108.99
          0.939 -3.006 0.207 -146.186 0.016 144.552
          0.079 107.613 0.017 142.956 0.751 142.354
2117.4 0.225 -161.41 0.918 -2.759 0.079 112.732
          0.926 -2.799 0.211 -146.977 0.018 150.471
          0.079 108.815 0.018 146.264 0.749 141.173
2142.25 0.229 -162.809 0.92 -1.655 0.087 114.424
          0.92 -1.611 0.215 -148.181 0.021 153.814
          0.08 111.078 0.02 150.209 0.748 139.796
2167.1 0.234 -163.611 0.947 -1.561 0.091 110.392
          0.948 -1.277 0.219 -148.924 0.024 151.255
          0.085 112.436 0.022 153.573 0.747 138.681
2191.95 0.238 -165.979 0.955 -3.164 0.087 108.452
          0.963 -2.921 0.222 -150.756 0.024 150.279
          0.088 111.902 0.025 154.067 0.749 137.626
2216.8 0.24 -167.144 0.937 -4.317 0.084 111.478
          0.947 -4.4 0.223 -151.462 0.025 153.823
          0.089 111.449 0.026 153.762 0.748 136.585
2241.65 0.243 -167.967 0.912 -4.031 0.086 116.576
          0.919 -4.427 0.226 -151.894 0.027 159.199
          0.089 112.351 0.028 154.471 0.746 135.43
2266.5 0.25 -169.355 0.907 -2.538 0.095 119.212
          0.906 -2.908 0.232 -152.915 0.031 162.108
          0.089 114.712 0.029 156.937 0.746 134.155
2291.35 0.253 -170.154 0.935 -1.693 0.104 115.47
          0.931 -1.535 0.234 -153.63 0.035 158.73
          0.094 116.799 0.032 159.985 0.746 133.021
2316.2 0.26 -172.127 0.948 -3.453 0.1 112.423
          0.957 -2.851 0.24 -155.417 0.036 156.13
          0.099 116.189 0.035 160.147 0.746 131.839
2341.05 0.262 -173.707 0.935 -4.565 0.097 114.205
          0.952 -4.445 0.242 -156.513 0.036 157.915
          0.101 115.4 0.038 159.325 0.745 130.818
2365.9 0.265 -174.845 0.919 -4.676 0.098 117.033
          0.934 -5.148 0.245 -157.136 0.038 160.54
          0.101 115.497 0.039 158.973 0.743 129.754
2390.75 0.27 -175.894 0.912 -4.303 0.103 118.677
          0.918 -4.996 0.25 -157.797 0.041 161.951
          0.102 116.392 0.041 159.465 0.742 128.646
2415.6 0.275 -177.187 0.913 -4.193 0.106 118.767
          0.912 -4.6 0.254 -158.894 0.044 161.846
          0.103 117.458 0.043 160.475 0.74 127.557
2440.45 0.28 -178.326 0.907 -4.175 0.109 119.94
          0.911 -4.071 0.258 -160.032 0.047 162.866
          0.106 118.573 0.045 161.433 0.744 126.364
2465.3 0.285 -179.38 0.912 -3.389 0.116 119.709
          0.924 -3.517 0.263 -161.136 0.051 162.647
          0.11 119.911 0.048 162.824 0.743 125.415
2490.15 0.292 179.001 0.934 -3.883 0.119 116.779
          0.946 -4.458 0.269 -162.675 0.054 159.711
          0.115 119.728 0.052 163.042 0.742 124.389
2515 0.295 177.146 0.94 -5.645 0.115 115.279
          0.946 -6.525 0.271 -164.152 0.054 157.963
          0.118 118.266 0.056 161.497 0.742 123.383
2539.85 0.297 175.96 0.914 -7.295 0.109 118.115
          0.914 -8.107 0.271 -164.842 0.053 160.277
          0.116 117.188 0.057 159.459 0.742 122.374
2564.7 0.304 176.126 0.869 -6.647 0.112 125.097
          0.868 -7.02 0.278 -164.505 0.056 166.666
          0.113 118.865 0.056 159.616 0.743 121.232
2589.55 0.309 174.169 0.87 -3.25 0.133 125.648
          0.876 -3.664 0.283 -166.507 0.067 166.9
          0.117 122.793 0.058 163.261 0.741 120.235
2614.4 0.32 173.624 0.924 -3.147 0.139 118.547
          0.931 -3.666 0.293 -167.203 0.072 159.672
          0.127 123.137 0.065 164.838 0.742 119.291
2639.25 0.325 171.178 0.942 -6.089 0.13 114.641
          0.951 -6.767 0.295 -169.611 0.069 155.531
          0.133 120.45 0.07 162.64 0.741 118.402
2664.1 0.324 169.671 0.913 -8.755 0.119 117.23
          0.92 -9.618 0.295 -170.819 0.064 157.765
          0.131 118.152 0.072 159.508 0.741 117.517
2688.95 0.327 170.182 0.863 -8.491 0.121 124.036
          0.864 -9.468 0.299 -170.001 0.066 164.248
          0.126 118.887 0.07 158.715 0.741 116.593
2713.8 0.337 168.733 0.847 -5.406 0.138 126.932
          0.846 -6.236 0.31 -171.657 0.077 166.962
          0.127 122.465 0.071 161.814 0.741 115.628
2738.65 0.343 167.6 0.887 -4.636 0.147 121.817
          0.885 -5.556 0.315 -172.831 0.084 161.801
          0.135 123.5 0.077 163.508 0.742 114.678
2763.5 0.35 165.974 0.903 -6.119 0.144 119.216
          0.899 -7.203 0.32 -174.454 0.084 158.908
          0.14 122.281 0.082 162.48 0.743 113.831
2788.35 0.355 164.841 0.898 -7.472 0.141 119.167
          0.888 -8.482 0.324 -175.725 0.084 158.576
          0.141 121.526 0.084 161.263 0.744 112.966
2813.2 0.359 164.043 0.886 -8.159 0.141 120.136
          0.872 -8.75 0.328 -176.627 0.085 159.226
          0.142 121.726 0.087 160.799 0.742 112.115
2838.05 0.364 163.077 0.878 -8.635 0.141 120.773
          0.867 -8.634 0.333 -177.423 0.088 159.347
          0.144 122.149 0.09 160.787 0.741 111.333
2862.9 0.368 162.112 0.857 -9.4 0.14 122.863
          0.858 -9.39 0.337 -178.132 0.088 160.749
          0.146 121.851 0.093 159.686 0.741 110.516
2887.75 0.375 161.358 0.833 -7.869 0.149 125.848
          0.836 -8.619 0.344 -178.87 0.095 163.318
          0.146 122.846 0.093 159.934 0.741 109.781
2912.6 0.382 160.531 0.85 -6.229 0.162 123.839
          0.842 -7.215 0.351 179.941 0.105 161.3
          0.15 124.481 0.096 161.78 0.741 109.028
2937.45 0.389 159.298 0.884 -7.007 0.164 119.303
          0.867 -7.475 0.359 178.435 0.108 156.698
          0.158 124.595 0.103 162.476 0.741 108.278
2962.3 0.394 157.899 0.894 -10.096 0.154 117.038
          0.881 -9.831 0.363 177.094 0.104 153.96
          0.164 122.729 0.111 160.499 0.741 107.601
2987.15 0.39 157.162 0.845 -12.776 0.143 121.623
          0.848 -12.551 0.36 176.593 0.098 157.681
          0.161 120.417 0.113 156.53 0.741 107.063
3012 0.402 157.612 0.789 -10.086 0.155 128.603
          0.795 -10.798 0.373 176.936 0.107 164.168
          0.155 122.197 0.108 156.708 0.74 106.558
3036.85 0.409 156.472 0.813 -6.673 0.177 125.778
          0.809 -7.911 0.38 175.598 0.124 161.316
          0.161 124.847 0.112 159.847 0.74 105.873
3061.7 0.418 155.262 0.859 -7.411 0.179 119.777
          0.844 -8.367 0.389 174.175 0.129 155.054
          0.171 124.33 0.121 160.157 0.74 105.234
3086.55 0.421 154.243 0.868 -10.69 0.167 117.119
          0.851 -10.984 0.392 172.958 0.123 151.627
          0.175 121.888 0.129 157.272 0.741 104.754
3111.4 0.421 153.708 0.824 -13.121 0.156 120.364
          0.814 -12.929 0.393 172.28 0.116 153.754
          0.17 120.175 0.129 153.632 0.742 104.399
3136.25 0.431 153.816 0.778 -11.309 0.164 125.765
          0.774 -11.196 0.405 172.541 0.123 158.171
          0.165 121.899 0.125 153.574 0.745 103.977
3161.1 0.439 152.866 0.798 -9.092 0.179 123.587
          0.795 -9.342 0.414 171.312 0.135 155.479
          0.173 123.944 0.129 155.649 0.748 103.418
3185.95 0.445 151.846 0.815 -10.165 0.177 120.806
          0.81 -10.998 0.42 170.132 0.134 152.409
          0.179 122.391 0.136 154.495 0.749 102.713
3210.8 0.448 151.321 0.805 -11.651 0.173 120.85
          0.789 -12.636 0.426 169.382 0.131 152.248
          0.177 121.007 0.137 152.69 0.75 102.084
3235.65 0.453 151.102 0.783 -11.874 0.173 122.382
