!Hittite Microwave Corporation								
!12 Elizabeth Drive								
!Chelmsford, MA 01824								
!Tel: 978-250-3343								
!Fax: 978-250-3373								
!Device: HMC199MS8, DC-2.5GHz GaAs dual SPDT switch in 8 lead plastic surface mount Mini Small Outline Package								
!Misc: Port 1 = RFC1, Port 2 = RFC2, Port 3 = RF2, Port 4 = RF1, CtlA low, CtlB high, Vctl=0/+5V								
!
# MHZ S MA R 50

0 1.002 15.63e-6 0 -180 0 -180 0 -180
          0 -180 1.002 15.63e-6 0 -180 0 -180
          0 -180 0 -180 1.002 15.63e-6 0 -180
          0 -180 0 -180 0 -180 1.002 15.63e-6
20 2.09e-3 1.474 0.983 0.204 1.451e-3 62.02 1.529e-3 65.027
          0.984 0.158 2.873e-3 -20.77 1.499e-3 63.298 1.507e-3 62.029
          1.512e-3 60.64 1.547e-3 63.066 0.993 -2.454 970.8e-6 5.21
          1.526e-3 64.158 1.521e-3 62.379 990e-6 7.558 0.993 -2.434
40 5.948e-3 58.991 0.985 -0.107 3.299e-3 80.164 3.313e-3 81.515
          0.986 -0.137 6.058e-3 53.07 3.418e-3 81.57 3.329e-3 80.308
          3.307e-3 80.322 3.415e-3 81.336 0.993 -4.763 1.107e-3 17.89
          3.343e-3 81.324 3.341e-3 80.264 1.104e-3 20.173 0.993 -4.783
60 8.16e-3 61.519 0.986 -0.18 4.512e-3 77.823 4.62e-3 78.373
          0.987 -0.151 8.376e-3 55.248 4.697e-3 79.449 4.561e-3 78.408
          4.518e-3 77.419 4.702e-3 79.797 0.993 -7.151 1.047e-3 0.701
          4.695e-3 78.456 4.551e-3 77.802 1.035e-3 1.78 0.993 -7.162
80 0.01 65.776 0.987 -0.16 6.174e-3 80.661 6.315e-3 82.402
          0.987 -0.198 0.01 61.99 6.348e-3 82.588 6.221e-3 80.866
          6.22e-3 80.919 6.403e-3 82.361 0.994 -9.44 1.004e-3 6.754
          6.324e-3 82.111 6.228e-3 80.558 932.9e-6 9.68 0.994 -9.46
100 0.012 68.333 0.986 -0.185 7.824e-3 81.454 8.06e-3 83.127
          0.986 -0.225 0.012 64.115 8.044e-3 83.314 7.81e-3 81.574
          7.817e-3 81.494 8.045e-3 83.245 0.994 -11.746 974.1e-6 10.62
          8.043e-3 82.847 7.793e-3 81.283 942.9e-6 12.27 0.994 -11.825
120 0.015 67.954 0.986 -0.196 9.66e-3 80.586 9.907e-3 82.715
          0.986 -0.187 0.015 64.546 9.89e-3 82.333 9.495e-3 80.59
          9.67e-3 80.498 9.858e-3 82.429 0.994 -14.059 1.009e-3 16.048
          9.838e-3 82.751 9.506e-3 80.748 1.003e-3 20.11 0.994 -14.17
140 0.017 66.577 0.985 -0.156 0.011 77.878 0.012 79.776
          0.985 -0.213 0.017 65.491 0.011 80.483 0.011 79.364
          0.011 78.129 0.011 80.618 0.995 -16.439 1.211e-3 11.906
          0.011 79.834 0.011 79.449 1.254e-3 10.4 0.995 -16.629
160 0.018 66.093 0.985 -0.193 0.013 78.38 0.013 80.893
          0.985 -0.272 0.018 64.302 0.013 80.861 0.013 78.608
          0.012 78.548 0.013 80.912 0.995 -18.79 852.9e-6 8.86
          0.013 80.924 0.013 78.688 856.8e-6 7.55 0.994 -18.924
180 0.02 65.965 0.985 -0.193 0.014 78.134 0.014 80.697
          0.985 -0.254 0.02 64.426 0.014 80.791 0.014 78.248
          0.014 78.373 0.014 81.058 0.995 -21.089 841e-6 11.868
          0.014 81.084 0.014 78.247 841.7e-6 13.636 0.995 -21.249
200 0.022 65.508 0.986 -0.159 0.016 77.495 0.016 80.634
          0.985 -0.219 0.022 64.256 0.016 80.874 0.016 78.107
          0.016 77.366 0.016 80.82 0.994 -23.468 663.7e-6 9.887
          0.016 80.647 0.016 77.762 693.8e-6 6.534 0.994 -23.591
220 0.023 65.379 0.985 -0.147 0.017 77.027 0.018 80.726
          0.985 -0.273 0.023 63.64 0.018 80.669 0.017 77.245
          0.017 76.514 0.018 80.189 0.996 -25.867 586e-6 6.433
          0.018 79.992 0.017 76.788 556e-6 5.063 0.994 -25.989
240 0.025 65.485 0.985 -0.129 0.019 76.334 0.019 79.947
          0.985 -0.249 0.025 63.443 0.019 80.192 0.019 76.362
          0.019 75.762 0.019 79.734 0.994 -28.217 469.9e-6 0.767
          0.019 79.346 0.019 75.901 440.1e-6 -2.635 0.994 -28.329
260 0.026 65.616 0.985 -0.149 0.02 75.192 0.021 79.321
          0.984 -0.213 0.027 62.981 0.021 79.738 0.02 75.332
          0.02 75.109 0.021 79.491 0.994 -30.598 306.2e-6 -15.228
          0.021 78.981 0.02 75.126 300.7e-6 -14.978 0.994 -30.718
280 0.028 65.278 0.984 -0.149 0.022 74.136 0.022 78.177
          0.984 -0.227 0.028 62.701 0.022 78.405 0.022 74.224
          0.022 74.3 0.022 78.648 0.994 -32.892 215.6e-6 -63.973
          0.022 78.421 0.022 74.304 294e-6 -65.316 0.994 -33.041
300 0.029 65.193 0.984 -0.138 0.023 72.915 0.024 77.142
          0.984 -0.245 0.03 62.254 0.024 77.571 0.023 73.074
          0.023 73.383 0.024 78.089 0.993 -35.242 323e-6 -106.463
          0.024 77.718 0.023 73.525 414.9e-6 -103.132 0.992 -35.422
320 0.031 64.779 0.985 -0.159 0.024 71.893 0.025 76.627
          0.983 -0.269 0.031 62.071 0.025 76.6 0.024 72.285
          0.025 72.551 0.025 76.954 0.993 -37.556 574.6e-6 -123.893
          0.025 77.145 0.025 72.81 627e-6 -123.619 0.993 -37.737
340 0.032 64.239 0.984 -0.233 0.026 71.353 0.026 76.361
          0.984 -0.26 0.032 61.872 0.026 76.341 0.026 71.728
          0.026 71.402 0.027 76.37 0.992 -39.926 909.7e-6 -130.862
          0.027 76.283 0.026 71.723 900.2e-6 -131.553 0.991 -40.107
360 0.033 63.456 0.984 -0.193 0.027 70.957 0.028 76.213
          0.983 -0.249 0.033 61.72 0.028 76.363 0.027 71.25
          0.027 70.403 0.028 75.734 0.992 -42.325 1.194e-3 -137.776
          0.028 75.573 0.027 70.701 1.192e-3 -135.214 0.99 -42.47
380 0.034 63.104 0.983 -0.142 0.029 70.295 0.03 75.87
          0.983 -0.175 0.035 61.182 0.03 75.909 0.029 70.632
          0.029 69.459 0.03 75.056 0.992 -44.631 1.615e-3 -139.727
          0.03 75.045 0.029 69.914 1.619e-3 -139.08 0.99 -44.8
400 0.035 62.628 0.983 -0.134 0.03 68.848 0.031 74.737
          0.982 -0.2 0.036 60.77 0.031 74.886 0.031 69.201
          0.03 68.456 0.031 74.403 0.991 -47.024 2.121e-3 -143.221
          0.031 74.292 0.03 68.803 2.115e-3 -142.087 0.989 -47.132
420 0.037 62.173 0.984 -0.164 0.032 67.273 0.033 73.406
          0.983 -0.18 0.037 59.889 0.033 73.559 0.032 67.417
          0.031 67.566 0.032 73.809 0.99 -49.351 2.64e-3 -144.411
          0.032 73.72 0.031 67.71 2.573e-3 -145.167 0.988 -49.487
440 0.038 61.762 0.984 -0.078 0.033 65.886 0.034 72.271
          0.982 -0.168 0.038 59.317 0.034 72.445 0.033 66.035
          0.033 66.603 0.034 73.14 0.989 -51.701 3.137e-3 -147.752
          0.034 72.993 0.033 66.786 3.129e-3 -147.313 0.986 -51.744
460 0.039 61.194 0.984 -0.115 0.034 64.93 0.035 71.603
          0.981 -0.144 0.039 58.692 0.035 71.749 0.034 65.092
          0.034 65.672 0.035 72.482 0.987 -53.927 3.653e-3 -149.349
          0.035 72.264 0.034 65.804 3.65e-3 -149.18 0.985 -54.02
480 0.04 60.841 0.982 -0.138 0.035 64.501 0.036 71.408
          0.982 -0.194 0.04 58.303 0.036 71.688 0.035 64.711
          0.035 64.549 0.036 71.59 0.986 -56.204 4.265e-3 -150.185
          0.036 71.451 0.035 64.787 4.26e-3 -150.284 0.984 -56.322
500 0.041 60.17 0.982 -0.109 0.036 64.233 0.037 71.475
          0.981 -0.178 0.041 58.204 0.037 71.78 0.036 64.51
          0.036 63.564 0.038 71.045 0.985 -58.469 4.938e-3 -150.742
          0.038 70.832 0.036 63.915 4.947e-3 -150.515 0.983 -58.651
520 0.041 59.842 0.981 -0.032 0.037 63.528 0.039 71.118
          0.981 -0.128 0.042 58.324 0.039 71.276 0.038 63.866
          0.037 62.709 0.039 70.404 0.983 -60.737 5.721e-3 -152.325
          0.039 70.171 0.038 62.959 5.77e-3 -152.17 0.982 -60.945
540 0.042 59.445 0.981 -0.09 0.039 62.129 0.04 70.019
          0.981 -0.061 0.043 58.525 0.041 70.184 0.039 62.245
          0.039 61.634 0.04 69.746 0.98 -63.107 6.579e-3 -154.146
          0.04 69.477 0.039 61.93 6.633e-3 -154.302 0.98 -63.265
560 0.042 59.099 0.98 -0.052 0.04 60.417 0.042 68.614
          0.981 -0.08 0.044 58.578 0.042 68.838 0.04 60.769
          0.04 60.622 0.041 68.949 0.977 -65.412 7.431e-3 -156.053
          0.041 68.711 0.04 60.901 7.498e-3 -156.179 0.978 -65.622
580 0.043 58.582 0.98 0.037 0.041 58.973 0.042 67.48
          0.981 -0.114 0.044 58.707 0.042 67.655 0.041 59.292
          0.041 59.738 0.042 68.355 0.977 -67.651 8.314e-3 -158.072
          0.042 68.245 0.041 60.017 8.374e-3 -158.031 0.976 -67.777
600 0.043 57.847 0.981 -0.023 0.042 57.953 0.043 66.753
          0.981 -0.108 0.044 58.437 0.043 66.96 0.042 58.181
          0.042 58.54 0.043 67.512 0.974 -70.048 9.148e-3 -159.436
          0.043 67.42 0.042 58.847 9.193e-3 -159.817 0.973 -70.04
620 0.043 57.05 0.982 -0.044 0.042 57.176 0.044 66.319
          0.981 -0.08 0.044 57.781 0.044 66.463 0.042 57.483
          0.043 57.53 0.044 66.882 0.972 -72.372 0.01 -160.848
          0.044 66.695 0.043 57.904 0.01 -160.972 0.972 -72.291
640 0.044 56.637 0.98 -0.037 0.043 56.598 0.045 66.05
          0.981 -0.076 0.044 56.964 0.045 66.234 0.043 56.942
          0.044 56.717 0.045 66.416 0.971 -74.6 0.011 -161.92
          0.045 66.204 0.044 57.112 0.011 -161.887 0.971 -74.493
660 0.044 56.334 0.981 -0.038 0.044 55.875 0.046 65.797
          0.981 -0.103 0.044 55.936 0.046 65.916 0.044 56.315
          0.045 55.682 0.046 65.664 0.969 -76.846 0.012 -163.098
          0.046 65.533 0.045 56.095 0.012 -162.907 0.97 -76.661
680 0.045 55.918 0.98 -21.42e-6 0.045 55.301 0.047 65.525
          0.98 -0.02 0.045 54.963 0.047 65.561 0.045 55.794
          0.045 54.586 0.047 64.958 0.964 -79.057 0.013 -164.039
          0.047 64.911 0.046 55.13 0.013 -164.359 0.967 -78.907
700 0.045 55.918 0.98 -0.046 0.046 54.506 0.048 65.211
          0.98 -0.056 0.045 54.127 0.048 65.191 0.046 55.065
          0.046 53.697 0.048 64.323 0.958 -81.029 0.014 -165.025
          0.048 64.209 0.046 54.17 0.015 -165.522 0.964 -81.217
720 0.045 55.676 0.978 -0.023 0.047 53.769 0.049 64.527
          0.979 0.025 0.046 53.931 0.049 64.659 0.048 54.127
          0.047 52.819 0.049 63.751 0.957 -82.911 0.016 -166.15
          0.049 63.628 0.047 53.222 0.016 -166.858 0.963 -83.326
740 0.045 55.95 0.977 0.011 0.048 52.47 0.05 63.481
          0.979 -2.542e-3 0.047 53.884 0.05 63.693 0.049 52.672
          0.047 52.026 0.049 63.313 0.958 -84.906 0.017 -168.058
          0.05 63.019 0.048 52.359 0.017 -168.515 0.962 -85.445
760 0.045 56.248 0.979 0.114 0.049 50.73 0.051 62.088
          0.979 0.044 0.047 54.189 0.051 62.362 0.05 50.989
          0.048 51.317 0.05 62.91 0.96 -87.091 0.019 -170.45
          0.05 62.518 0.048 51.529 0.019 -170.274 0.962 -87.603
780 0.045 56.677 0.98 0.089 0.049 49.04 0.052 60.718
          0.979 0.073 0.047 54.633 0.051 60.972 0.05 49.3
          0.049 50.524 0.051 62.452 0.959 -89.258 0.02 -172.55
          0.051 62.093 0.049 50.734 0.02 -172.208 0.958 -89.663
800 0.045 56.735 0.98 4.89e-3 0.049 48.082 0.051 59.945
          0.98 0.109 0.047 54.88 0.051 60.236 0.049 48.199
          0.05 49.586 0.052 61.818 0.956 -91.455 0.021 -174.165
          0.052 61.529 0.05 49.69 0.021 -173.81 0.956 -91.748
820 0.045 56.607 0.979 0.057 0.049 47.942 0.051 60.177
          0.98 0.052 0.046 55.106 0.051 60.538 0.049 48.077
          0.05 48.628 0.053 61.153 0.954 -93.623 0.022 -174.575
          0.053 60.904 0.051 48.677 0.022 -174.598 0.954 -93.822
840 0.044 56.376 0.979 0.02 0.049 48.493 0.051 61.113
          0.979 0.019 0.045 54.982 0.051 61.385 0.049 48.614
          0.051 47.609 0.053 60.444 0.954 -95.705 0.023 -174.41
          0.053 60.2 0.051 47.692 0.023 -174.872 0.953 -95.854
860 0.044 55.661 0.978 -0.044 0.05 48.966 0.053 61.896
          0.978 0.037 0.044 54.566 0.053 62.083 0.051 49.064
          0.051 46.673 0.054 59.799 0.952 -97.785 0.025 -174.239
          0.054 59.577 0.052 46.752 0.025 -175.206 0.951 -97.925
880 0.044 54.874 0.977 0.051 0.052 48.201 0.055 61.51
          0.978 0.057 0.044 53.505 0.055 61.735 0.053 48.383
          0.052 45.904 0.054 59.321 0.95 -99.802 0.027 -175.426
          0.054 59.002 0.052 46.011 0.027 -176.233 0.949 -99.989
900 0.043 54.191 0.977 0.195 0.054 46.207 0.057 59.628
          0.976 0.036 0.044 52.416 0.057 59.979 0.054 46.431
          0.052 45.026 0.054 58.825 0.952 -101.756 0.029 -178.076
          0.055 58.427 0.052 45.186 0.029 -178.363 0.949 -102.044
920 0.043 54.247 0.977 0.179 0.054 43.502 0.057 57.239
          0.976 0.087 0.044 51.443 0.057 57.644 0.055 43.677
          0.052 44.16 0.055 58.336 0.948 -103.748 0.031 178.984
          0.055 57.862 0.053 44.392 0.031 178.979 0.947 -104.069
940 0.043 54.237 0.978 0.199 0.054 41.528 0.056 55.577
          0.976 0.116 0.043 51.139 0.056 56.005 0.054 41.694
          0.053 43.328 0.055 57.856 0.946 -105.773 0.032 176.538
          0.055 57.417 0.053 43.545 0.032 176.8 0.944 -106.104
960 0.043 54.501 0.979 0.206 0.053 40.686 0.055 55.068
          0.978 0.116 0.043 50.907 0.055 55.542 0.053 40.839
          0.053 42.469 0.056 57.376 0.945 -107.763 0.032 175.199
          0.056 56.922 0.054 42.675 0.033 175.528 0.942 -108.235
980 0.042 54.817 0.978 0.186 0.052 40.824 0.055 55.6
          0.978 0.156 0.043 50.913 0.054 56.139 0.052 41.05
          0.054 41.6 0.056 56.897 0.944 -109.704 0.033 175.095
          0.056 56.387 0.054 41.701 0.034 174.933 0.942 -110.106
1000 0.042 55.141 0.978 0.198 0.052 41.433 0.055 56.702
          0.978 0.128 0.043 51.264 0.055 57.145 0.052 41.715
          0.054 40.752 0.056 56.436 0.943 -111.654 0.035 175.313
          0.057 55.946 0.054 40.795 0.035 174.805 0.941 -111.966
1020 0.041 55.629 0.978 0.118 0.053 41.633 0.056 57.324
          0.977 0.102 0.042 51.775 0.056 57.696 0.054 41.794
          0.054 39.855 0.057 55.998 0.941 -113.638 0.037 175.11
          0.057 55.514 0.054 40.005 0.037 174.294 0.939 -113.97
1040 0.04 55.819 0.977 0.113 0.055 40.781 0.057 56.915
          0.976 0.071 0.042 52.06 0.057 57.29 0.055 40.937
          0.054 38.895 0.057 55.449 0.94 -115.636 0.04 173.887
          0.057 55.016 0.055 39.105 0.04 173.069 0.938 -115.899
1060 0.039 55.859 0.976 0.133 0.056 39.118 0.058 55.659
          0.976 0.117 0.04 52.182 0.058 56.048 0.056 39.287
          0.054 38.056 0.057 55.006 0.939 -117.52 0.042 171.97
          0.057 54.639 0.055 38.206 0.042 171.387 0.937 -117.762
1080 0.038 55.988 0.976 0.169 0.056 37.301 0.059 54.282
          0.977 0.169 0.039 52.102 0.058 54.609 0.056 37.52
          0.054 37.324 0.057 54.576 0.937 -119.383 0.044 169.814
          0.057 54.308 0.055 37.434 0.044 169.72 0.935 -119.606
1100 0.037 55.479 0.977 0.228 0.055 35.884 0.058 53.259
          0.977 0.163 0.038 51.625 0.058 53.63 0.056 36.064
          0.054 36.503 0.057 54.216 0.937 -121.229 0.045 168.075
          0.057 53.813 0.055 36.629 0.045 168.128 0.934 -121.592
1120 0.036 55.383 0.977 0.256 0.055 34.856 0.058 52.71
          0.977 0.188 0.037 51.049 0.058 52.998 0.055 35.018
          0.054 35.746 0.057 53.898 0.936 -123.085 0.047 166.665
          0.057 53.488 0.055 35.894 0.047 166.751 0.932 -123.468
1140 0.035 55.433 0.976 0.185 0.054 34.1 0.057 52.324
          0.977 0.118 0.036 50.259 0.057 52.708 0.055 34.179
          0.054 34.994 0.057 53.649 0.935 -124.822 0.048 165.402
          0.057 53.217 0.055 35.184 0.048 165.473 0.931 -125.301
1160 0.034 55.806 0.975 0.185 0.054 33.479 0.057 52.143
          0.976 0.172 0.035 49.697 0.057 52.524 0.054 33.575
          0.054 34.23 0.057 53.269 0.933 -126.688 0.049 164.498
          0.058 52.807 0.055 34.322 0.05 164.175 0.93 -127.14
1180 0.033 56.638 0.977 0.214 0.053 33.066 0.057 52.19
          0.977 0.161 0.034 49.526 0.056 52.625 0.054 33.178
          0.054 33.283 0.057 52.795 0.931 -128.538 0.051 163.786
          0.058 52.327 0.055 33.399 0.051 163.136 0.928 -128.997
1200 0.032 57.945 0.977 0.118 0.053 32.983 0.056 52.45
          0.977 0.135 0.033 49.717 0.056 52.93 0.054 33.021
          0.054 32.39 0.057 52.453 0.929 -130.378 0.052 163.402
          0.058 51.904 0.055 32.498 0.052 162.612 0.928 -130.839
1220 0.031 59.127 0.976 0.172 0.053 33.072 0.057 53.008
          0.977 0.093 0.032 50.17 0.056 53.462 0.054 33.068
          0.054 31.528 0.057 52.049 0.929 -132.17 0.054 163.154
          0.057 51.478 0.055 31.575 0.054 162.481 0.927 -132.575
1240 0.03 60.306 0.976 0.175 0.054 32.762 0.058 53.128
          0.976 0.104 0.031 50.984 0.057 53.651 0.055 32.717
          0.054 30.74 0.057 51.718 0.929 -133.885 0.057 162.539
          0.057 51.093 0.054 30.734 0.057 162.013 0.926 -134.318
1260 0.029 61.561 0.975 0.104 0.055 31.369 0.059 52.209
          0.976 0.084 0.03 52.171 0.058 52.872 0.056 31.295
          0.053 30.023 0.056 51.473 0.928 -135.581 0.061 160.834
          0.057 50.844 0.054 29.988 0.06 160.598 0.926 -136.016
1280 0.028 62.719 0.974 0.183 0.055 29.116 0.059 50.484
          0.975 0.085 0.029 52.813 0.059 51.144 0.056 29.1
          0.053 29.26 0.056 51.259 0.926 -137.319 0.063 158.252
          0.057 50.646 0.054 29.313 0.063 158.133 0.923 -137.787
1300 0.026 63.841 0.975 0.248 0.055 26.778 0.058 48.611
          0.976 0.141 0.027 53.5 0.058 49.234 0.055 26.755
          0.053 28.463 0.056 50.975 0.925 -139.067 0.064 155.665
          0.056 50.351 0.054 28.52 0.064 155.432 0.921 -139.569
1320 0.025 65.007 0.975 0.244 0.053 25.327 0.056 47.657
          0.976 0.134 0.025 54.044 0.056 48.308 0.053 25.317
          0.053 27.685 0.056 50.77 0.924 -140.738 0.064 154.021
          0.056 50.073 0.053 27.663 0.064 153.699 0.921 -141.255
1340 0.024 65.995 0.975 0.2 0.051 25.251 0.054 48.084
          0.977 0.147 0.024 54.892 0.054 48.808 0.051 25.17
          0.052 26.931 0.055 50.533 0.922 -142.349 0.064 153.637
          0.056 49.867 0.053 26.91 0.063 153.505 0.919 -143.024
1360 0.022 66.573 0.976 0.13 0.05 26.19 0.053 49.644
          0.976 0.143 0.022 55.776 0.053 50.368 0.05 26.131
          0.052 26.114 0.055 50.309 0.922 -144.086 0.065 154.418
          0.055 49.551 0.052 26.134 0.064 154.442 0.918 -144.811
1380 0.021 68.297 0.975 -0.019 0.05 27.15 0.054 51.163
          0.974 0.063 0.02 57.01 0.053 51.916 0.051 27.092
          0.052 25.183 0.055 49.961 0.921 -145.869 0.067 155.168
          0.055 49.192 0.052 25.21 0.067 155.389 0.918 -146.56
1400 0.019 71.091 0.974 -0.012 0.052 26.792 0.055 51.419
          0.974 -0.013 0.019 59.034 0.055 52.184 0.052 26.733
          0.051 24.342 0.054 49.803 0.919 -147.494 0.071 154.507
          0.055 49.051 0.052 24.35 0.071 154.882 0.917 -148.189
1420 0.017 74.631 0.974 0.06 0.053 24.752 0.056 50.011
          0.973 -0.026 0.017 61.645 0.056 50.812 0.053 24.678
          0.051 23.57 0.054 49.617 0.919 -149.16 0.075 152.255
          0.054 48.939 0.051 23.519 0.075 152.452 0.915 -149.837
1440 0.016 76.706 0.974 0.066 0.052 21.913 0.056 47.931
          0.973 -0.04 0.016 65.421 0.055 48.733 0.053 21.857
          0.05 22.686 0.053 49.414 0.917 -150.794 0.077 149.412
          0.053 48.748 0.051 22.575 0.077 149.237 0.914 -151.477
1460 0.015 85.933 0.973 -0.025 0.05 19.799 0.054 46.543
          0.974 -0.084 0.015 70.223 0.053 47.289 0.051 19.722
          0.05 21.84 0.053 49.329 0.916 -152.411 0.077 147.182
          0.053 48.607 0.05 21.728 0.076 146.888 0.913 -153.086
1480 0.014 92.705 0.972 -0.028 0.048 19 0.052 46.491
          0.973 -0.134 0.013 76.514 0.051 47.235 0.049 18.939
          0.049 21.024 0.052 49.326 0.914 -153.965 0.076 146.202
          0.052 48.503 0.049 21.037 0.075 146.112 0.911 -154.682
1500 0.014 100.023 0.972 -0.084 0.047 19.197 0.05 47.453
          0.972 -0.159 0.012 85.442 0.05 48.209 0.047 19.22
          0.048 20.172 0.051 49.23 0.913 -155.507 0.076 146.374
          0.052 48.409 0.049 20.222 0.075 146.564 0.909 -156.276
1520 0.013 108.035 0.971 -0.139 0.046 19.663 0.05 48.616
          0.971 -0.181 0.011 96.506 0.049 49.374 0.047 19.739
          0.048 19.398 0.051 49.12 0.909 -156.995 0.078 146.724
          0.051 48.382 0.048 19.443 0.077 147.429 0.908 -157.882
1540 0.012 117.232 0.971 -0.15 0.046 19.591 0.05 49.287
          0.97 -0.187 0.011 109.615 0.049 50.058 0.047 19.644
          0.047 18.659 0.05 49.141 0.906 -158.453 0.08 146.573
          0.05 48.394 0.047 18.682 0.08 147.594 0.904 -159.464
