!Hittite Microwave Corporation								
!12 Elizabeth Drive								
!Chelmsford, MA 01824								
!Tel: 978-250-3343								
!Fax: 978-250-3373
!Device: HMC174MS8, DC - 3 GHz T/R Switch in 8-lead MSOP package
!Misc: Port1=RFC, Port2= RF1, Port3=RF2, RF2 ON, Bias: +5VDC								
!
# MHZ S MA R 50

30 0.035 -126.585 4.655e-3 61.337 0.981 0.049
          4.586e-3 63.118 0.962 -10.159 5.211e-3 54.974
          0.98 0.051 5.242e-3 53.813 0.033 -113.134
54.85 0.045 -111.794 7.531e-3 63.983 0.967 -0.135
          7.496e-3 64.369 0.959 -17.903 7.503e-3 63.218
          0.967 -0.118 7.524e-3 62.932 0.043 -101.778
79.7 0.033 -123.008 0.011 66.026 0.971 -1.775
          0.011 66.211 0.955 -25.548 0.011 65.842
          0.972 -1.762 0.011 65.332 0.03 -109.984
104.55 0.028 -132.062 0.015 66.633 0.972 -2.999
          0.015 67.016 0.951 -33.132 0.014 66.325
          0.972 -2.966 0.014 65.796 0.024 -116.646
129.4 0.027 -137.385 0.018 66.419 0.971 -3.933
          0.018 66.928 0.946 -40.61 0.017 65.427
          0.971 -3.879 0.017 64.978 0.022 -120.997
154.25 0.027 -139.794 0.021 65.554 0.97 -4.723
          0.021 65.808 0.941 -47.925 0.02 62.736
          0.971 -4.69 0.02 62.424 0.022 -122.782
179.1 0.027 -139.192 0.023 62.324 0.972 -5.465
          0.024 62.231 0.936 -55.095 0.024 58.845
          0.973 -5.481 0.024 59.022 0.022 -121.674
203.95 0.029 -137.117 0.027 59.978 0.971 -6.271
          0.027 60.125 0.929 -61.887 0.026 56.378
          0.971 -6.298 0.026 56.236 0.024 -117.874
228.8 0.031 -136.325 0.029 57.519 0.969 -7.038
          0.029 57.953 0.923 -68.524 0.028 53.746
          0.969 -7.079 0.028 53.253 0.026 -116.217
253.65 0.033 -135.984 0.031 55.248 0.967 -7.746
          0.032 55.585 0.916 -74.978 0.031 50.61
          0.968 -7.78 0.03 50.208 0.028 -114.909
278.5 0.035 -135.623 0.033 53.242 0.967 -8.431
          0.034 52.966 0.909 -81.194 0.033 47.398
          0.967 -8.453 0.032 47.527 0.029 -113.387
303.35 0.036 -135.093 0.036 51.15 0.968 -9.147
          0.036 50.082 0.903 -87.135 0.035 45.023
          0.968 -9.208 0.035 45.654 0.032 -112.017
328.2 0.038 -134.361 0.038 48.669 0.97 -9.914
          0.037 48.309 0.897 -92.885 0.036 42.767
          0.969 -9.992 0.037 42.905 0.034 -111.5
353.05 0.041 -134.383 0.039 46.103 0.968 -10.716
          0.039 46.391 0.891 -98.309 0.037 40.081
          0.969 -10.782 0.038 39.635 0.036 -110.112
377.9 0.043 -134.744 0.04 44.429 0.966 -11.437
          0.04 44.529 0.884 -103.614 0.039 37.787
          0.967 -11.487 0.038 37.434 0.039 -109.256
402.75 0.044 -135.072 0.041 43.309 0.965 -12.105
          0.042 42.589 0.877 -108.749 0.04 35.844
          0.965 -12.127 0.04 36.201 0.041 -109.015
427.6 0.046 -135.289 0.043 42.029 0.966 -12.784
          0.043 40.644 0.872 -113.653 0.041 33.936
          0.966 -12.79 0.041 34.965 0.043 -109.034
452.45 0.048 -135.631 0.044 39.908 0.967 -13.524
          0.044 39.241 0.865 -118.354 0.042 31.709
          0.967 -13.604 0.043 32.162 0.045 -108.733
477.3 0.05 -136.175 0.045 37.847 0.966 -14.288
          0.045 37.73 0.86 -122.838 0.043 29.699
          0.966 -14.384 0.043 29.324 0.047 -108.081
502.15 0.052 -137.07 0.045 36.938 0.965 -14.994
          0.046 36.361 0.855 -127.204 0.044 27.816
          0.965 -15.068 0.044 27.79 0.049 -107.722
527 0.054 -138.186 0.046 36.322 0.964 -15.655
          0.046 35.159 0.849 -131.434 0.044 26.032
          0.965 -15.758 0.044 26.524 0.051 -107.502
551.85 0.056 -139.383 0.047 35.286 0.964 -16.333
          0.047 34.027 0.843 -135.515 0.045 24.331
          0.966 -16.483 0.045 24.853 0.054 -107.401
576.7 0.057 -140.543 0.048 33.58 0.964 -17.089
          0.048 32.866 0.838 -139.456 0.045 22.708
          0.965 -17.219 0.046 22.629 0.056 -107.434
601.55 0.059 -141.587 0.048 32.141 0.964 -17.899
          0.048 31.787 0.834 -143.312 0.046 21.163
          0.964 -17.897 0.046 20.695 0.057 -107.586
626.4 0.06 -142.909 0.049 31.384 0.964 -18.634
          0.049 30.821 0.83 -147.046 0.046 19.502
          0.963 -18.686 0.046 19.508 0.06 -107.653
651.25 0.062 -144.24 0.049 30.68 0.964 -19.282
          0.049 29.948 0.825 -150.707 0.046 18.089
          0.963 -19.376 0.046 18.443 0.061 -107.853
676.1 0.063 -145.629 0.05 29.988 0.963 -19.93
          0.049 29.093 0.82 -154.279 0.046 16.827
          0.964 -20.061 0.047 17.239 0.063 -108.016
700.95 0.065 -147.093 0.05 29.085 0.963 -20.642
          0.05 28.237 0.816 -157.744 0.047 15.559
          0.964 -20.789 0.047 15.665 0.065 -108.158
725.8 0.066 -148.614 0.051 27.669 0.963 -21.433
          0.05 27.424 0.81 -161.102 0.047 14.158
          0.965 -21.55 0.048 13.601 0.067 -108.414
750.65 0.067 -150.132 0.051 26.217 0.963 -22.216
          0.05 26.791 0.806 -164.407 0.047 12.825
          0.962 -22.406 0.047 11.668 0.069 -108.716
775.5 0.068 -151.631 0.05 26.094 0.962 -22.982
          0.05 26.181 0.802 -167.63 0.047 11.593
          0.962 -23.16 0.046 11.08 0.07 -109.122
800.35 0.069 -153.17 0.05 26.891 0.96 -23.668
          0.051 25.71 0.798 -170.842 0.047 10.532
          0.961 -23.756 0.046 11.485 0.072 -109.421
825.2 0.07 -154.785 0.052 26.853 0.96 -24.286
          0.051 25.248 0.795 -173.978 0.047 9.563
          0.961 -24.354 0.047 11.057 0.073 -109.723
850.05 0.07 -156.432 0.053 24.964 0.963 -24.915
          0.051 24.732 0.791 -177.01 0.047 8.519
          0.963 -25.098 0.049 8.672 0.075 -110.095
874.9 0.071 -157.981 0.053 21.979 0.965 -25.692
          0.051 24.283 0.786 179.987 0.047 7.189
          0.964 -26.008 0.048 4.976 0.076 -110.413
899.75 0.071 -159.8 0.05 21.961 0.963 -26.722
          0.051 23.68 0.784 176.882 0.046 5.958
          0.961 -26.832 0.046 3.991 0.078 -110.748
924.6 0.072 -161.52 0.05 24.189 0.959 -27.403
          0.051 23.478 0.78 173.964 0.046 4.931
          0.958 -27.44 0.045 5.212 0.079 -111.059
949.45 0.072 -163.279 0.052 25.117 0.957 -27.915
          0.051 23.329 0.778 171.07 0.046 4.146
          0.959 -27.998 0.046 5.754 0.08 -111.515
974.3 0.073 -165.221 0.054 23.69 0.959 -28.5
          0.051 23.112 0.774 168.186 0.045 3.323
          0.961 -28.697 0.047 4.191 0.082 -112.136
999.15 0.073 -167.404 0.054 20.835 0.963 -29.332
          0.052 22.801 0.769 165.327 0.045 2.234
          0.963 -29.599 0.047 0.791 0.083 -112.834
1024 0.074 -169.611 0.052 19.782 0.964 -30.31
          0.052 22.333 0.767 162.387 0.045 1.211
          0.963 -30.379 0.045 -1.396 0.084 -113.405
1048.85 0.074 -171.662 0.05 21.448 0.961 -31.11
          0.052 22.238 0.764 159.561 0.045 0.178
          0.96 -31.178 0.044 -1.264 0.085 -113.93
1073.7 0.074 -173.755 0.051 22.653 0.958 -31.727
          0.052 22.152 0.761 156.76 0.044 -0.547
          0.958 -31.846 0.043 -0.688 0.086 -114.416
1098.55 0.074 -175.913 0.052 22.782 0.958 -32.357
          0.052 22.114 0.758 153.986 0.043 -1.221
          0.958 -32.494 0.043 -0.71 0.087 -114.955
1123.4 0.074 -178.157 0.053 21.997 0.959 -33.056
          0.052 22.067 0.755 151.263 0.043 -1.905
          0.96 -33.173 0.044 -1.75 0.088 -115.618
1148.25 0.074 179.485 0.053 20.913 0.96 -33.766
          0.052 21.919 0.753 148.603 0.043 -2.536
          0.961 -33.895 0.044 -3.687 0.088 -116.412
1173.1 0.074 176.906 0.053 19.791 0.962 -34.568
          0.052 21.946 0.75 145.864 0.042 -3.565
          0.962 -34.886 0.043 -6.209 0.089 -117.213
1197.95 0.074 174.257 0.051 19.688 0.962 -35.444
          0.052 21.748 0.747 143.149 0.042 -4.391
          0.959 -35.77 0.041 -7.38 0.09 -117.969
1222.8 0.074 171.725 0.051 21.103 0.96 -36.315
          0.052 21.838 0.745 140.403 0.041 -5.153
          0.955 -36.402 0.039 -6.351 0.09 -118.658
1247.65 0.074 169.243 0.051 22.875 0.956 -37.013
          0.052 22.011 0.743 137.695 0.04 -5.701
          0.953 -36.939 0.039 -4.556 0.091 -119.394
1272.5 0.074 166.663 0.053 23.296 0.954 -37.512
          0.052 22.139 0.741 135.035 0.04 -6.067
          0.955 -37.543 0.04 -4.14 0.091 -120.306
1297.35 0.075 163.815 0.055 20.744 0.959 -38.018
          0.052 22.358 0.739 132.342 0.039 -6.582
          0.961 -38.294 0.041 -7.174 0.092 -121.476
1322.2 0.075 160.645 0.053 18.63 0.965 -39.004
          0.052 22.196 0.737 129.811 0.039 -7.211
          0.961 -39.461 0.039 -10.737 0.091 -122.66
1347.05 0.075 157.403 0.05 20.249 0.963 -40.154
          0.052 22.337 0.735 127.159 0.038 -8.133
          0.955 -40.312 0.036 -10.283 0.091 -123.499
1371.9 0.075 154.506 0.05 23.207 0.957 -41.005
          0.052 22.638 0.733 124.489 0.037 -8.66
          0.951 -40.849 0.035 -7.693 0.092 -124.344
1396.75 0.076 151.753 0.053 24.523 0.952 -41.513
          0.052 22.996 0.732 121.832 0.036 -8.846
          0.951 -41.33 0.036 -6.199 0.092 -125.414
1421.6 0.076 148.76 0.055 22.671 0.955 -41.929
          0.053 23.259 0.731 119.206 0.035 -9.006
          0.956 -42.048 0.037 -7.989 0.092 -126.768
1446.45 0.077 145.322 0.053 20.288 0.961 -42.801
          0.053 23.127 0.729 116.671 0.035 -9.353
          0.958 -43.134 0.035 -11.351 0.092 -128.219
1471.3 0.078 141.975 0.052 21.59 0.961 -43.832
          0.053 23.354 0.728 113.967 0.034 -9.924
          0.955 -43.997 0.033 -10.904 0.091 -129.585
1496.15 0.079 138.716 0.052 23.225 0.957 -44.66
          0.053 23.724 0.726 111.493 0.033 -10.14
          0.951 -44.65 0.032 -9.38 0.091 -130.881
1521 0.08 135.546 0.053 23.887 0.955 -45.381
          0.053 24.164 0.726 109.003 0.032 -10.257
          0.951 -45.291 0.032 -8.958 0.09 -132.357
1545.85 0.081 132.382 0.053 23.958 0.954 -46.101
          0.054 24.434 0.726 106.417 0.032 -10.323
          0.953 -46.033 0.031 -9.702 0.09 -133.955
1570.7 0.083 129.12 0.053 24.635 0.953 -46.88
          0.054 24.385 0.725 103.817 0.031 -10.25
          0.953 -46.871 0.03 -10.195 0.09 -135.437
1595.55 0.084 126.005 0.054 25.346 0.952 -47.579
          0.054 24.973 0.724 101.382 0.03 -10.219
          0.95 -47.588 0.029 -9.283 0.089 -136.979
1620.4 0.086 122.862 0.055 23.969 0.955 -48.238
          0.054 25.325 0.724 98.937 0.029 -9.828
          0.953 -48.314 0.029 -9.466 0.088 -139.187
1645.25 0.089 119.549 0.053 23.551 0.957 -49.256
          0.055 25.508 0.724 96.46 0.028 -9.798
          0.952 -49.299 0.028 -9.94 0.088 -141.326
1670.1 0.091 116.237 0.052 25.494 0.954 -50.323
          0.055 25.718 0.724 94.003 0.027 -9.705
          0.948 -50.187 0.026 -9.017 0.087 -143.266
1694.95 0.092 113.167 0.054 28.578 0.947 -51.102
          0.055 26.096 0.724 91.549 0.026 -9.143
          0.946 -50.784 0.026 -6.769 0.086 -145.223
1719.8 0.095 110.576 0.058 28.954 0.943 -51.432
          0.056 26.638 0.725 88.998 0.025 -8.015
          0.95 -51.25 0.026 -5.534 0.085 -147.682
1744.65 0.099 107.649 0.058 24.648 0.953 -51.923
          0.056 26.739 0.728 86.542 0.025 -6.945
          0.956 -52.112 0.025 -7.408 0.085 -150.607
1769.5 0.102 104.141 0.055 24.007 0.958 -53.217
          0.056 26.796 0.726 84.161 0.024 -6.545
          0.949 -53.385 0.023 -7.523 0.083 -153.168
1794.35 0.105 100.965 0.053 27.377 0.953 -54.475
          0.057 27.214 0.725 81.874 0.023 -5.965
          0.942 -54.17 0.022 -4.354 0.082 -155.534
1819.2 0.108 98.279 0.055 30.957 0.944 -55.222
          0.057 27.946 0.725 79.571 0.022 -4.752
          0.942 -54.556 0.022 -0.831 0.082 -158.22
1844.05 0.112 95.827 0.06 30.98 0.939 -55.475
          0.058 28.643 0.727 77.222 0.021 -2.805
          0.949 -55.018 0.022 -0.127 0.081 -161.588
1868.9 0.117 92.972 0.061 27.03 0.949 -56.039
          0.059 28.651 0.73 75.05 0.02 -0.477
          0.956 -56.109 0.022 -2.493 0.081 -165.399
1893.75 0.121 89.791 0.058 26.928 0.952 -57.244
          0.059 28.586 0.73 72.782 0.02 1.237
          0.949 -57.437 0.019 -0.574 0.08 -168.725
1918.6 0.125 87.124 0.057 29.368 0.947 -58.291
          0.059 28.974 0.731 70.507 0.019 3.234
          0.941 -58.118 0.018 4.258 0.079 -172.004
1943.45 0.129 84.587 0.059 31.15 0.942 -59.041
          0.06 29.48 0.732 68.166 0.018 5.944
          0.941 -58.682 0.018 8.276 0.08 -175.716
1968.3 0.133 82.058 0.061 31.359 0.941 -59.667
          0.061 29.834 0.733 65.838 0.018 9.235
          0.946 -59.442 0.018 10.432 0.08 -179.947
1993.15 0.138 79.583 0.061 30.884 0.942 -60.438
          0.061 29.957 0.735 63.637 0.017 12.656
          0.949 -60.439 0.018 11.989 0.08 175.524
2018 0.143 77.112 0.062 31.59 0.94 -61.24
          0.062 30.311 0.737 61.481 0.017 16.074
          0.944 -61.323 0.017 16.273 0.081 171.289
2042.85 0.148 74.958 0.064 30.756 0.942 -61.96
          0.062 30.802 0.738 59.406 0.016 20.323
          0.944 -62.073 0.017 20.584 0.081 166.611
2067.7 0.154 72.649 0.063 29.73 0.946 -63.024
          0.063 31.089 0.738 57.326 0.016 24.627
          0.945 -63.121 0.016 23.658 0.082 161.84
2092.55 0.159 70.196 0.061 30.904 0.944 -64.296
          0.064 31.094 0.74 55.217 0.016 28.918
          0.941 -64.24 0.016 27.981 0.083 157.464
2117.4 0.163 67.915 0.062 34.336 0.934 -65.364
          0.064 31.26 0.742 53.13 0.016 33.126
          0.931 -64.993 0.016 34.944 0.084 153.558
2142.25 0.168 66.247 0.067 37.142 0.923 -65.699
          0.065 32.358 0.744 51.158 0.016 37.265
          0.924 -64.978 0.017 43.452 0.087 149.7
2167.1 0.175 64.875 0.073 33.152 0.931 -65.58
          0.066 33.162 0.745 49.155 0.017 42.576
          0.941 -65.32 0.019 45.703 0.092 144.805
2191.95 0.183 62.49 0.07 28.647 0.946 -66.734
          0.068 32.764 0.746 47.086 0.018 46.28
          0.954 -67.089 0.019 43.326 0.095 138.984
2216.8 0.19 59.855 0.065 29.576 0.947 -68.54
          0.069 32.001 0.748 45.019 0.019 48.957
          0.947 -68.947 0.018 44.426 0.097 133.986
2241.65 0.194 57.636 0.064 34.401 0.933 -69.961
          0.068 31.951 0.751 43.025 0.019 51.492
          0.928 -69.934 0.018 50.955 0.1 130.281
2266.5 0.198 56.082 0.069 38.529 0.915 -70.339
          0.069 33.077 0.753 41.133 0.02 54.715
          0.914 -69.802 0.019 60.04 0.104 127.302
2291.35 0.206 54.946 0.078 36.2 0.918 -70.032
          0.07 34.517 0.753 39.278 0.02 58.909
          0.925 -69.462 0.023 63.726 0.11 123.604
2316.2 0.215 52.971 0.076 31.195 0.933 -71.015
          0.073 34.46 0.755 37.411 0.022 61.586
          0.945 -70.888 0.025 59.694 0.116 118.393
2341.05 0.222 50.623 0.073 31.093 0.936 -72.604
          0.074 33.726 0.756 35.521 0.023 62.916
          0.946 -72.825 0.024 58.193 0.121 113.787
2365.9 0.228 48.524 0.072 33.198 0.927 -73.938
          0.075 33.362 0.759 33.745 0.024 64.214
          0.935 -74.275 0.024 60.458 0.125 110.18
2390.75 0.234 46.783 0.074 34.929 0.918 -74.819
          0.075 33.52 0.761 32.036 0.025 65.906
          0.922 -75.1 0.025 64.758 0.129 107.203
2415.6 0.241 45.2 0.076 34.98 0.916 -75.508
          0.076 33.884 0.761 30.27 0.026 67.726
          0.915 -75.64 0.026 68.34 0.136 104.245
2440.45 0.247 43.526 0.077 35.916 0.912 -76.479
          0.077 34.394 0.764 28.403 0.028 68.847
          0.909 -76.059 0.028 70.874 0.142 101.062
2465.3 0.255 42.065 0.082 36.629 0.905 -76.704
          0.078 35.005 0.764 26.596 0.029 70.859
          0.916 -76.351 0.031 72.302 0.149 98.185
2490.15 0.264 40.414 0.086 33.541 0.912 -77.103
          0.081 35.014 0.766 24.849 0.031 72.675
          0.931 -77.42 0.034 69.88 0.157 94.93
2515 0.273 38.322 0.084 30.081 0.922 -78.458
          0.083 34.059 0.768 23.161 0.033 73.315
          0.937 -79.495 0.034 66.513 0.163 91.415
2539.85 0.279 36.048 0.078 30.449 0.922 -80.548
          0.083 32.844 0.768 21.459 0.035 72.789
          0.921 -81.729 0.032 66.494 0.168 88.273
2564.7 0.282 34.281 0.075 37.255 0.897 -82.149
          0.082 32.939 0.769 19.649 0.035 72.243
          0.885 -82.471 0.031 73.41 0.172 86.302
2589.55 0.288 33.486 0.087 41.527 0.873 -81.329
          0.082 35.343 0.77 18.058 0.036 74.365
          0.876 -80.868 0.037 80.308 0.18 85.006
2614.4 0.298 32.243 0.097 35.828 0.889 -80.815
          0.087 36.342 0.773 16.447 0.039 76.523
          0.908 -80.899 0.044 76.763 0.191 82.651
2639.25 0.309 30.153 0.095 29.261 0.912 -82.257
          0.091 35.07 0.773 14.868 0.042 76.495
          0.931 -83.211 0.045 69.43 0.199 79.247
2664.1 0.315 27.738 0.086 28.457 0.915 -84.758
          0.092 33.094 0.774 13.292 0.044 74.864
          0.92 -86.127 0.042 66.294 0.204 76.154
2688.95 0.318 25.848 0.082 34.455 0.889 -86.657
          0.09 32.352 0.776 11.694 0.045 73.464
          0.88 -87.651 0.039 71.097 0.207 74.404
2713.8 0.322 24.927 0.09 40.001 0.86 -86.314
          0.09 34.133 0.778 10.084 0.045 74.677
          0.855 -86.516 0.043 78.983 0.215 73.497
2738.65 0.331 23.716 0.1 36.685 0.869 -85.875
          0.093 35.206 0.778 8.471 0.048 76.331
          0.875 -86.166 0.05 77.814 0.225 71.795
2763.5 0.34 22.022 0.101 32.969 0.881 -86.825
          0.096 34.572 0.778 6.888 0.051 76.41
          0.888 -87.6 0.052 74.082 0.233 69.446
2788.35 0.347 20.257 0.099 31.589 0.885 -88.201
          0.098 33.753 0.779 5.313 0.053 75.776
          0.885 -89.255 0.053 72.347 0.24 67.316
2813.2 0.352 18.652 0.098 31.765 0.881 -89.44
          0.099 33.427 0.781 3.783 0.055 75.086
          0.875 -90.427 0.053 72.575 0.246 65.518
2838.05 0.359 17.186 0.099 31.747 0.877 -90.461
          0.101 33.514 0.781 2.321 0.057 74.57
          0.871 -91.161 0.056 72.683 0.254 63.795
2862.9 0.365 15.503 0.097 32.438 0.871 -92.05
          0.103 32.956 0.782 0.802 0.059 73.512
          0.867 -92.429 0.057 71.606 0.26 61.984
2887.75 0.369 14.22 0.1 35.928 0.851 -92.777
          0.103 32.8 0.781 -0.661 0.06 73.343
          0.85 -93.131 0.057 74.157 0.267 60.83
2912.6 0.375 13.113 0.11 36.145 0.846 -92.326
          0.105 33.75 0.782 -2.182 0.062 74.358
          0.845 -92.857 0.062 76.109 0.276 59.68
2937.45 0.384 11.782 0.116 32.081 0.861 -92.438
          0.108 34.215 0.784 -3.692 0.066 74.868
          0.858 -93.134 0.068 74.09 0.286 58.019
2962.3 0.393 10.018 0.113 27.303 0.88 -94.18
          0.113 33.233 0.784 -5.172 0.07 73.674
          0.874 -94.881 0.071 69.134 0.294 55.904
2987.15 0.397 7.995 0.101 28.049 0.871 -97.344
          0.115 31.011 0.785 -6.652 0.072 70.769
          0.868 -97.854 0.067 66.099 0.298 54.004
3012 0.399 6.848 0.104 35.609 0.832 -98.368
          0.112 30.699 0.785 -8.057 0.071 70.039
          0.827 -98.65 0.065 71.705 0.303 53.352
3036.85 0.406 6.12 0.119 36.816 0.821 -97.003
          0.113 32.547 0.785 -9.508 0.073 71.818
          0.82 -97.406 0.072 74.987 0.314 52.588
3061.7 0.415 4.83 0.127 32.054 0.841 -96.84
          0.119 32.986 0.784 -11.026 0.078 72.613
          0.841 -97.61 0.08 72.127 0.325 50.998
3086.55 0.424 3.027 0.124 27.352 0.859 -98.722
          0.124 31.664 0.784 -12.563 0.083 71.179
          0.856 -99.614 0.082 67.271 0.333 49.04
3111.4 0.428 1.219 0.115 27.527 0.853 -101.608
          0.125 29.727 0.785 -14.054 0.085 68.365
          0.843 -102.194 0.079 65.393 0.337 47.455
3136.25 0.43 0.098 0.116 32.84 0.82 -102.693
          0.123 29.398 0.785 -15.443 0.085 67.284
          0.809 -102.971 0.078 69.352 0.343 46.694
3161.1 0.437 -0.915 0.128 32.659 0.814 -102.011
          0.126 30.823 0.784 -16.945 0.087 68.347
          0.812 -102.14 0.086 70.136 0.355 45.495
3185.95 0.446 -2.437 0.132 29.718 0.826 -102.661
          0.131 30.115 0.783 -18.318 0.092 68.007
          0.826 -103.329 0.091 66.677 0.364 43.924
3210.8 0.451 -4.035 0.131 28.336 0.826 -104.304
          0.133 28.513 0.782 -19.792 0.095 66.461
          0.822 -105.442 0.09 64.628 0.371 42.483
3235.65 0.455 -5.422 0.13 28.809 0.815 -105.765
          0.133 27.611 0.782 -21.264 0.097 65.022
          0.801 -106.827 0.089 65.538 0.378 41.371
3260.5 0.461 -6.61 0.135 29.36 0.805 -106.23
          0.134 28.293 0.782 -22.621 0.099 64.702
          0.782 -106.539 0.094 67.773 0.387 40.385
