!Hittite Microwave Corporation								
!12 Elizabeth Drive								
!Chelmsford, MA 01824								
!Tel: 978-250-3343								
!Fax: 978-250-3373								
!Device: HMC183QS24, DC-2 GHz GaAS MMIC SP8T Non-Reflective Switch in 24-lead QSOP package								
!Misc: Port 1 = RFCom, Port 2 = RF1, Port 3 = RF2, Port 4 = RF3, Port 5 = RF4, Port 6 = RF5, Port 7 = RF6, Port 8 = RF7, Port 9 = RF8, RF4 selected, Vctl=0/-5V							
!
# MHZ S MA R 50

30	0.084	-42.173	0.0003244	94.146	0.00004507	-90.467	0.0001471	-114.994
	0.905	1.325	0.0001502	-106.911	0.00004747	-177.639	0.00007379	111.863
	0.0001412	99.962	0.000264	93.019	0.051	-89.806	0.0003277	85.597
	0.00008578	56.515	0.0001708	-78.019	0.00008607	118.209	0.00005091	15.395
	0.0000544	53.048	0.0000815	91.15	0.00001758	-98.659	0.0003423	92.217
	0.051	-96.057	0.0002899	79.125	0.0001192	84.937	0.00004125	91.937
	0.00005654	92.077	0.00003747	0.053	0.00004504	48.625	0.00008689	-101.16
	0.00007836	12.857	0.0002938	87.91	0.051	-88.22	0.0002759	84.739
	0.00008404	84.359	0.00005799	130.544	0.0000556	-36.292	0.00004178	69.439
	0.905	1.27	0.0001466	-81.89	0.0001017	85.598	0.0003015	92.255
	0.098	-28.185	0.0001102	93.697	0.00004191	71.068	0.00003622	116.019
	0.00005371	-44.827	0.0001146	-72.033	0.00008401	55.588	0.00009744	68.448
	0.0001128	85.294	0.0001533	85.078	0.057	-63.452	0.00005188	77.313
	0.0001013	103.644	0.00007867	71.139	0.00002631	37.412	0.00004949	-13.601
	0.00008108	63.434	0.00006556	71.897	0.00008243	62.61	0.0004229	90.642
	0.06	-78.511	0.0002846	87.454	0.0001074	42.475	0.00002325	25.781
	0.00005402	91.61	0.00007587	91.778	0.00004585	114.621	0.00003959	53.248
	0.0001417	109.854	0.0003241	89.72	0.04	-84.056	0.0003152	99.542
	0.0001477	114.615	0.00006081	82.758	0.00006727	88.016	0.00006626	84.754
	0.00003331	-96.378	0.00006736	133.004	0.00008436	55.348	0.0003252	73.241
	0.049	-78.645						
49.85	0.056	-28.131	0.0004817	91.623	0.00003014	-131.437	0.0002022	-118.971
	0.919	-1.639	0.0001972	-100.314	0.00003135	165.084	0.00007021	122.115
	0.0002136	92.401	0.0004359	88.115	0.015	-110.753	0.0005399	85.592
	0.000127	79.717	0.0002097	-99.15	0.00008107	98.448	0.00006629	68.906
	0.00006299	42.695	0.0001058	77.382	0.00003129	159.674	0.0005758	84.141
	0.018	-125.703	0.0004708	86.163	0.000148	88.375	0.00008227	92.146
	0.00006242	91.896	0.00007458	81.255	0.00005391	49.299	0.0001833	-114.096
	0.0001436	79.536	0.0005043	84.572	0.015	-105.735	0.000466	85.789
	0.0001474	82.006	0.00007016	70.74	0.00007713	65.471	0.00003433	24.592
	0.918	-1.665	0.0002392	-98.733	0.0001441	88.645	0.0004717	88.101
	0.08	-12.617	0.0001949	85.14	0.0001019	77.745	0.00007002	97.273
	0.000111	-81.088	0.0001941	-98.721	0.00006031	74.474	0.0001155	86.564
	0.0001222	79.761	0.0002003	85.886	0.023	-35.97	0.00007969	84.113
	0.0001797	92.261	0.0001047	81.718	0.00002571	114.056	0.00007286	82.097
	0.00009606	68.045	0.00006772	100.503	0.0001247	100.952	0.0007099	85.194
	0.02	-75.48	0.0004867	85.483	0.000149	93.143	0.00007595	94.849
	0.00009071	52.199	0.00007865	105.919	0.00008059	88.502	0.00006343	89.876
	0.0001992	81.765	0.0004676	84.532	0.007875	-93.279	0.0005654	83.637
	0.0002269	95.017	0.00007137	73.411	0.00005706	114.799	0.00005755	73.135
	0.00005496	-103.951	0.0001013	97.379	0.00014	74.226	0.0005359	82.86
	0.012	-70.661						
69.7	0.049	-21.419	0.0006315	91.612	0.00006292	121.976	0.0002794	-116.192
	0.919	-2.956	0.000241	-104.145	0.00002279	167.049	0.0001331	111.78
	0.0003163	86.986	0.0006517	89.657	0.005936	-152.315	0.0007575	87.602
	0.0001898	79.332	0.0002909	-109.357	0.00009749	77.083	0.00008271	78.431
	0.00009745	75.198	0.0001356	81.069	0.00004622	145.731	0.0007755	85.624
	0.011	-156.316	0.0006549	84.241	0.0002177	95.957	0.0001447	70.431
	0.00008756	90.388	0.0001099	63.837	0.0000851	57.243	0.0002406	-114.792
	0.0001784	82.986	0.0006708	85.007	0.005811	-136.642	0.0006405	87.166
	0.0002079	88.409	0.0001133	71.501	0.00009817	93.08	0.00004181	44.639
	0.919	-2.971	0.0003298	-99.288	0.0002062	87.995	0.0006619	84.297
	0.076	-7.778	0.0002909	90.29	0.000151	82.47	0.00007237	99.886
	0.0001221	-102.078	0.000273	-104.558	0.00007981	84.49	0.0001521	88.355
	0.0001714	80.899	0.0002675	87.432	0.019	-8.428	0.00008405	81.554
	0.0002529	80.023	0.0001581	86.655	0.00003335	129.773	0.00008906	74.223
	0.0001192	82.511	0.000089	101.584	0.0001549	89.262	0.001005	85.727
	0.009399	-63.566	0.0006548	86.539	0.0001692	93.3	0.000131	100.962
	0.0001113	74.23	0.00009907	82.841	0.00009941	75.907	0.00008239	88.658
	0.000262	83.028	0.0006385	83.813	0.0007041	-166.849	0.000775	86.815
	0.0003241	94.327	0.0001138	81.821	0.00007717	102.575	0.00006544	80.533
	0.0001117	-104.364	0.0001464	81.044	0.000162	74.29	0.0007397	86.007
	0.004052	-28.936						
89.55	0.045	-19.168	0.0008285	91.614	0.0001124	175.255	0.0003429	-118.319
	0.916	-3.862	0.0002906	-106.142	0.00003709	118.286	0.0001871	103.306
	0.0004189	88.529	0.0008416	91.998	0.005796	155.89	0.0009673	87.177
	0.0002736	82.051	0.0003515	-110.441	0.0001289	80.433	0.00009049	76.887
	0.0001094	76.054	0.0001301	85.515	0.0001169	147.186	0.0009654	85.878
	0.01	-178.091	0.0008596	85.092	0.0002497	96.178	0.0001706	68.941
	0.0001332	77.072	0.0001562	66.664	0.00009514	77.594	0.0003253	-113.824
	0.0002255	80.755	0.0008437	86.029	0.004352	174.606	0.0008215	87.986
	0.0002596	83.957	0.0001388	75.554	0.000112	84.695	0.00007688	64.306
	0.916	-3.864	0.000417	-99.001	0.0002489	92.651	0.0008052	86.044
	0.074	-6.371	0.0003508	84.958	0.0001708	92.085	0.00007268	109.52
	0.0001178	-100.905	0.0003331	-100.679	0.0001004	79.063	0.000186	80.606
	0.0002568	80.635	0.0003396	84.802	0.019	7.603	0.00007825	86.21
	0.0003221	78.941	0.0001596	88.772	0.00007556	146.044	0.00009748	63.964
	0.0001181	86.156	0.0001355	82.225	0.0002053	86.144	0.001272	86.496
	0.00522	-41.18	0.0008172	86.893	0.0002293	83.914	0.0001561	105.901
	0.0001097	90.606	0.0001102	75.188	0.00009017	83.294	0.00009654	101.191
	0.0003214	76.857	0.0008254	85.66	0.002825	107.882	0.0009413	85.591
	0.0004405	92.263	0.000144	81.733	0.0001044	92.713	0.00007955	75.858
	0.0001593	-103.953	0.0001705	77.208	0.0002007	75.71	0.0009435	85.022
	0.004342	33.881						
109.4	0.044	-18.584	0.001023	89.684	0.0001118	165.376	0.0004091	-116.76
	0.915	-4.622	0.000355	-103.269	0.00007834	158.905	0.0002164	106.483
	0.0005343	91.177	0.001014	92.442	0.007561	133.284	0.001158	86.56
	0.0003112	84.424	0.0004546	-104.465	0.0001644	75.899	0.0001179	79.964
	0.000138	74.386	0.0001317	82.707	0.0001356	159.61	0.001172	86.302
	0.011	168.554	0.001026	86.368	0.0003187	94.479	0.0001916	80.024
	0.0001534	83.959	0.0001763	77.704	0.00009884	79.814	0.0004221	-115.572
	0.0002716	86.046	0.00105	86.648	0.005367	147.062	0.0009885	88.173
	0.0002979	81.902	0.0001583	86.185	0.0001254	79.916	0.0001111	82.408
	0.915	-4.615	0.0004618	-99.595	0.0003014	94.55	0.0009653	87.501
	0.072	-6.113	0.0003928	82.388	0.0002167	90.339	0.00009377	99.829
	0.0001445	-102.82	0.0003948	-100.273	0.0001467	91.283	0.0002003	86.167
	0.0002966	85.666	0.0004088	85.645	0.019	17.577	0.0001029	83.363
	0.0004121	84.053	0.0001817	82.181	0.00008629	146.829	0.0001086	71.844
	0.0001061	78.171	0.0001777	74.886	0.0002373	92.627	0.001533	87.394
	0.003974	-6.575	0.0009888	85.736	0.0002846	82.902	0.0002055	105.358
	0.0001284	93.264	0.000134	83.688	0.0001174	81.963	0.0001342	102.372
	0.0003841	79.627	0.001009	87.537	0.004561	104.092	0.001149	85.703
	0.0005246	91.86	0.0001796	81.248	0.0001298	88.729	0.0001126	78.768
	0.0001635	-95.357	0.0001916	84.811	0.0002523	81.855	0.00114	85.064
	0.006434	54.645						
129.25	0.043	-18.658	0.001193	89.933	0.0001229	154.024	0.0004741	-113.886
	0.914	-5.326	0.0004421	-100.188	0.00007041	143.359	0.0002412	107.34
	0.0006198	92.943	0.001209	92.061	0.00937	122.629	0.001377	85.807
	0.0003445	86.206	0.0005436	-105.477	0.0001623	74.622	0.0001416	84.976
	0.0001515	83.863	0.0002095	82.236	0.0001388	154.912	0.001367	86.421
	0.011	160.404	0.001196	86.564	0.0004118	93.866	0.0002383	82.153
	0.0001704	86.313	0.0001668	75.578	0.0001531	78.973	0.0004929	-111.366
	0.0003011	86.35	0.001241	85.747	0.006525	132.418	0.001175	88.031
	0.0003279	81.885	0.0001925	86.813	0.0001511	76.261	0.0001048	85.258
	0.913	-5.344	0.0005557	-103.612	0.0003515	91.568	0.001143	87.824
	0.072	-6.254	0.0004942	85.445	0.0002744	85.185	0.0001298	82.526
	0.0001866	-100.188	0.0004632	-106.635	0.0001493	93.055	0.0002177	90.977
	0.0003395	88.287	0.0004853	86.532	0.02	24.838	0.000144	72.477
	0.000466	81.108	0.000232	87.918	0.00007368	156.891	0.0001317	86.519
	0.0001196	72.971	0.0002103	79.229	0.0002583	90.54	0.001793	87.591
	0.004174	21.684	0.001137	85.769	0.0003419	85.118	0.000222	95.948
	0.0001403	73.4	0.0001753	87.581	0.0001521	86.993	0.00018	99.37
	0.0004773	82.525	0.001153	87.447	0.005657	100.508	0.001372	87.043
	0.0005918	93.973	0.0002104	80.417	0.0001509	90.744	0.0001334	77.74
	0.0001891	-98.352	0.0002325	84.956	0.0003159	85.625	0.001367	86.528
	0.008486	63.132						
149.1	0.043	-19.327	0.001379	91.218	0.0001462	145.759	0.0005112	-116.234
	0.912	-5.991	0.0005228	-100.408	0.00009727	141.956	0.0002877	102.944
	0.0007109	92.393	0.001392	91.599	0.011	116.148	0.001592	86.859
	0.0003842	86.015	0.0006269	-104.855	0.0001806	80.959	0.0001233	89.261
	0.0001726	83.218	0.0002847	85.868	0.0001759	150.198	0.001578	87.01
	0.011	153.968	0.001412	86.582	0.0004385	92.36	0.0002696	81.436
	0.0001801	88.342	0.000196	80.61	0.0001901	79.999	0.0005653	-112.611
	0.0003292	86.314	0.001411	85.961	0.007677	123.582	0.001364	88.794
	0.0003918	80.263	0.0002286	84.294	0.0001575	85.347	0.0001225	99.907
	0.911	-6.016	0.0006599	-103.448	0.0004388	94.071	0.001328	88.958
	0.071	-6.659	0.0005661	86.376	0.0003181	87.291	0.0001638	95.08
	0.0002553	-106.086	0.0005339	-107.85	0.0001396	94.317	0.0002744	85.102
	0.0003862	86.906	0.0005579	86.045	0.021	30.426	0.0001706	85.071
	0.00052	81.908	0.0002647	88.138	0.00008934	155.828	0.0001468	89.625
	0.0001854	82.443	0.0002431	75.359	0.0003107	82.894	0.002049	87.177
	0.004988	38.88	0.001314	86.339	0.0003697	84.142	0.0002359	97.684
	0.0001741	74.449	0.0001914	81.708	0.00016	84.583	0.0001847	100.159
	0.0005497	83.116	0.001317	87.619	0.006539	97.625	0.001566	86.417
	0.0007073	92.378	0.0002413	85.153	0.0001516	89.274	0.0001523	75.993
	0.0002609	-105.91	0.0002683	80.484	0.0003713	84.809	0.001569	86.646
	0.01	67.562						
168.95	0.043	-20.097	0.001558	91.751	0.0002039	143.47	0.0005922	-117.375
	0.911	-6.66	0.0006098	-103.568	0.0001066	149.804	0.0003438	99.733
	0.0008033	92.77	0.001547	91.066	0.013	111.178	0.001791	87.514
	0.0003978	83.192	0.0007122	-102.827	0.0001996	79.582	0.0001359	90.866
	0.0001983	82.091	0.0003117	85.071	0.000184	150.902	0.00179	86.369
	0.012	149.019	0.001599	86.717	0.0004743	89.885	0.0002931	86.846
	0.0002185	89.677	0.0002335	94.159	0.0002011	89.84	0.0006019	-119.366
	0.000405	88.046	0.001576	86.725	0.008806	118.664	0.001507	89.427
	0.0004612	83.157	0.0002718	88.19	0.000181	91.121	0.0001557	89.161
	0.91	-6.664	0.0007581	-102.53	0.0005004	93.967	0.001514	89.661
	0.07	-7.116	0.0006349	87.274	0.0003638	87.869	0.0001603	94.019
	0.0003172	-109.252	0.0005976	-107.461	0.0001893	88.045	0.0003192	81.057
	0.0004163	86.223	0.000625	85.479	0.023	34.244	0.0001667	83.012
	0.0006206	82.362	0.0003087	78.847	0.0001155	131.537	0.0001575	82.981
	0.0002458	85.315	0.0002654	82.604	0.0003483	87.715	0.002292	87.767
	0.005983	47.63	0.001515	86.951	0.0003938	85.001	0.0003103	104.822
	0.0001906	76.946	0.0002098	74.835	0.0001832	76.061	0.0001878	95.771
	0.0005881	84.343	0.001502	86.905	0.007386	96.459	0.001768	86.41
	0.0008127	94.069	0.0003109	89.94	0.0001806	84.548	0.0001772	82.716
	0.0003099	-103.031	0.0003311	79.537	0.000404	86.271	0.001767	87.42
	0.012	70.328						
188.8	0.043	-21.034	0.001747	92.48	0.0002121	139.584	0.0006714	-117.339
	0.911	-7.31	0.0006684	-105.863	0.0001194	156.498	0.0003589	102.171
	0.0008759	93.012	0.001738	91.433	0.014	107.687	0.001998	87.519
	0.0004584	85.673	0.000788	-102.604	0.0002346	84.581	0.0001959	86.467
	0.0002058	87.25	0.000297	85.214	0.0001939	135.976	0.001978	86.557
	0.012	144.975	0.001764	86.648	0.000531	90.576	0.0003473	85.294
	0.0002218	86.088	0.0002437	86.691	0.0002056	87.207	0.0006605	-120.052
	0.0004595	87.92	0.001751	87.686	0.009909	115.431	0.001684	89.85
	0.0005168	84.945	0.0002912	85.545	0.0002239	87.246	0.0001866	86.43
	0.91	-7.337	0.0008115	-104.351	0.0005329	94.19	0.001672	89.793
	0.07	-7.495	0.0007038	86.458	0.0003834	88.21	0.0001999	95.934
	0.0003344	-109.08	0.0006626	-107.111	0.0002281	80.474	0.0003329	84.215
	0.0004776	84.589	0.0006657	86.486	0.024	37.312	0.000205	87.388
	0.0006624	85.193	0.0003031	84.541	0.0001332	152.755	0.0001579	83.354
	0.000248	85.919	0.0002827	88.539	0.0003676	90.849	0.002545	87.731
	0.006887	54.139	0.001691	87.946	0.0004752	83.713	0.0003602	105.586
	0.0002088	80.585	0.0002329	80.599	0.0002298	76.652	0.000214	93.853
	0.0006352	87.672	0.001681	87.161	0.008099	95.802	0.001941	86.793
	0.000865	95.516	0.0003246	85.125	0.0002125	84.542	0.000189	80.232
	0.0003414	-110.04	0.0003617	81.012	0.0004437	84.14	0.001963	87.696
	0.013	71.662						
208.65	0.043	-22.346	0.001914	92.46	0.0002464	145.073	0.0007333	-119.258
	0.909	-7.918	0.0007472	-106.382	0.000158	143.803	0.0003774	99.957
	0.0009849	93.714	0.001929	91.795	0.016	105.648	0.002189	88.964
	0.000502	85.476	0.0008927	-104.863	0.0002541	89.887	0.0001969	84.678
	0.0002227	89.892	0.0003509	86.883	0.0002479	139.616	0.002156	87.268
	0.013	142.004	0.00195	87.678	0.0005779	95.333	0.0004001	84.132
	0.0002185	85.6	0.0002513	80.278	0.00022	85.895	0.0007686	-118.16
	0.0004859	84.274	0.001935	87.193	0.011	113.292	0.001824	90.673
	0.000533	83.593	0.0003146	84.776	0.0002584	81.587	0.0002265	81.797
	0.909	-7.988	0.0008629	-105.832	0.0005876	93.201	0.001851	90.204
	0.069	-8.311	0.0007646	87.997	0.0004346	91.742	0.0002381	100.055
	0.0003641	-109.491	0.0007536	-108.068	0.0002462	82.382	0.0003707	85.341
	0.0005319	86.492	0.0007501	88.494	0.025	40.296	0.0002389	92.85
	0.0007147	87.905	0.0003591	90.441	0.0001211	147.241	0.0001582	86.828
	0.0002562	81.411	0.000315	87.845	0.0004064	92.532	0.002827	87.232
	0.007784	57.977	0.001859	87.537	0.0005088	82.244	0.0003773	106.977
	0.0002153	82.281	0.0002341	81.628	0.0002838	87.42	0.0002495	96.826
	0.0007187	85.058	0.001854	88.636	0.008618	96.516	0.002137	87.702
	0.0009583	95.214	0.0003419	86.827	0.0002256	87.182	0.0001873	79.07
	0.0003601	-111.336	0.0003681	81.326	0.0004856	83.515	0.002177	87.779
	0.015	72.809						
228.5	0.044	-24.024	0.00208	93.013	0.0002737	151.438	0.0008003	-120.956
	0.907	-8.566	0.0008258	-106.851	0.0001645	148.766	0.0004216	103.347
	0.001065	95.035	0.002114	91.508	0.017	103.859	0.002416	88.352
	0.0005431	85.537	0.001014	-110.099	0.000268	83.115	0.0002043	83.281
	0.0002565	91.946	0.0003878	86.46	0.000269	146.327	0.002366	86.949
	0.013	139.054	0.00211	87.403	0.0006184	95.127	0.0004365	80.798
	0.0002573	88.076	0.0002778	81.271	0.0002522	88.601	0.0008201	-119.713
	0.0005293	85.542	0.002114	87.195	0.012	111.159	0.001994	90.78
	0.0005597	84.115	0.0003647	80.733	0.0002685	79.713	0.0002347	82.999
	0.907	-8.597	0.0009799	-107.152	0.0006092	94.928	0.00201	89.912
	0.069	-9.098	0.0008428	89.046	0.0004721	95.159	0.0002227	109.611
	0.0004153	-113.793	0.0008187	-107.598	0.0002683	82.484	0.0004007	86.173
	0.0005688	83.665	0.000863	88.329	0.027	42.833	0.0002204	101.578
	0.000792	86.027	0.0004152	85.727	0.0001503	143.7	0.0002068	86.319
	0.0002689	82.615	0.0003685	82.629	0.0004564	92.114	0.003099	87.095
	0.008497	60.721	0.002041	87.14	0.0005414	85.037	0.0004331	105.164
	0.0002528	83.593	0.0002916	85.226	0.0002931	87.016	0.0002389	102.098
	0.0008	83.973	0.002042	88.71	0.009241	96.658	0.002364	87.987
	0.001049	95.911	0.0003728	88.956	0.0002479	91.612	0.0002004	85.44
	0.0004024	-111.127	0.0003969	83.156	0.0005278	85.92	0.002361	87.945
	0.016	73.569						
248.35	0.045	-25.492	0.002263	93.718	0.0003255	149.024	0.0008802	-123.083
	0.906	-9.182	0.0008949	-109.792	0.0001884	145.849	0.0004402	104.393
	0.001175	95.233	0.002301	92.466	0.019	102.141	0.002602	87.438
	0.0005875	87.334	0.001104	-110.037	0.000281	79.363	0.0002354	86.422
	0.0002522	87.241	0.0003968	86.505	0.0003186	150.127	0.002596	87.463
	0.014	136.548	0.002302	88.281	0.0006774	94.452	0.000425	80.402
	0.0003073	83.553	0.000301	88.191	0.0002818	83.832	0.0008702	-122.882
	0.0005889	86.121	0.002277	87.849	0.013	109.113	0.002186	91.29
	0.0006364	83.175	0.0003934	81.243	0.0002733	85.223	0.0002237	81.999
	0.906	-9.235	0.001077	-108.42	0.0006735	94.217	0.002155	90.36
	0.068	-9.762	0.0009144	89.678	0.0004777	94.305	0.0002408	109.884
	0.000434	-115.599	0.0008699	-107.604	0.0002924	84.644	0.0004314	83.496
	0.0006088	80.95	0.0009218	88.852	0.028	45.182	0.0002383	102.605
	0.0008574	86.209	0.0004646	85.209	0.0001515	159.493	0.000213	83.684
	0.000295	82.814	0.0003973	81.235	0.0005064	91.735	0.003371	87.601
	0.009169	64.067	0.002219	88.385	0.0005868	84.297	0.0004669	103.773
	0.0002785	78.131	0.0003234	83.635	0.0002703	82.625	0.0002798	100.695
	0.0008592	86.019	0.002199	88.59	0.00987	96.66	0.002547	87.621
	0.00117	95.804	0.0003786	87.122	0.0002585	85.765	0.0002348	86.805
	0.0004137	-112.988	0.0004415	88.293	0.0005729	80.921	0.002543	87.767
	0.017	74.288						
268.2	0.046	-27.059	0.00242	93.454	0.0003468	149.336	0.0009409	-124.391
	0.907	-9.814	0.0009557	-109.282	0.0002085	145.553	0.0005013	101.669
	0.001258	95.6	0.002444	93.415	0.02	100.493	0.002788	87.644
	0.000653	83.596	0.001165	-110.212	0.0002926	80.138	0.0002211	83.414
	0.000288	82.598	0.000406	84.68	0.0003743	150.158	0.002786	87.732
	0.014	134.224	0.002492	88.383	0.0007365	95.138	0.0004533	86.179
	0.0003366	83.696	0.0003291	89.078	0.0002855	72.513	0.0009478	-123.701
	0.0006217	86.415	0.002466	88.508	0.014	107.794	0.002366	91.359
	0.0007022	85.408	0.0004021	83.408	0.0002974	87.488	0.0002395	78.953
	0.907	-9.864	0.001174	-110.152	0.0007493	95.733	0.00231	91.122
	0.068	-10.786	0.0009925	90.14	0.0005262	92.834	0.000294	103.552
	0.0004746	-119.703	0.0009359	-108.125	0.0003186	78.747	0.0004581	82.121
	0.0006626	82.154	0.0009797	87.444	0.029	47.264	0.0002924	97.132
	0.0009346	86.912	0.0004655	82.521	0.000192	158.333	0.0002272	77.415
	0.0003467	83.477	0.0004179	81.034	0.0005614	92.971	0.003607	87.711
	0.009943	66.79	0.002371	88.622	0.0006443	83.741	0.0004896	105.514
	0.0003072	78.527	0.0003178	76.673	0.0003061	83.553	0.0002805	100.808
	0.0009638	86.24	0.002349	88.086	0.01	96.734	0.002741	87.859
	0.001259	95.358	0.0004056	86.319	0.0003136	82.944	0.0002735	87.449
	0.0004844	-115.913	0.0004643	87.622	0.0006288	82.337	0.002781	87.868
	0.018	74.95						
288.05	0.047	-28.762	0.002603	93.737	0.0003598	150.187	0.00103	-124.11
	0.906	-10.476	0.001069	-109.441	0.0002264	153.782	0.0005655	102.988
	0.001357	96.959	0.002619	93.261	0.021	99.134	0.002993	88.463
	0.0006946	84.545	0.001226	-111.34	0.0003091	86.173	0.0002553	78.465
	0.0003594	85.474	0.0004202	85.381	0.0004014	146.655	0.003004	88.247
	0.015	132.473	0.002642	87.745	0.0008025	95.139	0.0005022	85.08
	0.0003505	85.046	0.000326	85.406	0.0002998	82.911	0.001059	-125.882
	0.0006587	86.73	0.002673	88.46	0.014	106.801	0.002537	91.293
	0.0007232	86.489	0.0004223	83.38	0.0003557	80.452	0.0002367	75.936
	0.906	-10.49	0.001273	-111.672	0.0007716	96.251	0.00247	91.383
	0.067	-11.582	0.001067	90.862	0.0005748	94.623	0.0003472	96.805
	0.0005129	-120.342	0.001064	-110.065	0.000321	80.842	0.0004891	84.767
	0.0007195	84.526	0.001056	87.542	0.03	49.084	0.0003495	91.045
	0.001024	85.42	0.000464	81.913	0.0002262	159.187	0.000252	83.885
	0.0003684	82.433	0.0004286	82.738	0.0005834	94.44	0.00384	87.861
	0.011	68.72	0.00256	88.342	0.000681	84.245	0.000532	104.02
	0.0003162	83.006	0.0003699	79.925	0.0003374	84.495	0.0002822	103.517
	0.001041	85.863	0.002555	88.436	0.011	96.831	0.002949	88.41
