!Hittite Microwave Corporation								
!12 Elizabeth Drive								
!Chelmsford, MA 01824								
!Tel: 978-250-3343								
!Fax: 978-250-3373	
!Device: HMC197, DC - 3 GHz SOT26 SPDT Switch
!Misc: Port 1 = RFC, Port 2 = RF1, Port 3 = RF2,  RF1 Selected, Bias: +5VDC								
!
# MHZ S MA R 50

30 0.011 -21.504 0.968 0.091 3.015e-3 61.669
          0.969 0.027 0.015 -14.945 2.877e-3 61.348
          3.25e-3 66.089 3.078e-3 65.359 0.984 -6.825
55 0.019 -53.029 0.97 -1.372e-3 5.568e-3 77.305
          0.97 -1.98e-3 0.023 -43.141 5.499e-3 77.759
          5.819e-3 77.911 5.761e-3 78.674 0.977 -12.001
80 0.015 -43.81 0.97 -0.488 8.198e-3 77.51
          0.97 -0.511 0.019 -34.99 7.947e-3 76.894
          8.523e-3 77.177 8.239e-3 76.642 0.975 -17.189
105 0.016 -45.032 0.97 -0.749 9.655e-3 78.533
          0.97 -0.746 0.019 -36.417 9.18e-3 77.074
          9.876e-3 78.273 9.384e-3 76.727 0.973 -22.485
130 0.017 -50.523 0.969 -0.942 0.011 81.305
          0.969 -0.904 0.02 -41.478 0.01 79.569
          0.011 81.157 0.01 79.36 0.971 -27.739
155 0.019 -55.29 0.969 -1.047 0.013 80.858
          0.968 -1.041 0.022 -46.193 0.013 78.728
          0.014 80.614 0.013 78.36 0.969 -32.775
180 0.021 -56.985 0.968 -1.124 0.017 79.73
          0.968 -1.143 0.023 -49.447 0.016 77.256
          0.017 79.326 0.016 76.799 0.967 -37.703
205 0.023 -61.131 0.967 -1.217 0.019 73.914
          0.967 -1.253 0.025 -53.625 0.018 73.587
          0.019 73.816 0.018 73.333 0.966 -42.646
230 0.025 -62.835 0.966 -1.278 0.021 71.764
          0.965 -1.318 0.027 -56.26 0.02 71.121
          0.021 72.076 0.02 71.286 0.963 -47.52
255 0.028 -64.278 0.965 -1.366 0.022 70.57
          0.965 -1.392 0.03 -58.429 0.021 69.208
          0.023 70.866 0.022 69.378 0.961 -52.327
280 0.031 -65.867 0.964 -1.467 0.025 69.027
          0.965 -1.485 0.032 -60.666 0.023 67.387
          0.025 68.884 0.024 67.096 0.959 -57.035
305 0.033 -67.493 0.964 -1.546 0.027 67.173
          0.964 -1.579 0.034 -63.192 0.025 65.446
          0.027 66.593 0.025 64.678 0.956 -61.611
330 0.036 -68.926 0.964 -1.684 0.029 64.812
          0.963 -1.667 0.037 -65.225 0.027 62.972
          0.029 64.429 0.027 62.529 0.953 -66.067
355 0.038 -70.016 0.963 -1.78 0.03 62.022
          0.964 -1.806 0.039 -66.76 0.029 60.015
          0.031 62.362 0.029 60.509 0.951 -70.382
380 0.04 -71.242 0.963 -1.837 0.031 59.984
          0.962 -1.889 0.041 -68.453 0.03 57.83
          0.032 60.292 0.03 58.223 0.949 -74.661
405 0.042 -72.304 0.961 -1.859 0.033 58.68
          0.961 -1.927 0.043 -69.998 0.031 56.367
          0.033 58.36 0.031 56.041 0.946 -78.879
430 0.045 -73.321 0.96 -1.901 0.034 57.426
          0.96 -1.971 0.045 -71.394 0.032 54.959
          0.035 56.568 0.033 54.102 0.943 -83.004
455 0.047 -74.593 0.96 -2.036 0.036 55.318
          0.96 -2.072 0.047 -72.859 0.034 52.765
          0.036 54.764 0.034 52.244 0.941 -87.015
480 0.05 -75.363 0.96 -2.17 0.037 52.539
          0.96 -2.174 0.05 -74.287 0.035 50.038
          0.037 52.681 0.035 50.155 0.939 -90.863
505 0.052 -76.064 0.96 -2.213 0.037 51.47
          0.96 -2.221 0.051 -75.576 0.035 48.746
          0.037 51.33 0.036 48.459 0.936 -94.623
530 0.054 -76.75 0.959 -2.256 0.038 50.665
          0.96 -2.295 0.053 -76.947 0.036 47.58
          0.038 49.978 0.036 46.862 0.932 -98.318
555 0.056 -77.588 0.959 -2.318 0.039 49.381
          0.959 -2.378 0.055 -78.272 0.037 45.99
          0.039 48.552 0.037 45.195 0.929 -101.927
580 0.058 -78.502 0.958 -2.393 0.04 47.513
          0.959 -2.444 0.057 -79.495 0.038 43.965
          0.04 47.021 0.038 43.439 0.925 -105.443
605 0.06 -79.29 0.957 -2.466 0.041 45.572
          0.958 -2.489 0.059 -80.741 0.038 41.998
          0.041 45.362 0.038 41.731 0.922 -108.872
630 0.062 -80.069 0.957 -2.54 0.041 44.332
          0.957 -2.605 0.061 -81.86 0.038 40.806
          0.041 44.118 0.038 40.335 0.92 -112.175
655 0.064 -80.712 0.957 -2.596 0.041 43.287
          0.956 -2.666 0.063 -82.94 0.039 39.653
          0.041 42.781 0.039 39.081 0.918 -115.463
680 0.066 -81.263 0.956 -2.623 0.041 42.477
          0.957 -2.693 0.064 -83.935 0.039 38.499
          0.041 41.64 0.039 37.751 0.915 -118.666
705 0.068 -81.845 0.955 -2.665 0.042 41.473
          0.957 -2.739 0.066 -84.99 0.04 37.155
          0.041 40.625 0.039 36.44 0.912 -121.772
730 0.069 -82.512 0.956 -2.763 0.042 39.99
          0.956 -2.845 0.067 -86.101 0.04 35.464
          0.042 39.646 0.039 35.209 0.909 -124.805
755 0.071 -83.182 0.956 -2.927 0.042 38.16
          0.954 -3.019 0.068 -86.998 0.04 33.439
          0.042 38.692 0.039 33.97 0.905 -127.809
780 0.072 -83.999 0.955 -3.02 0.041 37.108
          0.954 -3.162 0.069 -87.56 0.039 32.285
          0.042 37.418 0.039 32.509 0.903 -130.796
805 0.074 -84.652 0.952 -3.024 0.041 37.446
          0.953 -3.139 0.071 -88.29 0.039 32.503
          0.042 36.349 0.039 31.39 0.9 -133.613
830 0.075 -85.336 0.952 -3.033 0.042 36.967
          0.953 -3.101 0.072 -88.949 0.04 31.919
          0.041 35.528 0.039 30.404 0.896 -136.352
855 0.076 -86.226 0.953 -3.063 0.043 35.137
          0.953 -3.142 0.073 -89.608 0.04 29.842
          0.041 34.903 0.039 29.489 0.892 -139.05
880 0.077 -87.286 0.954 -3.147 0.042 32.723
          0.954 -3.268 0.073 -90.23 0.039 27.031
          0.041 34.277 0.038 28.586 0.89 -141.709
905 0.077 -88.21 0.953 -3.383 0.04 31.706
          0.953 -3.374 0.074 -90.526 0.038 25.793
          0.041 33.298 0.038 27.576 0.89 -144.288
930 0.078 -88.659 0.951 -3.358 0.039 33.272
          0.949 -3.424 0.075 -91.459 0.037 27.27
          0.04 32.532 0.038 26.605 0.886 -146.942
955 0.078 -89.363 0.95 -3.294 0.04 33.646
          0.949 -3.341 0.076 -92.403 0.038 27.475
          0.04 31.964 0.037 25.738 0.884 -149.519
980 0.078 -90.24 0.951 -3.278 0.041 31.984
          0.951 -3.358 0.076 -93.47 0.038 25.523
          0.039 31.485 0.037 24.975 0.883 -152.056
1005 0.078 -91.096 0.953 -3.388 0.04 29.563
          0.952 -3.452 0.076 -94.473 0.038 22.77
          0.039 30.905 0.036 24.159 0.882 -154.555
1030 0.078 -91.756 0.952 -3.611 0.039 28.215
          0.952 -3.559 0.076 -95.25 0.036 21.112
          0.038 30.17 0.036 23.2 0.881 -157.041
1055 0.077 -92.247 0.951 -3.735 0.037 28.927
          0.951 -3.774 0.075 -95.998 0.035 21.459
          0.038 29.598 0.035 22.31 0.877 -159.623
1080 0.077 -92.88 0.95 -3.776 0.037 29.631
          0.949 -3.841 0.075 -96.681 0.035 21.979
          0.037 29.171 0.035 21.519 0.877 -162.107
1105 0.076 -93.52 0.949 -3.746 0.037 29.248
          0.949 -3.849 0.075 -97.368 0.035 21.302
          0.037 28.756 0.034 20.804 0.875 -164.54
1130 0.076 -94.279 0.949 -3.812 0.037 28.238
          0.949 -3.841 0.075 -98.2 0.034 19.983
          0.036 28.293 0.033 20.032 0.873 -166.898
1155 0.075 -95.178 0.951 -3.918 0.036 26.977
          0.95 -3.913 0.074 -99.202 0.033 18.408
          0.035 27.886 0.033 19.277 0.871 -169.285
1180 0.074 -96.102 0.951 -3.972 0.035 25.811
          0.952 -4.108 0.073 -100.197 0.032 16.853
          0.034 27.629 0.032 18.617 0.869 -171.75
1205 0.073 -96.778 0.95 -4.153 0.033 25.228
          0.95 -4.264 0.071 -100.652 0.031 15.674
          0.033 27.358 0.031 17.814 0.869 -173.959
1230 0.072 -97.392 0.948 -4.221 0.032 26.356
          0.947 -4.363 0.071 -101.137 0.029 16.19
          0.033 27.072 0.03 16.907 0.866 -176.28
1255 0.071 -98.044 0.945 -4.205 0.031 27.829
          0.944 -4.367 0.07 -101.658 0.029 17.149
          0.032 26.9 0.029 16.155 0.864 -178.602
1280 0.07 -98.97 0.944 -4.19 0.031 27.623
          0.944 -4.296 0.069 -102.458 0.029 16.669
          0.031 26.973 0.028 15.995 0.863 179.133
1305 0.069 -100.241 0.946 -4.235 0.031 25.656
          0.947 -4.296 0.068 -103.599 0.028 14.572
          0.03 27.085 0.027 16.102 0.861 176.964
1330 0.067 -101.656 0.948 -4.371 0.029 23.616
          0.948 -4.51 0.066 -104.861 0.026 12.298
          0.029 26.962 0.026 15.781 0.858 174.858
1355 0.065 -102.184 0.945 -4.608 0.027 24.761
          0.944 -4.739 0.064 -105.219 0.024 12.897
          0.028 26.975 0.025 14.975 0.858 172.539
1380 0.064 -103.265 0.942 -4.591 0.026 27.922
          0.941 -4.682 0.063 -106.117 0.023 15.159
          0.027 27.062 0.024 14.224 0.858 170.376
1405 0.062 -104.644 0.942 -4.423 0.026 28.66
          0.94 -4.533 0.062 -107.122 0.023 14.846
          0.026 27.655 0.023 13.853 0.857 168.239
1430 0.061 -106.408 0.943 -4.348 0.025 27.634
          0.941 -4.495 0.061 -108.439 0.022 13.065
          0.024 28.346 0.022 13.788 0.856 166.162
1455 0.059 -108.421 0.944 -4.449 0.024 26.746
          0.943 -4.606 0.059 -110.01 0.021 11.744
          0.024 28.975 0.02 13.956 0.856 164.091
1480 0.056 -110.349 0.944 -4.628 0.022 27.887
          0.943 -4.738 0.057 -111.504 0.019 12.414
          0.022 29.691 0.019 14.281 0.857 161.939
1505 0.054 -112.309 0.943 -4.657 0.021 29.905
          0.942 -4.676 0.055 -113.062 0.018 13.734
          0.021 30.599 0.018 14.355 0.857 159.918
1530 0.052 -114.62 0.944 -4.659 0.02 30.834
          0.943 -4.662 0.054 -115.01 0.017 13.836
          0.02 31.815 0.017 14.581 0.858 157.807
1555 0.05 -117.346 0.944 -4.729 0.019 32.265
          0.944 -4.706 0.052 -117.033 0.016 14.143
          0.019 32.965 0.016 14.888 0.858 155.686
1580 0.048 -120.287 0.945 -4.778 0.018 34.444
          0.944 -4.823 0.049 -119.052 0.014 15.246
          0.018 34.494 0.014 15.48 0.859 153.586
1605 0.045 -123.508 0.945 -4.773 0.017 36.449
          0.944 -4.892 0.047 -121.242 0.013 16.331
          0.017 36.609 0.013 16.419 0.859 151.51
1630 0.044 -127.412 0.946 -4.794 0.016 36.86
          0.946 -4.735 0.045 -124.024 0.012 15.709
          0.016 39.114 0.012 17.582 0.861 149.447
1655 0.041 -131.525 0.948 -5.11 0.014 39.144
          0.947 -4.935 0.042 -127.6 0.01 16.369
          0.015 42.059 0.011 19.132 0.862 147.4
1680 0.039 -135.942 0.947 -5.355 0.013 45.285
          0.947 -5.208 0.04 -131.099 8.792e-3 21.608
          0.014 45.411 9.239e-3 21.939 0.862 145.352
1705 0.037 -140.819 0.946 -5.259 0.012 51.665
          0.946 -5.327 0.038 -134.48 7.848e-3 27.671
          0.013 49.861 7.938e-3 25.692 0.862 143.329
1730 0.035 -146.646 0.949 -5.099 0.012 55.716
          0.947 -5.374 0.036 -138.43 7.009e-3 32.068
          0.012 55.056 6.737e-3 31.049 0.864 141.38
1755 0.034 -153.438 0.953 -5.185 0.011 58.361
          0.95 -5.5 0.034 -143.552 5.842e-3 36.193
          0.011 61.057 5.628e-3 39.087 0.866 139.455
1780 0.033 -160.245 0.955 -5.638 9.677e-3 64.816
          0.948 -5.804 0.031 -149.884 4.436e-3 46.369
          0.01 68.724 4.564e-3 51.169 0.866 137.386
1805 0.033 -166.766 0.951 -6.056 9.044e-3 77.284
          0.946 -5.899 0.029 -154.552 3.707e-3 70.406
          9.808e-3 77.025 4.03e-3 70.814 0.868 135.386
1830 0.033 -174.237 0.95 -5.959 9.494e-3 88.741
          0.946 -5.798 0.028 -161.228 3.917e-3 94.766
          9.715e-3 86.083 4.05e-3 92.404 0.869 133.422
1855 0.033 178.817 0.949 -5.85 0.01 95.711
          0.95 -5.726 0.027 -168.822 4.579e-3 111.488
          9.891e-3 94.932 4.55e-3 110.888 0.869 131.479
1880 0.034 171.663 0.95 -5.971 0.01 101.27
          0.954 -5.878 0.027 -177.374 5.367e-3 122.849
          0.01 103.194 5.43e-3 124.937 0.869 129.545
1905 0.036 164.002 0.951 -6.322 0.01 108.953
          0.953 -6.262 0.026 173.183 6.208e-3 132.93
          0.011 110.834 6.586e-3 134.853 0.87 127.638
1930 0.037 157.279 0.95 -6.635 0.011 118.856
          0.95 -6.577 0.026 164.515 7.383e-3 142.771
          0.012 118.032 7.944e-3 141.53 0.869 125.819
1955 0.04 152.326 0.951 -6.548 0.012 125.802
          0.949 -6.665 0.028 156.978 9.141e-3 147.18
          0.013 124.353 9.44e-3 145.981 0.872 124.049
1980 0.043 147.833 0.951 -6.53 0.014 130.333
          0.952 -6.808 0.03 150.018 0.011 150.082
          0.014 129.328 0.011 148.86 0.872 122.339
2005 0.046 143.887 0.951 -6.696 0.015 134.58
          0.951 -6.917 0.031 143.637 0.012 152.695
          0.015 133.424 0.012 151.175 0.873 120.561
2030 0.049 140.26 0.951 -6.919 0.016 138.184
          0.949 -7.035 0.034 137.936 0.014 154.658
          0.016 136.96 0.014 153.092 0.873 118.752
2055 0.053 136.87 0.952 -7.097 0.018 140.163
          0.949 -7.206 0.036 132.942 0.016 155.178
          0.018 140.116 0.016 154.566 0.874 117.009
2080 0.057 133.726 0.955 -7.438 0.019 140.694
          0.95 -7.331 0.039 128.177 0.017 154.116
          0.02 142.874 0.017 155.947 0.877 115.382
2105 0.061 130.63 0.95 -7.751 0.019 145.007
          0.952 -7.633 0.042 123.723 0.018 156.814
          0.021 144.285 0.019 156.249 0.875 113.681
2130 0.064 128.956 0.943 -7.941 0.022 150.569
          0.947 -7.653 0.044 121.244 0.02 161.186
          0.023 145.672 0.021 156.355 0.875 111.96
2155 0.067 127.429 0.942 -7.795 0.025 152.096
          0.944 -7.566 0.047 119.162 0.023 161.71
          0.024 147.231 0.022 156.669 0.875 110.314
2180 0.072 126.134 0.947 -7.62 0.028 149.202
          0.947 -7.591 0.051 117.385 0.026 157.868
          0.026 148.736 0.024 157.236 0.876 108.763
2205 0.077 125.075 0.955 -7.866 0.028 145.577
          0.954 -7.93 0.056 115.748 0.027 153.297
          0.028 149.829 0.026 157.731 0.878 107.291
2230 0.082 122.24 0.954 -8.513 0.027 148.536
          0.955 -8.726 0.06 112.048 0.025 155.281
          0.03 150.426 0.028 157.321 0.875 105.899
2255 0.084 121.732 0.944 -8.747 0.029 156.128
          0.945 -8.864 0.062 110.42 0.027 162.142
          0.031 151.059 0.03 157.059 0.878 104.301
2280 0.088 121.321 0.941 -8.56 0.034 158.151
          0.939 -8.694 0.065 109.894 0.032 163.551
          0.033 152.033 0.031 157.223 0.879 102.787
2305 0.093 120.703 0.945 -8.543 0.038 155.14
          0.941 -8.492 0.069 109.617 0.036 159.973
          0.035 152.963 0.033 157.588 0.88 101.326
2330 0.097 119.969 0.949 -8.823 0.038 151.453
          0.947 -8.544 0.073 108.979 0.037 155.703
          0.037 153.49 0.035 157.782 0.881 99.932
2355 0.102 119.24 0.949 -9.18 0.038 152.001
          0.952 -8.978 0.078 107.748 0.036 155.673
          0.039 153.497 0.037 157.52 0.881 98.606
2380 0.106 118.237 0.943 -9.519 0.039 155.283
          0.948 -9.3 0.081 106.349 0.038 158.733
          0.041 153.609 0.039 157.125 0.88 97.122
2405 0.11 117.774 0.941 -9.648 0.042 156.004
          0.945 -9.581 0.084 105.666 0.041 159.06
          0.042 153.88 0.041 156.849 0.88 95.816
2430 0.114 117.39 0.94 -9.803 0.044 156.98
          0.941 -9.866 0.088 105.091 0.043 159.515
          0.044 154.245 0.043 156.624 0.882 94.554
2455 0.118 117.289 0.938 -9.815 0.047 158.557
          0.939 -9.897 0.092 104.987 0.046 160.407
          0.046 154.726 0.045 156.502 0.882 93.426
2480 0.122 117.456 0.937 -9.686 0.051 158.624
          0.94 -9.706 0.096 105.205 0.05 159.795
          0.048 155.35 0.047 156.573 0.882 92.328
2505 0.127 117.602 0.943 -9.655 0.055 154.331
          0.946 -9.659 0.1 105.211 0.054 155.117
          0.05 156.017 0.049 156.816 0.884 91.049
2530 0.134 117.263 0.951 -10.277 0.053 149.947
          0.952 -10.431 0.106 105.004 0.051 150.483
          0.053 155.749 0.051 156.315 0.885 89.909
2555 0.137 115.858 0.945 -11.126 0.049 154.639
          0.945 -11.282 0.109 103.043 0.048 154.931
          0.055 155.058 0.053 155.304 0.886 88.63
2580 0.139 116.366 0.931 -11.278 0.054 161.904
          0.932 -11.349 0.11 103.511 0.052 161.902
          0.056 155.001 0.054 154.891 0.886 87.532
2605 0.143 117.141 0.924 -10.777 0.064 162.864
          0.927 -10.755 0.114 104.404 0.062 162.663
          0.058 155.684 0.056 155.323 0.886 86.435
2630 0.149 117.444 0.932 -10.351 0.071 155.583
          0.936 -10.21 0.12 104.665 0.07 155.271
          0.06 156.473 0.059 156.01 0.886 85.289
2655 0.155 118.007 0.947 -11.083 0.067 147.349
          0.952 -10.731 0.126 105.115 0.065 146.792
          0.063 156.239 0.062 155.699 0.887 84.268
2680 0.161 116.244 0.943 -12.248 0.059 151.252
          0.949 -12.303 0.131 103.169 0.058 150.194
          0.066 154.995 0.064 153.993 0.887 83.205
2705 0.161 116.624 0.927 -12.529 0.062 159.187
          0.934 -12.625 0.131 103.743 0.061 157.642
          0.067 154.875 0.065 153.303 0.887 82.317
2730 0.165 117.445 0.92 -12.13 0.071 161.107
          0.926 -12.302 0.135 104.794 0.069 159.272
          0.068 155.493 0.067 153.542 0.888 81.33
2755 0.171 118.013 0.924 -11.787 0.078 157.991
          0.928 -12.091 0.141 105.355 0.076 155.975
          0.071 156.072 0.069 153.905 0.89 80.354
2780 0.177 118.263 0.932 -11.983 0.079 154.123
          0.933 -12.397 0.146 105.334 0.077 151.897
          0.073 156.1 0.071 153.76 0.89 79.437
2805 0.181 118.461 0.932 -12.555 0.078 153.798
          0.933 -12.981 0.151 105.178 0.076 151.236
          0.076 155.697 0.074 153.11 0.893 78.422
2830 0.186 118.866 0.932 -12.825 0.08 153.32
          0.929 -13.143 0.155 105.512 0.078 150.523
          0.078 155.634 0.076 152.951 0.893 77.536
2855 0.19 119.023 0.931 -13.418 0.079 153.124
          0.93 -13.38 0.16 105.661 0.077 150.173
          0.08 155.54 0.079 152.637 0.893 76.5
2880 0.194 119.201 0.922 -13.978 0.079 156.079
          0.926 -13.814 0.163 105.922 0.077 152.979
          0.083 155.176 0.081 151.994 0.893 75.586
2905 0.197 119.838 0.911 -13.952 0.085 159.394
          0.918 -14.091 0.167 106.758 0.083 156.083
          0.084 154.98 0.082 151.493 0.892 74.716
2930 0.203 120.808 0.908 -13.265 0.097 158.617
          0.912 -13.895 0.173 107.847 0.095 154.999
          0.086 155.376 0.084 151.653 0.893 73.828
2955 0.209 121.169 0.925 -12.828 0.103 150.36
          0.92 -13.312 0.179 107.841 0.101 146.376
          0.089 156.274 0.087 152.614 0.893 73.107
2980 0.218 120.933 0.94 -14.382 0.091 147.133
          0.936 -14.328 0.187 107.57 0.089 142.945
          0.093 155.599 0.091 151.733 0.895 72.24
3005 0.218 120.685 0.921 -15.693 0.085 153.663
          0.926 -15.573 0.188 107.059 0.083 149.287
          0.095 154.583 0.093 150.309 0.895 71.491
3030 0.221 121.908 0.899 -15.553 0.094 160.005
          0.908 -15.8 0.191 108.372 0.092 155.26
          0.096 154.394 0.094 149.743 0.894 70.698
3055 0.228 123.233 0.894 -14.501 0.108 159.365
          0.9 -15.166 0.197 109.728 0.106 154.348
          0.097 155.107 0.095 150.22 0.895 69.866
3080 0.235 123.388 0.914 -13.978 0.116 151.326
          0.91 -14.669 0.206 109.519 0.114 146.306
          0.101 155.899 0.099 150.925 0.896 69.053
3105 0.243 123.367 0.931 -15.595 0.104 146.676
          0.928 -15.698 0.213 109.429 0.102 141.344
          0.106 155.097 0.104 150.068 0.896 68.275
3130 0.244 123.261 0.912 -16.831 0.1 152.462
          0.911 -16.994 0.214 109.347 0.097 147.089
          0.107 153.836 0.105 148.484 0.895 67.674
3155 0.249 124.379 0.896 -16.596 0.108 156.146
          0.896 -16.802 0.22 110.567 0.106 150.466
          0.109 154.327 0.106 148.538 0.896 66.908
3180 0.256 125.143 0.895 -16.14 0.117 154.769
          0.898 -16.402 0.227 111.27 0.114 148.819
          0.112 154.953 0.109 148.928 0.896 66.1
3205 0.263 125.245 0.902 -16.325 0.119 151.528
          0.907 -16.731 0.234 111.216 0.116 145.297
          0.116 154.73 0.114 148.601 0.895 65.302
3230 0.268 125.246 0.902 -17.247 0.115 151.393
          0.907 -17.949 0.239 111.149 0.113 144.784
          0.119 153.603 0.116 147.266 0.894 64.538
3255 0.271 126.11 0.888 -17.557 0.119 153.88
          0.885 -18.722 0.242 111.956 0.116 147.262
          0.119 152.932 0.117 146.281 0.894 63.889
3280 0.279 126.803 0.891 -17.356 0.126 152.208
          0.876 -17.86 0.25 112.544 0.123 145.199
          0.121 153.921 0.119 147.036 0.895 63.162
3305 0.287 127.011 0.895 -18.021 0.124 150.39
          0.887 -17.731 0.258 112.568 0.121 143.316
