!Hittite Microwave Corporation								
!12 Elizabeth Drive								
!Chelmsford, MA 01824								
!Tel: 978-250-3343								
!Fax: 978-250-3373	
!Device: HMC190MS8, DC - 3 GHz SPDT switch in MSOP-8 package
!Misc: Port 1 = RFC, Port 2 = RF1, Port 3 = RF2, RF1 Selected, Bias: +3VDC							
!
# MHZ S MA R 50

50 0.062 -53.8 0.949 2.207 4.226e-3 86.749
          0.95 2.4 0.061 -53.515 4.335e-3 90.279
          5.331e-3 81.415 4.143e-3 102.408 0.979 -11.147
69.75 0.048 -50.132 0.954 1.333 5.95e-3 74.138
          0.954 1.464 0.047 -50.526 6.032e-3 78.683
          6.56e-3 74.604 5.483e-3 83.379 0.975 -15.205
89.5 0.04 -49.435 0.956 0.891 8.353e-3 90.647
          0.956 0.946 0.04 -50.461 8.003e-3 91.375
          8.558e-3 97.116 7.701e-3 92.084 0.97 -19.134
109.25 0.035 -48.903 0.957 0.575 0.01 88.537
          0.957 0.566 0.036 -50.124 9.756e-3 88.333
          9.939e-3 89.821 9.661e-3 89.322 0.968 -23.05
129 0.033 -48.763 0.958 0.37 0.013 84.17
          0.957 0.302 0.033 -49.399 0.012 83.149
          0.013 85.302 0.012 87.624 0.968 -26.951
148.75 0.03 -48.658 0.956 0.289 0.016 84.177
          0.957 0.29 0.031 -48.735 0.015 83.595
          0.016 84.981 0.015 87.26 0.963 -30.653
168.5 0.03 -47.941 0.957 0.189 0.018 82.851
          0.958 0.221 0.029 -48.465 0.017 83.793
          0.019 83.79 0.017 84.436 0.962 -34.461
188.25 0.029 -48.242 0.958 0.114 0.02 77.786
          0.959 0.145 0.029 -48.566 0.019 79.582
          0.02 77.767 0.019 78.48 0.963 -38.328
208 0.028 -49.551 0.96 0.042 0.021 72.535
          0.96 0.054 0.028 -49.136 0.02 74.511
          0.02 71.145 0.02 73.366 0.964 -42.18
227.75 0.027 -50.778 0.96 -0.089 0.023 73.269
          0.961 -0.099 0.027 -50.299 0.022 75.885
          0.023 72.295 0.022 74.596 0.962 -45.954
247.5 0.026 -51.134 0.96 -0.201 0.024 70.109
          0.961 -0.211 0.026 -50.577 0.023 72.509
          0.024 70.484 0.023 73 0.962 -49.634
267.25 0.025 -52.863 0.96 -0.305 0.026 69.286
          0.961 -0.351 0.026 -50.657 0.025 71.565
          0.026 69.846 0.024 72.536 0.959 -53.345
287 0.025 -53.281 0.96 -0.382 0.028 67.739
          0.96 -0.399 0.025 -51.678 0.026 70.568
          0.028 67.889 0.026 70.952 0.956 -56.827
306.75 0.025 -53.131 0.959 -0.424 0.03 65.753
          0.96 -0.419 0.025 -52.444 0.028 68.934
          0.03 65.508 0.028 69.329 0.954 -60.27
326.5 0.026 -53.434 0.96 -0.454 0.031 63.995
          0.96 -0.459 0.025 -52.613 0.029 67.017
          0.031 63.798 0.029 68.286 0.953 -63.775
346.25 0.024 -54.788 0.961 -0.528 0.033 62.538
          0.96 -0.468 0.024 -54.005 0.031 65.964
          0.033 62.947 0.03 66.46 0.951 -67.144
366 0.024 -55.419 0.961 -0.612 0.034 60.87
          0.96 -0.536 0.024 -54.78 0.033 64.435
          0.034 61.281 0.032 64.219 0.95 -70.495
385.75 0.024 -55.716 0.96 -0.718 0.036 59.527
          0.96 -0.684 0.024 -55.763 0.034 63.257
          0.035 59.312 0.034 63.565 0.948 -73.793
405.5 0.024 -55.738 0.96 -0.781 0.037 58.277
          0.961 -0.743 0.023 -56.641 0.035 62.039
          0.037 58.348 0.035 62.927 0.946 -77.038
425.25 0.023 -55.25 0.96 -0.807 0.038 56.621
          0.961 -0.752 0.023 -56.682 0.036 60.451
          0.038 57 0.037 61.211 0.946 -80.193
445 0.023 -54.547 0.959 -0.83 0.039 54.551
          0.961 -0.802 0.023 -55.649 0.037 58.711
          0.039 54.029 0.037 58.472 0.945 -83.244
464.75 0.023 -55.703 0.961 -0.871 0.04 54.123
          0.962 -0.794 0.023 -54.986 0.038 58.785
          0.04 53.145 0.038 57.732 0.941 -86.311
484.5 0.022 -56.219 0.961 -0.949 0.042 52.21
          0.961 -0.962 0.023 -54.808 0.04 56.661
          0.042 51.648 0.039 56.539 0.941 -89.241
504.25 0.023 -58.409 0.961 -1.013 0.042 50.507
          0.961 -1.053 0.023 -55.184 0.04 55.45
          0.042 50.765 0.04 55.902 0.94 -92.158
524 0.023 -58.994 0.961 -1.078 0.043 48.938
          0.961 -1.135 0.023 -55.384 0.041 54.418
          0.043 49.879 0.04 55.072 0.938 -95.026
543.75 0.021 -58.386 0.961 -1.154 0.044 47.378
          0.961 -1.193 0.023 -55.214 0.042 53.078
          0.044 48.551 0.041 53.668 0.936 -97.821
563.5 0.021 -59.823 0.961 -1.233 0.045 45.857
          0.961 -1.146 0.023 -55.137 0.042 51.602
          0.045 46.787 0.043 51.962 0.934 -100.546
583.25 0.021 -59.712 0.96 -1.261 0.045 44.875
          0.96 -1.206 0.023 -57.227 0.043 50.896
          0.045 45.453 0.043 51.479 0.933 -103.301
603 0.021 -60.34 0.96 -1.304 0.045 44.078
          0.96 -1.276 0.023 -56.766 0.043 50.316
          0.046 44.463 0.044 50.979 0.931 -105.885
622.75 0.022 -61.092 0.96 -1.331 0.045 43.439
          0.961 -1.295 0.023 -57.069 0.043 49.932
          0.046 43.306 0.044 50.353 0.93 -108.463
642.5 0.022 -62.206 0.96 -1.37 0.046 42.934
          0.961 -1.309 0.023 -58.213 0.044 49.762
          0.047 42.173 0.044 49.403 0.928 -110.959
662.25 0.022 -63.296 0.959 -1.422 0.047 42.402
          0.96 -1.369 0.023 -59.408 0.045 49.562
          0.047 41.246 0.045 48.215 0.926 -113.363
682 0.022 -62.92 0.96 -1.418 0.048 41.465
          0.963 -1.488 0.023 -60.132 0.046 48.689
          0.047 40.36 0.045 47.405 0.924 -115.88
701.75 0.021 -63.07 0.961 -1.489 0.049 39.644
          0.962 -1.518 0.023 -60.365 0.047 47.128
          0.048 39.334 0.045 46.718 0.922 -118.196
721.5 0.021 -62.906 0.962 -1.581 0.05 37.542
          0.962 -1.639 0.023 -60.283 0.047 45.272
          0.048 38.238 0.046 45.798 0.92 -120.519
741.25 0.021 -62.799 0.962 -1.683 0.049 35.46
          0.962 -1.759 0.022 -59.51 0.047 43.585
          0.048 37.141 0.046 45.045 0.919 -122.82
761 0.021 -62.406 0.962 -1.782 0.048 34.11
          0.96 -1.829 0.022 -58.773 0.046 42.6
          0.049 36.01 0.046 44.603 0.917 -125.072
780.75 0.02 -61.673 0.96 -1.859 0.048 33.992
          0.959 -1.851 0.023 -58.836 0.046 42.612
          0.049 34.844 0.047 44.325 0.916 -127.261
800.5 0.019 -62.509 0.959 -1.894 0.047 34.053
          0.959 -1.903 0.022 -57.54 0.045 42.983
          0.049 33.987 0.047 43.516 0.914 -129.422
820.25 0.019 -63.305 0.958 -1.93 0.048 34.234
          0.958 -1.811 0.022 -56.258 0.046 43.739
          0.049 33.209 0.047 42.809 0.912 -131.553
840 0.019 -63.401 0.959 -1.932 0.049 33.835
          0.96 -1.824 0.022 -55.597 0.047 43.473
          0.049 32.504 0.047 42.1 0.911 -133.628
859.75 0.018 -63.839 0.96 -1.932 0.049 32.632
          0.961 -1.902 0.023 -55.246 0.047 42.463
          0.049 31.566 0.047 41.417 0.91 -135.713
879.5 0.018 -64.472 0.96 -1.954 0.05 30.957
          0.962 -1.998 0.023 -55.192 0.048 41.175
          0.049 30.591 0.047 40.867 0.909 -137.755
899.25 0.018 -63.983 0.96 -2.006 0.049 29.589
          0.961 -2.095 0.023 -55.707 0.047 40.042
          0.049 30.184 0.047 40.549 0.905 -139.618
919 0.018 -64.812 0.96 -2.136 0.049 28.849
          0.961 -2.217 0.023 -55.844 0.047 39.733
          0.049 29.413 0.047 39.845 0.905 -141.576
938.75 0.018 -65.508 0.959 -2.224 0.048 28.583
          0.96 -2.199 0.023 -56.245 0.046 39.636
          0.049 28.792 0.047 39.792 0.903 -143.478
958.5 0.018 -65.201 0.959 -2.279 0.048 28.489
          0.96 -2.251 0.022 -56.545 0.046 39.815
          0.048 28.278 0.047 39.597 0.901 -145.335
978.25 0.018 -64.263 0.959 -2.296 0.048 28.072
          0.96 -2.337 0.022 -56.712 0.047 39.784
          0.048 27.537 0.047 39.37 0.899 -147.198
998 0.018 -63.457 0.958 -2.298 0.049 27.07
          0.96 -2.39 0.022 -56.826 0.047 39.146
          0.048 26.62 0.046 39.222 0.898 -149.071
1017.75 0.018 -63.398 0.959 -2.372 0.048 25.816
          0.961 -2.423 0.022 -56.962 0.047 38.025
          0.048 26.511 0.046 38.728 0.897 -150.817
1037.5 0.017 -62.149 0.96 -2.448 0.048 24.415
          0.961 -2.563 0.021 -56.157 0.046 36.974
          0.047 25.777 0.046 38.3 0.896 -152.664
1057.25 0.017 -61.561 0.96 -2.536 0.047 23.607
          0.961 -2.704 0.021 -55.329 0.045 36.453
          0.047 25.242 0.046 38.14 0.894 -154.384
1077 0.016 -60.527 0.959 -2.642 0.046 23.36
          0.959 -2.726 0.021 -54.099 0.045 36.618
          0.047 24.527 0.046 38.089 0.893 -156.067
1096.75 0.016 -59.344 0.959 -2.734 0.045 23.477
          0.958 -2.679 0.021 -52.784 0.044 37.265
          0.046 23.784 0.045 37.91 0.892 -157.746
1116.5 0.015 -58.762 0.958 -2.778 0.045 23.704
          0.958 -2.682 0.021 -51.685 0.044 38.018
          0.046 23.309 0.045 37.485 0.89 -159.42
1136.25 0.014 -57.698 0.957 -2.821 0.045 23.948
          0.959 -2.685 0.021 -49.638 0.044 38.69
          0.046 22.511 0.045 37.375 0.889 -161.133
1156 0.014 -57.088 0.957 -2.85 0.045 23.609
          0.959 -2.8 0.021 -49.434 0.044 38.912
          0.046 21.885 0.045 37.118 0.888 -162.732
1175.75 0.013 -54.332 0.957 -2.866 0.045 22.784
          0.959 -2.898 0.021 -49.668 0.045 38.516
          0.045 21.293 0.044 37.117 0.887 -164.362
1195.5 0.013 -55.459 0.957 -2.902 0.046 21.702
          0.959 -2.991 0.021 -49.106 0.045 37.68
          0.044 20.854 0.044 37.075 0.886 -165.983
1215.25 0.013 -59.933 0.957 -2.971 0.045 20.44
          0.959 -3.08 0.022 -48.09 0.045 36.681
          0.044 20.555 0.044 36.896 0.885 -167.546
1235 0.013 -58.974 0.957 -3.064 0.044 18.932
          0.957 -3.135 0.022 -48.365 0.044 35.839
          0.044 20.185 0.043 36.825 0.883 -169.028
1254.75 0.013 -56.546 0.958 -3.133 0.043 18.249
          0.958 -3.229 0.022 -48.523 0.043 35.808
          0.043 19.32 0.043 37.086 0.881 -170.496
1274.5 0.013 -55.325 0.958 -3.224 0.042 17.595
          0.958 -3.297 0.021 -48.896 0.042 35.765
          0.043 18.79 0.043 36.75 0.88 -172.022
1294.25 0.013 -53.806 0.957 -3.309 0.042 17.409
          0.957 -3.323 0.021 -48.162 0.041 35.958
          0.042 18.239 0.042 36.521 0.88 -173.54
1314 0.013 -50.985 0.957 -3.387 0.041 17.399
          0.957 -3.354 0.02 -46.999 0.041 36.38
          0.041 17.758 0.042 36.512 0.879 -175.025
1333.75 0.013 -46.993 0.957 -3.462 0.04 17.222
          0.957 -3.409 0.02 -46.112 0.041 36.863
          0.041 17.409 0.041 36.652 0.878 -176.491
1353.5 0.013 -43.849 0.957 -3.516 0.039 17.002
          0.956 -3.398 0.019 -44.623 0.04 37.087
          0.04 16.84 0.041 36.915 0.875 -177.998
1373.25 0.013 -38.961 0.956 -3.586 0.039 17.207
          0.958 -3.587 0.019 -42.054 0.04 37.72
          0.039 16.393 0.04 37.102 0.874 -179.367
1393 0.013 -34.578 0.955 -3.651 0.039 17.219
          0.958 -3.644 0.019 -39.429 0.039 38.453
          0.039 16.14 0.04 37.454 0.873 179.182
1412.75 0.013 -30.79 0.955 -3.705 0.038 16.97
          0.958 -3.742 0.019 -37.08 0.039 39.003
          0.038 15.731 0.039 37.65 0.873 177.741
1432.5 0.013 -26.882 0.954 -3.74 0.038 16.188
          0.958 -3.866 0.02 -35.07 0.04 38.841
          0.038 15.232 0.039 37.7 0.872 176.343
1452.25 0.012 -21.859 0.955 -3.762 0.038 14.641
          0.956 -3.903 0.02 -33.413 0.04 37.605
          0.037 14.855 0.038 37.84 0.871 174.973
1472 0.012 -19.282 0.956 -3.841 0.037 12.97
          0.955 -3.99 0.021 -32.808 0.039 36.5
          0.036 13.989 0.038 38.187 0.87 173.61
1491.75 0.011 -15.457 0.957 -3.966 0.035 12.085
          0.955 -4.079 0.021 -32.307 0.037 36.52
          0.035 13.929 0.037 38.473 0.869 172.193
1511.5 0.01 -13.358 0.956 -4.101 0.034 12.406
          0.955 -4.139 0.022 -32.976 0.036 37.738
          0.034 13.61 0.037 38.863 0.869 170.844
1531.25 9.781e-3 -12.619 0.955 -4.215 0.032 13.563
          0.954 -4.148 0.022 -33.962 0.035 39.751
          0.034 13.085 0.036 39.24 0.867 169.572
1551 9.312e-3 -12.682 0.953 -4.292 0.032 14.846
          0.953 -4.148 0.022 -34.548 0.034 41.914
          0.033 12.66 0.036 39.606 0.865 168.319
1570.75 9.756e-3 -13.992 0.953 -4.329 0.032 15.352
          0.954 -4.253 0.022 -34.563 0.035 43.409
          0.032 12.668 0.035 40.152 0.865 166.977
1590.5 9.52e-3 -14.407 0.952 -4.327 0.033 13.808
          0.955 -4.375 0.022 -35.147 0.036 42.358
          0.031 12.507 0.034 40.789 0.864 165.643
1610.25 9.996e-3 -12.636 0.952 -4.373 0.032 11.552
          0.954 -4.429 0.021 -34.778 0.035 40.933
          0.031 12.083 0.034 41.479 0.863 164.355
1630 0.01 -10.42 0.953 -4.484 0.03 9.637
          0.954 -4.529 0.02 -33.916 0.034 39.945
          0.03 11.647 0.033 41.689 0.862 163.053
1649.75 0.011 -8.105 0.954 -4.618 0.029 8.757
          0.954 -4.671 0.02 -32.807 0.033 40.036
          0.029 11.278 0.033 42.025 0.861 161.736
1669.5 0.011 -5.589 0.954 -4.733 0.027 9.175
          0.954 -4.807 0.02 -31.556 0.031 41.468
          0.028 10.935 0.032 42.984 0.861 160.447
1689.25 0.012 -2.597 0.953 -4.855 0.026 10.468
          0.952 -4.896 0.019 -29.577 0.03 43.772
          0.027 10.428 0.031 43.655 0.86 159.261
1709 0.012 1.277 0.952 -4.929 0.025 11.345
          0.951 -4.914 0.019 -27.106 0.03 45.801
          0.026 10.062 0.031 44.716 0.859 158.082
1728.75 0.013 5.934 0.95 -4.983 0.025 11.215
          0.95 -4.959 0.02 -25.291 0.03 47.329
          0.025 9.428 0.03 45.851 0.859 156.802
1748.5 0.013 10.266 0.95 -5.04 0.024 10.643
          0.951 -5.042 0.02 -23.754 0.03 48.124
          0.024 9.06 0.029 46.898 0.859 155.533
1768.25 0.013 14.195 0.95 -5.104 0.023 9.967
          0.952 -5.132 0.021 -22.711 0.029 48.559
          0.023 8.995 0.029 47.866 0.857 154.306
1788 0.014 18.154 0.95 -5.17 0.022 9.235
          0.95 -5.195 0.021 -22.686 0.029 49.31
          0.022 8.881 0.028 48.908 0.856 153.089
1807.75 0.014 21.39 0.949 -5.243 0.021 8.248
          0.951 -5.317 0.022 -23.242 0.028 50.204
          0.021 8.652 0.028 50.357 0.855 151.918
1827.5 0.014 24.321 0.949 -5.331 0.02 7.75
          0.951 -5.476 0.022 -24.862 0.027 51.054
          0.02 9.086 0.027 51.953 0.854 150.723
1847.25 0.013 27.212 0.95 -5.426 0.019 7.323
          0.951 -5.58 0.021 -26.225 0.026 52.16
          0.019 9.022 0.026 53.731 0.854 149.56
1867 0.013 28.86 0.95 -5.558 0.017 7.556
          0.95 -5.627 0.021 -27.315 0.026 54.027
          0.018 8.787 0.026 55.545 0.854 148.401
1886.75 0.012 29.112 0.95 -5.725 0.016 8.948
          0.948 -5.667 0.021 -28.382 0.025 56.931
          0.017 8.755 0.026 57.295 0.853 147.219
1906.5 0.011 29.826 0.949 -5.871 0.015 11.478
          0.948 -5.783 0.02 -29.701 0.024 60.697
          0.016 8.932 0.025 59.001 0.853 146.007
1926.25 0.011 30.838 0.946 -5.92 0.015 12.406
          0.948 -5.923 0.019 -30.494 0.025 63.371
          0.015 9.441 0.025 60.288 0.852 144.877
1946 0.011 32.013 0.946 -5.95 0.014 11.19
          0.947 -6.01 0.018 -30.922 0.025 64.142
          0.013 10.065 0.024 62.718 0.852 143.74
1965.75 0.011 32.282 0.946 -5.975 0.013 8.954
          0.947 -6.104 0.017 -31.012 0.025 63.924
          0.012 10.487 0.024 64.924 0.851 142.577
1985.5 0.011 32.245 0.947 -6.049 0.012 6.947
          0.946 -6.192 0.017 -30.648 0.024 63.931
          0.011 10.514 0.024 67.089 0.85 141.439
2005.25 0.011 33.491 0.948 -6.216 9.833e-3 6.496
          0.945 -6.259 0.016 -29.724 0.023 65.449
          0.01 10.379 0.023 69.65 0.85 140.345
2025 0.011 37.768 0.947 -6.439 8.524e-3 9.119
          0.945 -6.374 0.016 -28.469 0.021 69.688
          8.861e-3 11.443 0.023 71.775 0.851 139.134
2044.75 0.012 42.438 0.946 -6.607 7.21e-3 12.955
          0.944 -6.466 0.015 -28.039 0.021 75.706
          7.721e-3 12.335 0.023 74.423 0.85 138.009
2064.5 0.012 48.543 0.943 -6.712 6.175e-3 16.871
          0.944 -6.576 0.015 -28.052 0.022 80.72
          6.499e-3 14.289 0.023 77.243 0.85 136.902
2084.25 0.013 54.065 0.942 -6.769 5.332e-3 19.872
          0.945 -6.726 0.015 -28.497 0.023 83.844
          5.276e-3 16.935 0.022 80.165 0.849 135.821
2104 0.013 58.932 0.941 -6.797 4.42e-3 23.102
          0.945 -6.872 0.015 -29.812 0.024 85.05
          4.109e-3 21.546 0.022 82.965 0.849 134.731
2123.75 0.014 64.469 0.942 -6.823 3.177e-3 29.818
          0.944 -6.945 0.014 -32.551 0.024 85.127
          3.006e-3 30.962 0.022 85.431 0.849 133.587
2143.5 0.014 69.448 0.942 -6.932 2.141e-3 45.435
          0.943 -7.078 0.013 -34.226 0.023 86.208
          1.987e-3 48.9 0.023 88.467 0.848 132.586
2163.25 0.014 75.596 0.942 -7.083 1.597e-3 86.556
          0.942 -7.197 0.013 -38.45 0.023 89.471
          1.568e-3 94.388 0.023 91.568 0.848 131.572
2183 0.014 82.313 0.941 -7.242 1.969e-3 125.72
          0.94 -7.245 0.012 -44.434 0.023 93.211
          1.938e-3 128.206 0.023 94.395 0.848 130.479
2202.75 0.014 88.608 0.941 -7.387 2.974e-3 149.295
          0.94 -7.296 0.01 -51.483 0.023 96.603
          2.881e-3 148.442 0.023 97.209 0.849 129.368
2222.5 0.015 94.308 0.94 -7.509 4.255e-3 157.866
          0.941 -7.395 9.042e-3 -59.301 0.023 99.473
          4.133e-3 160.144 0.024 100.154 0.848 128.31
2242.25 0.015 99.87 0.94 -7.62 5.49e-3 162.05
          0.941 -7.49 7.728e-3 -69.8 0.024 102.366
          5.398e-3 165.789 0.024 102.985 0.848 127.354
2262 0.015 103.957 0.939 -7.779 6.795e-3 164.942
          0.941 -7.707 6.502e-3 -82.502 0.024 105.102
          6.898e-3 166.404 0.025 105.786 0.848 126.342
2281.75 0.015 107.022 0.938 -7.911 8.108e-3 168.241
          0.941 -7.904 5.677e-3 -97.652 0.025 108.119
          8.297e-3 166.494 0.025 107.988 0.848 125.272
2301.5 0.016 109.469 0.937 -8.042 9.526e-3 170.361
          0.94 -8.067 5.264e-3 -114.321 0.026 111.259
          9.719e-3 167.358 0.026 110.16 0.848 124.212
2321.25 0.017 111.581 0.937 -8.161 0.011 171.026
          0.937 -8.197 5.29e-3 -130.207 0.027 113.893
          0.011 168.647 0.027 112.446 0.848 123.171
2341 0.018 113.363 0.936 -8.256 0.013 170.792
          0.936 -8.309 5.666e-3 -143.139 0.028 115.547
          0.013 169.483 0.027 114.743 0.848 122.143
2360.75 0.02 113.805 0.936 -8.365 0.014 170.667
          0.935 -8.434 6.141e-3 -152.871 0.029 116.984
          0.014 170.074 0.028 116.845 0.849 121.178
2380.5 0.021 114.242 0.935 -8.537 0.016 170.723
          0.933 -8.537 7.128e-3 -159.498 0.029 119.014
          0.015 171.023 0.029 118.971 0.848 120.152
2400.25 0.023 115.529 0.934 -8.665 0.017 171.749
          0.933 -8.627 8.455e-3 -162.55 0.03 121.441
          0.017 171.308 0.03 121.042 0.848 119.19
2420 0.026 117.474 0.933 -8.772 0.019 172.037
          0.933 -8.68 9.922e-3 -164.931 0.032 123.558
          0.019 171.538 0.031 122.995 0.849 118.249
2439.75 0.028 119.569 0.932 -8.882 0.021 170.987
          0.933 -8.715 0.012 -167.383 0.033 124.724
          0.02 171.732 0.032 124.899 0.849 117.306
2459.5 0.031 121.372 0.933 -9.017 0.022 169.348
          0.933 -8.804 0.014 -169.463 0.034 124.663
          0.022 171.317 0.033 126.854 0.849 116.359
2479.25 0.033 124.135 0.933 -9.237 0.024 168.195
          0.935 -9.114 0.016 -172.287 0.035 124.926
          0.023 170.59 0.035 128.148 0.849 115.354
2499 0.036 126.29 0.933 -9.492 0.024 168.497
          0.935 -9.382 0.019 -174.995 0.035 127.163
          0.025 170.711 0.036 129.354 0.85 114.385
2518.75 0.038 128.849 0.93 -9.701 0.025 170.502
          0.933 -9.623 0.022 -177.596 0.035 130.673
          0.027 170.55 0.037 130.374 0.85 113.47
2538.5 0.04 131.473 0.927 -9.81 0.028 172.426
          0.931 -9.806 0.025 179.855 0.037 134.1
          0.028 170.051 0.039 131.407 0.85 112.566
2558.25 0.043 133.726 0.924 -9.818 0.031 172.665
          0.929 -9.938 0.028 177.419 0.041 135.99
          0.03 169.562 0.04 132.479 0.85 111.627
2578 0.045 135.577 0.925 -9.8 0.034 171.047
          0.927 -10.11 0.032 175.147 0.044 135.211
          0.032 169.61 0.041 133.177 0.852 110.647
2597.75 0.047 137.172 0.928 -9.955 0.035 167.536
          0.926 -10.273 0.035 172.603 0.046 132.659
          0.033 169.137 0.043 134.138 0.851 109.773
2617.5 0.049 137.943 0.929 -10.283 0.036 165.442
          0.923 -10.351 0.038 170.21 0.046 131.589
          0.035 169.314 0.044 134.829 0.852 108.868
2637.25 0.051 138.353 0.928 -10.64 0.036 165.502
          0.922 -10.434 0.04 168.673 0.045 132.715
