!Hittite Microwave Corporation								
!12 Elizabeth Drive								
!Chelmsford, MA 01824								
!Tel: 978-250-3343								
!Fax: 978-250-3373								
!Device: HMC183QS24, DC-2 GHz GaAS MMIC SP8T Non-Reflective Switch in 24-lead QSOP package								
!Misc: Port 1 = RFCom, Port 2 = RF1, Port 3 = RF2, Port 4 = RF3, Port 5 = RF4, Port 6 = RF5, Port 7 = RF6, Port 8 = RF7, Port 9 = RF8, RF7 selected, Vctl=0/-5V							
!
# MHZ S MA R 50

30	0.102	-29.698	0.0003662	100.478	0.0001126	100.01	0.00003201	41.606
	0.00001694	98.768	0.00006761	-105.096	0.000134	-108.673	0.896	2.404
	0.00003197	107.014	0.0003091	84.396	0.05	-90.174	0.0003495	89.7
	0.0001069	80.178	0.00007491	128.522	0.000041	-16.868	0.00003079	116.914
	0.000193	-102.974	0.00006302	154.124	0.0000939	117.496	0.0003349	91.466
	0.05	-95.05	0.0003089	90.831	0.0001092	86.362	0.00006197	12.604
	0.00009671	93.774	0.00005256	-151.16	0.00007608	130.614	0.00008011	147.351
	0.00007634	42.871	0.0003008	74.79	0.051	-88.417	0.0004465	87.415
	0.00009719	133.413	0.0001042	32.047	0.0000452	147.522	0.00004376	86.812
	0.00007234	-125.729	0.00008078	109.363	0.0001087	69.469	0.0004353	85.659
	0.029	-84.556	0.0001711	72.777	0.0001017	77.993	0.0000236	115.355
	0.00006787	37.467	0.00003283	84.969	0.0000521	111.457	0.00008417	86.816
	0.00008751	62.064	0.0002077	84.361	0.057	-64.1	0.00004369	139.404
	0.00004569	33.221	0.0001116	55.092	0.00008969	-106.325	0.00008355	37.933
	0.00003919	91.705	0.00006612	105.003	0.00008291	120.693	0.0004791	85.633
	0.059	-79.495	0.0002655	99.83	0.00006489	40.981	0.896	2.369
	0.0001722	-85.212	0.00003476	-101.211	0.00001501	-106.163	0.00003759	154.815
	0.0001152	108.806	0.0002689	80.781	0.105	-34.888	0.0001455	101.679
	0.00001456	73.592	0.00006159	57.828	0.00008576	100.995	0.00006889	101.331
	0.00006179	74.869	0.00007472	32.893	0.0001296	77.269	0.0001333	41.064
	0.048	-78.261						
49.85	0.087	-15.091	0.0004734	92.654	0.0001599	96.091	0.0001019	99.563
	0.00002734	91.477	0.0001109	-111.049	0.0001647	-105.527	0.914	-0.559
	0.0001073	123.458	0.000459	87.807	0.014	-113.026	0.0005583	86.406
	0.0001615	74.655	0.00009556	73.213	0.00005717	42.098	0.00004461	62.282
	0.0002678	-97.282	0.00008001	106.241	0.0001498	100.203	0.0005322	86.726
	0.017	-125.657	0.0004689	87.906	0.0001861	83.076	0.00008546	77.835
	0.00008239	77.032	0.00004982	177.615	0.00005917	81.902	0.0001105	98.927
	0.0001498	78.595	0.0005208	83.383	0.015	-106.443	0.0006771	85.857
	0.0001565	91.73	0.0001166	71.819	0.00003394	90.952	0.00003838	119.777
	0.00005172	-16.694	0.0001067	87.485	0.0001857	79.021	0.000695	83.299
	0.001241	153.083	0.0002773	79.052	0.0001121	72.627	0.00002912	-69.635
	0.00006465	59.031	0.00006721	-25.255	0.00005636	101.955	0.00007531	87.305
	0.0001397	82.393	0.0002653	85.057	0.022	-35.698	0.00004066	-79.299
	0.0001225	89.683	0.0001111	63.118	0.0001327	-112.174	0.00009071	72.992
	0.00005939	57.965	0.00006278	81.596	0.0001395	83.553	0.0007184	87.378
	0.019	-77.286	0.0004249	88.301	0.0001192	80.054	0.914	-0.618
	0.0002368	-90.57	0.00003932	-137.716	0.00002458	78.051	0.00003131	50.481
	0.0001348	95.16	0.0004437	86.495	0.079	-19.345	0.0002091	88.997
	0.00008441	126.447	0.00008785	77.921	0.00007779	106.25	0.00007828	80.37
	0.00007693	71.294	0.0001125	94.297	0.0001438	89.987	0.0002403	87.508
	0.012	-68.499						
69.7	0.086	-14.382	0.0006422	90.103	0.0002342	95.704	0.0001431	97.971
	0.00005547	-2.57	0.0001072	-94.378	0.0002225	-104.092	0.917	-1.876
	0.0001231	118.516	0.0006884	89.809	0.005949	-159.103	0.0007741	87.088
	0.0001628	80.182	0.0001394	76.811	0.00006951	84.73	0.00005926	69.122
	0.0003305	-96.707	0.0001118	75.409	0.0002112	87.594	0.0007388	85.984
	0.011	-157.935	0.0006625	83.776	0.0002445	80.929	0.0001369	85.163
	0.0000889	70.469	0.00006957	-162.251	0.00007283	78.328	0.0001102	86.551
	0.00018	86.401	0.0006984	85.36	0.006108	-138.562	0.0009224	83.796
	0.0001992	88.877	0.0001	82.731	0.00001883	83.706	0.00004974	74.175
	0.00005446	-13.478	0.0001148	86.195	0.0002531	83.982	0.000969	84.988
	0.008155	100.127	0.0003824	77.442	0.0001479	85.681	0.00006604	4.936
	0.00007629	78.552	0.000128	-97.361	0.00008777	106.232	0.0001265	92.9
	0.0001888	77.491	0.0003421	84.634	0.017	-7.306	0.00006358	-6.46
	0.0001655	84.103	0.0001579	69.248	0.0001959	-109.333	0.0000743	79.463
	0.0001142	66.926	0.0001098	68.633	0.0002145	87.53	0.000993	86.989
	0.008614	-65.784	0.0006033	87.833	0.0001508	82.367	0.917	-1.938
	0.0003418	-97.285	0.00007201	-161.25	0.00005586	123.619	0.00007459	-36.702
	0.0001608	92.59	0.0006068	90.187	0.075	-13.778	0.0003136	85.983
	0.0000978	123.115	0.0001498	80.136	0.00009647	82.916	0.0001003	68.812
	0.00008082	93.262	0.0001317	89.523	0.0001889	91.714	0.0003492	94.247
	0.004441	-23.235						
89.55	0.086	-17.228	0.0008477	90.841	0.0002872	93.723	0.0001538	112.204
	0.00008752	-35.303	0.000103	-100.987	0.0002836	-105.813	0.918	-2.808
	0.0001633	122.862	0.0008946	89.624	0.006325	154.049	0.000965	87.709
	0.0001895	73.755	0.0001822	74.328	0.00007774	73.249	0.0001009	70.934
	0.0003921	-100.385	0.0001508	75.067	0.0002934	91.373	0.0009302	83.967
	0.01	-179.002	0.0008751	84.568	0.0003301	80.491	0.0001627	89.194
	0.00009223	62.992	0.00005275	-147.229	0.0001076	75.165	0.0001474	84.52
	0.0001888	89.086	0.0008573	84.553	0.004707	176.093	0.001199	84.404
	0.0002375	91.748	0.0001246	84.863	0.00002873	114.367	0.00006975	69.852
	0.00006645	-48.195	0.0001333	78.672	0.0003211	82.89	0.001231	85.094
	0.011	97.951	0.0004867	79.083	0.0002153	89.126	0.00008009	-1.397
	0.00008649	77.932	0.000139	-107.055	0.0001217	95.778	0.0002022	89.005
	0.000244	93.042	0.0004662	85.6	0.017	9.255	0.00007233	-9.129
	0.0002213	86.614	0.0001801	82.197	0.0002575	-106.472	0.00008439	99.304
	0.0001224	91.295	0.0001452	70.464	0.0002232	81.309	0.001247	87.033
	0.004629	-46.178	0.0008139	88.171	0.0001858	85.18	0.917	-2.806
	0.0004429	-97.628	0.00006922	177.962	0.00004338	133.569	0.00008931	-43.727
	0.0001918	91.951	0.0007867	88.794	0.073	-12.336	0.0004279	92.494
	0.000132	117.658	0.0001627	74.382	0.0001113	74.181	0.0001241	82.373
	0.00007681	89.487	0.0001655	81.312	0.0002235	82.234	0.0004404	92.24
	0.004679	35.341						
109.4	0.086	-20.881	0.001039	91.531	0.0003415	94.076	0.0001898	106.412
	0.0001067	-55.413	0.0001486	-107.958	0.0003135	-110.888	0.917	-3.546
	0.0001692	119.298	0.001062	91.203	0.008168	134.163	0.001142	85.804
	0.0002503	80.029	0.0002284	69.955	0.0001153	75.924	0.0001342	77.803
	0.0004766	-100.979	0.0001855	86.194	0.0003584	90.088	0.001142	84.099
	0.011	168.585	0.001061	85.748	0.0004038	85.159	0.0001843	78.128
	0.0001537	81.766	0.00005748	-171.641	0.0001349	87.749	0.0002101	92.789
	0.0002522	82.248	0.001022	84.227	0.005585	147.453	0.001495	84.922
	0.0002891	87.59	0.0001634	78.551	0.00003693	134.527	0.00009782	71.759
	0.0001025	-54.37	0.0001881	81.969	0.0004164	82.523	0.001491	83.824
	0.014	95.788	0.0005975	83.058	0.000284	81.508	0.0001141	-30.687
	0.0001192	70.518	0.0001587	-99.387	0.0001324	82.057	0.0002234	78.581
	0.0002986	87.156	0.000589	85.184	0.018	20.148	0.0001093	-38.326
	0.0002361	88.035	0.0001898	78.519	0.0003214	-106.426	0.000081	80.585
	0.0001248	97.961	0.0001677	72.941	0.0002436	76.621	0.0015	85.77
	0.003091	-8.788	0.0009949	87.933	0.0002682	88.273	0.917	-3.524
	0.0005138	-100.76	0.00007684	-175.94	0.00003937	127.529	0.00009131	-36.96
	0.0002146	88.412	0.0009816	89.766	0.072	-12.47	0.0005416	95.914
	0.0001636	127.307	0.0001727	86.12	0.0001488	77.228	0.0001144	79.862
	0.00009946	68.977	0.0002275	90.341	0.0002647	82.799	0.000528	90.387
	0.006822	55.029						
129.25	0.086	-24.995	0.00121	90.926	0.0004033	95.685	0.0002159	100.853
	0.0001334	-55.698	0.000182	-111.409	0.0003465	-109.764	0.916	-4.199
	0.0001826	119.507	0.001217	90.745	0.00988	123.562	0.001359	86.576
	0.0003126	86.71	0.0002437	77.836	0.0001476	77.78	0.0001441	94.776
	0.0005767	-100.873	0.0002065	79.262	0.0004165	91.155	0.001379	85.574
	0.011	160.257	0.001222	85.667	0.0004796	83.892	0.0002346	69.579
	0.0001816	89.945	0.00005083	175.49	0.0001392	89.798	0.0002301	90.703
	0.0003244	79.025	0.001208	86.885	0.006726	134.422	0.001757	84.323
	0.0003253	85.995	0.0001833	71.861	0.00004505	109.528	0.0001343	76.583
	0.0001273	-46.158	0.0002426	80.217	0.0005016	81.891	0.00177	83.945
	0.016	94.337	0.0007072	84.682	0.0003476	81.049	0.0001604	-52.871
	0.0001608	76.283	0.0001704	-98.749	0.0001428	70.316	0.0002378	79.252
	0.0003543	77.525	0.0006924	83.184	0.019	27.254	0.0001623	-58.457
	0.0002797	91.425	0.0002316	86.421	0.0003551	-111.566	0.0001028	71.951
	0.0001619	89.148	0.000201	77.854	0.000311	79.258	0.001765	86.242
	0.00351	30.761	0.001154	88.703	0.0003371	90.725	0.916	-4.212
	0.0006146	-104.232	0.00007516	174.285	0.00004741	139.941	0.0001335	-41.839
	0.0002539	91.645	0.001161	88.769	0.072	-13.113	0.0006158	94.326
	0.0001853	127.439	0.0002154	89.255	0.0001643	82.029	0.000108	75.433
	0.0001397	73.374	0.0002684	86.404	0.0003146	83.244	0.0006271	93.358
	0.008724	62.687						
149.1	0.086	-29.064	0.001377	91.707	0.0004829	96.165	0.0002458	99.522
	0.0001643	-57.441	0.0002164	-112.395	0.0004141	-107.252	0.915	-4.827
	0.0002382	130.843	0.001385	91.883	0.011	117.412	0.001567	87.006
	0.0003642	84.225	0.0002528	83.475	0.0001728	73.983	0.000141	84.1
	0.0007005	-100.098	0.0002258	73.327	0.0004981	91.855	0.001598	86.839
	0.012	153.782	0.001386	85.904	0.0005715	83.431	0.0002576	73.745
	0.0001646	86.557	0.00006891	168.036	0.0001581	88.159	0.0002451	90.312
	0.0003572	82.504	0.001385	87.28	0.007844	127.265	0.002005	85.179
	0.0003765	85.528	0.0002433	75.552	0.00005563	91.974	0.0001503	82.477
	0.0001814	-62.331	0.0002756	76.493	0.0005713	79.98	0.00203	85.16
	0.018	93.722	0.0008005	83.706	0.0004206	80.144	0.0002023	-62.067
	0.0001583	82.326	0.0002148	-114.129	0.0001662	69.863	0.0002608	77.867
	0.0003813	81.774	0.0007918	82.187	0.021	31.941	0.0002026	-67.699
	0.0003342	91.704	0.0002697	84.729	0.0003889	-114.094	0.0001339	79.287
	0.0001846	85.317	0.0001927	80.039	0.0003652	76.56	0.002037	86.443
	0.004502	47.559	0.001338	89.395	0.0003597	89.518	0.915	-4.845
	0.0007002	-102.812	0.00006904	171.071	0.0000583	141.62	0.0001785	-53.992
	0.0003135	86.099	0.001336	89.06	0.071	-14.321	0.0006988	95.595
	0.0002305	120.569	0.0002332	82.557	0.0001689	76.24	0.0001264	72.877
	0.0001825	76.741	0.0002441	80.288	0.000356	85.37	0.0007034	94.852
	0.01	66.611						
168.95	0.087	-33.101	0.001568	91.746	0.0005743	96.066	0.0002939	97.803
	0.0002103	-61.347	0.0002603	-111.877	0.0004616	-114.667	0.914	-5.454
	0.0002757	131.128	0.001601	91.694	0.013	113.081	0.00176	87.462
	0.0004181	83.407	0.0003017	82.105	0.0001949	78.177	0.0001489	79.965
	0.0008067	-102.126	0.0002604	77.742	0.0005292	90.551	0.001794	87.65
	0.012	149.319	0.001552	86.422	0.0006248	84.88	0.0002807	74.935
	0.0001997	82.943	0.00009716	171.838	0.0001815	92.876	0.0002644	95.189
	0.0003919	85.753	0.001556	85.885	0.008951	121.49	0.002243	85.128
	0.0004601	84.395	0.0002764	82.99	0.00004725	104.669	0.000146	79.643
	0.0002393	-66.348	0.0003125	82.563	0.0006139	80.469	0.00226	85.84
	0.019	93.097	0.0009027	83.837	0.0004412	81.779	0.0002313	-57.618
	0.0001568	83.975	0.0002438	-116.851	0.0001919	78.956	0.0002824	78.794
	0.0004252	84.056	0.0008856	83.047	0.022	36.1	0.0002287	-63.455
	0.0003635	91.032	0.0003131	82.132	0.0004722	-115.413	0.0001576	81.279
	0.0002363	83.308	0.0002347	82.448	0.0004177	78.675	0.002303	86.621
	0.005457	56.308	0.0015	88.581	0.0004094	81.972	0.914	-5.45
	0.0007816	-102.134	0.00006581	163.054	0.00005062	121.322	0.0002095	-64.973
	0.0003673	90.341	0.001516	89.942	0.071	-15.731	0.0007916	98.748
	0.0002967	122.431	0.0002529	80.646	0.0001804	85.728	0.000156	82.917
	0.0001914	69.47	0.0002956	80.395	0.0003916	90.084	0.0008082	95.734
	0.012	68.971						
188.8	0.087	-37.127	0.001765	92.162	0.0006294	96.056	0.0003359	98.791
	0.0002518	-67.651	0.0002793	-108.631	0.0005028	-115.413	0.913	-6.038
	0.0003311	127.06	0.001812	92.463	0.015	110.179	0.001991	87.897
	0.0004614	85.072	0.0003618	79.402	0.0002262	83.838	0.0001821	83.76
	0.0008713	-104.331	0.0003077	85.914	0.0005939	92.194	0.00199	87.615
	0.013	146.117	0.00172	86.644	0.0006782	84.002	0.0003	77.133
	0.0002273	81.849	0.0001143	-172.372	0.0001903	77.759	0.000322	97.686
	0.0004426	86.068	0.001751	86.488	0.009993	118.307	0.0025	85.331
	0.0004747	81.527	0.000284	87.64	0.00007586	118.894	0.0001701	78.98
	0.0002753	-70.837	0.0003326	78.94	0.0006658	79.662	0.002491	85.511
	0.021	91.882	0.001018	83.627	0.0004679	80.644	0.0002606	-63.138
	0.0002041	78.417	0.0002693	-115.777	0.0002115	86.656	0.0003289	81.194
	0.000484	85.199	0.0009793	83.65	0.023	39.785	0.000258	-68.548
	0.0003979	88.779	0.0003664	84.279	0.0005193	-113.453	0.0001649	79.794
	0.0002559	87.659	0.0002757	81.549	0.0004731	80.41	0.002571	86.516
	0.006607	61.899	0.001693	89.947	0.0004627	83.836	0.913	-6.044
	0.0008745	-105.222	0.00009986	-172.761	0.00007471	144.574	0.0002531	-69.75
	0.0004322	94.687	0.00168	90.815	0.071	-17.172	0.0008997	98.847
	0.000326	124.001	0.0002834	84.902	0.0001976	91.513	0.0001766	85.913
	0.0002013	77.644	0.0003611	86.85	0.000428	88.661	0.0008984	96.409
	0.013	71.405						
208.65	0.088	-41.107	0.001947	92.85	0.0006643	94.652	0.0003454	102.391
	0.000286	-73.129	0.0002994	-115.835	0.0005401	-113.121	0.912	-6.595
	0.0003815	132.953	0.00196	92.573	0.016	107.613	0.002223	87.937
	0.0004967	87.069	0.0003709	82.042	0.0002623	83.619	0.00021	97.011
	0.0009667	-105.29	0.0003261	87.039	0.0006606	95.958	0.002184	87.483
	0.013	143.91	0.0019	86.774	0.0007332	82.388	0.0003361	82.013
	0.000229	83.732	0.0001183	-162.898	0.0002221	77.861	0.000373	98.365
	0.0004995	85.534	0.001942	87.285	0.011	115.967	0.002785	85.559
	0.0005183	80.874	0.0003311	81.576	0.0001081	128.385	0.0001948	89.572
	0.0003336	-84.435	0.0003629	83.19	0.0007212	82.005	0.002757	85.115
	0.023	90.858	0.001108	82.143	0.0005233	77.453	0.0002757	-73.84
	0.0002085	83.475	0.0002848	-116.428	0.000238	86.281	0.0003755	83.205
	0.0005228	87.149	0.001115	84.366	0.024	42.864	0.0002717	-79.493
	0.0004308	91.628	0.0004108	84.649	0.0005548	-110.698	0.0001781	81.2
	0.0002562	90.53	0.0002979	81.117	0.0005295	80.303	0.002826	86.957
	0.007394	64.006	0.001871	90.564	0.0005003	83.159	0.912	-6.617
	0.0009648	-105.677	0.00009904	-153.189	0.000072	157.603	0.0002981	-72.612
	0.000429	92.217	0.001838	91.315	0.071	-18.696	0.001021	99.645
	0.0003449	128.558	0.0002961	84.525	0.0002305	84.61	0.0001994	87.54
	0.0002166	81.164	0.0003683	84.521	0.000465	86.699	0.0009718	98.152
	0.015	72.904						
228.5	0.089	-44.832	0.002164	92.992	0.0007004	94.737	0.0003753	98.241
	0.0003694	-77.735	0.0003335	-113.007	0.0005799	-113.48	0.91	-7.147
	0.0004091	133.577	0.002137	92.818	0.017	105.011	0.002408	88.249
	0.0005361	84.872	0.0003756	84.695	0.0002815	84.685	0.0002342	91.509
	0.00109	-106.263	0.0003347	81.509	0.0006736	97.084	0.002386	87.861
	0.013	140.764	0.002072	87.678	0.0008155	81.658	0.0003752	84.033
	0.0002363	84.694	0.00009925	-171.326	0.0002494	83.466	0.0003778	98.736
	0.0005401	87.399	0.002093	87.729	0.012	113.603	0.003044	86.081
	0.0005882	82.318	0.0003667	79.684	0.00008986	144.2	0.0002354	89.331
	0.0003884	-87.266	0.0004059	82.21	0.0008265	82.308	0.003054	85.817
	0.025	90.71	0.001194	83.32	0.0005759	81.521	0.0003303	-79.665
	0.0002193	81.907	0.0003246	-116.662	0.0002554	84.598	0.0004074	82.653
	0.0005965	83.913	0.001239	83.489	0.025	45.323	0.0003268	-84.776
	0.0004743	96.034	0.0004548	83.89	0.0006234	-111.571	0.0002113	85.691
	0.0002757	89.039	0.000349	84.18	0.0005918	80.636	0.003082	87.286
	0.008249	67.517	0.002009	90.781	0.0005729	83.59	0.911	-7.161
	0.001064	-106.73	0.00009615	-175.409	0.00008127	135.918	0.0003324	-83.166
	0.0004496	96.644	0.002031	91.11	0.071	-20.269	0.001087	100.298
	0.0004023	133.948	0.000336	91.098	0.0002326	80.752	0.0002184	82.023
	0.0002304	77.774	0.0004181	81.364	0.0005242	85.885	0.00108	98.738
	0.016	73.297						
248.35	0.09	-48.632	0.002347	93.201	0.0007802	95.918	0.0004223	97.551
	0.0004133	-80.738	0.0003802	-118.191	0.0006365	-113.801	0.909	-7.685
	0.000471	133.549	0.002346	92.968	0.019	103.157	0.002623	87.968
	0.0006043	81.945	0.0004166	84.04	0.0002731	84.037	0.000247	90.082
	0.001207	-107.795	0.0003666	79.284	0.0007363	95.813	0.002597	87.47
	0.014	137.604	0.002287	87.264	0.0008816	84.47	0.000408	82.879
	0.0002816	82.921	0.000106	176.133	0.0002669	81.512	0.0004214	101.463
	0.0005856	88.216	0.002315	88.251	0.013	111.722	0.003294	86.243
	0.000645	80.993	0.0003699	83.535	0.0001155	140.534	0.0002613	86.264
	0.0004225	-84.903	0.0004292	78.431	0.0008985	82.037	0.003298	86.036
	0.026	90.094	0.001331	83.59	0.0006218	81.822	0.000394	-78.297
	0.0002715	78.315	0.0003608	-118.984	0.0002869	83.55	0.0004243	84.595
	0.0006536	82.818	0.001343	82.424	0.027	47.295	0.0003902	-82.687
	0.0005129	96.734	0.0004418	84.171	0.0006826	-111.559	0.0002319	83.834
	0.0002841	81.142	0.0003927	87.45	0.0006328	80.558	0.003333	87.393
	0.009038	70.326	0.00219	91.873	0.0006141	87.499	0.91	-7.698
	0.001147	-107.199	0.0001167	-168.884	0.0001433	136.055	0.0003984	-80.587
	0.0004992	97.81	0.002194	91.401	0.071	-21.726	0.001185	101.579
	0.0004948	133.872	0.0003606	88.251	0.000256	80.778	0.000227	84.249
	0.0002357	78.225	0.0004545	82.343	0.0005738	87.19	0.001191	98.869
	0.017	73.895						
268.2	0.091	-52.093	0.002535	93.684	0.0008207	96.243	0.0004603	100.384
	0.0004571	-87.528	0.0004162	-121.199	0.0007134	-114.54	0.91	-8.244
	0.0005555	136.323	0.002522	93.381	0.02	101.599	0.002816	87.576
	0.0006388	84.014	0.000448	82.728	0.0002659	87.831	0.0002596	89.282
	0.001273	-109.419	0.0004113	82.621	0.0008297	96.272	0.00281	88.032
	0.014	135.404	0.002445	87.279	0.0009411	84.748	0.0004541	87.454
	0.000319	84.24	0.0001274	-170.643	0.0002922	79.377	0.0004527	99.427
	0.0006652	85.717	0.002498	88.02	0.014	110.024	0.003547	86.453
	0.0006904	81.748	0.0003765	85.295	0.0001168	141.326	0.0002604	84.407
	0.0004862	-87.36	0.0004768	82.013	0.0009787	82.49	0.003538	86.211
	0.028	89.675	0.001422	83.137	0.0006512	80.279	0.0004316	-76.485
	0.0002895	79.231	0.0004123	-119.585	0.0003028	82.947	0.0004617	84.016
	0.000694	82.173	0.001427	81.957	0.028	49.039	0.0004248	-80.814
	0.0005354	99.729	0.0004805	88.103	0.0007042	-112.665	0.0002786	83.113
	0.00032	84.314	0.0004525	85.586	0.000658	80.557	0.003603	87.516
	0.009805	72.091	0.002379	91.999	0.0006113	84.544	0.911	-8.244
	0.001277	-108.571	0.0001313	-174.911	0.0001442	152.87	0.0004357	-79.068
	0.000548	96.153	0.002338	91.805	0.072	-23.349	0.001286	102.888
	0.0005414	129.722	0.0004101	88.538	0.0003019	89.846	0.0002408	87.355
	0.0002612	82.64	0.0004532	84.435	0.000651	88.564	0.001261	100.781
	0.018	74.322						
288.05	0.092	-55.701	0.002724	94.195	0.0008685	96.091	0.0004674	103.113
	0.0005298	-88.45	0.000467	-125.528	0.0007897	-116.066	0.91	-8.803
	0.0006123	134.688	0.002728	93.952	0.021	100.264	0.003001	88.033
	0.000665	84.61	0.0004824	84.039	0.0002806	83.249	0.0002714	87.872
	0.001361	-109.719	0.0004515	82.466	0.0009022	97.143	0.002999	87.972
	0.015	133.734	0.002615	88.328	0.001029	82.466	0.000493	84.503
	0.0003366	87.694	0.0001881	-164.65	0.0003059	80.167	0.0004918	101.36
	0.0006839	83.41	0.002661	88.548	0.014	108.904	0.00379	86.441
	0.0007175	81.522	0.000421	83.53	0.0001591	144.687	0.0002789	82.77
	0.0005572	-89.759	0.0004902	86.954	0.001027	82.474	0.003795	86.631
	0.03	89.11	0.001537	82.427	0.0006948	81.42	0.0005159	-83.467
	0.0002845	85.042	0.0004387	-120.19	0.0003142	76.492	0.000491	82.202
	0.0007302	81.887	0.001532	82.38	0.03	50.862	0.0005105	-87.44
	0.0005494	100.064	0.0004865	87.285	0.0007504	-114.022	0.0002936	85.382
	0.0003496	85.205	0.000464	84.3	0.0007212	80.336	0.003891	88.002
	0.01	72.991	0.002513	92.442	0.000678	87.252	0.911	-8.813
	0.00139	-110.123	0.0001526	-172.236	0.0001426	154.729	0.0004914	-85.447
	0.0005766	102.783	0.002515	92.578	0.072	-24.978	0.001377	103.369
