!Hittite Microwave Corporation								
!12 Elizabeth Drive								
!Chelmsford, MA 01824								
!Tel: 978-250-3343								
!Fax: 978-250-3373
!Device: HMC174MS8, DC - 3 GHz T/R Switch in 8-lead MSOP package
!Misc: Port1=RFC, Port2= RF1, Port3=RF2, RF2 ON, Bias: +3VDC								
!
# MHZ S MA R 50

30 0.036 -124.317 4.963e-3 65.793 0.979 0.095
          4.99e-3 65.776 0.962 -10.159 5.326e-3 61.219
          0.979 9.613e-3 5.335e-3 60.215 0.032 -110.539
54.85 0.045 -110.728 8.009e-3 66.66 0.966 -0.122
          7.989e-3 67.405 0.958 -17.932 8.399e-3 65.368
          0.966 -0.143 8.423e-3 65.303 0.043 -100.029
79.7 0.033 -121.214 0.012 67.248 0.97 -1.777
          0.012 67.563 0.954 -25.623 0.012 67.312
          0.971 -1.807 0.012 66.996 0.03 -108.352
104.55 0.028 -129.667 0.015 67.633 0.971 -3.019
          0.015 67.862 0.95 -33.248 0.015 67.148
          0.971 -3.012 0.015 66.686 0.025 -114.842
129.4 0.027 -134.802 0.019 67.199 0.97 -3.97
          0.019 67.506 0.945 -40.758 0.018 65.649
          0.97 -3.934 0.018 65.397 0.023 -118.427
154.25 0.027 -136.836 0.022 65.259 0.969 -4.776
          0.022 65.388 0.941 -48.085 0.022 62.673
          0.97 -4.776 0.022 62.691 0.022 -119.102
179.1 0.028 -136.221 0.025 62.416 0.971 -5.546
          0.025 62.262 0.935 -55.235 0.025 58.865
          0.971 -5.546 0.025 58.944 0.023 -118.219
203.95 0.03 -134.571 0.028 59.78 0.97 -6.348
          0.028 59.78 0.928 -62.077 0.028 56.45
          0.97 -6.379 0.028 56.281 0.025 -115.343
228.8 0.032 -133.736 0.031 57.23 0.968 -7.114
          0.031 57.538 0.921 -68.721 0.03 53.761
          0.969 -7.166 0.03 53.309 0.027 -114.002
253.65 0.034 -133.239 0.033 54.943 0.966 -7.835
          0.034 55.186 0.914 -75.168 0.033 50.75
          0.967 -7.879 0.032 50.335 0.029 -112.354
278.5 0.036 -132.865 0.035 53.001 0.966 -8.534
          0.036 52.659 0.908 -81.382 0.035 47.807
          0.966 -8.565 0.034 47.847 0.031 -110.863
303.35 0.038 -132.606 0.038 51.205 0.966 -9.238
          0.038 50.158 0.901 -87.323 0.037 45.47
          0.967 -9.309 0.037 46.136 0.033 -110.81
328.2 0.04 -132.862 0.04 48.592 0.968 -10.031
          0.04 48.091 0.894 -93.09 0.039 42.883
          0.968 -10.118 0.039 43.091 0.036 -109.838
353.05 0.042 -132.769 0.042 45.846 0.967 -10.864
          0.042 46.056 0.887 -98.56 0.04 40.238
          0.967 -10.947 0.04 39.734 0.038 -108.509
377.9 0.045 -133.045 0.042 44.137 0.965 -11.565
          0.043 44.162 0.881 -103.858 0.041 37.918
          0.965 -11.635 0.041 37.589 0.041 -108.28
402.75 0.047 -133.605 0.044 43.134 0.964 -12.206
          0.044 42.333 0.874 -108.972 0.042 35.969
          0.964 -12.266 0.042 36.395 0.043 -108.333
427.6 0.049 -134.223 0.045 41.998 0.965 -12.896
          0.046 40.576 0.867 -113.877 0.044 34.163
          0.964 -12.958 0.044 35.123 0.046 -108.142
452.45 0.051 -134.663 0.047 39.801 0.966 -13.685
          0.047 39.112 0.861 -118.584 0.045 32
          0.965 -13.755 0.046 32.391 0.048 -107.972
477.3 0.053 -135.361 0.048 37.609 0.965 -14.457
          0.048 37.551 0.856 -123.032 0.046 29.993
          0.964 -14.543 0.046 29.604 0.05 -107.807
502.15 0.055 -136.361 0.048 36.69 0.963 -15.158
          0.049 36.179 0.851 -127.39 0.046 28.13
          0.962 -15.229 0.046 28.134 0.052 -107.691
527 0.057 -137.462 0.049 35.97 0.962 -15.82
          0.049 34.886 0.845 -131.6 0.047 26.371
          0.963 -15.933 0.047 26.865 0.054 -107.614
551.85 0.058 -138.554 0.05 34.807 0.963 -16.5
          0.05 33.633 0.839 -135.669 0.048 24.683
          0.965 -16.673 0.048 25.165 0.057 -107.686
576.7 0.06 -139.63 0.051 33.111 0.963 -17.251
          0.051 32.425 0.834 -139.633 0.048 23.055
          0.963 -17.42 0.049 22.974 0.059 -107.952
601.55 0.062 -140.855 0.052 31.77 0.964 -18.077
          0.051 31.314 0.83 -143.512 0.049 21.516
          0.962 -18.172 0.049 21.18 0.061 -108.2
626.4 0.064 -142.184 0.052 30.933 0.963 -18.82
          0.052 30.423 0.825 -147.154 0.049 20.066
          0.962 -18.918 0.049 19.956 0.063 -108.419
651.25 0.065 -143.558 0.052 30.223 0.962 -19.549
          0.052 29.536 0.82 -150.8 0.049 18.648
          0.962 -19.613 0.049 18.902 0.065 -108.7
676.1 0.067 -144.986 0.053 29.543 0.962 -20.223
          0.053 28.703 0.815 -154.353 0.049 17.326
          0.962 -20.284 0.05 17.668 0.067 -108.985
700.95 0.069 -146.477 0.054 28.657 0.961 -20.902
          0.053 27.89 0.811 -157.796 0.05 16.043
          0.963 -20.989 0.05 16.108 0.069 -109.303
725.8 0.07 -148.031 0.054 27.282 0.961 -21.701
          0.053 27.019 0.807 -161.19 0.05 14.672
          0.964 -21.792 0.051 14.272 0.071 -109.725
750.65 0.071 -149.511 0.054 25.731 0.962 -22.5
          0.053 26.41 0.801 -164.487 0.05 13.414
          0.962 -22.714 0.05 12.249 0.073 -110.112
775.5 0.072 -151.058 0.053 25.572 0.96 -23.31
          0.054 25.677 0.797 -167.751 0.05 12.209
          0.961 -23.418 0.049 11.643 0.074 -110.575
800.35 0.073 -152.643 0.054 26.359 0.958 -23.958
          0.054 25.129 0.793 -170.957 0.05 11.204
          0.959 -24.028 0.049 12.069 0.076 -111.038
825.2 0.074 -154.311 0.055 26.315 0.959 -24.519
          0.054 24.679 0.789 -174.058 0.05 10.307
          0.959 -24.632 0.05 11.716 0.077 -111.458
850.05 0.075 -156.038 0.057 24.43 0.961 -25.143
          0.054 24.213 0.785 -177.078 0.05 9.304
          0.962 -25.348 0.052 9.412 0.079 -111.843
874.9 0.076 -157.69 0.056 21.503 0.964 -25.983
          0.054 23.717 0.782 179.862 0.05 7.929
          0.962 -26.329 0.051 5.655 0.081 -112.23
899.75 0.076 -159.472 0.054 21.424 0.961 -26.98
          0.055 23.128 0.778 176.851 0.049 6.794
          0.959 -27.136 0.049 4.799 0.082 -112.737
924.6 0.077 -161.165 0.053 23.572 0.957 -27.74
          0.054 22.939 0.775 173.91 0.049 5.861
          0.957 -27.693 0.048 6.101 0.083 -113.147
949.45 0.078 -162.96 0.055 24.519 0.955 -28.274
          0.055 22.736 0.772 171.006 0.049 5.116
          0.957 -28.252 0.049 6.687 0.085 -113.728
974.3 0.078 -164.952 0.057 23.098 0.958 -28.814
          0.055 22.436 0.768 168.114 0.048 4.332
          0.959 -28.976 0.05 5.188 0.086 -114.458
999.15 0.079 -167.154 0.057 20.141 0.962 -29.596
          0.055 22.079 0.764 165.224 0.048 3.337
          0.962 -29.891 0.051 1.884 0.087 -115.218
1024 0.079 -169.428 0.055 19.132 0.962 -30.615
          0.055 21.603 0.761 162.353 0.048 2.363
          0.962 -30.762 0.049 -0.331 0.088 -115.93
1048.85 0.08 -171.47 0.054 20.663 0.959 -31.431
          0.055 21.436 0.759 159.528 0.048 1.353
          0.958 -31.556 0.047 -0.157 0.089 -116.574
1073.7 0.08 -173.515 0.054 21.85 0.956 -32.094
          0.055 21.308 0.756 156.734 0.047 0.739
          0.956 -32.19 0.046 0.468 0.09 -117.107
1098.55 0.08 -175.631 0.056 21.977 0.955 -32.716
          0.055 21.256 0.752 153.96 0.047 0.101
          0.957 -32.822 0.047 0.484 0.091 -117.792
1123.4 0.08 -177.86 0.057 21.159 0.957 -33.379
          0.055 21.206 0.749 151.233 0.046 -0.617
          0.958 -33.527 0.047 -0.514 0.092 -118.648
1148.25 0.08 179.774 0.057 20.043 0.958 -34.124
          0.055 21.03 0.747 148.575 0.046 -1.224
          0.959 -34.301 0.047 -2.369 0.093 -119.506
1173.1 0.081 177.227 0.056 18.976 0.96 -34.974
          0.055 20.917 0.744 145.775 0.045 -2.169
          0.96 -35.226 0.046 -4.784 0.094 -120.441
1197.95 0.081 174.628 0.055 18.816 0.96 -35.877
          0.055 20.804 0.742 143.107 0.045 -2.965
          0.957 -36.159 0.044 -5.923 0.094 -121.292
1222.8 0.081 172.123 0.054 20.203 0.958 -36.739
          0.055 20.916 0.739 140.387 0.044 -3.71
          0.953 -36.857 0.042 -4.91 0.095 -122.14
1247.65 0.081 169.687 0.055 21.936 0.954 -37.404
          0.055 21.072 0.737 137.68 0.043 -4.185
          0.951 -37.388 0.042 -3.119 0.095 -123.011
1272.5 0.081 167.215 0.057 22.317 0.953 -37.891
          0.055 21.195 0.734 135.019 0.043 -4.431
          0.954 -37.932 0.043 -2.637 0.096 -124.006
1297.35 0.082 164.541 0.058 19.831 0.958 -38.472
          0.056 21.429 0.732 132.342 0.043 -4.897
          0.959 -38.714 0.044 -5.513 0.096 -125.317
1322.2 0.083 161.342 0.056 17.718 0.963 -39.572
          0.056 21.161 0.731 129.772 0.042 -5.585
          0.961 -39.889 0.042 -8.995 0.096 -126.555
1347.05 0.083 158.334 0.054 19.25 0.96 -40.702
          0.056 21.254 0.728 127.209 0.041 -6.456
          0.954 -40.768 0.039 -8.491 0.096 -127.515
1371.9 0.083 155.559 0.054 22.124 0.953 -41.494
          0.056 21.516 0.727 124.579 0.04 -6.856
          0.949 -41.323 0.038 -5.856 0.096 -128.505
1396.75 0.083 152.864 0.056 23.424 0.95 -41.998
          0.056 21.86 0.726 121.922 0.039 -6.906
          0.949 -41.809 0.039 -4.32 0.097 -129.734
1421.6 0.084 150.018 0.058 21.63 0.953 -42.486
          0.056 22.145 0.725 119.294 0.039 -6.973
          0.954 -42.528 0.04 -6.06 0.097 -131.25
1446.45 0.085 146.785 0.057 19.243 0.959 -43.341
          0.057 21.981 0.724 116.668 0.038 -7.247
          0.956 -43.613 0.039 -9.307 0.096 -132.82
1471.3 0.086 143.494 0.055 20.375 0.958 -44.39
          0.056 22.062 0.721 114.048 0.038 -7.855
          0.952 -44.478 0.036 -8.864 0.096 -134.265
1496.15 0.087 140.333 0.055 21.91 0.955 -45.185
          0.057 22.37 0.72 111.534 0.037 -7.932
          0.949 -45.157 0.035 -7.265 0.095 -135.706
1521 0.088 137.238 0.056 22.558 0.953 -45.901
          0.057 22.756 0.719 109.02 0.036 -7.977
          0.949 -45.809 0.035 -6.811 0.095 -137.326
1545.85 0.09 134.145 0.056 22.62 0.953 -46.667
          0.057 22.977 0.719 106.455 0.035 -8.048
          0.951 -46.571 0.035 -7.54 0.095 -139.034
1570.7 0.091 131.008 0.056 23.201 0.95 -47.5
          0.057 22.924 0.719 103.856 0.034 -7.913
          0.949 -47.475 0.034 -7.921 0.094 -140.621
1595.55 0.093 127.952 0.058 23.9 0.949 -48.16
          0.057 23.446 0.718 101.365 0.033 -7.737
          0.948 -48.175 0.033 -6.785 0.094 -142.418
1620.4 0.095 125.041 0.058 22.62 0.954 -48.83
          0.058 23.812 0.718 98.988 0.033 -7.357
          0.952 -48.946 0.033 -7.011 0.094 -144.652
1645.25 0.098 121.727 0.057 22.161 0.958 -49.81
          0.058 24.123 0.716 96.601 0.032 -7.351
          0.953 -49.898 0.032 -7.417 0.093 -146.991
1670.1 0.1 118.469 0.056 24.048 0.954 -50.873
          0.058 24.358 0.715 94.138 0.031 -7.195
          0.949 -50.769 0.03 -6.461 0.092 -149.202
1694.95 0.102 115.601 0.057 27.092 0.944 -51.702
          0.059 24.634 0.718 91.603 0.03 -6.528
          0.943 -51.385 0.029 -4.267 0.091 -151.349
1719.8 0.104 113.065 0.061 27.323 0.938 -52.064
          0.059 25.181 0.719 89.078 0.029 -5.47
          0.944 -51.814 0.03 -3.041 0.092 -153.831
1744.65 0.108 109.893 0.062 23.065 0.95 -52.701
          0.06 25.162 0.721 86.817 0.029 -4.515
          0.951 -52.872 0.029 -5.297 0.09 -156.795
1769.5 0.111 106.5 0.058 22.456 0.956 -54.028
          0.06 25.209 0.72 84.37 0.028 -4.243
          0.946 -54.068 0.027 -5.339 0.089 -159.714
1794.35 0.114 103.425 0.056 25.788 0.949 -55.199
          0.06 25.609 0.72 81.961 0.027 -3.759
          0.94 -54.776 0.026 -2.291 0.088 -162.202
1819.2 0.117 100.802 0.059 29.304 0.939 -55.825
          0.06 26.279 0.72 79.562 0.026 -2.605
          0.938 -55.126 0.026 1.045 0.088 -164.886
1844.05 0.121 98.396 0.063 29.282 0.936 -56.028
          0.061 26.866 0.721 77.184 0.025 -0.811
          0.945 -55.618 0.027 1.714 0.088 -168.314
1868.9 0.127 95.448 0.064 25.263 0.948 -56.694
          0.062 26.734 0.722 75.088 0.024 0.869
          0.955 -56.952 0.026 -0.701 0.088 -172.069
1893.75 0.131 92.205 0.061 25.187 0.951 -57.937
          0.063 26.755 0.723 72.854 0.024 2.504
          0.949 -58.239 0.024 0.855 0.088 -175.385
1918.6 0.135 89.531 0.061 27.642 0.945 -59.051
          0.063 27.231 0.724 70.57 0.023 4.316
          0.939 -58.924 0.023 5.268 0.088 -178.625
1943.45 0.139 87.034 0.062 29.344 0.94 -59.817
          0.063 27.813 0.725 68.237 0.023 6.6
          0.937 -59.437 0.023 8.776 0.088 177.552
1968.3 0.143 84.534 0.064 29.492 0.938 -60.441
          0.064 28.13 0.728 65.984 0.022 9.201
          0.941 -60.185 0.023 10.341 0.088 173.289
1993.15 0.148 82.013 0.065 29.104 0.938 -61.268
          0.065 28.049 0.731 63.909 0.022 11.802
          0.943 -61.322 0.022 11.244 0.089 169.146
2018 0.153 79.417 0.066 29.716 0.936 -62.097
          0.065 28.429 0.731 61.626 0.021 14.694
          0.94 -62.101 0.021 14.734 0.09 165.307
2042.85 0.158 77.341 0.067 28.828 0.939 -62.682
          0.066 28.871 0.732 59.496 0.021 17.898
          0.941 -62.772 0.021 18.281 0.092 161.031
2067.7 0.164 75.005 0.067 27.796 0.943 -63.74
          0.067 29.1 0.733 57.378 0.021 21.159
          0.942 -63.86 0.021 20.442 0.093 156.437
2092.55 0.17 72.496 0.065 28.99 0.941 -65.111
          0.068 29.02 0.734 55.299 0.021 24.231
          0.938 -65.11 0.02 23.522 0.095 152.255
2117.4 0.174 70.187 0.065 32.417 0.93 -66.248
          0.068 29.136 0.735 53.261 0.021 27.268
          0.929 -65.971 0.02 29.102 0.097 148.699
2142.25 0.18 68.483 0.071 35.137 0.919 -66.465
          0.068 30.339 0.736 51.219 0.021 30.862
          0.923 -65.879 0.021 36.627 0.1 145.247
2167.1 0.188 66.942 0.077 31.112 0.928 -66.348
          0.07 31.202 0.738 49.185 0.021 35.105
          0.939 -66.158 0.024 37.712 0.106 140.248
2191.95 0.196 64.453 0.074 26.597 0.943 -67.612
          0.072 30.772 0.74 47.203 0.022 37.863
          0.951 -67.908 0.024 34.54 0.109 134.863
2216.8 0.201 61.7 0.069 27.467 0.943 -69.601
          0.072 29.924 0.743 45.261 0.023 39.759
          0.942 -69.919 0.022 35.247 0.111 130.447
2241.65 0.206 59.385 0.067 32.262 0.926 -71.067
          0.072 29.866 0.745 43.321 0.023 41.835
          0.922 -71.005 0.021 41.332 0.114 127.001
2266.5 0.21 57.795 0.073 36.437 0.908 -71.274
          0.072 31.117 0.747 41.359 0.023 44.885
          0.909 -70.759 0.023 49.809 0.119 123.892
2291.35 0.218 56.721 0.081 34.097 0.913 -70.86
          0.074 32.68 0.748 39.403 0.024 48.745
          0.919 -70.27 0.026 53.429 0.126 120.424
2316.2 0.228 54.654 0.08 29.164 0.929 -71.962
          0.077 32.516 0.749 37.501 0.025 51.181
          0.94 -71.749 0.028 49.713 0.132 115.71
2341.05 0.235 52.23 0.076 29.03 0.931 -73.68
          0.078 31.542 0.75 35.686 0.026 52.863
          0.942 -73.847 0.028 48.298 0.137 111.696
2365.9 0.241 50.085 0.076 31.098 0.922 -75.019
          0.078 31.104 0.752 33.927 0.027 54.324
          0.932 -75.397 0.027 50.64 0.141 108.35
2390.75 0.247 48.313 0.078 32.814 0.913 -75.843
          0.079 31.306 0.753 32.175 0.028 55.975
          0.919 -76.236 0.027 54.95 0.146 105.347
2415.6 0.254 46.693 0.08 32.827 0.911 -76.537
          0.079 31.664 0.754 30.388 0.029 57.87
          0.91 -76.757 0.029 58.416 0.153 102.358
2440.45 0.261 44.949 0.081 33.615 0.906 -77.512
          0.08 32.254 0.758 28.571 0.03 59.257
          0.903 -77.172 0.031 61.226 0.159 99.4
2465.3 0.268 43.365 0.086 34.422 0.898 -77.791
          0.082 32.859 0.759 26.847 0.031 61.468
          0.91 -77.457 0.034 62.727 0.166 96.76
2490.15 0.277 41.602 0.09 31.43 0.907 -78.245
          0.085 32.911 0.761 25.108 0.033 63.268
          0.926 -78.491 0.036 60.611 0.175 93.631
2515 0.286 39.443 0.088 27.979 0.918 -79.678
          0.087 31.911 0.762 23.403 0.035 63.932
          0.932 -80.607 0.037 57.422 0.181 90.221
2539.85 0.292 37.186 0.081 28.255 0.914 -81.829
          0.088 30.517 0.763 21.687 0.037 63.532
          0.915 -82.974 0.035 57.409 0.186 87.219
2564.7 0.295 35.521 0.079 34.936 0.886 -83.382
          0.086 30.4 0.766 19.873 0.038 63.108
          0.875 -83.841 0.033 64.48 0.19 85.411
2589.55 0.301 34.702 0.091 39.187 0.863 -82.42
          0.086 32.984 0.765 18.357 0.038 65.695
          0.867 -82.063 0.039 71.705 0.199 84.139
2614.4 0.313 33.346 0.102 33.602 0.883 -81.834
          0.091 34.169 0.766 16.736 0.041 68.106
          0.901 -81.946 0.046 68.473 0.21 81.712
2639.25 0.324 31.185 0.099 27.046 0.907 -83.4
          0.095 32.832 0.766 15.098 0.044 68.222
          0.926 -84.343 0.048 61.371 0.219 78.382
2664.1 0.33 28.729 0.09 26.104 0.908 -86.087
          0.096 30.639 0.767 13.508 0.046 66.711
          0.914 -87.515 0.044 58.394 0.223 75.408
2688.95 0.332 26.805 0.086 31.905 0.88 -88.082
          0.094 29.739 0.769 11.977 0.047 65.487
          0.872 -89.245 0.041 63.284 0.226 73.702
2713.8 0.337 25.828 0.094 37.411 0.851 -87.689
          0.093 31.639 0.77 10.449 0.047 67.009
          0.847 -87.921 0.045 71.164 0.234 72.72
2738.65 0.347 24.615 0.104 34.328 0.861 -87.097
          0.097 32.898 0.772 8.809 0.05 68.808
          0.867 -87.461 0.052 70.132 0.245 70.837
2763.5 0.355 22.876 0.105 30.569 0.873 -88.121
          0.101 32.347 0.773 7.245 0.053 68.91
          0.879 -88.819 0.054 66.472 0.253 68.619
2788.35 0.362 21.074 0.103 29.223 0.875 -89.598
          0.102 31.443 0.775 5.686 0.055 68.312
          0.875 -90.521 0.054 64.88 0.26 66.484
2813.2 0.368 19.413 0.102 29.48 0.871 -90.877
          0.103 31.025 0.775 4.158 0.057 67.75
          0.865 -91.758 0.055 65.35 0.266 64.606
2838.05 0.374 17.857 0.103 29.454 0.867 -91.865
          0.105 31.159 0.775 2.679 0.059 67.434
          0.861 -92.47 0.057 65.731 0.274 62.918
2862.9 0.38 16.192 0.101 30.193 0.86 -93.387
          0.107 30.524 0.775 1.068 0.061 66.398
          0.858 -93.837 0.058 64.771 0.281 61.142
2887.75 0.385 14.832 0.104 33.563 0.838 -94.091
          0.107 30.357 0.775 -0.438 0.062 66.475
          0.839 -94.517 0.059 67.331 0.287 59.92
2912.6 0.392 13.709 0.114 33.756 0.834 -93.617
          0.108 31.35 0.776 -1.896 0.064 67.766
          0.834 -94.224 0.064 69.396 0.297 58.737
2937.45 0.401 12.329 0.121 29.779 0.852 -93.817
          0.113 31.879 0.777 -3.353 0.068 68.411
          0.848 -94.516 0.07 67.607 0.307 57
2962.3 0.41 10.482 0.117 25.103 0.871 -95.736
          0.118 30.86 0.778 -4.835 0.072 67.173
          0.866 -96.337 0.073 62.862 0.315 54.795
2987.15 0.414 8.431 0.105 25.808 0.859 -99.025
          0.12 28.38 0.779 -6.328 0.074 64.153
          0.857 -99.456 0.068 59.829 0.319 52.907
3012 0.415 7.313 0.108 33.167 0.817 -99.923
          0.116 28.039 0.779 -7.691 0.073 63.588
          0.814 -100.355 0.066 65.333 0.324 52.27
3036.85 0.423 6.573 0.123 34.175 0.807 -98.372
          0.118 29.838 0.779 -9.216 0.075 65.686
          0.805 -98.869 0.074 68.713 0.336 51.382
3061.7 0.432 5.254 0.131 29.48 0.828 -98.21
          0.123 30.398 0.778 -10.674 0.08 66.545
          0.827 -98.986 0.082 66.064 0.347 49.786
3086.55 0.441 3.421 0.128 24.864 0.847 -100.24
          0.128 29.081 0.778 -12.13 0.085 64.987
          0.843 -101.069 0.084 61.353 0.355 47.888
3111.4 0.445 1.594 0.119 24.94 0.839 -103.27
          0.129 26.979 0.779 -13.598 0.087 62.079
          0.83 -103.775 0.08 59.453 0.359 46.321
3136.25 0.447 0.447 0.12 30.038 0.804 -104.309
          0.127 26.736 0.778 -14.927 0.086 61.189
          0.794 -104.588 0.08 63.274 0.365 45.44
3161.1 0.455 -0.615 0.131 30.127 0.799 -103.491
          0.13 28.307 0.777 -16.471 0.089 62.402
          0.797 -103.695 0.088 64.131 0.377 44.258
3185.95 0.464 -2.215 0.136 27.214 0.812 -104.205
          0.136 27.578 0.777 -17.902 0.093 62.135
          0.811 -104.849 0.092 60.815 0.386 42.624
3210.8 0.47 -3.873 0.135 25.799 0.812 -105.872
          0.138 25.856 0.777 -19.342 0.097 60.622
          0.806 -107.027 0.092 58.843 0.393 41.154
3235.65 0.474 -5.284 0.135 26.288 0.799 -107.316
          0.137 24.917 0.776 -20.802 0.099 59.21
          0.785 -108.457 0.091 59.771 0.4 39.986
3260.5 0.479 -6.476 0.139 26.929 0.789 -107.812
          0.137 25.743 0.775 -22.253 0.1 58.922
          0.766 -108.088 0.096 62.039 0.41 38.867
3285.35 0.488 -7.912 0.144 25.039 0.795 -108.609
