!Hittite Microwave Corporation								
!12 Elizabeth Drive								
!Chelmsford, MA 01824								
!Tel: 978-250-3343								
!Fax: 978-250-3373								
!Device: HMC183QS24, DC-2 GHz GaAS MMIC SP8T Non-Reflective Switch in 24-lead QSOP package								
!Misc: Port 1 = RFCom, Port 2 = RF1, Port 3 = RF2, Port 4 = RF3, Port 5 = RF4, Port 6 = RF5, Port 7 = RF6, Port 8 = RF7, Port 9 = RF8, RF8 selected, Vctl=0/-5V							
!
# MHZ S MA R 50

30	0.097	-42.328	0.0003009	96.474	0.00009473	93.827	0.00007267	105.014
	0.00007586	80.661	0.00006096	8.514	0.00008328	-147.613	0.00004626	-112.109
	0.902	2.666	0.000297	99.527	0.05	-90.112	0.000359	86.507
	0.0001052	117.887	0.00006008	64.578	0.00006993	102.96	0.00007867	35.242
	0.00005602	112.609	0.0002038	-84.207	0.0000888	115.5	0.000355	89.441
	0.051	-96.257	0.0002949	97.473	0.0001522	82.386	0.00006508	-10.167
	0.00009283	67.11	0.00007523	39.626	0.00007969	-109.91	0.00008109	128.101
	0.00006366	67.731	0.0002678	86.548	0.05	-88.406	0.000436	89.656
	0.0001102	130.261	0.00006976	142.382	0.00003437	98.742	0.00001766	138.362
	0.00003543	162.876	0.00006425	41.635	0.0001424	67.821	0.0004802	81.893
	0.03	-85.642	0.0002277	98.759	0.0001179	130.745	0.00005901	101.557
	0.00008578	-25.056	0.00007535	-143.186	0.00005349	70.499	0.00007602	46.51
	0.0001278	92.574	0.0001803	81.731	0.057	-62.444	0.00005956	102.759
	0.0001265	93.865	0.00002072	98.012	0.00006449	146.65	0.0000631	72.904
	0.00006633	115.864	0.0001029	75.264	0.00006969	128.384	0.0004696	88.064
	0.06	-78.996	0.0002617	78.991	0.0000724	52.198	0.000008174	-132.934
	0.00006934	29.981	0.00004478	78.016	0.00009068	85.466	0.0000813	80.594
	0.0001509	63.932	0.0002955	80.656	0.04	-82.921	0.0002045	74.828
	0.902	2.591	0.0001165	-105.727	0.00002144	6.925	0.00004168	-60.762
	0.00007095	-93.489	0.0000852	130.064	0.00008318	102.519	0.0001984	90.399
	0.106	-37.008						
49.85	0.069	-27.991	0.0004514	87.655	0.0001663	87.68	0.0001097	104.719
	0.00007469	42.148	0.00003805	100.605	0.00003638	-75.502	0.00005273	-111.025
	0.918	-0.358	0.0004534	88.673	0.014	-113.325	0.0005534	86.303
	0.0001331	89.054	0.00008101	60.88	0.00007619	115.387	0.00008103	55.106
	0.00006855	73.657	0.0002438	-101.825	0.0001659	81.262	0.0005517	85.914
	0.018	-126.671	0.000458	88.304	0.0002204	77.486	0.00008288	74.005
	0.00009961	55.195	0.00006896	63.05	0.00005098	-134.983	0.00009117	86.709
	0.0001225	78.67	0.0004308	89.022	0.015	-107.382	0.0006838	81.341
	0.0001674	77.614	0.00008777	94.863	0.00004637	67.529	0.00005411	-174.265
	0.00002928	-30.741	0.00008772	76.982	0.0001866	78.021	0.0006982	81.638
	0.00173	169.613	0.0003192	83.518	0.0001707	97.519	0.00008524	109.903
	0.00008317	-22.509	0.00005325	-120.998	0.00005954	72.239	0.000103	68.917
	0.0001526	70.784	0.000312	78.232	0.024	-33.877	0.00008562	110.467
	0.0001787	85.04	0.00003828	45.576	0.00005186	162.285	0.00005162	86.963
	0.00007289	66.895	0.00005769	75.897	0.0001495	86.014	0.000729	84.247
	0.02	-77.384	0.0004716	86.049	0.0001064	85.011	0.00008262	-124.051
	0.000079	55.775	0.00006726	79.61	0.00009466	96.133	0.0001068	71.737
	0.0002163	70.952	0.0004613	83.07	0.008665	-89.361	0.0003293	88.194
	0.918	-0.415	0.000211	-94.277	0.00001483	-100.411	0.00004664	-101.642
	0.00003709	-70.969	0.00006833	105.021	0.0001336	88.626	0.0003128	89.992
	0.079	-21.608						
69.7	0.064	-23.618	0.0006361	90.384	0.0002229	92.307	0.0001357	86.516
	0.00007122	8.253	0.00003437	154.314	0.00005996	129.931	0.0001264	-126.719
	0.919	-1.58	0.0006346	87.356	0.00654	-155.165	0.0007396	86.951
	0.0001638	88.596	0.0001266	80.77	0.00008598	77.002	0.00006135	101.233
	0.00007432	75.63	0.0003016	-100.976	0.0002128	86.684	0.000764	86.875
	0.012	-155.903	0.000669	87.626	0.0002744	82.433	0.00007871	84.204
	0.0001257	80.572	0.00008551	84.753	0.00004101	-107.092	0.0001602	83.211
	0.0001668	86.306	0.0006611	87.354	0.006364	-138.143	0.0009425	84.154
	0.0001798	78.775	0.0001152	85.134	0.0000669	76.833	0.00004988	154.381
	0.00005417	-7.283	0.0001355	87.973	0.0002466	83.145	0.0009623	83.31
	0.00799	102.424	0.0004032	83.211	0.0001985	82.458	0.0001253	78.054
	0.00007424	-24.43	0.00004018	137.004	0.00006541	78.993	0.0001249	78.563
	0.0001883	70.645	0.0004186	84.263	0.019	-8.541	0.0001256	78.421
	0.0002773	82.177	0.00001954	83.379	0.00007862	153.867	0.00005378	88.796
	0.0001034	89.885	0.0001023	79.54	0.0001949	89.482	0.000992	85.675
	0.009369	-67.154	0.0006671	86.838	0.0001471	83.358	0.00009235	-138.625
	0.0001094	73.106	0.00009768	70.478	0.00009651	81.189	0.0001331	86.693
	0.0002644	80.857	0.0006396	82.795	0.001736	-99.435	0.000453	92.859
	0.919	-1.567	0.0003083	-94.972	0.00003134	-140.608	0.00001266	-141.23
	0.00005321	-53.238	0.00006685	96.452	0.0001461	87.137	0.0004344	88.824
	0.073	-15.424						
89.55	0.062	-24.095	0.0008349	89.421	0.000255	93.171	0.0001772	89.495
	0.00008571	-2.041	0.00002123	168.104	0.00007416	125.828	0.0001318	-137.093
	0.918	-2.367	0.0007881	89.276	0.006063	160.447	0.0009414	85.795
	0.0002139	82.98	0.000151	83.931	0.0001186	89.716	0.00006017	101.563
	0.00008807	83.173	0.0003898	-100.09	0.0002853	92.101	0.0009681	86.148
	0.011	-176.921	0.0008864	85.967	0.000331	79.096	0.0001366	88.792
	0.0001283	80.301	0.0001126	79.003	0.00003017	-94.479	0.0002047	93.994
	0.0002115	88.222	0.0008674	86.447	0.004892	-179.901	0.00122	85.585
	0.0002182	84.691	0.0001596	83.936	0.00009751	81.979	0.000005094	95.684
	0.00006605	3.598	0.0001741	82.389	0.0003308	82.471	0.00124	83.331
	0.011	98.001	0.0004806	86.452	0.0002303	80.52	0.0001701	79.07
	0.0001109	-48.939	0.00001768	3.197	0.0001136	80.389	0.0001564	84.771
	0.0002396	81.644	0.0004975	83.643	0.019	6.168	0.0001703	79.348
	0.000328	84.872	0.00004545	91.212	0.0000829	122.409	0.00009763	73.563
	0.00009708	74.687	0.0001539	78.239	0.0002356	80.758	0.001245	87.399
	0.005298	-46.149	0.000843	87.883	0.0001952	82.796	0.00009544	-138.124
	0.0001191	83.956	0.000115	78.644	0.0001113	79.141	0.0001635	84.601
	0.0003392	81.195	0.000813	84.331	0.001021	112.384	0.0005782	92.594
	0.918	-2.326	0.000379	-99.23	0.00003965	-145.978	0.00002999	137.917
	0.00009451	-62.931	0.00006461	89.669	0.0002075	97.156	0.0005826	90.347
	0.071	-13.352						
109.4	0.061	-25.98	0.00101	90.813	0.0003143	93.482	0.0002211	98.406
	0.0001024	-11.325	0.00003819	-146.605	0.00005548	116.066	0.000108	-149.051
	0.917	-2.972	0.000988	89.917	0.00745	136.422	0.001176	86.309
	0.0002574	80.317	0.000199	79.559	0.0001334	96.648	0.00008443	79.381
	0.0001295	78.397	0.0004815	-101.593	0.0003621	94.577	0.001184	86.313
	0.011	170.987	0.001049	86.243	0.0004037	83.14	0.0001889	87.298
	0.0001413	73.814	0.0001294	75.773	0.0000378	-133.621	0.0002159	91.243
	0.0002885	84.704	0.00104	86.93	0.005465	151.329	0.001484	86.105
	0.0002737	82.171	0.0001625	81.725	0.0001278	91.956	0.00002977	94.901
	0.0000892	-12.278	0.0002052	76.198	0.0004191	82.676	0.00149	85.39
	0.014	95.907	0.0006132	85.864	0.0003053	79.48	0.0001993	75.625
	0.0001457	-67.778	0.00002648	-85.106	0.0001429	75.725	0.000185	89.425
	0.0002758	86.086	0.0006076	84.622	0.02	15.97	0.0001995	75.852
	0.0003811	83.497	0.00007542	111.541	0.00006505	127.477	0.0001297	70.436
	0.0001311	70.287	0.0001651	84.881	0.000303	79.734	0.001522	87.387
	0.003846	-16.071	0.0009986	87.183	0.0002597	89.06	0.00009705	-136.548
	0.0001257	84.564	0.0001452	84.992	0.0001288	86.388	0.0001896	82.337
	0.0004274	84.374	0.0009857	86.421	0.002619	98.498	0.0007221	90.8
	0.917	-2.955	0.0004921	-98.5	0.00005501	-131.931	0.00004107	138.675
	0.0001227	-69.162	0.00007033	94.689	0.0002775	98.4	0.0007354	91.188
	0.07	-13.093						
129.25	0.061	-28.53	0.001212	92.176	0.0004066	94.329	0.0002381	93.266
	0.00009742	-25.958	0.00005353	-143.599	0.0000681	145.578	0.0001049	-148.912
	0.916	-3.532	0.001211	90.27	0.009266	124.44	0.001388	87.344
	0.0003094	80.616	0.0002591	78.158	0.0001532	91.735	0.00009287	87.124
	0.0001561	77.332	0.0005615	-104.489	0.0004122	97.696	0.001405	87.312
	0.011	163.258	0.001213	87.633	0.0004808	80.559	0.0002064	81.487
	0.0001789	81.346	0.0001556	80.321	0.0000674	-147.099	0.0002587	92.454
	0.0003237	78.527	0.001228	87.178	0.00636	136.493	0.001722	85.949
	0.000327	78.706	0.0001715	82.662	0.0001557	91.657	0.00004714	153.828
	0.00008681	-30.59	0.00024	80.182	0.0004812	85.164	0.001747	86.292
	0.016	94.813	0.0007238	86.159	0.0003379	73.872	0.000232	76.048
	0.0001721	-65.761	0.00003772	-92.081	0.0001281	86.487	0.000231	86.264
	0.0003204	86.911	0.0007135	85.592	0.021	22.809	0.0002322	76.24
	0.0004389	82.53	0.00008385	98.487	0.00008087	141.806	0.0001293	78.672
	0.0001675	81.096	0.0001902	85.549	0.0003452	81.16	0.001779	88.417
	0.00381	15.003	0.001177	87.45	0.0003119	95.32	0.00009727	-142.357
	0.0001664	87.909	0.0001904	79.921	0.0001746	84.888	0.0002075	80.795
	0.000493	86.812	0.001175	87.65	0.003669	95.229	0.0008703	91.089
	0.917	-3.553	0.0005842	-97.959	0.00008527	-134.048	0.00003364	142.781
	0.0001662	-65.83	0.00007054	99.957	0.0002953	96.607	0.0008562	91.891
	0.069	-13.306						
149.1	0.061	-31.433	0.001406	92.982	0.0004619	96.319	0.0003066	94.011
	0.0001193	-14.85	0.00003774	-149.186	0.0001004	143.574	0.0001302	-146.775
	0.915	-4.053	0.00138	91.32	0.011	117.322	0.001596	87.412
	0.0003725	82.077	0.000287	82.817	0.0001681	87.188	0.000125	80.777
	0.0001733	82.706	0.0006494	-103.124	0.0004833	95.639	0.0016	88.343
	0.011	156.153	0.001409	87.441	0.000573	83.531	0.0002465	77.668
	0.0001972	82.78	0.0001947	81.612	0.00009041	-133.52	0.0003091	102.14
	0.00035	79.185	0.001416	88.326	0.007608	126.549	0.001989	86.192
	0.0003736	84.246	0.0002283	84.365	0.0001896	86.514	0.00006897	169.667
	0.00009985	-30.821	0.0002602	86.477	0.0005507	84.38	0.002008	87.087
	0.018	93.799	0.0007996	84.454	0.0003565	77.884	0.0002493	82.965
	0.0002009	-69.764	0.00004618	-113.973	0.0001728	88.509	0.0002671	84.297
	0.0003721	84.29	0.0007834	84.607	0.022	28.426	0.0002494	83.132
	0.0005223	82.804	0.00003606	58.451	0.00008453	134.752	0.0001408	95.31
	0.0001618	87.19	0.0002516	88.832	0.0003992	80.343	0.002049	88.35
	0.004678	35.669	0.001367	88.589	0.0003409	96.579	0.0001333	-138.2
	0.0001886	83.79	0.0001904	85.016	0.0002043	84.472	0.0002497	83.585
	0.0005354	85.729	0.00133	87.827	0.004496	91.591	0.0009845	91.235
	0.915	-4.111	0.0006686	-102.625	0.00009254	-154.445	0.00003672	140
	0.0002199	-68.888	0.00007095	103.277	0.0003292	96.762	0.0009615	92.517
	0.068	-13.857						
168.95	0.061	-34.483	0.001542	93.186	0.0004938	93.927	0.000348	99.385
	0.0001208	-31.266	0.00003044	-148.232	0.000131	139.45	0.0001494	-144.543
	0.913	-4.526	0.001558	92.121	0.013	112.474	0.001799	88.893
	0.0004389	82.507	0.0003002	80.752	0.000181	91.138	0.0001699	78.483
	0.0002156	84.145	0.000722	-104.338	0.0005644	93.643	0.001794	88.154
	0.012	150.402	0.001583	87.17	0.0006223	85.291	0.000273	84.598
	0.0002242	80.844	0.0001927	81.357	0.0001032	-132.381	0.0003196	100.666
	0.000407	80.222	0.001591	88.955	0.00887	120.397	0.002242	86.867
	0.0004292	87.212	0.0002608	85.211	0.0002125	86.28	0.00009544	173.211
	0.0001366	-43.953	0.000288	86.147	0.0006089	83.859	0.002271	87.346
	0.02	92.485	0.0009119	84.13	0.0004277	80.637	0.0002768	79.879
	0.0002382	-74.688	0.00006639	-136.877	0.0001997	86.301	0.0003104	83.189
	0.0004273	87.087	0.0008876	84.819	0.023	33.134	0.0002769	80.028
	0.0005913	84.333	0.00001206	45.872	0.00008419	133.519	0.0001499	89.815
	0.0002042	86.463	0.0002852	92.053	0.0004467	80.009	0.002315	88.071
	0.005623	46.712	0.001543	89.29	0.0003853	92.115	0.0001819	-151.947
	0.0002005	81.41	0.0001937	91.739	0.000185	86.491	0.000303	84.033
	0.0005913	85.888	0.001521	88.773	0.005194	91.086	0.001114	93.163
	0.913	-4.575	0.0007519	-103.862	0.00009496	-163.713	0.00008765	156.401
	0.0002742	-76.589	0.00007569	129.05	0.0003817	95.9	0.001092	92.904
	0.068	-14.724						
188.8	0.062	-37.5	0.001715	93.256	0.0005756	95.549	0.0003684	101.335
	0.0001277	-49.29	0.00005718	-138.158	0.0001423	136.339	0.0001623	-159.049
	0.912	-4.997	0.001753	93.76	0.014	109.031	0.001982	88.348
	0.0004692	84.669	0.0003129	79.875	0.0002175	85.11	0.0002049	81.759
	0.0002232	93.349	0.0008203	-105.803	0.0005826	94.783	0.002004	88.525
	0.012	146.174	0.001783	87.819	0.0006891	82.883	0.0003081	88.409
	0.0002389	86.827	0.0002274	87.14	0.00009711	-143.146	0.0003268	95.195
	0.000482	83.14	0.001769	89.127	0.01	115.824	0.002498	86.856
	0.0004942	83.98	0.0002643	86.31	0.0002332	79.205	0.00007372	156.633
	0.000166	-55.88	0.0003176	83.605	0.0006861	84.582	0.002486	86.963
	0.022	91.492	0.001027	83.259	0.0004943	78.69	0.0003144	82.022
	0.0003022	-74.652	0.00008585	-146.72	0.0002047	84.917	0.0003173	84.863
	0.0004924	88.641	0.001019	87.598	0.024	36.666	0.0003145	82.153
	0.0006459	86.985	0.00005622	108.547	0.0001024	141.13	0.0001735	80.11
	0.0002337	88.93	0.0002881	90.92	0.0005042	82.255	0.002568	88.761
	0.006605	54.532	0.001731	88.789	0.0004149	94.715	0.0002003	-157.91
	0.0002414	84.353	0.0002278	88.816	0.0001941	79.879	0.0003124	79.258
	0.0006533	88.525	0.001702	88.708	0.005956	91.306	0.001234	94.259
	0.912	-5.033	0.0008385	-106.711	0.0001138	-142.081	0.00009775	143.866
	0.0003115	-75.509	0.00008086	119.098	0.000451	93.816	0.001236	93.859
	0.067	-15.722						
208.65	0.062	-40.718	0.001896	94.097	0.0006651	97.9	0.0004037	99.592
	0.0001652	-56.176	0.00007154	-125.583	0.0001332	133.196	0.0001991	-168.937
	0.91	-5.434	0.001937	93.276	0.016	106.015	0.002195	88.328
	0.0004951	88.738	0.0003632	88.253	0.0002424	82.147	0.000214	82.784
	0.0002232	93.728	0.000916	-107.637	0.0006366	96.047	0.002212	88.973
	0.013	142.302	0.001938	89.136	0.000777	85.25	0.0003621	86.888
	0.0002491	84.067	0.0002643	85.557	0.0001065	-157.83	0.000349	97.78
	0.0005253	83.362	0.001948	89.272	0.011	113.377	0.002762	87.918
	0.000562	80.35	0.0002903	86.473	0.0002558	82.306	0.00008539	177.562
	0.0002063	-71.532	0.0003527	79.956	0.0007672	84.614	0.002726	87.553
	0.024	90.898	0.00114	85.536	0.0005141	79.781	0.0003264	80.822
	0.0003524	-74.78	0.00009217	-126.706	0.0002452	85.447	0.0003532	84.748
	0.0005338	85.938	0.001124	85.665	0.026	39.524	0.0003265	80.942
	0.0007163	87.632	0.0001245	97.132	0.0001426	152.857	0.000201	82.126
	0.0002314	86.765	0.0003332	90.672	0.0005425	81.041	0.002833	89.166
	0.007494	60.582	0.001858	88.356	0.0004603	96.402	0.0001924	-154.896
	0.0002596	88.568	0.000264	80.938	0.0002257	85.055	0.00032	80.226
	0.0007347	88.326	0.001839	89.047	0.006558	90.539	0.001365	95.379
	0.911	-5.479	0.000926	-107.419	0.0001258	-152.8	0.00008333	143.625
	0.0003434	-78.298	0.00009606	116.027	0.0005073	95.982	0.001345	95.19
	0.067	-16.812						
228.5	0.063	-44.129	0.002071	93.837	0.0007078	98.013	0.0004275	98.116
	0.0001998	-66.083	0.00008445	-123.535	0.0001276	140.273	0.0002635	-152.903
	0.909	-5.862	0.002089	93.353	0.017	104.439	0.002411	88.749
	0.0005478	86.076	0.000385	86.593	0.0002794	84.22	0.000227	85.21
	0.000259	93.803	0.0009848	-108.281	0.0007429	94.165	0.002433	89.759
	0.013	139.626	0.002092	89.268	0.0008391	84.412	0.0003987	86.924
	0.0002889	83.264	0.0002809	92.609	0.0001078	-165.217	0.0003921	98.215
	0.0005563	84.071	0.002138	89.213	0.012	112.47	0.003027	88.19
	0.0006088	84.346	0.0003355	88.903	0.0002708	80.833	0.0001068	174.377
	0.0002279	-71.733	0.0003893	80.928	0.0008321	86.221	0.003002	87.723
	0.025	90.658	0.001259	85.39	0.0005328	79.336	0.0003705	80.266
	0.0004091	-76.648	0.00009887	-141.054	0.0002472	84.566	0.0004083	84.262
	0.0005787	86.528	0.001228	84.936	0.027	42.242	0.0003706	80.378
	0.0008117	86.722	0.0001098	124.711	0.0001769	142.179	0.000218	85.623
	0.0002608	85.882	0.0003568	88.366	0.0005677	81.388	0.003069	88.949
	0.008296	64.263	0.002028	90.178	0.0005105	96.813	0.0002121	-156.229
	0.0002619	89.926	0.0002529	82.899	0.0002714	82.205	0.0003594	81.615
	0.0008167	88.452	0.002005	89.77	0.00699	91.043	0.001484	95.197
	0.909	-5.856	0.001018	-106.992	0.0001247	-158.603	0.00009649	149.934
	0.0004056	-82.613	0.00009114	118.813	0.0005445	97.434	0.001453	95.142
	0.067	-17.931						
248.35	0.064	-47.252	0.00226	94.763	0.0007686	97.806	0.0004716	101.988
	0.0002452	-70.374	0.0001248	-139.844	0.0001329	141.801	0.0002694	-143.937
	0.908	-6.272	0.002277	94.125	0.019	102.613	0.002606	90.389
	0.0005952	88.35	0.000408	84.32	0.0002736	85.018	0.0002421	93.62
	0.000285	93.818	0.001092	-106.663	0.0008015	96.507	0.002617	89.992
	0.014	137.188	0.002281	89.31	0.0009082	84.43	0.0004301	85.431
	0.0003193	84.667	0.0003015	92.261	0.0001335	-179.614	0.0004379	102.039
	0.0005863	85.455	0.002326	89.881	0.013	110.938	0.003284	88.095
	0.0006316	85.559	0.0003853	88.738	0.0002958	80.819	0.0001067	161.215
	0.0002678	-72.979	0.0004241	85.56	0.0009016	84.909	0.003257	88.007
	0.027	90.255	0.001354	83.579	0.0006062	80.529	0.0004158	81.311
	0.0004548	-80.84	0.0001367	-143.983	0.0002744	82.655	0.0004333	83.229
	0.0006517	87.249	0.001325	85.102	0.028	44.502	0.0004159	81.416
	0.000896	87.083	0.00007283	123.073	0.0001747	137.918	0.0002487	88.981
	0.0003115	84.828	0.0003671	87.11	0.0006304	82.853	0.00335	89.049
	0.009036	65.9	0.002202	90.41	0.0005466	99.406	0.0002327	-154.673
	0.0002867	91.914	0.000302	86.467	0.0002949	80.858	0.0003976	83.988
	0.0008851	90.203	0.002205	90.121	0.007381	90.868	0.001595	95.626
	0.909	-6.233	0.001116	-106.164	0.0001488	-161.096	0.0001083	169.558
	0.000459	-84.768	0.0001113	126.842	0.0005673	96.145	0.001616	96.164
	0.066	-19.265						
268.2	0.065	-50.24	0.002468	95.717	0.0008358	97.78	0.0004556	101.58
	0.0002804	-81.613	0.0001651	-138.262	0.0001713	145.327	0.0003076	-154.366
	0.908	-6.672	0.002449	95.142	0.02	101.107	0.002814	90.757
	0.0006303	87.074	0.0004539	86.797	0.0002783	86.15	0.000247	88.813
	0.0002977	86.609	0.001166	-106.701	0.0008417	98.103	0.002823	90.274
	0.014	135.234	0.002461	90.044	0.0009772	84.559	0.0004545	84.096
	0.000332	84.695	0.0003321	87.638	0.0001715	-172.022	0.0004754	104.546
	0.0006331	85.23	0.002491	90.216	0.014	109.227	0.003501	88.31
	0.0006442	85.046	0.0004023	87.947	0.0002993	85.911	0.0001214	164.088
	0.0002711	-78.567	0.0004829	84.22	0.0009779	84.966	0.003532	88.457
	0.029	89.911	0.001436	84.036	0.0006885	81.453	0.0004221	83.362
	0.0004863	-85.947	0.0001793	-140.67	0.000295	85.737	0.0004531	82.762
	0.0006809	85.871	0.001441	85.522	0.029	46.169	0.0004221	83.462
	0.0009714	89.163	0.00009532	123.463	0.0001982	143.666	0.0002449	84.359
	0.0003389	87.026	0.0003972	85.829	0.000653	83.262	0.003624	89.59
	0.009682	67.495	0.002363	90.35	0.0005915	100.272	0.0002722	-154.329
	0.0002922	88.525	0.000344	84.654	0.0003179	86.274	0.0004686	79.067
	0.0009746	88.84	0.002371	90.162	0.00767	91.105	0.001714	96.979
	0.908	-6.666	0.001153	-107.796	0.0001836	-161.65	0.00008833	-176.02
	0.000488	-86.293	0.0001032	133.37	0.0005948	96.553	0.001747	97.558
	0.066	-20.606						
288.05	0.066	-53.335	0.00263	96.187	0.000925	97.26	0.0005117	100.819
	0.0003173	-88.356	0.000173	-146.106	0.000221	147.476	0.000312	-150.393
	0.909	-7.091	0.002614	96.047	0.021	99.924	0.002998	90.865
	0.00068	87.249	0.0004637	86.413	0.0003026	91.024	0.0002574	95.664
	0.0003031	85.292	0.001238	-109.862	0.0009137	98.278	0.003026	90.75
	0.015	133.773	0.002665	90.094	0.001018	85.457	0.0004554	82.375
	0.0003582	86.61	0.0003483	88.221	0.0001871	-157.879	0.0005162	101.466
	0.0006753	87.578	0.00266	90.273	0.015	108.475	0.00375	88.676
	0.0006981	86.891	0.0004279	87.225	0.0003312	86.475	0.0001369	-178.543
	0.0002848	-83.024	0.0005132	83.983	0.001036	85.663	0.00377	88.534
	0.031	89.581	0.001538	84.444	0.0007367	83.24	0.0004308	82.611
	0.000514	-86.85	0.0001923	-139.79	0.0003395	85.577	0.000489	83.331
	0.0007234	84.338	0.001538	85.283	0.03	48.146	0.0004309	82.706
	0.001035	90.024	0.0001409	131.923	0.0002098	150.747	0.000274	80.671
	0.0003277	85.92	0.0004507	86.161	0.0007138	83.947	0.00388	90.168
	0.01	68.918	0.002563	90.677	0.0006606	101.082	0.0003283	-163.416
	0.0003049	84.77	0.0003507	82.408	0.0003192	82.707	0.0004832	79.005
