!Hittite Microwave Corporation								
!12 Elizabeth Drive								
!Chelmsford, MA 01824								
!Tel: 978-250-3343								
!Fax: 978-250-3373								
!Device: HMC194MS8, DC-3 GHz GaAS MMIC SPDT switch in 8-lead MSOP package								
!Misc: Port 1 = RFCom, Port 2 = RF1, Port 3 = RF2, RF2 selected, Vctl=0/+5V							
!
# MHZ S MA R 50

90 0.04 3.251 374.9e-6 62.892 0.935 -0.504
          838.2e-6 -19.688 0.997 -2.534 1.31e-3 57.524
          0.934 -0.484 524.8e-6 151.228 0.047 2.86
109.55 0.04 7.258 627.7e-6 79.171 0.936 -0.753
          1.21e-3 89.11 0.997 -3.058 1.058e-3 97.231
          0.935 -0.779 1.117e-3 67.063 0.047 5.844
129.1 0.041 4.928 552.9e-6 29.672 0.935 -0.973
          345.9e-6 34.223 0.997 -3.541 587.9e-6 48.259
          0.934 -1.031 905.6e-6 47.141 0.049 4.264
148.65 0.041 3.137 809.5e-6 52.266 0.932 -0.887
          713.3e-6 42.156 0.997 -4.023 832.3e-6 67.147
          0.931 -0.908 1.238e-3 64.863 0.049 3.299
168.2 0.041 2.687 976.2e-6 64.93 0.93 -0.78
          743.7e-6 64.572 0.997 -4.515 1.297e-3 64.277
          0.93 -0.772 1.501e-3 63.753 0.049 3.151
187.75 0.041 2.363 923.9e-6 57.554 0.931 -0.737
          859e-6 68.994 0.997 -5.009 1.262e-3 55.119
          0.931 -0.7 1.279e-3 55.379 0.049 2.515
207.3 0.041 1.921 812.2e-6 45.65 0.932 -0.776
          1.013e-3 60.191 0.998 -5.507 848.3e-6 52.589
          0.932 -0.731 822.8e-6 52.375 0.049 1.594
226.85 0.042 1.63 975.6e-6 61.696 0.933 -0.839
          709.7e-6 63.669 0.998 -6.014 986.9e-6 58.74
          0.933 -0.848 964.7e-6 60.71 0.05 1.636
246.4 0.042 1.048 929.1e-6 74.452 0.933 -0.959
          715.9e-6 78.277 0.998 -6.502 1.191e-3 57.416
          0.933 -0.952 1.104e-3 69.633 0.05 1.143
265.95 0.042 0.965 818.7e-6 57.535 0.932 -1.035
          932.2e-6 82.137 0.998 -6.975 1.177e-3 89.952
          0.932 -1.012 1.231e-3 41.802 0.05 0.089
285.5 0.043 0.75 1.133e-3 61.476 0.931 -1.074
          1.207e-3 79.125 0.998 -7.486 1.238e-3 99.956
          0.93 -1.068 1.449e-3 58.007 0.051 -0.238
305.05 0.043 0.245 1.32e-3 82.349 0.93 -1.081
          1.433e-3 86.884 0.998 -8.001 1.484e-3 83.373
          0.93 -1.092 1.469e-3 88.757 0.051 -0.134
324.6 0.043 -0.466 862.5e-6 94.184 0.93 -1.066
          1.584e-3 111.11 0.998 -8.471 1.809e-3 60.006
          0.93 -1.057 1.096e-3 79.215 0.052 -0.371
344.15 0.043 -1.464 1.263e-3 81.832 0.93 -1.054
          1.758e-3 92.055 0.999 -8.938 1.336e-3 64.608
          0.929 -1.053 1.254e-3 57.854 0.053 -1.423
363.7 0.043 -0.807 1.335e-3 85.655 0.93 -1.097
          1.486e-3 98.804 1 -9.475 1.347e-3 60.623
          0.929 -1.075 2.069e-3 57.686 0.053 -1.941
383.25 0.044 -1.057 1.632e-3 89.263 0.93 -1.197
          1.404e-3 89.931 0.999 -9.924 1.462e-3 65.307
          0.928 -1.123 2.019e-3 65.384 0.054 -2.204
402.8 0.044 -0.955 2.052e-3 90.072 0.929 -1.25
          1.753e-3 81.418 0.999 -10.356 1.585e-3 66.125
          0.928 -1.14 1.794e-3 68.832 0.054 -2.255
422.35 0.044 -0.392 2.277e-3 87.576 0.929 -1.22
          2.14e-3 82.916 1 -10.838 1.662e-3 60.675
          0.927 -1.11 1.902e-3 66.197 0.055 -2.198
441.9 0.046 -1.412 1.831e-3 83.448 0.928 -1.198
          1.298e-3 78.833 1 -11.362 1.665e-3 68.774
          0.927 -1.088 2.034e-3 71.912 0.056 -2.237
461.45 0.046 -1.353 1.843e-3 80.483 0.929 -1.235
          1.838e-3 61.056 1 -11.832 2.061e-3 74.213
          0.928 -1.279 1.98e-3 73.689 0.056 -2.137
481 0.046 -0.933 1.769e-3 84.724 0.929 -1.248
          1.83e-3 78.772 1.001 -12.241 2.221e-3 75.71
          0.929 -1.322 2.168e-3 69.598 0.057 -2.323
500.55 0.046 -1.18 1.707e-3 87.982 0.929 -1.284
          1.713e-3 96.126 1.001 -12.718 2.112e-3 71.58
          0.93 -1.332 2.23e-3 71.132 0.058 -2.427
520.1 0.046 -1.705 1.756e-3 89.408 0.928 -1.336
          1.717e-3 97.724 1 -13.22 1.985e-3 65.231
          0.93 -1.358 2.228e-3 72.038 0.058 -2.344
539.65 0.046 -1.45 1.969e-3 92.5 0.928 -1.37
          1.912e-3 87.533 1.001 -13.627 2.196e-3 63.134
          0.928 -1.403 2.472e-3 59.859 0.059 -2.132
559.2 0.046 -0.834 2.063e-3 93 0.928 -1.42
          2.452e-3 100.344 1.001 -14.157 2.381e-3 69.894
          0.927 -1.485 2.784e-3 71.086 0.06 -2.505
578.75 0.046 -0.533 1.916e-3 98.563 0.928 -1.457
          2.063e-3 94.934 1.002 -14.592 2.357e-3 70.263
          0.926 -1.485 2.093e-3 69.176 0.061 -2.537
598.3 0.046 -0.285 2.043e-3 100.83 0.928 -1.502
          1.986e-3 92.354 1.002 -15.063 2.335e-3 65.207
          0.926 -1.477 2.105e-3 67.239 0.061 -2.479
617.85 0.047 -0.277 2.283e-3 101.031 0.927 -1.541
          2.142e-3 94.301 1.002 -15.494 2.392e-3 63.352
          0.926 -1.477 2.562e-3 65.542 0.062 -2.378
637.4 0.047 -0.368 2.367e-3 101.51 0.927 -1.565
          2.285e-3 96.386 1.002 -15.873 2.529e-3 68.5
          0.926 -1.49 2.841e-3 63.519 0.063 -2.26
656.95 0.048 0.581 2.228e-3 100.684 0.925 -1.623
          2.658e-3 91.702 0.999 -16.5 2.641e-3 65.96
          0.925 -1.515 2.759e-3 67.493 0.064 -2.194
676.5 0.048 1.134 2.302e-3 104.405 0.924 -1.555
          2.508e-3 104.848 1.001 -16.93 2.516e-3 66.849
          0.925 -1.452 2.788e-3 70.662 0.064 -2.024
696.05 0.048 1.781 2.424e-3 103.209 0.925 -1.483
          2.631e-3 102.592 1.003 -17.356 2.69e-3 68.076
          0.926 -1.43 2.891e-3 66.884 0.066 -1.861
715.6 0.049 2.587 2.476e-3 103.013 0.926 -1.455
          2.662e-3 100.801 1.003 -17.797 2.856e-3 68.537
          0.927 -1.459 3.019e-3 63.618 0.067 -1.605
735.15 0.049 3.365 2.485e-3 105.942 0.927 -1.494
          2.499e-3 105.381 1.004 -18.242 2.899e-3 67.726
          0.927 -1.549 3.126e-3 64.358 0.068 -1.301
754.7 0.05 3.736 2.61e-3 108.463 0.928 -1.597
          2.411e-3 106.936 1.004 -18.659 2.981e-3 65.814
          0.928 -1.707 3.187e-3 66.695 0.068 -1.131
774.25 0.051 4.289 2.752e-3 101.338 0.928 -1.727
          2.49e-3 88.258 1.004 -19.109 3.106e-3 66.591
          0.927 -1.82 3.317e-3 61.709 0.069 -0.778
793.8 0.051 5.023 2.771e-3 103.906 0.928 -1.847
          2.763e-3 100.196 1.003 -19.479 3.092e-3 67.738
          0.926 -1.858 3.154e-3 59.943 0.07 -0.333
813.35 0.051 5.61 2.668e-3 106.129 0.926 -1.929
          2.765e-3 107.952 1.003 -19.907 3.068e-3 67.991
          0.924 -1.875 3.089e-3 61.832 0.072 0.03
832.9 0.052 6.183 2.577e-3 107.645 0.924 -1.945
          2.647e-3 108.861 1.004 -20.352 3.086e-3 66.594
          0.923 -1.853 3.131e-3 64.708 0.073 0.292
852.45 0.053 6.982 2.656e-3 110.828 0.923 -1.892
          2.732e-3 111.753 1.004 -20.726 3.175e-3 63.661
          0.922 -1.778 3.145e-3 65.223 0.074 0.526
872 0.053 7.75 2.894e-3 110.231 0.923 -1.856
          2.806e-3 110.775 1.005 -21.088 3.379e-3 62.472
          0.924 -1.791 3.106e-3 63.465 0.075 0.905
891.55 0.054 8.229 2.919e-3 112.886 0.924 -1.835
          2.968e-3 111.248 1.004 -21.515 3.417e-3 63.683
          0.924 -1.709 3.515e-3 63.733 0.077 1.134
911.1 0.054 9.089 2.906e-3 115.44 0.925 -1.874
          3.17e-3 111.406 1.004 -21.95 3.461e-3 62.61
          0.925 -1.8 3.548e-3 62.909 0.078 1.528
930.65 0.055 9.869 2.921e-3 115.761 0.925 -1.952
          3.119e-3 112.608 1.005 -22.395 3.487e-3 60.911
          0.926 -1.938 3.575e-3 61.104 0.079 1.97
950.2 0.056 10.349 2.993e-3 114.125 0.925 -2.041
          2.87e-3 115.071 1.006 -22.818 3.495e-3 59.782
          0.925 -2.021 3.758e-3 59.347 0.08 2.344
969.75 0.057 11.023 3.114e-3 114.494 0.923 -2.119
          3.135e-3 116.096 1.005 -23.11 3.588e-3 57.752
          0.924 -2.099 3.589e-3 59.259 0.082 2.642
989.3 0.058 11.773 3.093e-3 116.946 0.922 -2.086
          3.098e-3 121.593 1.006 -23.487 3.603e-3 59.889
          0.923 -2.066 3.604e-3 57.934 0.083 2.84
1008.85 0.059 12.569 3.087e-3 119.857 0.923 -2.065
          3.028e-3 123.337 1.006 -23.884 3.543e-3 59.273
          0.923 -2.064 3.659e-3 56.862 0.085 3.124
1028.4 0.06 13.34 3.236e-3 121.217 0.923 -2.023
          3.225e-3 122.602 1.005 -24.26 3.54e-3 57.595
          0.924 -2.094 3.616e-3 56.302 0.086 3.4
1047.95 0.061 14.137 3.451e-3 121.366 0.924 -2.005
          3.481e-3 122.357 1.006 -24.62 3.623e-3 56.195
          0.925 -2.15 3.562e-3 56.307 0.088 3.669
1067.5 0.062 15.073 3.509e-3 121.984 0.924 -2.095
          3.319e-3 125.314 1.006 -25.006 3.738e-3 55.738
          0.925 -2.223 3.697e-3 56.504 0.089 3.991
1087.05 0.063 16.147 3.496e-3 121.152 0.926 -2.246
          3.219e-3 123.127 1.007 -25.43 3.867e-3 54.677
          0.923 -2.358 3.747e-3 53.397 0.091 4.412
1106.6 0.065 16.805 3.467e-3 121.364 0.924 -2.37
          3.311e-3 125.905 1.005 -25.676 3.87e-3 55.065
          0.921 -2.39 3.535e-3 54.843 0.092 4.685
1126.15 0.066 17.605 3.433e-3 123.016 0.923 -2.474
          3.408e-3 126.247 1.005 -26.027 3.929e-3 54.574
          0.919 -2.348 3.521e-3 55.461 0.094 4.953
1145.7 0.067 18.423 3.468e-3 125.14 0.922 -2.535
          3.454e-3 125.236 1.007 -26.429 3.984e-3 53.66
          0.919 -2.292 3.685e-3 55.293 0.096 5.236
1165.25 0.069 19.09 3.584e-3 126.664 0.92 -2.54
          3.474e-3 125.654 1.006 -26.785 3.966e-3 53.211
          0.92 -2.272 3.929e-3 55.083 0.097 5.519
1184.8 0.07 19.912 3.578e-3 127.504 0.918 -2.532
          3.616e-3 128.116 1.007 -27.149 3.984e-3 53.036
          0.921 -2.281 4.342e-3 53.091 0.099 5.798
1204.35 0.071 20.516 3.558e-3 131.921 0.918 -2.462
          3.779e-3 131.202 1.006 -27.489 4.06e-3 50.547
          0.921 -2.212 4.308e-3 52.876 0.101 5.984
1223.9 0.072 21.227 3.635e-3 134.112 0.919 -2.401
          3.703e-3 132.156 1.007 -27.87 4.139e-3 50.12
          0.922 -2.313 4.292e-3 52.356 0.102 6.286
1243.45 0.073 21.873 3.739e-3 134.776 0.92 -2.372
          3.738e-3 133.074 1.008 -28.231 4.174e-3 50.955
          0.923 -2.454 4.335e-3 50.582 0.104 6.506
1263 0.075 22.406 3.851e-3 135.237 0.921 -2.396
          3.888e-3 134.478 1.007 -28.555 4.165e-3 51.019
          0.922 -2.562 4.361e-3 47.55 0.106 6.645
1282.55 0.077 22.944 4.023e-3 136.686 0.921 -2.488
          3.735e-3 134.719 1.006 -28.888 4.165e-3 47.854
          0.921 -2.678 4.22e-3 44.3 0.107 6.951
1302.1 0.078 23.749 4.136e-3 135.746 0.922 -2.587
          3.866e-3 135.545 1.007 -29.282 4.235e-3 49.288
          0.92 -2.768 4.121e-3 44.073 0.109 7.007
1321.65 0.079 24.206 4.077e-3 138.077 0.922 -2.699
          3.951e-3 137.928 1.006 -29.608 4.285e-3 47.564
          0.918 -2.821 4.191e-3 46.494 0.111 7.216
1341.2 0.081 24.621 4.107e-3 140.004 0.921 -2.759
          4.053e-3 140.404 1.007 -29.922 4.346e-3 46.924
          0.916 -2.761 4.27e-3 47.207 0.113 7.352
1360.75 0.083 25.095 4.239e-3 140.614 0.92 -2.811
          4.137e-3 142.771 1.007 -30.274 4.403e-3 46.605
          0.916 -2.68 4.358e-3 46.96 0.115 7.436
1380.3 0.084 25.654 4.355e-3 140.901 0.92 -2.925
          4.151e-3 145.073 1.007 -30.666 4.443e-3 44.288
          0.917 -2.695 4.521e-3 47.489 0.116 7.569
1399.85 0.086 26.481 4.276e-3 144.423 0.919 -3.017
          4.211e-3 145.569 1.007 -30.904 4.549e-3 42.144
          0.917 -2.625 4.784e-3 42.378 0.118 7.609
1419.4 0.087 27.136 4.354e-3 146.587 0.917 -3.058
          4.313e-3 145.627 1.007 -31.227 4.55e-3 41.41
          0.918 -2.663 4.894e-3 41.663 0.12 7.72
1438.95 0.089 27.733 4.339e-3 148.489 0.914 -3.007
          4.333e-3 148.693 1.007 -31.577 4.615e-3 39.901
          0.919 -2.731 4.838e-3 40.324 0.122 7.851
1458.5 0.091 28.321 4.389e-3 150.457 0.914 -2.887
          4.416e-3 150.079 1.007 -31.925 4.675e-3 38.512
          0.919 -2.81 4.795e-3 37.329 0.123 7.922
1478.05 0.092 28.918 4.617e-3 152.15 0.915 -2.759
          4.612e-3 148.226 1.008 -32.259 4.68e-3 37.768
          0.919 -2.896 4.859e-3 33.54 0.125 7.925
1497.6 0.093 29.509 4.909e-3 152.241 0.918 -2.728
          4.696e-3 149.905 1.007 -32.592 4.694e-3 36.58
          0.919 -2.995 4.9e-3 31.959 0.126 7.966
1517.15 0.094 30.284 4.946e-3 153.112 0.921 -2.912
          4.665e-3 152.519 1.007 -32.923 4.775e-3 35.406
          0.919 -3.166 4.856e-3 32.815 0.128 8.039
1536.7 0.096 30.852 4.945e-3 152.031 0.92 -3.187
          4.81e-3 154.533 1.008 -33.303 4.802e-3 32.747
          0.917 -3.253 4.782e-3 31.334 0.13 8.103
1556.25 0.097 31.301 4.85e-3 151.567 0.918 -3.434
          4.99e-3 156.967 1.008 -33.655 4.772e-3 31.592
          0.914 -3.298 4.716e-3 29.868 0.132 8.187
1575.8 0.099 31.686 4.752e-3 153.806 0.914 -3.543
          5.102e-3 159.201 1.007 -33.948 4.815e-3 31.339
          0.912 -3.305 4.714e-3 29.975 0.133 8.228
1595.35 0.1 32.041 4.834e-3 159.492 0.91 -3.434
          5.107e-3 159.641 1.006 -34.203 5.1e-3 29.026
          0.911 -3.239 4.831e-3 31.789 0.135 8.131
1614.9 0.101 32.21 5.043e-3 161.928 0.909 -3.187
          5.178e-3 160.603 1.008 -34.603 5.055e-3 27.856
          0.91 -3.056 5.026e-3 29.637 0.136 7.846
1634.45 0.102 32.51 5.344e-3 164.495 0.911 -3.016
          5.31e-3 161.421 1.007 -34.953 5.084e-3 26.387
          0.913 -2.944 5.499e-3 27.462 0.138 7.732
1654 0.103 33.066 5.553e-3 164.947 0.915 -3.015
          5.416e-3 163.84 1.007 -35.294 5.286e-3 25.086
          0.916 -3 5.671e-3 23.79 0.138 7.745
1673.55 0.105 33.74 5.721e-3 164.001 0.917 -3.166
          5.534e-3 165.795 1.008 -35.642 5.423e-3 23.83
          0.917 -3.186 5.602e-3 19.764 0.14 7.79
1693.1 0.107 34.353 5.888e-3 163.279 0.918 -3.398
          5.7e-3 165.458 1.008 -35.987 5.345e-3 22.168
          0.918 -3.414 5.494e-3 17.343 0.141 7.789
1712.65 0.109 34.918 5.787e-3 164.301 0.917 -3.617
          5.83e-3 165.241 1.008 -36.238 5.524e-3 19.149
          0.916 -3.609 5.31e-3 18.58 0.143 7.793
1732.2 0.11 35.451 5.762e-3 166.111 0.914 -3.692
          5.781e-3 167.257 1.007 -36.623 5.508e-3 18.013
          0.912 -3.682 5.234e-3 19.1 0.144 7.737
1751.75 0.111 35.991 5.765e-3 168.652 0.912 -3.68
          5.947e-3 168.411 1.008 -37.012 5.571e-3 16.826
          0.91 -3.636 5.45e-3 18.181 0.145 7.576
1771.3 0.113 36.557 5.879e-3 170.943 0.911 -3.691
          6.115e-3 169.629 1.008 -37.361 5.656e-3 15.884
          0.909 -3.547 5.747e-3 16.755 0.146 7.356
1790.85 0.114 37.16 6.072e-3 172.389 0.91 -3.729
          6.167e-3 171.57 1.008 -37.666 5.771e-3 15.021
          0.91 -3.485 5.988e-3 15.513 0.148 7.154
1810.4 0.115 37.808 6.159e-3 173.035 0.909 -3.669
          6.194e-3 173.986 1.007 -37.968 6.026e-3 13.29
          0.911 -3.492 6.181e-3 14.481 0.148 7.042
1829.95 0.116 38.537 6.293e-3 176.622 0.909 -3.601
          6.587e-3 173.628 1.009 -38.323 6.009e-3 10.845
          0.912 -3.562 6.265e-3 11.323 0.149 6.873
1849.5 0.117 39.318 6.668e-3 177.764 0.911 -3.539
          6.578e-3 175.749 1.008 -38.746 6.141e-3 8.587
          0.912 -3.588 6.353e-3 7.563 0.15 6.656
1869.05 0.118 40.105 6.934e-3 177.675 0.914 -3.6
          6.713e-3 177.596 1.008 -39.142 6.239e-3 7.217
          0.913 -3.694 6.373e-3 6.218 0.15 6.563
1888.6 0.119 40.818 7.08e-3 177.274 0.915 -3.805
          6.986e-3 178.9 1.008 -39.47 6.341e-3 6.341
          0.913 -3.835 6.441e-3 5.632 0.151 6.585
1908.15 0.121 41.393 7.212e-3 177.36 0.915 -4.103
          7.141e-3 -179.699 1.008 -39.752 6.554e-3 5.038
          0.913 -3.907 6.673e-3 3.141 0.151 6.595
1927.7 0.122 41.951 7.05e-3 178.916 0.911 -4.326
          7.222e-3 -179.757 1.007 -40.181 6.716e-3 2.8
          0.911 -3.984 6.594e-3 4.349 0.152 6.318
1947.25 0.123 42.356 6.98e-3 -177.944 0.906 -4.254
          7.356e-3 -177.947 1.007 -40.571 6.89e-3 2.466
          0.91 -4.009 6.819e-3 3.046 0.153 5.987
1966.8 0.124 42.87 7.129e-3 -174.154 0.903 -3.973
          7.525e-3 -176.213 1.008 -40.955 7.024e-3 0.921
          0.91 -4.045 7.063e-3 2.228 0.153 5.684
1986.35 0.125 43.583 7.571e-3 -170.958 0.905 -3.659
          7.68e-3 -174.669 1.008 -41.329 7.196e-3 -0.877
          0.91 -4.056 7.353e-3 1.203 0.153 5.426
2005.9 0.126 44.512 8.224e-3 -169.702 0.911 -3.518
          7.84e-3 -173.143 1.008 -41.694 7.451e-3 -2.103
          0.911 -4.05 7.638e-3 -0.991 0.153 5.238
2025.45 0.128 45.615 8.746e-3 -171.749 0.919 -3.763
          8.175e-3 -171.525 1.008 -42.063 7.704e-3 -3.773
          0.912 -4.157 7.595e-3 -4.431 0.153 5.179
2045 0.13 46.513 8.852e-3 -173.72 0.921 -4.286
          8.347e-3 -171.003 1.007 -42.45 8.107e-3 -4.305
          0.912 -4.288 7.913e-3 -6.428 0.153 5.141
2064.55 0.132 47.113 8.646e-3 -173.675 0.917 -4.716
          8.404e-3 -170.192 1.007 -42.854 8.351e-3 -6.777
          0.91 -4.386 8.028e-3 -6.684 0.153 4.911
2084.1 0.134 47.68 8.48e-3 -171.564 0.91 -4.916
          8.595e-3 -168.311 1.007 -43.238 8.461e-3 -8.995
          0.907 -4.41 8.33e-3 -6.265 0.153 4.565
2103.65 0.135 48.352 8.486e-3 -168.287 0.904 -4.827
          8.887e-3 -166.037 1.007 -43.6 8.594e-3 -10.505
          0.906 -4.337 8.952e-3 -6.74 0.153 4.156
2123.2 0.136 49.187 8.616e-3 -165.245 0.902 -4.493
          9.037e-3 -164.926 1.006 -43.978 8.95e-3 -12.365
          0.907 -4.17 9.728e-3 -9.752 0.152 3.722
2142.75 0.137 50.442 9.12e-3 -161.382 0.906 -4.286
          9.41e-3 -162.318 1.008 -44.524 9.099e-3 -12.76
          0.911 -4.078 0.01 -14.878 0.151 3.45
2162.3 0.139 51.762 9.733e-3 -160.376 0.909 -4.313
          9.618e-3 -161.759 1.007 -44.93 9.549e-3 -13.923
          0.915 -4.239 9.962e-3 -19.437 0.15 3.331
2181.85 0.141 52.842 0.01 -160.672 0.912 -4.476
          9.996e-3 -161.414 1.006 -45.307 9.936e-3 -15.704
          0.918 -4.604 9.774e-3 -21.51 0.149 3.377
2201.4 0.143 53.715 0.01 -160.916 0.912 -4.667
          0.01 -160.867 1.006 -45.724 0.01 -17.655
          0.918 -4.996 9.538e-3 -21.159 0.149 3.373
2220.95 0.144 54.513 0.011 -160.022 0.91 -4.795
          0.011 -160.082 1.006 -46.195 0.011 -19.223
          0.915 -5.245 9.395e-3 -19.244 0.148 3.13
2240.5 0.146 55.26 0.011 -157.527 0.911 -4.833
          0.011 -158.639 1.006 -46.611 0.011 -19.803
          0.909 -5.348 0.01 -16.784 0.147 2.778
2260.05 0.148 56.098 0.011 -157.174 0.913 -4.92
          0.011 -158.196 1.006 -47.108 0.011 -20.973
          0.906 -5.312 0.011 -16.066 0.146 2.59
2279.6 0.15 56.988 0.012 -156.79 0.913 -5.097
          0.011 -155.531 1.007 -47.635 0.012 -22.447
          0.904 -5.237 0.012 -16.873 0.145 2.449
2299.15 0.151 57.888 0.012 -156.314 0.912 -5.293
          0.012 -153.897 1.007 -48.107 0.012 -23.987
          0.905 -5.136 0.013 -19.491 0.144 2.258
2318.7 0.153 58.797 0.012 -155.709 0.91 -5.427
          0.012 -154.055 1.006 -48.53 0.012 -25.205
          0.906 -5.043 0.013 -23.259 0.142 1.969
2338.25 0.156 59.77 0.012 -154.722 0.909 -5.432
          0.012 -152.466 1.006 -49.028 0.013 -25.55
          0.908 -5.033 0.014 -26.304 0.14 1.619
2357.8 0.158 60.719 0.013 -152.491 0.909 -5.435
          0.013 -151.291 1.004 -49.501 0.013 -26.664
          0.91 -5.068 0.014 -28.701 0.138 1.472
2377.35 0.161 61.702 0.013 -151.496 0.91 -5.54
          0.013 -151.343 1.004 -50.059 0.014 -27.845
          0.913 -5.122 0.014 -31.777 0.136 1.319
2396.9 0.164 62.706 0.013 -150.845 0.911 -5.693
          0.014 -150.551 1.004 -50.623 0.014 -29.101
          0.915 -5.307 0.014 -34.296 0.135 1.165
2416.45 0.167 63.667 0.014 -149.926 0.91 -5.846
          0.014 -149.092 1.004 -51.175 0.015 -30.375
          0.917 -5.606 0.014 -35.418 0.133 1.04
2436 0.171 64.522 0.014 -148.316 0.907 -5.945
          0.014 -148.294 1.004 -51.733 0.015 -31.559
          0.918 -5.934 0.014 -34.692 0.131 0.958
2455.55 0.173 65.298 0.015 -145.68 0.906 -5.848
          0.015 -148.299 1.004 -52.33 0.016 -32.412
          0.915 -6.211 0.014 -32.028 0.129 0.69
2475.1 0.177 66.298 0.015 -144.239 0.909 -5.731
          0.015 -146.631 1.004 -52.854 0.016 -33.47
          0.912 -6.469 0.015 -30.72 0.126 0.309
2494.65 0.18 67.297 0.017 -144.384 0.914 -5.872
          0.016 -146.331 1.003 -53.418 0.017 -34.472
          0.909 -6.573 0.017 -30.827 0.124 8.592e-3
2514.2 0.184 68.216 0.017 -145.941 0.918 -6.279
          0.017 -146.149 1.002 -54.055 0.018 -35.86
