!Hittite Microwave Corporation								
!12 Elizabeth Drive								
!Chelmsford, MA 01824								
!Tel: 978-250-3343								
!Fax: 978-250-3373
!Device: HMC174MS8, DC - 3 GHz T/R Switch in 8-lead MSOP package
!Misc: Port1=RFC, Port2= RF1, Port3=RF2, RF1 ON, Bias: +5VDC								
!
# MHZ S MA R 50

30 0.028 -142.283 0.982 -0.596 4.769e-3 65.327
          0.982 -0.614 0.024 -128.581 4.855e-3 57.833
          4.86e-3 65.99 4.739e-3 58.853 0.959 -10.274
54.85 0.039 -117.255 0.968 -0.476 8.117e-3 66.165
          0.969 -0.508 0.037 -106.968 7.55e-3 61.723
          8.179e-3 66.75 7.476e-3 62.383 0.956 -17.991
79.7 0.03 -131.664 0.973 -2.016 0.011 70.175
          0.974 -2.049 0.026 -119.103 0.011 65.273
          0.011 70.753 0.011 65.722 0.951 -25.591
104.55 0.026 -142.302 0.973 -3.191 0.014 71.401
          0.973 -3.179 0.021 -128.889 0.014 67.725
          0.014 72.007 0.014 68.216 0.945 -33.198
129.4 0.025 -147.906 0.972 -4.101 0.017 69.759
          0.972 -4.049 0.02 -134.483 0.017 67.272
          0.017 70.296 0.017 67.871 0.94 -40.713
154.25 0.025 -150.298 0.972 -4.877 0.021 66.198
          0.971 -4.854 0.019 -135.836 0.02 64.195
          0.021 66.478 0.02 64.6 0.936 -47.974
179.1 0.025 -148.297 0.974 -5.61 0.024 62.194
          0.974 -5.637 0.019 -132.333 0.024 60.879
          0.024 62.231 0.024 60.833 0.931 -54.993
203.95 0.027 -145.58 0.973 -6.396 0.026 60.568
          0.972 -6.442 0.02 -128.025 0.026 57.69
          0.026 60.82 0.026 57.905 0.926 -61.871
228.8 0.028 -143.494 0.97 -7.16 0.029 58.522
          0.97 -7.222 0.022 -124.993 0.028 54.627
          0.029 58.978 0.028 55.135 0.919 -68.504
253.65 0.029 -141.963 0.968 -7.862 0.031 56.175
          0.969 -7.916 0.023 -122.809 0.031 51.627
          0.031 56.435 0.031 51.982 0.913 -74.876
278.5 0.03 -140.64 0.968 -8.511 0.033 54.043
          0.969 -8.56 0.024 -120.51 0.033 48.87
          0.034 53.683 0.033 48.558 0.907 -81.007
303.35 0.031 -139.02 0.969 -9.161 0.035 52.514
          0.97 -9.267 0.025 -117.304 0.034 46.636
          0.036 51.515 0.035 45.576 0.902 -86.934
328.2 0.033 -137.64 0.971 -10.027 0.037 49.829
          0.97 -10.084 0.027 -115.899 0.036 44.072
          0.037 49.384 0.036 43.589 0.896 -92.589
353.05 0.035 -136.583 0.969 -10.835 0.039 46.977
          0.969 -10.899 0.029 -114.233 0.038 40.409
          0.039 47.366 0.038 40.651 0.89 -98.024
377.9 0.036 -136.039 0.967 -11.531 0.04 45.24
          0.967 -11.58 0.031 -112.748 0.038 38.295
          0.04 45.423 0.039 38.384 0.884 -103.29
402.75 0.038 -135.542 0.967 -12.176 0.041 44.347
          0.967 -12.206 0.033 -111.271 0.039 37.267
          0.042 43.606 0.04 36.54 0.877 -108.354
427.6 0.04 -134.975 0.967 -12.855 0.043 43.339
          0.968 -12.896 0.035 -109.926 0.041 35.985
          0.043 41.92 0.041 34.618 0.872 -113.189
452.45 0.041 -134.74 0.968 -13.628 0.044 40.906
          0.969 -13.718 0.037 -109.221 0.043 33.164
          0.044 40.26 0.042 32.546 0.866 -117.809
477.3 0.043 -134.719 0.968 -14.418 0.045 38.862
          0.968 -14.483 0.039 -108.524 0.043 30.619
          0.045 38.726 0.043 30.513 0.861 -122.287
502.15 0.045 -135.039 0.967 -15.136 0.045 37.904
          0.967 -15.183 0.041 -108.014 0.044 29.151
          0.046 37.326 0.044 28.601 0.856 -126.548
527 0.047 -135.454 0.965 -15.787 0.046 37.132
          0.966 -15.879 0.043 -107.621 0.044 27.91
          0.046 35.98 0.045 26.782 0.851 -130.692
551.85 0.049 -136.015 0.965 -16.453 0.047 35.936
          0.967 -16.612 0.045 -107.372 0.045 26.288
          0.047 34.737 0.045 25.092 0.845 -134.706
576.7 0.05 -136.778 0.966 -17.217 0.048 34.195
          0.967 -17.384 0.047 -107.289 0.046 24.112
          0.048 33.632 0.046 23.51 0.84 -138.57
601.55 0.052 -137.474 0.966 -18.028 0.049 32.798
          0.966 -18.104 0.049 -107.265 0.046 22.133
          0.048 32.464 0.046 21.73 0.835 -142.411
626.4 0.053 -138.209 0.965 -18.787 0.049 32.073
          0.965 -18.849 0.051 -107.146 0.046 20.952
          0.049 31.443 0.046 20.375 0.831 -146.069
651.25 0.055 -139.011 0.964 -19.467 0.049 31.324
          0.964 -19.563 0.053 -107.202 0.047 19.703
          0.049 30.514 0.046 18.929 0.827 -149.667
676.1 0.057 -140.01 0.964 -20.154 0.05 30.604
          0.964 -20.248 0.055 -107.331 0.047 18.418
          0.049 29.637 0.047 17.493 0.823 -153.173
700.95 0.058 -141.151 0.964 -20.873 0.051 29.708
          0.965 -20.94 0.057 -107.536 0.047 16.983
          0.05 28.782 0.047 16.121 0.818 -156.567
725.8 0.06 -142.263 0.963 -21.596 0.051 28.275
          0.966 -21.69 0.059 -107.882 0.048 15.145
          0.05 27.96 0.047 14.791 0.813 -159.865
750.65 0.061 -143.441 0.965 -22.363 0.051 26.751
          0.963 -22.497 0.061 -108.279 0.048 13.014
          0.05 27.4 0.047 13.657 0.809 -163.17
775.5 0.063 -144.766 0.962 -23.134 0.05 26.603
          0.963 -23.303 0.063 -108.645 0.047 12.33
          0.051 26.67 0.047 12.393 0.804 -166.383
800.35 0.064 -146.054 0.961 -23.851 0.05 27.387
          0.962 -23.927 0.064 -109.052 0.047 12.523
          0.051 26.134 0.047 11.24 0.8 -169.562
825.2 0.065 -147.326 0.962 -24.489 0.052 27.381
          0.962 -24.508 0.066 -109.439 0.048 11.936
          0.051 25.697 0.047 10.198 0.797 -172.642
850.05 0.066 -148.738 0.964 -25.113 0.054 25.554
          0.965 -25.22 0.068 -109.92 0.049 9.57
          0.051 25.243 0.047 9.226 0.793 -175.621
874.9 0.067 -150.496 0.967 -25.898 0.053 22.56
          0.965 -26.154 0.07 -110.822 0.048 5.986
          0.051 24.781 0.047 8.301 0.789 -178.63
899.75 0.068 -152.036 0.964 -26.962 0.051 22.457
          0.964 -27.02 0.071 -111.131 0.046 5.175
          0.051 24.107 0.046 6.85 0.785 178.263
924.6 0.069 -153.508 0.96 -27.582 0.05 24.528
          0.961 -27.649 0.073 -111.892 0.045 6.749
          0.051 23.796 0.046 5.937 0.781 175.429
949.45 0.07 -154.931 0.959 -28.118 0.052 25.475
          0.96 -28.208 0.074 -112.668 0.046 7.063
          0.051 23.598 0.046 5.114 0.778 172.577
974.3 0.071 -156.717 0.961 -28.745 0.054 24.118
          0.962 -28.863 0.076 -113.541 0.048 4.981
          0.052 23.39 0.045 4.303 0.775 169.682
999.15 0.072 -159.099 0.965 -29.536 0.054 21.205
          0.965 -29.699 0.077 -114.608 0.047 1.419
          0.052 23.098 0.045 3.498 0.77 166.824
1024 0.072 -161.237 0.965 -30.522 0.052 20.103
          0.965 -30.586 0.078 -115.358 0.045 -0.26
          0.052 22.612 0.045 2.423 0.768 164.036
1048.85 0.073 -163.05 0.962 -31.281 0.051 21.616
          0.961 -31.373 0.08 -116.022 0.044 0.592
          0.052 22.556 0.044 1.467 0.765 161.158
1073.7 0.073 -165.027 0.96 -31.971 0.051 22.866
          0.959 -32.065 0.081 -116.885 0.044 1.15
          0.052 22.449 0.044 0.642 0.763 158.351
1098.55 0.074 -167.101 0.959 -32.611 0.052 23.027
          0.959 -32.705 0.082 -117.815 0.044 0.649
          0.052 22.355 0.044 -0.076 0.759 155.561
1123.4 0.075 -169.322 0.96 -33.261 0.053 22.231
          0.961 -33.366 0.083 -118.841 0.044 -0.804
          0.052 22.273 0.043 -0.766 0.755 152.802
1148.25 0.075 -171.835 0.962 -34.002 0.053 21.203
          0.963 -34.131 0.084 -120.084 0.044 -2.553
          0.052 22.162 0.043 -1.513 0.753 150.122
1173.1 0.076 -174.63 0.964 -34.827 0.053 20.056
          0.964 -35.047 0.085 -121.403 0.043 -4.335
          0.052 22.189 0.042 -2.195 0.75 147.364
1197.95 0.076 -177.059 0.963 -35.742 0.051 19.871
          0.961 -35.95 0.086 -122.276 0.041 -5.276
          0.052 22.027 0.042 -3.12 0.747 144.605
1222.8 0.076 -179.537 0.961 -36.591 0.051 21.244
          0.957 -36.668 0.086 -123.258 0.04 -4.612
          0.052 22.014 0.041 -3.935 0.744 141.849
1247.65 0.077 177.862 0.958 -37.256 0.051 23.063
          0.955 -37.243 0.087 -124.486 0.04 -3.487
          0.052 22.133 0.04 -4.554 0.741 139.159
1272.5 0.077 175.195 0.956 -37.766 0.053 23.586
          0.957 -37.803 0.088 -125.91 0.041 -3.656
          0.052 22.335 0.04 -4.976 0.739 136.501
1297.35 0.079 172.581 0.96 -38.343 0.055 21.06
          0.962 -38.524 0.089 -127.369 0.041 -6.814
          0.052 22.604 0.039 -5.26 0.737 133.715
1322.2 0.079 168.955 0.965 -39.403 0.053 18.824
          0.964 -39.592 0.089 -129.368 0.039 -9.761
          0.052 22.392 0.039 -5.938 0.735 131.107
1347.05 0.079 166.093 0.963 -40.45 0.05 20.357
          0.958 -40.531 0.089 -130.377 0.036 -8.803
          0.052 22.414 0.038 -6.649 0.732 128.488
1371.9 0.08 163.113 0.957 -41.229 0.05 23.278
          0.953 -41.164 0.089 -131.696 0.035 -6.45
          0.052 22.662 0.037 -7.216 0.73 125.788
1396.75 0.081 159.989 0.954 -41.771 0.052 24.666
          0.953 -41.65 0.09 -133.28 0.036 -5.695
          0.052 23.058 0.036 -7.467 0.73 123.053
1421.6 0.082 156.82 0.958 -42.292 0.055 22.968
          0.959 -42.288 0.09 -134.855 0.037 -8.045
          0.052 23.42 0.035 -7.477 0.728 120.361
1446.45 0.083 153.021 0.963 -43.18 0.053 20.5
          0.961 -43.373 0.09 -137.102 0.035 -10.896
          0.053 23.371 0.035 -7.913 0.727 117.737
1471.3 0.084 149.398 0.962 -44.182 0.051 21.723
          0.957 -44.254 0.09 -138.682 0.033 -10.161
          0.053 23.605 0.034 -8.318 0.724 115.048
1496.15 0.085 146.034 0.959 -44.977 0.052 23.47
          0.954 -44.942 0.09 -140.451 0.032 -8.866
          0.053 23.949 0.033 -8.587 0.723 112.422
1521 0.087 142.747 0.958 -45.683 0.052 24.208
          0.954 -45.589 0.09 -142.411 0.032 -8.527
          0.053 24.364 0.032 -8.528 0.723 109.817
1545.85 0.088 139.363 0.957 -46.423 0.053 24.264
          0.956 -46.343 0.09 -144.484 0.031 -8.761
          0.053 24.677 0.031 -8.392 0.722 107.18
1570.7 0.09 135.837 0.955 -47.248 0.053 24.916
          0.955 -47.256 0.09 -146.594 0.03 -8.232
          0.053 24.767 0.03 -8.526 0.721 104.496
1595.55 0.092 132.593 0.954 -47.884 0.054 25.644
          0.953 -47.967 0.09 -148.841 0.029 -7.553
          0.054 25.269 0.029 -8.138 0.72 101.96
1620.4 0.095 129.124 0.959 -48.613 0.054 24.43
          0.957 -48.688 0.09 -151.119 0.029 -8.942
          0.054 25.687 0.029 -7.73 0.719 99.487
1645.25 0.097 125.318 0.963 -49.719 0.053 23.98
          0.959 -49.579 0.089 -153.708 0.027 -9.367
          0.054 25.962 0.028 -7.242 0.718 96.971
1670.1 0.099 121.699 0.959 -50.784 0.052 25.866
          0.955 -50.476 0.089 -156.385 0.025 -7.221
          0.055 26.222 0.027 -6.833 0.719 94.447
1694.95 0.101 118.501 0.95 -51.45 0.053 28.99
          0.949 -51.212 0.089 -158.973 0.025 -3.733
          0.055 26.626 0.026 -6.401 0.72 91.886
1719.8 0.104 115.461 0.944 -51.662 0.057 29.455
          0.95 -51.737 0.089 -161.515 0.026 -3.018
          0.055 27.276 0.025 -5.514 0.718 89.187
1744.65 0.108 112.367 0.956 -52.363 0.057 25.431
          0.958 -52.743 0.09 -164.696 0.025 -6.266
          0.056 27.463 0.024 -4.199 0.72 86.745
1769.5 0.111 108.566 0.96 -53.787 0.054 24.942
          0.953 -53.914 0.088 -167.858 0.022 -5.922
          0.056 27.584 0.023 -3.246 0.719 84.307
1794.35 0.114 105.141 0.954 -55.004 0.053 28.335
          0.945 -54.657 0.088 -170.578 0.021 -1.517
          0.056 28.086 0.022 -1.958 0.719 81.942
1819.2 0.118 102.199 0.946 -55.591 0.055 31.882
          0.943 -55.019 0.088 -173.496 0.021 3.207
          0.056 28.907 0.021 -0.051 0.719 79.583
1844.05 0.122 99.441 0.944 -55.752 0.059 31.909
          0.951 -55.446 0.089 -177.097 0.021 4.606
          0.057 29.662 0.021 2.386 0.719 77.197
1868.9 0.127 96.457 0.954 -56.657 0.06 28.111
          0.961 -56.73 0.09 179.413 0.021 2.611
          0.058 29.675 0.02 4.785 0.723 74.92
1893.75 0.132 92.928 0.958 -58.04 0.057 28.033
          0.954 -57.974 0.09 175.572 0.019 4.829
          0.059 29.665 0.019 6.931 0.724 72.668
1918.6 0.136 89.936 0.952 -59.093 0.057 30.501
          0.945 -58.746 0.09 172.467 0.018 9.715
          0.059 30.057 0.019 9.28 0.725 70.304
1943.45 0.14 87.254 0.946 -59.695 0.058 32.233
          0.943 -59.37 0.091 168.991 0.018 14.279
          0.059 30.622 0.018 12.337 0.727 67.917
1968.3 0.145 84.666 0.942 -60.233 0.06 32.394
          0.948 -60.162 0.093 165.129 0.018 17.594
          0.06 31.01 0.018 15.938 0.728 65.573
1993.15 0.15 82.026 0.94 -61.167 0.061 31.995
          0.952 -61.242 0.093 161.415 0.017 20.422
          0.061 31.027 0.017 19.607 0.73 63.31
2018 0.155 79.268 0.94 -61.984 0.062 32.759
          0.945 -62.018 0.095 157.546 0.017 24.779
          0.061 31.375 0.017 23.452 0.732 61.136
2042.85 0.161 76.993 0.944 -62.637 0.063 31.965
          0.944 -62.75 0.097 153.634 0.017 27.63
          0.062 31.912 0.017 27.848 0.733 59.034
2067.7 0.167 74.41 0.949 -63.66 0.063 30.908
          0.945 -63.794 0.099 149.617 0.017 30.698
          0.063 32.18 0.017 32.398 0.734 56.885
2092.55 0.173 71.751 0.946 -65.03 0.061 32.092
          0.943 -64.963 0.101 146.063 0.016 36.061
          0.064 32.196 0.017 36.433 0.736 54.737
2117.4 0.178 69.262 0.934 -66.232 0.061 35.597
          0.933 -65.755 0.102 142.996 0.017 43.413
          0.064 32.435 0.018 40.001 0.739 52.636
2142.25 0.184 67.008 0.923 -66.465 0.067 38.432
          0.924 -65.616 0.107 139.855 0.019 49.707
          0.064 33.606 0.018 44.033 0.742 50.588
2167.1 0.189 65.375 0.933 -66.257 0.073 34.395
          0.94 -65.928 0.109 136.1 0.02 49.233
          0.066 34.517 0.018 49.207 0.743 48.518
2191.95 0.199 63.107 0.948 -67.474 0.07 29.795
          0.954 -67.783 0.115 132.066 0.02 48.097
          0.068 34.043 0.02 53.031 0.745 46.443
2216.8 0.205 60.153 0.945 -69.447 0.065 30.678
          0.947 -69.814 0.117 128.009 0.019 51.912
          0.069 33.228 0.021 55.063 0.748 44.371
2241.65 0.209 57.66 0.927 -70.931 0.064 35.603
          0.926 -70.853 0.12 125.006 0.02 59.157
          0.068 33.149 0.021 56.574 0.751 42.345
2266.5 0.214 56.068 0.909 -71.143 0.069 39.887
          0.911 -70.574 0.125 122.882 0.022 65.466
          0.069 34.269 0.022 59.002 0.753 40.403
2291.35 0.22 54.168 0.914 -70.572 0.078 37.433
          0.921 -70.152 0.13 118.917 0.026 65.329
          0.07 35.823 0.023 62.921 0.753 38.553
2316.2 0.23 52.787 0.933 -71.556 0.077 32.377
          0.943 -71.505 0.135 116.389 0.026 62.265
          0.073 35.742 0.024 66.107 0.756 36.639
2341.05 0.238 50.136 0.934 -73.396 0.073 32.168
          0.946 -73.536 0.14 112.662 0.026 63.692
          0.075 34.794 0.026 67.337 0.757 34.766
2365.9 0.245 47.731 0.926 -74.853 0.072 34.266
          0.935 -75.03 0.144 109.576 0.026 67.199
          0.075 34.365 0.028 68.004 0.76 32.999
2390.75 0.25 45.843 0.917 -75.702 0.074 36.059
          0.92 -75.852 0.149 107.102 0.028 70.213
          0.075 34.588 0.029 68.878 0.762 31.254
2415.6 0.257 44.09 0.913 -76.341 0.076 36.119
          0.912 -76.429 0.155 104.509 0.03 71.289
          0.076 34.976 0.03 70.122 0.764 29.421
2440.45 0.263 42.298 0.908 -77.22 0.077 36.932
          0.907 -76.871 0.161 102.074 0.031 73.154
          0.077 35.522 0.031 71.311 0.766 27.581
2465.3 0.269 40.62 0.899 -77.391 0.082 37.662
          0.913 -77.103 0.167 99.43 0.034 74.67
          0.079 36.126 0.032 72.916 0.767 25.782
2490.15 0.277 39.2 0.907 -77.758 0.086 34.613
          0.93 -78.129 0.174 96.968 0.037 72.496
          0.082 36.099 0.035 74.569 0.769 24.089
2515 0.287 36.983 0.92 -79.171 0.084 31.2
          0.935 -80.307 0.181 93.918 0.037 69.739
          0.084 35.001 0.037 74.899 0.771 22.436
2539.85 0.294 34.356 0.919 -81.389 0.078 31.596
          0.916 -82.72 0.186 90.802 0.036 70.494
          0.084 33.652 0.039 73.786 0.772 20.739
2564.7 0.294 32.886 0.889 -83.067 0.076 38.373
          0.878 -83.471 0.187 89.044 0.036 77.615
          0.082 33.871 0.04 72.631 0.775 18.953
2589.55 0.304 31.585 0.863 -82.063 0.087 42.67
          0.869 -81.584 0.198 87.806 0.043 82.04
          0.082 36.485 0.04 74.645 0.774 17.376
2614.4 0.309 30.382 0.884 -81.344 0.098 36.982
          0.904 -81.419 0.203 85.553 0.049 76.668
          0.087 37.585 0.043 77.336 0.778 15.839
2639.25 0.322 28.572 0.912 -82.849 0.095 30.254
          0.929 -83.884 0.213 83.246 0.049 70.153
          0.092 36.07 0.047 77.457 0.778 14.295
2664.1 0.331 25.989 0.915 -85.562 0.086 29.315
          0.917 -87.031 0.219 80.502 0.046 69.172
          0.093 33.895 0.05 75.51 0.779 12.754
2688.95 0.329 23.551 0.885 -87.629 0.082 35.376
          0.875 -88.584 0.219 78.017 0.044 75.094
          0.09 33.264 0.05 73.501 0.781 11.223
2713.8 0.335 23.041 0.853 -87.297 0.09 41.004
          0.85 -87.25 0.227 78.218 0.05 80.857
          0.09 35.246 0.05 73.992 0.784 9.68
2738.65 0.342 21.517 0.863 -86.572 0.1 37.82
          0.87 -86.837 0.237 75.804 0.057 77.82
          0.094 36.345 0.053 75.961 0.785 8.054
2763.5 0.35 19.961 0.877 -87.412 0.101 33.966
          0.883 -88.299 0.244 73.794 0.059 73.958
          0.097 35.57 0.056 75.983 0.785 6.599
2788.35 0.357 18.271 0.88 -88.816 0.099 32.548
          0.88 -90.039 0.251 71.859 0.059 72.288
          0.099 34.662 0.059 75.041 0.786 5.109
2813.2 0.363 16.626 0.876 -90.13 0.099 32.783
          0.87 -91.224 0.258 69.988 0.06 72.183
          0.1 34.35 0.061 74.217 0.788 3.612
2838.05 0.368 15.123 0.873 -91.201 0.099 32.778
          0.866 -91.841 0.264 68.212 0.061 71.928
          0.101 34.492 0.063 74.051 0.788 2.196
2862.9 0.374 13.348 0.869 -92.869 0.097 33.507
          0.863 -93.187 0.27 66.353 0.061 72.404
          0.103 33.884 0.066 73.332 0.79 0.742
2887.75 0.378 12.051 0.846 -93.588 0.1 36.958
          0.844 -93.856 0.276 65.455 0.064 75.555
          0.103 33.865 0.067 72.286 0.79 -0.638
2912.6 0.384 10.831 0.839 -93.023 0.11 37.24
          0.84 -93.498 0.285 64.145 0.071 75.737
          0.105 34.906 0.068 72.789 0.791 -2.068
2937.45 0.392 9.668 0.856 -93.077 0.117 33.178
          0.855 -93.781 0.294 62.584 0.077 71.565
          0.109 35.286 0.071 73.643 0.792 -3.511
2962.3 0.4 8.054 0.876 -94.906 0.114 28.332
          0.872 -95.664 0.302 60.615 0.076 66.432
          0.114 34.119 0.076 73.283 0.793 -4.942
2987.15 0.407 5.551 0.868 -98.267 0.101 29.061
          0.862 -98.806 0.309 58.168 0.069 66.691
          0.115 31.865 0.08 70.71 0.795 -6.346
3012 0.404 4.71 0.826 -99.311 0.104 36.623
          0.82 -99.495 0.31 57.707 0.072 73.999
          0.112 31.924 0.079 68.686 0.794 -7.642
3036.85 0.413 3.893 0.813 -97.749 0.118 37.992
          0.813 -98.133 0.323 56.826 0.083 75.124
          0.113 33.76 0.08 69.909 0.795 -9.033
3061.7 0.421 2.753 0.833 -97.46 0.127 33.268
          0.836 -98.299 0.333 55.32 0.09 70.175
          0.119 34.106 0.084 70.98 0.794 -10.412
3086.55 0.428 0.999 0.854 -99.364 0.125 28.428
          0.851 -100.412 0.341 53.33 0.09 64.998
          0.124 32.616 0.089 70.108 0.794 -11.803
3111.4 0.435 -0.977 0.849 -102.382 0.116 28.402
          0.836 -103.123 0.348 51.467 0.084 64.476
          0.125 30.568 0.093 67.5 0.796 -13.191
3136.25 0.433 -1.951 0.814 -103.591 0.116 33.766
          0.802 -103.709 0.351 50.633 0.085 69.302
          0.123 30.516 0.092 65.779 0.795 -14.464
3161.1 0.441 -2.989 0.807 -102.813 0.128 33.989
          0.805 -102.823 0.363 49.352 0.095 69.269
          0.126 31.994 0.094 67.017 0.794 -15.904
3185.95 0.449 -4.446 0.819 -103.447 0.132 30.956
          0.819 -104.07 0.372 47.721 0.099 65.887
          0.132 31.312 0.099 66.595 0.794 -17.21
3210.8 0.455 -6.123 0.82 -105.098 0.131 29.515
          0.814 -106.224 0.379 46.081 0.099 64.03
          0.134 29.692 0.103 64.69 0.794 -18.565
3235.65 0.458 -7.567 0.81 -106.559 0.131 30.068
          0.793 -107.578 0.386 44.757 0.1 64.228
          0.134 28.844 0.104 62.897 0.794 -19.916
3260.5 0.463 -8.632 0.799 -107.019 0.135 30.72
          0.775 -107.221 0.395 43.679 0.104 64.648
          0.134 29.69 0.104 62.706 0.794 -21.191
3285.35 0.471 -10.084 0.805 -107.779 0.14 28.711
