!Hittite Microwave Corporation								
!12 Elizabeth Drive								
!Chelmsford, MA 01824								
!Tel: 978-250-3343								
!Fax: 978-250-3373
!Device: HMC154S8, DC - 2.5 GHz GaAs MMIC Low Distortion T/R Switch in 8-lead SOIC package
!Misc: Port1=RFC, Port2= RF1, Port3=RF2, RF2 ON, Bias: +5VDC								
!
# MHZ S MA R 50

20 0.1 75.153 8.417e-3 120.955 0.967 -7.197
          0.011 -39.361 0.946 -6.804 0.011 60.721
          0.986 -7.109 0.013 94.181 0.103 82.583
36.4 0.016 -22.173 9.996e-3 96.219 0.972 -1.515
          6.578e-3 34.083 0.952 -11.102 8.89e-3 73.083
          0.975 -1.189 0.01 78.753 6.689e-3 -29.151
52.8 0.014 18.87 0.012 78.178 0.979 -2.676
          4.426e-3 86.977 0.957 -15.462 8.927e-3 72.175
          0.969 -2.222 8.655e-3 65.619 9.023e-3 44.851
69.2 0.017 21.834 0.011 65.75 0.978 -3.577
          0.01 77.75 0.954 -20.141 0.01 68.759
          0.969 -3.47 0.012 71.981 0.012 39.379
85.6 0.017 21.256 0.013 72.02 0.971 -4.444
          0.014 72.621 0.95 -24.568 0.013 74.479
          0.973 -4.158 0.016 73.667 0.015 31.578
102 0.018 25.812 0.016 70.281 0.97 -5.065
          0.016 65.248 0.948 -29.215 0.015 70.239
          0.971 -4.837 0.016 67.469 0.016 38.162
118.4 0.018 27.075 0.018 69.216 0.972 -5.736
          0.017 66.536 0.945 -33.813 0.018 65.077
          0.97 -5.566 0.017 64.742 0.016 41.557
134.8 0.018 27.123 0.02 68.656 0.973 -6.46
          0.019 70.93 0.942 -38.314 0.02 62.32
          0.97 -6.387 0.02 64.941 0.017 42.503
151.2 0.019 31.237 0.022 64.716 0.973 -7.11
          0.022 67.192 0.94 -42.803 0.022 60.134
          0.967 -7.253 0.023 61.092 0.019 46.801
167.6 0.022 34.811 0.026 59.961 0.971 -7.954
          0.025 61.934 0.935 -47.27 0.026 52.639
          0.97 -7.899 0.025 53.643 0.021 48.699
184 0.021 30.689 0.027 59.27 0.972 -8.66
          0.026 59.862 0.933 -51.962 0.026 52.847
          0.969 -8.743 0.026 52.145 0.019 45.818
200.4 0.022 31.94 0.029 58.588 0.972 -9.419
          0.028 58.307 0.929 -56.196 0.028 52.139
          0.971 -9.383 0.028 49.501 0.02 45.775
216.8 0.023 34.215 0.031 56.525 0.971 -10.159
          0.03 56.985 0.923 -60.42 0.029 50.151
          0.972 -10.075 0.029 47.896 0.021 49.164
233.2 0.023 34.753 0.032 54.345 0.971 -10.894
          0.032 55.257 0.917 -64.728 0.031 47.82
          0.971 -10.869 0.031 47.389 0.021 52.325
249.6 0.023 34.225 0.033 54.578 0.971 -11.715
          0.034 52.377 0.913 -68.814 0.033 46.013
          0.969 -11.577 0.033 45.466 0.02 51.184
266 0.024 34.58 0.036 52.479 0.975 -12.432
          0.035 51.058 0.918 -72.78 0.036 41.502
          0.972 -12.203 0.035 41.977 0.022 51.008
282.4 0.025 36.073 0.037 50.883 0.97 -13.237
          0.037 50.624 0.905 -76.78 0.036 40.141
          0.97 -13.048 0.036 40.711 0.023 50.141
298.8 0.025 36.88 0.038 49.126 0.968 -13.891
          0.039 48.84 0.896 -80.715 0.037 38.275
          0.97 -13.869 0.037 37.826 0.024 49.049
315.2 0.026 36.63 0.04 47.171 0.968 -14.523
          0.04 46.975 0.891 -84.592 0.038 35.994
          0.969 -14.615 0.038 35.052 0.024 49.551
331.6 0.027 36.338 0.042 45.355 0.966 -15.24
          0.041 45.727 0.886 -88.37 0.04 34.013
          0.967 -15.297 0.04 33.504 0.024 51.167
348 0.027 37.791 0.043 44.231 0.966 -15.99
          0.043 43.923 0.879 -91.935 0.041 32.633
          0.965 -15.963 0.041 31.674 0.025 49.897
364.4 0.027 36.021 0.044 42.32 0.968 -16.765
          0.044 42.71 0.88 -95.596 0.042 29.555
          0.966 -16.812 0.042 29.727 0.025 50.38
380.8 0.027 36.924 0.046 41.214 0.968 -17.429
          0.045 41.049 0.872 -99.074 0.043 27.424
          0.966 -17.407 0.043 27.27 0.026 49.571
397.2 0.028 37.124 0.047 39.65 0.967 -18.128
          0.046 39.421 0.867 -102.567 0.044 25.868
          0.966 -18.028 0.044 25.298 0.026 49.593
413.6 0.029 36.585 0.047 37.975 0.966 -18.821
          0.047 37.865 0.863 -106.057 0.044 24.206
          0.965 -18.754 0.044 23.514 0.026 49.535
430 0.029 35.959 0.049 36.67 0.966 -19.486
          0.049 36.443 0.859 -109.473 0.045 21.988
          0.963 -19.588 0.045 21.416 0.027 48.696
446.4 0.029 34.952 0.049 35.1 0.967 -20.31
          0.049 35.659 0.857 -112.809 0.046 19.54
          0.963 -20.527 0.046 19.195 0.027 48.899
462.8 0.03 34.761 0.05 34.26 0.967 -21.101
          0.05 34.546 0.85 -115.878 0.046 17.878
          0.963 -21.046 0.046 17.202 0.027 47.762
479.2 0.03 35.374 0.051 33.15 0.966 -21.864
          0.051 32.893 0.847 -119.054 0.047 16.197
          0.964 -21.788 0.047 15.976 0.028 47.107
495.6 0.031 35.158 0.052 31.651 0.966 -22.639
          0.052 31.382 0.843 -122.14 0.047 14.499
          0.964 -22.515 0.047 14.432 0.028 46.896
512 0.031 33.995 0.052 30.121 0.966 -23.369
          0.052 30.206 0.838 -125.075 0.048 12.76
          0.965 -23.229 0.048 12.443 0.028 46.158
528.4 0.032 32.608 0.053 28.992 0.965 -24.006
          0.052 29.191 0.836 -127.922 0.048 10.903
          0.966 -24.013 0.049 10.458 0.028 44.231
544.8 0.032 32.114 0.053 27.964 0.963 -24.744
          0.053 28.037 0.832 -130.839 0.049 8.755
          0.963 -24.586 0.049 8.69 0.028 43.843
561.2 0.031 32.351 0.053 26.882 0.964 -25.526
          0.053 27.376 0.831 -133.67 0.049 7.356
          0.964 -25.317 0.049 7.282 0.028 43.145
577.6 0.032 32.08 0.054 26.072 0.964 -26.164
          0.054 26.034 0.825 -136.372 0.049 5.229
          0.964 -26.092 0.049 5.49 0.028 42.818
594 0.032 31.999 0.054 24.96 0.966 -26.863
          0.054 24.687 0.821 -139.038 0.049 3.393
          0.965 -26.855 0.05 3.883 0.029 42.504
610.4 0.032 31.833 0.055 23.655 0.967 -27.641
          0.054 23.568 0.82 -141.711 0.05 2.097
          0.964 -27.64 0.05 2.444 0.028 41.806
626.8 0.032 30.777 0.055 22.828 0.962 -28.342
          0.055 22.435 0.818 -144.352 0.05 0.659
          0.964 -28.499 0.05 0.624 0.028 40.816
643.2 0.031 30.079 0.055 21.951 0.962 -29.081
          0.055 22.14 0.813 -146.706 0.05 -1.294
          0.963 -28.973 0.05 -1.132 0.029 39.884
659.6 0.031 29.817 0.055 20.961 0.962 -29.922
          0.055 21.312 0.813 -149.188 0.05 -2.68
          0.964 -29.731 0.05 -2.558 0.028 38.883
676 0.03 29.25 0.055 19.977 0.961 -30.604
          0.056 20.445 0.811 -151.531 0.05 -4.214
          0.962 -30.472 0.05 -3.98 0.028 38.984
692.4 0.03 28.738 0.056 19.271 0.959 -31.272
          0.056 19.478 0.809 -153.805 0.05 -5.7
          0.96 -31.217 0.049 -5.512 0.028 39.783
708.8 0.029 28.145 0.056 18.705 0.958 -31.989
          0.056 18.442 0.808 -156.131 0.049 -7.041
          0.961 -31.996 0.049 -7.097 0.027 40.418
725.2 0.028 26.5 0.056 17.617 0.958 -32.602
          0.056 17.641 0.804 -158.574 0.049 -8.524
          0.961 -32.754 0.049 -8.526 0.027 40.037
741.6 0.028 25.571 0.056 16.873 0.959 -33.463
          0.056 16.887 0.802 -160.833 0.049 -10.049
          0.96 -33.655 0.049 -10.306 0.027 39.273
758 0.027 23.775 0.056 16.16 0.96 -34.251
          0.056 16.06 0.801 -163.065 0.049 -11.579
          0.96 -34.417 0.049 -11.663 0.026 38.985
774.4 0.027 21.905 0.056 15.46 0.959 -35.06
          0.056 15.415 0.801 -165.179 0.049 -12.911
          0.959 -35.063 0.049 -12.85 0.025 38.03
790.8 0.026 20.042 0.056 14.742 0.959 -35.835
          0.056 14.912 0.799 -167.229 0.049 -14.083
          0.957 -35.645 0.049 -14.071 0.024 37.348
807.2 0.026 18.163 0.056 14.072 0.959 -36.507
          0.056 14.415 0.795 -169.302 0.048 -15.24
          0.958 -36.23 0.048 -15.413 0.023 37.575
823.6 0.025 15.985 0.057 13.742 0.958 -37.109
          0.056 13.826 0.795 -171.431 0.048 -16.552
          0.958 -36.898 0.048 -16.744 0.023 36.733
840 0.025 11.691 0.056 13.133 0.957 -37.737
          0.056 13.004 0.795 -173.496 0.047 -17.993
          0.956 -37.925 0.047 -18.181 0.021 39.006
856.4 0.024 7.834 0.056 12.462 0.958 -38.494
          0.056 12.478 0.793 -175.385 0.047 -19.035
          0.958 -38.595 0.047 -19.279 0.02 37.809
872.8 0.024 4.351 0.056 11.985 0.958 -39.33
          0.056 12.088 0.792 -177.263 0.047 -20.129
          0.96 -39.214 0.047 -20.262 0.019 37.433
889.2 0.023 0.934 0.056 11.583 0.957 -40.112
          0.056 11.668 0.79 -179.124 0.046 -21.426
          0.96 -39.963 0.046 -21.496 0.018 38.823
905.6 0.022 -2.732 0.056 11.014 0.958 -40.757
          0.056 11.145 0.789 179.083 0.046 -22.819
          0.956 -40.825 0.046 -23.092 0.017 40.374
922 0.022 -6.345 0.056 10.446 0.958 -41.552
          0.056 10.739 0.792 177.197 0.046 -23.99
          0.959 -41.398 0.046 -23.948 0.016 41.501
938.4 0.022 -9.522 0.056 10.185 0.956 -42.234
          0.056 10.095 0.788 175.572 0.045 -25.579
          0.958 -42.079 0.045 -25.21 0.015 41.225
954.8 0.021 -14.4 0.056 9.786 0.954 -42.9
          0.056 9.677 0.788 173.794 0.045 -26.616
          0.956 -43.06 0.045 -26.501 0.014 40.458
971.2 0.021 -19.151 0.056 9.413 0.955 -43.59
          0.056 9.422 0.787 172.071 0.044 -27.583
          0.956 -43.813 0.044 -27.706 0.012 41.064
987.6 0.021 -23.467 0.056 9.129 0.956 -44.325
          0.056 9.107 0.785 170.468 0.044 -28.728
          0.957 -44.378 0.044 -28.899 0.011 42.753
1004 0.02 -28.639 0.055 8.842 0.957 -45.104
          0.056 8.542 0.784 168.879 0.044 -29.89
          0.954 -45.232 0.043 -30.199 9.585e-3 43.371
1020.4 0.02 -32.739 0.055 8.46 0.953 -45.845
          0.056 8.407 0.785 167.326 0.043 -30.548
          0.95 -45.734 0.043 -30.876 8.634e-3 49.925
1036.8 0.02 -37.751 0.055 8.029 0.955 -46.608
          0.055 8.192 0.782 165.793 0.042 -31.992
          0.953 -46.715 0.042 -31.824 7.012e-3 49.194
1053.2 0.02 -43.788 0.056 7.595 0.958 -47.485
          0.055 8.167 0.784 164.26 0.042 -33.049
          0.954 -47.415 0.042 -32.929 5.195e-3 55.726
1069.6 0.02 -49.509 0.055 7.465 0.957 -48.283
          0.055 7.883 0.784 162.681 0.041 -33.987
          0.954 -48.144 0.041 -34.122 3.776e-3 72.76
1086 0.02 -54.989 0.055 7.489 0.953 -48.984
          0.055 7.355 0.782 161.097 0.041 -35.067
          0.954 -48.986 0.041 -35.243 3.049e-3 98.084
1102.4 0.021 -60.511 0.055 6.915 0.953 -49.876
          0.055 7.363 0.781 159.646 0.04 -36.127
          0.955 -49.463 0.04 -36.051 3.091e-3 128.92
1118.8 0.022 -66.979 0.055 6.944 0.953 -50.546
          0.055 6.993 0.782 158.194 0.04 -37.394
          0.953 -50.323 0.04 -37.148 3.98e-3 151.891
1135.2 0.022 -72.327 0.055 6.712 0.952 -51.33
          0.055 6.775 0.78 156.762 0.039 -38.486
          0.951 -51.154 0.039 -38.305 4.937e-3 165.319
1151.6 0.023 -76.805 0.054 6.488 0.95 -52.111
          0.054 6.755 0.778 155.342 0.038 -39.66
          0.949 -51.834 0.038 -39.529 6.88e-3 173.325
1168 0.025 -80.637 0.054 6.369 0.949 -52.816
          0.054 6.775 0.778 153.989 0.038 -40.529
          0.95 -52.557 0.037 -40.446 9.026e-3 177.967
1184.4 0.026 -84.37 0.054 6.355 0.952 -53.49
          0.054 6.717 0.779 152.709 0.037 -40.992
          0.951 -53.435 0.037 -40.963 0.011 -177.577
1200.8 0.028 -88.954 0.054 6.375 0.954 -54.379
          0.054 6.726 0.78 151.362 0.036 -42.054
          0.95 -54.142 0.036 -41.875 0.014 -173.598
1217.2 0.03 -92.794 0.054 6.494 0.951 -54.958
          0.054 6.357 0.778 149.998 0.036 -42.56
          0.954 -54.962 0.035 -42.769 0.016 -170.589
1233.6 0.031 -96.419 0.054 6.579 0.948 -55.628
          0.054 6.404 0.777 148.622 0.035 -43.353
          0.952 -55.675 0.035 -43.525 0.018 -170.071
1250 0.033 -99.746 0.054 6.434 0.948 -56.382
          0.053 6.403 0.776 147.278 0.034 -44.478
          0.95 -56.338 0.034 -44.419 0.02 -170.019
1266.4 0.035 -102.659 0.054 6.289 0.95 -57.209
          0.054 6.399 0.776 146.059 0.034 -45.563
          0.949 -57.011 0.034 -45.127 0.023 -169.27
1282.8 0.036 -105.356 0.053 6.489 0.947 -58.054
          0.054 6.585 0.776 144.985 0.033 -46.229
          0.947 -57.746 0.033 -45.439 0.026 -168.19
1299.2 0.039 -108.411 0.053 6.919 0.948 -58.68
          0.054 6.502 0.776 143.741 0.032 -46.884
          0.947 -58.595 0.032 -46.895 0.028 -168.166
1315.6 0.041 -110.74 0.053 7.137 0.947 -59.33
          0.053 6.773 0.776 142.619 0.032 -47.936
          0.947 -59.422 0.032 -48.022 0.031 -167.871
1332 0.043 -113.174 0.053 7.208 0.947 -59.985
          0.053 7.025 0.775 141.483 0.031 -48.598
          0.946 -60.102 0.031 -48.78 0.034 -168.008
1348.4 0.045 -115.954 0.053 7.166 0.946 -60.775
          0.053 7.223 0.774 140.418 0.03 -49.088
          0.943 -60.803 0.03 -49.748 0.036 -168.238
1364.8 0.048 -118.785 0.053 7.17 0.946 -61.651
          0.053 7.38 0.774 139.375 0.03 -49.853
          0.942 -61.556 0.029 -50.637 0.039 -168.428
1381.2 0.051 -121.224 0.053 7.441 0.943 -62.43
          0.053 7.545 0.775 138.223 0.029 -51.194
          0.942 -62.261 0.029 -50.736 0.042 -168.088
1397.6 0.053 -122.88 0.053 7.937 0.94 -63.137
          0.054 7.934 0.776 137.149 0.028 -51.754
          0.944 -62.985 0.028 -52.302 0.045 -168.317
1414 0.056 -125.197 0.053 8.17 0.942 -63.822
          0.053 8.282 0.776 136.098 0.027 -52.85
          0.945 -63.657 0.027 -52.628 0.047 -168.377
1430.4 0.058 -127.461 0.053 8.408 0.943 -64.529
          0.053 8.3 0.774 135.012 0.026 -53.592
          0.942 -64.442 0.027 -53.506 0.05 -168.751
1446.8 0.061 -129.537 0.054 8.682 0.943 -65.285
          0.053 8.599 0.774 133.987 0.026 -54.195
          0.94 -65.143 0.026 -54.347 0.052 -168.995
1463.2 0.064 -131.363 0.054 8.972 0.943 -66.075
          0.053 9.207 0.775 133.058 0.025 -54.917
          0.941 -65.759 0.025 -54.843 0.055 -169.047
1479.6 0.068 -133.286 0.054 9.269 0.943 -66.824
          0.054 9.194 0.775 132.133 0.024 -55.769
          0.943 -66.61 0.024 -55.644 0.058 -169.89
1496 0.07 -134.981 0.054 9.676 0.942 -67.383
          0.054 9.612 0.776 131.102 0.023 -57.059
          0.942 -67.326 0.023 -56.037 0.06 -170.218
1512.4 0.074 -136.878 0.054 9.79 0.94 -68.212
          0.054 9.776 0.776 130.092 0.022 -57.08
          0.942 -68.264 0.022 -57.176 0.063 -170.626
1528.8 0.077 -138.392 0.054 10.198 0.942 -68.848
          0.054 10.211 0.776 129.032 0.021 -56.83
          0.942 -69.02 0.021 -57.335 0.066 -171.215
1545.2 0.079 -139.832 0.055 10.585 0.943 -69.47
          0.055 10.735 0.777 128.03 0.021 -56.679
          0.94 -69.663 0.021 -57.509 0.069 -171.667
1561.6 0.082 -141.427 0.055 10.736 0.94 -70.292
          0.055 11.08 0.778 127.129 0.02 -56.794
          0.939 -70.38 0.02 -58.462 0.072 -171.843
1578 0.085 -142.608 0.055 11.323 0.94 -71.107
          0.055 11.352 0.777 126.099 0.019 -57.334
          0.942 -71.237 0.019 -58.395 0.075 -172.282
1594.4 0.088 -143.985 0.055 11.726 0.941 -71.833
          0.056 11.629 0.777 125.07 0.018 -58.193
          0.94 -71.93 0.018 -57.278 0.078 -172.843
1610.8 0.091 -145.202 0.056 11.877 0.941 -72.761
          0.056 12.039 0.777 124.254 0.017 -57.858
          0.94 -72.62 0.017 -57.598 0.081 -173.378
1627.2 0.094 -146.493 0.056 12.187 0.941 -73.59
          0.056 12.493 0.779 123.28 0.016 -57.866
          0.94 -73.395 0.016 -57.799 0.085 -174.064
1643.6 0.098 -147.924 0.057 12.574 0.94 -74.3
          0.057 12.922 0.78 122.157 0.016 -57.902
          0.939 -74.173 0.015 -57.635 0.088 -174.661
1660 0.101 -149.416 0.057 12.804 0.939 -75.028
          0.057 13.257 0.779 121.09 0.015 -57.334
          0.937 -74.875 0.014 -57.666 0.091 -174.89
1676.4 0.104 -150.652 0.058 13.144 0.941 -75.822
          0.058 13.371 0.779 120.145 0.014 -58.278
          0.941 -75.784 0.014 -58.431 0.095 -175.861
1692.8 0.107 -151.944 0.058 13.279 0.94 -76.765
          0.058 13.853 0.781 119.216 0.013 -57.652
          0.936 -76.473 0.013 -57.77 0.098 -176.292
1709.2 0.109 -152.981 0.059 13.745 0.939 -77.419
          0.058 14.05 0.781 118.41 0.012 -55.855
          0.936 -77.229 0.012 -57.363 0.101 -176.528
1725.6 0.113 -154.152 0.059 14.142 0.94 -78.079
          0.059 14.168 0.781 117.533 0.011 -54.839
          0.938 -78.124 0.011 -56.244 0.104 -176.737
1742 0.117 -155.485 0.06 14.407 0.942 -78.861
          0.06 14.29 0.782 116.532 0.01 -54.331
          0.939 -79.026 0.01 -54.148 0.107 -177.187
1758.4 0.119 -156.7 0.06 14.776 0.94 -79.682
          0.06 14.363 0.781 115.505 9.408e-3 -52.636
          0.937 -79.727 9.523e-3 -51.817 0.11 -178.07
1774.8 0.122 -157.972 0.061 14.972 0.938 -80.649
          0.061 14.603 0.781 114.568 8.745e-3 -51.476
          0.935 -80.537 8.628e-3 -51.837 0.114 -178.65
1791.2 0.126 -159.378 0.062 15.211 0.936 -81.368
          0.062 15.195 0.783 113.642 7.816e-3 -49.021
          0.936 -81.362 7.751e-3 -50.688 0.117 -178.697
1807.6 0.128 -160.597 0.062 15.483 0.934 -82.151
          0.062 15.528 0.783 112.851 7.027e-3 -46.267
          0.936 -82.196 6.792e-3 -44.791 0.12 -179.226
1824 0.131 -161.685 0.063 15.778 0.933 -82.928
          0.063 15.781 0.782 111.955 6.256e-3 -41.173
          0.933 -82.883 5.954e-3 -36.908 0.122 -179.854
1840.4 0.135 -162.797 0.063 16.09 0.933 -83.696
          0.063 16.094 0.782 110.933 5.429e-3 -33.453
          0.931 -83.5 5.343e-3 -28.43 0.125 179.684
1856.8 0.138 -164.055 0.065 16.417 0.933 -84.604
          0.065 16.332 0.783 110.115 4.727e-3 -24.2
          0.933 -84.435 4.78e-3 -19.271 0.128 179.11
1873.2 0.141 -165.153 0.065 16.527 0.933 -85.203
          0.065 16.675 0.785 109.311 4.411e-3 -7.402
          0.932 -85.29 4.511e-3 -9.824 0.132 178.707
1889.6 0.144 -166.45 0.066 16.814 0.932 -85.889
          0.066 16.936 0.784 108.383 4.523e-3 2.727
          0.931 -86.074 4.651e-3 0.935 0.135 178.265
1906 0.147 -167.622 0.067 17.073 0.931 -86.747
          0.067 17.074 0.782 107.389 4.786e-3 15.962
          0.93 -86.854 4.623e-3 13.643 0.138 177.723
1922.4 0.15 -168.714 0.068 17.21 0.931 -87.605
          0.068 17.295 0.782 106.453 5.094e-3 27.845
          0.93 -87.598 4.827e-3 26.611 0.141 177.109
1938.8 0.154 -169.856 0.068 17.232 0.93 -88.364
          0.069 17.594 0.782 105.592 5.554e-3 34.161
          0.932 -88.335 5.572e-3 35.979 0.144 176.482
1955.2 0.157 -171.069 0.07 17.303 0.931 -89.255
          0.07 17.454 0.783 104.56 6.501e-3 46.333
          0.929 -89.284 6.041e-3 45.481 0.147 175.941
1971.6 0.16 -172.132 0.071 17.518 0.931 -90.043
          0.071 17.792 0.783 103.8 7.323e-3 49.161
          0.928 -89.852 7.333e-3 51.936 0.151 175.716
1988 0.163 -173.269 0.072 17.647 0.933 -90.758
          0.072 17.787 0.783 102.94 8.392e-3 53.861
          0.926 -90.814 8.364e-3 54.597 0.154 175.005
2004.4 0.166 -174.574 0.073 17.687 0.93 -91.618
          0.073 17.811 0.783 102.031 9.447e-3 58.759
          0.927 -91.627 9.381e-3 56.795 0.157 174.463
2020.8 0.169 -175.892 0.074 17.69 0.926 -92.495
          0.074 17.831 0.782 101.104 0.011 62.322
          0.927 -92.344 0.01 59.598 0.16 173.982
2037.2 0.172 -176.992 0.076 17.732 0.926 -93.184
          0.075 17.623 0.779 100.162 0.012 63.611
          0.924 -93.264 0.012 62.515 0.163 173.214
2053.6 0.175 -178.01 0.077 17.851 0.923 -93.945
          0.076 17.161 0.78 99.122 0.013 63.816
          0.923 -94.298 0.013 63.224 0.166 172.635
2070 0.177 -179.306 0.078 17.949 0.925 -94.735
          0.077 17.723 0.78 98.329 0.014 64.257
          0.921 -94.965 0.014 63.143 0.169 172.196
2086.4 0.18 179.534 0.079 17.735 0.924 -95.571
          0.079 17.79 0.779 97.424 0.015 64.808
          0.923 -95.605 0.015 63.808 0.172 171.881
2102.8 0.183 178.329 0.08 17.463 0.92 -96.381
          0.08 17.592 0.781 96.584 0.017 65.277
          0.924 -96.478 0.017 64.913 0.176 171.409
2119.2 0.185 176.984 0.081 17.351 0.916 -97.211
          0.082 17.417 0.783 95.781 0.018 65.324
          0.921 -97.468 0.018 65.332 0.179 170.825
2135.6 0.187 175.542 0.083 17.441 0.915 -98.166
          0.083 17.436 0.781 94.83 0.02 64.754
          0.92 -98.225 0.02 64.203 0.181 170.41
2152 0.191 174.204 0.085 17.207 0.918 -99.06
          0.085 17.634 0.78 93.984 0.021 64.635
