!Hittite Microwave Corporation								
!12 Elizabeth Drive								
!Chelmsford, MA 01824								
!Tel: 978-250-3343								
!Fax: 978-250-3373								
!Device: HMC253QS24, DC-2.5 GHz GaAS MMIC SP8T Non-Reflective Switch in 24-lead QSOP package								
!Misc: Port 1 = RFCom, Port 2 = RF1, Port 3 = RF2, Port 4 = RF3, Port 5 = RF4, Port 6 = RF5, Port 7 = RF6, Port 8 = RF7, Port 9 = RF8, RF4 selected, Vdd=+5V							
!
# MHZ S MA R 50

30	0.674	40.602	0.003758	-1.273	0.003072	125.902	0.004661	63.539
	0.663	-44.048	0.001542	-158.877	0.001083	60.408	0.00018	155.706
	0.0004206	156.185	0.002653	27.262	0.729	-49.654	0.0006728	118.25
	0.002627	28.063	0.002615	51.608	0.002391	-115.215	0.002203	-97.251
	0.004227	-8.654	0.004156	62.049	0.001303	80.239	0.003667	50.903
	0.725	-50.686	0.00519	-4.092	0.003067	14.154	0.003005	-134.552
	0.0008764	39.282	0.0004396	-8.933	0.001228	-38.096	0.001557	-177.622
	0.002382	113.564	0.001396	-60.557	0.715	-50.128	0.001516	5.21
	0.0004235	-91.324	0.000371	77.01	0.0009252	-51.582	0.000004352	-27.474
	0.658	-43.639	0.001194	77.073	0.005721	92.21	0.005682	57.722
	0.673	41.308	0.0003587	17.614	0.0002705	-126.657	0.0006139	-26.95
	0.0016	-154.776	0.001002	-110.603	0.002863	-178.458	0.001539	-128.895
	0.003806	-89.005	0.002551	-93.968	0.693	-50.329	0.00299	4.326
	0.001963	93.862	0.0002058	160.011	0.002123	55.353	0.0003413	152.939
	0.001084	-134.458	0.005235	173.812	0.002047	-177.584	0.0003509	-141.753
	0.718	-50.341	0.001902	45.95	0.002664	-169.442	0.0042	39.664
	0.002795	143.918	0.001949	-132.801	0.001248	34.443	0.00426	73.187
	0.001435	168.609	0.002586	18.671	0.721	-49.84	0.003121	9.286
	0.002276	52.556	0.0008919	121.656	0.0003638	105.928	0.001395	85.818
	0.001015	127.557	0.003427	6.304	0.002054	-21.123	0.001524	55.697
	0.714	-49.72						
49.85	0.476	50.203	0.003715	12.411	0.002312	114.526	0.003948	59.26
	0.791	-30.081	0.001258	-157.002	0.001139	65.953	0.0001438	157.204
	0.0004399	179.656	0.002756	31.228	0.726	-48.488	0.000304	143.13
	0.001766	-74.045	0.002397	55.254	0.001691	-126.266	0.001476	-156.52
	0.002859	-90.868	0.002801	-34.621	0.0005099	72.187	0.002419	35.784
	0.724	-49.457	0.00345	-8.784	0.003187	23.819	0.002025	-108.192
	0.0006412	15.583	0.0002666	-143.252	0.0009133	-158.994	0.001064	178.258
	0.001712	120.6	0.0008088	-56.329	0.716	-49.196	0.001987	34.556
	0.0003434	-54.574	0.0003253	41.316	0.0006798	-37.565	0.00007401	152.294
	0.786	-29.723	0.001038	87.053	0.00527	91.163	0.005322	62.633
	0.474	51.227	0.0005583	65.267	0.0003109	-56.984	0.0005821	-3.896
	0.001389	-162.28	0.0006744	-132.832	0.001956	101.715	0.001154	-87.194
	0.002604	66.206	0.001865	-87.947	0.7	-49.579	0.002333	20.385
	0.001446	147.849	0.0001281	-147.072	0.001795	89.513	0.000175	-46.23
	0.0007137	-112.87	0.003693	-133.368	0.002013	-167.127	0.00000217	23.463
	0.719	-49.346	0.00145	53.743	0.0018	-159.504	0.0032	66.47
	0.00196	143.183	0.001266	-109.812	0.0008258	80.749	0.003269	121.28
	0.001058	-94.165	0.001969	29.466	0.721	-48.945	0.00231	19.628
	0.002134	56.238	0.0006861	-177.317	0.0001664	146.84	0.001003	-122.66
	0.0007674	148.801	0.002299	-54.441	0.001357	72.708	0.001226	62.045
	0.716	-48.587						
69.7	0.357	53.184	0.00367	20.475	0.002176	97.462	0.00371	51.297
	0.841	-22.794	0.0009243	-161.312	0.001128	64.883	0.00009403	119.011
	0.0003498	-156.924	0.002918	33.55	0.696	-50.7	0.0000611	164.556
	0.001288	179.065	0.002373	53.627	0.001335	-143.021	0.001078	138.862
	0.002123	-178.354	0.002066	-136.641	0.0005319	6.919	0.001729	15.35
	0.695	-51.724	0.002489	-19.068	0.003199	29.957	0.001486	-87.428
	0.0005282	-13.589	0.0001648	78.96	0.0007703	74.336	0.000549	147.289
	0.001379	122.295	0.0004536	-57.615	0.689	-51.619	0.002431	47.224
	0.0003152	-23.677	0.0003214	-0.029	0.0005636	-29.145	0.0001358	38.627
	0.836	-22.486	0.001116	77.781	0.004859	86.217	0.005155	64.759
	0.356	54.414	0.0007175	79.51	0.0004212	-18.857	0.0005577	10.653
	0.001243	178.459	0.0005028	-149.894	0.001468	16.524	0.0009763	-51.139
	0.001943	-143.849	0.001289	-86.645	0.676	-52.118	0.002057	30.869
	0.001188	-163.598	0.00007542	-97.992	0.001496	116.829	0.00007171	110.065
	0.0005098	-96.76	0.002899	-85.991	0.001728	-172.624	0.0002616	54.552
	0.691	-51.749	0.001251	56.141	0.001333	-154.99	0.002494	90.768
	0.00153	137.051	0.0008869	-92.219	0.0005819	121.41	0.002615	167.258
	0.000882	-2.706	0.001696	34.874	0.693	-51.374	0.00193	24.465
	0.001972	56.234	0.0005908	-121.246	0.00003748	-176.957	0.0007958	23.624
	0.000738	151.3	0.001678	-120.797	0.0009645	161.06	0.00112	63.052
	0.688	-50.801						
89.55	0.283	53.094	0.003636	26.106	0.002263	81.623	0.003636	42.725
	0.863	-18.61	0.0005842	-168.633	0.00109	60.51	0.0001485	67.578
	0.0001884	-123.493	0.003083	35.199	0.659	-53.85	0.0001489	-2.529
	0.0009048	70.581	0.002423	50.467	0.001068	-161.258	0.0007698	72.72
	0.001557	92.695	0.0015	119.803	0.001019	-4.239	0.001192	-6.559
	0.66	-54.959	0.001743	-30.785	0.003166	34.252	0.00107	-68.242
	0.0004497	-44.371	0.00008094	-61.171	0.0006736	-53.679	0.0005876	70.61
	0.001137	122.505	0.0001622	-60.819	0.654	-54.976	0.002853	54.184
	0.0003007	5.563	0.0003294	-42.988	0.0004805	-22.327	0.0001931	-76.147
	0.859	-18.353	0.001345	66.139	0.004463	79.556	0.005034	65.836
	0.283	54.435	0.0008355	85.191	0.0005358	5.798	0.0005399	21.87
	0.001183	155.022	0.0003257	-162.958	0.001091	-70.322	0.0008536	-16.703
	0.001446	4.548	0.0007681	-87.344	0.644	-55.58	0.001887	39.828
	0.001006	-116.717	0.00003324	-51.24	0.001194	139.629	0.00001388	83.003
	0.0003506	-82.226	0.002307	-40.163	0.001412	173.187	0.0004943	58.694
	0.656	-55.097	0.001121	57.031	0.0009733	-151.974	0.001859	114.374
	0.001212	129.403	0.0005911	-76.135	0.0003892	160.614	0.002086	-146.491
	0.0007548	87.187	0.001516	38.812	0.658	-54.729	0.001665	27.723
	0.001811	54.592	0.000529	-66.76	0.00007339	34.022	0.0006498	168.439
	0.0007534	140.918	0.001196	171.31	0.0006588	-112.118	0.001064	62.568
	0.653	-53.947						
109.4	0.235	51.455	0.003614	30.456	0.002436	67.638	0.003634	34.127
	0.874	-16.037	0.0002468	-179.201	0.001041	54.036	0.0002624	50.846
	0.000161	-19.188	0.003251	36.434	0.62	-57.397	0.0003436	14.97
	0.0005743	-39.092	0.002512	46.734	0.0008419	179.875	0.0004998	5.893
	0.001063	3.092	0.001006	15.642	0.001519	0.217	0.0007187	-29.102
	0.622	-58.602	0.001087	-43.178	0.003113	37.498	0.0007052	-49.664
	0.0003858	-75.83	0.000005992	156.836	0.0005936	177.691	0.001157	39.122
	0.0009332	122.102	0.000102	117.928	0.616	-58.73	0.00326	58.659
	0.0002921	34.194	0.0003427	-86.517	0.0004114	-16.079	0.0002478	168.225
	0.871	-15.829	0.001661	56.507	0.004082	72.022	0.004935	66.358
	0.235	52.837	0.0009299	87.516	0.0006409	24.946	0.000528	31.302
	0.001176	131.742	0.0001299	-174.216	0.0007638	-157.786	0.0007535	17.057
	0.001009	152.158	0.0002788	-88.742	0.608	-59.434	0.001759	48.124
	0.0008542	-70.406	0.000004136	173.315	0.0008512	159.2	0.0000959	-123.973
	0.0002099	-68.372	0.001801	5.053	0.001163	152.631	0.000715	62.221
	0.618	-58.844	0.001018	57.295	0.0006596	-149.591	0.001238	137.337
	0.0009404	121.146	0.0003302	-60.64	0.000218	-161.051	0.00164	-99.17
	0.0006509	176.538	0.001375	42.15	0.621	-58.476	0.001447	30.387
	0.00166	52.083	0.0004811	-12.739	0.0001768	67.167	0.0005224	-47.685
	0.0007751	122.795	0.0007724	102.747	0.0003876	-25.964	0.001028	61.46
	0.616	-57.489						
129.25	0.201	48.991	0.003601	34.051	0.002643	54.958	0.003667	25.628
	0.88	-14.388	0.00009032	9.083	0.0009874	45.939	0.0003889	44.508
	0.0004253	22.355	0.003419	37.375	0.58	-61.152	0.0005303	31.679
	0.0002737	-148.817	0.002621	42.738	0.0006357	160.687	0.0002505	-61.321
	0.0006069	-86.835	0.00055	-88.828	0.001999	7.867	0.00028	-52.067
	0.583	-62.46	0.0004789	-55.954	0.00305	40.096	0.0003678	-31.423
	0.0003293	-107.563	0.00006536	-162.153	0.0005236	48.621	0.001813	25.752
	0.0007492	121.395	0.0003515	113.386	0.577	-62.693	0.003658	61.891
	0.0002864	62.551	0.0003583	-130.254	0.0003501	-10.123	0.000302	52.174
	0.878	-14.231	0.002025	48.731	0.003714	64.008	0.004846	66.571
	0.202	50.373	0.00101	88.204	0.0007315	41.596	0.0005199	39.565
	0.001176	109.951	0.00008101	-5.026	0.0004624	114.47	0.0006654	50.528
	0.0006061	-60.499	0.0001918	89.259	0.571	-63.496	0.001653	56.099
	0.0007182	-24.419	0.0000399	-139.655	0.0004533	176.943	0.0001712	28.039
	0.00007897	-54.965	0.001339	49.999	0.001013	128.847	0.0009287	65.443
	0.579	-62.802	0.0009302	57.24	0.0003698	-147.529	0.0006084	157.576
	0.0006927	112.611	0.00008756	-45.42	0.00005812	-123.218	0.001269	-50.336
	0.0005585	-94.472	0.001254	45.176	0.582	-62.431	0.001256	32.735
	0.001521	48.993	0.0004408	40.975	0.0002761	99.505	0.0004076	96.255
	0.0007967	99.776	0.0003801	33.878	0.0001363	60.154	0.001004	60.039
	0.577	-61.239						
149.1	0.176	46.089	0.003595	37.156	0.002866	43.092	0.003721	17.258
	0.883	-13.315	0.0004196	-9.899	0.0009379	36.465	0.0005194	41.243
	0.0007423	38.756	0.003587	38.143	0.539	-65.038	0.0007119	48.101
	0.00001874	-85.642	0.002742	38.628	0.0004418	141.339	0.00001369	-130.076
	0.0001744	-176.872	0.0001164	166.707	0.002462	16.525	0.0001374	105.653
	0.543	-66.452	0.00009979	112.382	0.002981	42.253	0.0000473	-13.482
	0.0002769	-139.408	0.0001334	57.225	0.0004603	-80.634	0.00249	16.553
	0.0005771	120.524	0.0005919	109.418	0.538	-66.785	0.004047	64.44
	0.0002826	90.726	0.0003748	-174.123	0.0002934	-4.355	0.0003561	-63.971
	0.882	-13.208	0.002414	42.116	0.003357	55.722	0.004764	66.598
	0.179	47.461	0.001078	87.999	0.0008054	57.146	0.0005136	47.088
	0.001151	89.126	0.0003038	-15.417	0.0001761	26.509	0.0005847	83.837
	0.0002238	86.742	0.0006466	86.888	0.534	-67.686	0.001561	63.89
	0.0005921	21.387	0.00007416	-93.742	0.00001391	-115.074	0.0002453	-179.21
	0.00004591	139.1	0.0009061	94.789	0.0009291	105.967	0.001138	68.482
	0.54	-66.891	0.0008511	57.005	0.00009461	-145.65	0.0001022	71.615
	0.0004592	103.928	0.0001437	149.55	0.00009492	95.594	0.000969	0.113
	0.0004729	-5.638	0.001144	48.017	0.543	-66.513	0.001078	34.904
	0.001391	45.382	0.0004051	94.489	0.0003728	131.529	0.0003005	-120.406
	0.0008255	73.496	0.000006513	-35.7	0.0001026	-34.37	0.0009858	58.445
	0.538	-65.118						
168.95	0.158	42.974	0.003594	39.92	0.003095	31.732	0.003788	8.999
	0.885	-12.622	0.0007478	-20.543	0.0008983	25.859	0.0006522	39.087
	0.001067	50.752	0.003754	38.793	0.498	-69.016	0.0008899	64.373
	0.0003024	171.889	0.002871	34.457	0.0002561	121.892	0.0002153	-15.903
	0.0002432	-87.118	0.0003031	-118.251	0.002912	25.595	0.0005404	82.162
	0.503	-70.537	0.0006586	98.604	0.002908	44.073	0.0002619	-175.322
	0.0002271	-171.321	0.0001997	-83.951	0.0004007	150.155	0.003173	8.775
	0.0004129	119.581	0.000826	105.432	0.499	-70.97	0.004427	66.593
	0.0002799	118.762	0.0003915	141.865	0.0002396	1.308	0.0004095	179.929
	0.885	-12.566	0.002819	36.188	0.003007	47.289	0.004687	66.505
	0.162	44.357	0.001137	87.304	0.0008627	72.324	0.000509	54.073
	0.00109	68.181	0.0005359	-25.598	0.00009955	118.609	0.0005091	117.033
	0.0001437	53.726	0.00109	84.37	0.496	-71.967	0.001478	71.57
	0.0004725	67.093	0.0001074	-48.049	0.0004633	24.902	0.0003171	-26.947
	0.0001666	152.114	0.0004916	139.476	0.0008521	86.044	0.001344	71.407
	0.5	-71.074	0.0007778	56.661	0.0001708	36.11	0.0007267	42.814
	0.0002352	95.196	0.0003674	164.465	0.000243	133.279	0.0007273	51.744
	0.0003921	83.113	0.001042	50.743	0.504	-70.686	0.0009112	36.97
	0.001266	41.241	0.0003721	147.78	0.0004671	163.413	0.0001964	23.272
	0.0008677	45.264	0.000354	75.697	0.0003342	51.408	0.0009716	56.749
	0.498	-69.088						
188.8	0.144	39.734	0.003659	40.335	0.003265	23.375	0.003908	0.5
	0.886	-12.168	0.0009137	-23.597	0.000837	18.818	0.0007397	37.366
	0.001224	56.695	0.003844	38.898	0.459	-72.888	0.001029	80.811
	0.0004908	95.877	0.003027	30.808	0.0001606	112.763	0.0002898	-41.853
	0.0004271	177.331	0.0005249	163.22	0.003201	30.779	0.0008722	70.369
	0.464	-74.552	0.001029	86.273	0.002896	45.077	0.00041	179.478
	0.0002578	145.512	0.0002503	153.573	0.0003534	95.188	0.003735	1.675
	0.000291	120.91	0.001006	105.834	0.46	-75.031	0.004822	66.888
	0.000291	149.639	0.0003877	122.348	0.0001941	-38.148	0.0004375	107.097
	0.887	-12.14	0.003012	31.491	0.002849	42.2	0.004732	65.403
	0.15	41.205	0.001187	84.72	0.0008797	79.303	0.0005416	60.958
	0.001054	50.718	0.0007657	-21.749	0.0002864	71.07	0.0003831	134.84
	0.0004277	157.258	0.001325	82.442	0.459	-76.098	0.001422	80.087
	0.0003674	93.56	0.0001707	10.794	0.0008329	34.526	0.0003022	109.609
	0.0002167	137.138	0.0001718	147.658	0.000791	72.235	0.001531	76.314
	0.462	-75.135	0.0008107	59.06	0.0003635	40.183	0.001172	56.338
	0.0001496	108.702	0.0004556	157.147	0.0003338	167.715	0.000609	74.198
	0.0003616	121.608	0.0009966	53.76	0.466	-74.736	0.0008367	48.241
	0.001206	37.229	0.0003292	172.731	0.0004335	156.378	0.0001694	154.817
	0.0008819	28.18	0.0005265	30.78	0.0004223	100.666	0.0009765	58.204
	0.46	-72.972						
208.65	0.134	36.354	0.003839	35.539	0.003272	21.833	0.004037	-7.593
	0.888	-11.842	0.0007476	-17.413	0.0007203	21.146	0.0006951	29.778
	0.001124	47.03	0.003824	37.701	0.425	-76.262	0.001152	93.397
	0.0005077	118.604	0.003094	29.354	0.0002258	122.571	0.0001338	33.581
	0.0001593	100.928	0.0003089	146.555	0.003172	25.333	0.001097	87.518
	0.431	-78.142	0.001024	85.411	0.003005	42.762	0.0002636	132.246
	0.000376	98.244	0.0002649	109.185	0.0002825	-179.59	0.00392	-4.903
	0.0003263	116.796	0.001059	109.493	0.426	-78.56	0.005279	64.244
	0.0003479	159.892	0.0003239	150.048	0.0001676	-171.579	0.0003523	139.082
	0.889	-11.792	0.002839	28.634	0.003095	43.423	0.005066	63.38
	0.14	38.031	0.001313	81.417	0.0008708	68.423	0.0006226	63.39
	0.001062	47.28	0.0009139	-6.064	0.0002848	123.301	0.0002177	122.03
	0.0004763	144.56	0.001188	83.169	0.425	-79.638	0.001481	89.883
	0.0004103	83.424	0.0002503	86.414	0.0008794	26.902	0.000167	159.884
	0.0001369	75.023	0.0001644	97.367	0.0008561	63.906	0.001627	85.173
	0.428	-78.671	0.0009873	71.741	0.0003405	49.407	0.0009972	50.78
	0.0003099	148.178	0.0002695	105.049	0.0002996	179.631	0.0007139	31.58
	0.0004317	62.262	0.0009909	60.061	0.432	-78.263	0.001014	76.255
	0.001306	34.818	0.0003155	136.19	0.0001509	100.687	0.000254	-159.024
	0.000826	42.358	0.0003127	47.607	0.000226	76.816	0.001053	68.099
	0.425	-76.373						
228.5	0.125	32.96	0.003838	33.365	0.003246	20.243	0.004	-12.718
	0.889	-11.659	0.0008324	-35.516	0.0007247	19.228	0.0007071	19.266
	0.001347	33.091	0.003951	35.68	0.394	-79.35	0.001383	95.741
	0.0006085	141.214	0.002886	27.767	0.0002323	128.334	0.0002526	84.644
	0.0002085	134.228	0.0002883	125.737	0.003361	21.611	0.001402	96.563
	0.401	-81.385	0.001262	102.446	0.003067	38.176	0.0004525	134.756
	0.0002165	109.471	0.0002442	149.82	0.0001594	135.456	0.004	-10.038
	0.0004841	101.948	0.001199	95.518	0.397	-81.84	0.005703	65.61
	0.0004843	115.337	0.0002944	130.254	0.0001598	147.409	0.0001962	142.453
	0.889	-11.617	0.003113	25.543	0.003131	39.255	0.005387	64.791
	0.131	34.822	0.001582	85.952	0.0009491	71.216	0.0006692	54.743
	0.0009313	47.494	0.0008937	-38.813	0.0003125	144.188	0.0003265	126.963
	0.0004797	133.976	0.001433	85.682	0.396	-82.941	0.001727	93.877
	0.0006534	97.571	0.000189	102.046	0.0008548	20.751	0.0002928	122.426
	0.0002123	95.047	0.0002993	130.535	0.0009129	53.454	0.001707	90.462
	0.399	-81.942	0.0009207	86.2	0.0002258	54.279	0.0009401	47.051
	0.0002407	120.887	0.0002745	100.582	0.0003314	142.005	0.0007639	36.92
	0.0004484	93.183	0.0008629	74.709	0.403	-81.537	0.001193	78.315
	0.001281	32.947	0.000408	132.094	0.0001414	151.058	0.0001623	126.768
	0.0009181	47.407	0.0003132	60.67	0.0002234	98.86	0.001093	75.853
	0.395	-79.422						
248.35	0.118	29.471	0.003812	33.624	0.003234	19.141	0.004311	-18.171
	0.889	-11.542	0.0008725	-48.381	0.0008307	12.886	0.0009506	36.286
	0.001281	28.48	0.00389	32.662	0.368	-82.07	0.001452	99.485
	0.0005	121.935	0.003009	22.918	0.0003406	-163.719	0.000139	152.346
	0.0001709	165.015	0.0003764	138.915	0.003395	19.26	0.001466	99.212
	0.376	-84.246	0.001523	98.984	0.003297	37.649	0.0006105	130.101
	0.0002791	94.309	0.0001861	-158.763	0.000236	150.417	0.004142	-14.987
	0.0005917	121.405	0.001426	95.044	0.371	-84.731	0.006012	66.919
	0.0007023	124.378	0.0003601	121.899	0.0002343	138.92	0.0002729	135.485
	0.89	-11.513	0.003141	24.454	0.003277	41.306	0.005865	64.27
	0.125	31.65	0.001587	84.161	0.0009044	71.506	0.0008314	56.696
	0.0009874	44.913	0.0009896	-37.165	0.0003183	145.157	0.0004877	118.506
	0.0006737	128.156	0.001619	85.373	0.371	-85.863	0.002095	92.254
	0.0006532	77.267	0.0002183	76.305	0.0009264	14.333	0.0003501	134.002
	0.0003052	128.384	0.0002826	113.029	0.0009836	66.332	0.002129	92.949
	0.374	-84.833	0.001131	85.789	0.0003101	52.148	0.000959	32.741
	0.0003254	118.617	0.0002977	118.893	0.0004179	102.046	0.0008285	47.115
	0.0005033	103.947	0.001112	84.892	0.378	-84.411	0.001316	72.6
	0.001129	31.672	0.0003885	116.611	0.0002223	118.851	0.0001915	127.787
	0.001013	40.596	0.0003027	83.954	0.0002041	68.417	0.001089	80.357
	0.369	-82.191						
268.2	0.112	25.964	0.003859	30.729	0.003506	14.507	0.004524	-21.81
	0.89	-11.534	0.0009698	-61.081	0.000872	-6.972	0.001095	35.851
	0.001343	34.681	0.003993	31.88	0.345	-84.635	0.001782	98.247
	0.0003578	135.149	0.003093	20.319	0.0001833	-135.05	0.0003513	-174.915
	0.0003856	104.293	0.000458	130.759	0.003305	15.88	0.00159	100.206
	0.353	-86.965	0.001773	94.47	0.003333	34.184	0.0005289	122.99
	0.000562	102.274	0.0003219	-165.493	0.000342	132.663	0.004413	-22.791
	0.0007256	109.313	0.001388	95.386	0.349	-87.458	0.00616	67.977
	0.0008047	128.153	0.0004264	122.386	0.0003794	109.923	0.0004354	96.622
	0.89	-11.472	0.003399	23.337	0.003396	41.197	0.006169	65.308
	0.12	28.542	0.001498	86.681	0.0008597	63.915	0.0007614	52.01
	0.0009436	45.868	0.001208	-38.986	0.0004533	131.395	0.0005629	139.425
	0.0008969	137.348	0.001849	79.203	0.349	-88.664	0.002365	94.059
	0.0007024	81.3	0.0002979	54.767	0.0009553	-10.545	0.0003716	104.195
	0.0003546	128.703	0.000412	111.61	0.001146	60.502	0.002552	89.541
	0.351	-87.593	0.001358	84.256	0.0006388	54.795	0.0008024	27.537
	0.0003644	78.795	0.0003736	116.481	0.0004726	141.456	0.0006949	43.531
	0.0005891	108.349	0.001364	76.418	0.355	-87.129	0.001488	78.551
	0.001224	26.601	0.0004124	111.629	0.0002367	141.525	0.0002897	157.724
	0.000964	44.72	0.0004041	95.125	0.0002811	47.275	0.001531	89.277
	0.345	-84.733						
288.05	0.107	22.595	0.00382	30.614	0.003473	12.057	0.004563	-25.973
	0.89	-11.616	0.00123	-56.582	0.0006824	-7.74	0.0008868	25.023
	0.001427	30.352	0.003969	29.677	0.324	-86.981	0.001928	100.759
	0.0005713	120.949	0.003013	18.021	0.0004013	135.513	0.0001922	134.14
	0.0004164	151.99	0.000414	132.002	0.003434	12.312	0.001974	91.935
	0.333	-89.469	0.001794	100.349	0.00331	38.228	0.000525	109.405
	0.0006206	134.443	0.0004714	138.392	0.0005158	108.57	0.00448	-25.701
	0.000745	117.294	0.001481	98.094	0.329	-89.952	0.006307	67.635
	0.0008508	115.689	0.0004945	122.291	0.0003813	141.662	0.000306	97.942
	0.89	-11.532	0.003256	23.449	0.003382	37.697	0.006335	67.398
	0.116	25.308	0.001539	81.132	0.001026	69.345	0.0008293	40.887
	0.0009382	57.004	0.001092	-48.653	0.0003134	124.138	0.0003725	141.484
	0.0007067	132.027	0.001556	84.279	0.329	-91.162	0.002489	93.367
	0.0006876	99.427	0.0004084	101.321	0.0007659	-4.473	0.0002549	91.003
	0.0004828	91.727	0.0004476	118.06	0.001077	59.264	0.002692	95.172
	0.331	-90.028	0.001439	86.887	0.0004388	84.637	0.001091	34.395
	0.0002515	112.422	0.0003235	89.829	0.0004261	148.617	0.0005095	36.999
	0.0007445	96.449	0.001371	85.787	0.335	-89.6	0.001455	91.007
	0.001322	23.828	0.0005409	114.05	0.0002655	143.184	0.0002611	131.409
	0.0009833	43.267	0.0003354	110.221	0.0002321	61.277	0.001647	97.02
	0.325	-87.089						
307.9	0.103	19.328	0.003878	31.425	0.003332	6.763	0.004704	-29.602
	0.889	-11.706	0.00112	-54.479	0.0007004	-1.904	0.0008852	30.899
