!Hittite Microwave Corporation								
!12 Elizabeth Drive								
!Chelmsford, MA 01824								
!Tel: 978-250-3343								
!Fax: 978-250-3373								
!Device: HMC253QS24, DC-2.5 GHz GaAS MMIC SP8T Non-Reflective Switch in 24-lead QSOP package								
!Misc: Port 1 = RFCom, Port 2 = RF1, Port 3 = RF2, Port 4 = RF3, Port 5 = RF4, Port 6 = RF5, Port 7 = RF6, Port 8 = RF7, Port 9 = RF8, RF1 selected, Vdd=+5V							
!
# MHZ S MA R 50

30	0.672	41.014	0.655	-43.825	0.001656	36.15	0.005582	84.084
	0.002997	93.703	0.00101	71.393	0.003023	178.246	0.0006135	-68.621
	0.003445	132.929	0.666	-43.784	0.676	40.997	0.0007269	121.738
	0.00352	67.377	0.0003782	-16.378	0.0007803	136.241	0.0004998	-107.772
	0.001651	-128.432	0.001114	-134.504	0.005381	46.378	0.002902	24.377
	0.716	-50.221	0.001393	-36.541	0.000665	-53.613	0.003911	-143.937
	0.002599	63.269	0.0008873	135.116	0.001143	-54.671	0.001734	30.241
	0.001947	2.169	0.0008117	92.993	0.707	-50.414	0.003944	-129.066
	0.002549	-100.599	0.002506	-113.084	0.000003667	-6.973	0.002552	-8.729
	0.002347	44.442	0.003778	68.694	0.004167	-47.184	0.002957	-112.835
	0.701	-50.668	0.002384	58.489	0.005861	-106.948	0.000646	77.695
	0.005833	88.236	0.004929	-100.562	0.001242	-91.813	0.0002121	132.065
	0.001607	-97.383	0.005462	123.57	0.701	-50.741	0.0007952	-2.838
	0.002511	13.556	0.002585	86.985	0.0001132	-139.073	0.001431	178.264
	0.002074	145.834	0.002102	163.535	0.001235	42.895	0.001389	-110.272
	0.71	-49.812	0.0006656	-111.64	0.00008765	144.473	0.003303	17.801
	0.0005827	141.937	0.004473	-18.091	0.0001684	-168.781	0.0006133	51.221
	0.001226	99.408	0.004503	16.148	0.722	-49.203	0.0001657	-7.059
	0.0006717	157.568	0.000173	153.234	0.002856	-66.88	0.003516	-136.717
	0.003207	-147.506	0.0011	42.856	0.00005681	67.519	0.001992	-34.277
	0.719	-50.839						
49.85	0.472	50.881	0.784	-29.801	0.002053	45.381	0.004835	83.832
	0.002986	96.176	0.0008127	44.248	0.00251	145.623	0.0004001	-5.028
	0.003274	126.628	0.795	-29.761	0.477	50.838	0.0006844	90.137
	0.003299	61.074	0.0009023	2.202	0.0004323	139.855	0.000128	-158.669
	0.001333	-80.243	0.0004514	-102.65	0.004784	52.344	0.002978	23.911
	0.718	-49.172	0.001086	-11.22	0.0003528	3.823	0.002755	163.671
	0.001861	-14.235	0.0006898	-164.864	0.000746	140.492	0.001758	36.271
	0.00206	11.207	0.0004307	124.514	0.711	-49.433	0.002467	-115.178
	0.001864	-62.301	0.0018	-76.442	0.0000535	-109.948	0.001721	80.147
	0.002334	41.653	0.003324	71.653	0.002841	-38.113	0.001812	-102.418
	0.706	-49.779	0.001807	75.746	0.004138	-63.314	0.0004896	-11.221
	0.004074	52.99	0.004112	-68.306	0.001182	-68.04	0.0002118	92.617
	0.00108	-33.589	0.003634	108.091	0.706	-49.802	0.0008177	12.283
	0.001789	32.543	0.001825	85.619	0.0003159	39.062	0.001252	-143.589
	0.001399	76.147	0.001491	63.22	0.0009281	17.144	0.0006777	-103.563
	0.713	-49.012	0.0006138	-80.933	0.000003651	-146.69	0.002594	55.474
	0.0008731	-162.143	0.00314	66.913	0.0001335	-79.666	0.0003638	95.29
	0.0007615	174.518	0.002995	53.345	0.721	-48.517	0.00002872	171.579
	0.0007415	-165.196	0.000174	77.386	0.001897	33.278	0.00247	-102.394
	0.002284	-148.189	0.0006885	22.552	0.0000133	175.517	0.00157	-16.425
	0.72	-49.301						
69.7	0.353	54.057	0.833	-22.447	0.002356	47.512	0.004388	78.191
	0.002927	91.516	0.0006097	17.009	0.001959	106.892	0.0003628	27.193
	0.00301	115.79	0.843	-22.407	0.358	53.976	0.001033	65.737
	0.003259	56.123	0.001231	12.599	0.0002041	139.086	0.0001142	125.543
	0.001038	-35.124	0.0002465	-30.073	0.004414	52.286	0.003154	26.6
	0.691	-51.511	0.0009662	8.238	0.0001512	55.748	0.002159	105.714
	0.00148	-97.343	0.0006053	-110.672	0.0005401	-30.418	0.001927	37.684
	0.0022	17.233	0.0001895	150.049	0.685	-51.832	0.001607	-106.919
	0.001528	-29.609	0.001445	-45.321	0.00009732	-90.466	0.001272	163.775
	0.002396	40.627	0.003062	68.665	0.002122	-34.568	0.001138	-97.623
	0.681	-52.266	0.001541	87.193	0.003243	-25.27	0.000423	-105.324
	0.00316	12.099	0.003394	-43.103	0.00114	-31.276	0.0002364	45.188
	0.000787	24.235	0.002621	86.955	0.681	-52.258	0.0009032	22.192
	0.00142	46.06	0.001439	78.435	0.0005332	54.688	0.001078	-108.441
	0.001029	0.941	0.001174	-42.446	0.0007843	-13.98	0.0002158	-102.732
	0.686	-51.493	0.00063	-55.602	0.00005945	87.419	0.001994	88.848
	0.0007856	-145.164	0.00245	146.483	0.000118	7.885	0.0002123	133.732
	0.0004871	-115.99	0.002158	85.182	0.693	-51.046	0.000175	149.185
	0.0007795	-131.053	0.0003811	62.474	0.001376	128.031	0.001933	-73.596
	0.00182	-154.472	0.0004471	-3.046	0.00006318	94.806	0.001402	-3.952
	0.691	-51.33						
89.55	0.279	54.083	0.856	-18.197	0.002625	46.594	0.004061	70.516
	0.002859	83.789	0.0003782	-10.017	0.001426	65.23	0.000368	36.503
	0.002709	102.928	0.865	-18.157	0.284	53.957	0.001522	56.326
	0.00322	51.684	0.001483	19.157	0.00006	124.337	0.000123	110.952
	0.0007653	8.746	0.000427	15.691	0.004146	49.857	0.003298	30.075
	0.656	-54.795	0.0008937	26.14	0.00001198	-86.57	0.001714	46.207
	0.001201	177.991	0.0005508	-57.942	0.0003746	158.279	0.002149	38.147
	0.002343	21.946	0.00001247	-6.517	0.651	-55.172	0.0009158	-100.236
	0.001289	1.518	0.001187	-15.716	0.0001375	-71.991	0.0009302	-114.264
	0.002442	39.988	0.002882	63.417	0.00157	-32.572	0.0005913	-94.501
	0.647	-55.696	0.001359	97.04	0.002575	11.264	0.0003795	159.307
	0.002477	-30.348	0.002776	-20.992	0.0009732	8.837	0.000266	-3.083
	0.0005553	80.304	0.001831	64.236	0.647	-55.661	0.001005	30.599
	0.001145	58.036	0.001154	69.649	0.0006415	63.051	0.0009309	-73.802
	0.0007442	-75.808	0.0009376	-149.775	0.0006853	-46.593	0.0001772	76.76
	0.652	-54.891	0.0006642	-31.793	0.0001145	146.115	0.001459	119.895
	0.0005024	-136.15	0.001932	-135.465	0.0001111	93.804	0.00008783	170.752
	0.0002647	-48.077	0.001504	115.513	0.658	-54.473	0.000307	131.06
	0.0008048	-96.426	0.0005779	60.817	0.000974	-138.805	0.001534	-46.336
	0.001481	-162.322	0.0002517	-30.257	0.0001115	18.641	0.001305	6.993
	0.656	-54.345						
109.4	0.23	52.488	0.868	-15.559	0.00288	44.174	0.0038	61.914
	0.002792	74.449	0.0001299	-36.809	0.0009204	21.675	0.0004348	37.681
	0.002394	89.008	0.875	-15.519	0.236	52.312	0.002041	52.038
	0.00317	47.353	0.001698	23.76	0.00004802	30.046	0.0001609	119.596
	0.0005087	51.967	0.0006336	28.126	0.003937	46.269	0.003415	33.681
	0.619	-58.476	0.0008422	43.295	0.0001612	-24.271	0.001334	-13.954
	0.000963	92.689	0.0005094	-5.697	0.0002287	-14.839	0.002397	38.406
	0.002488	25.968	0.0001985	17.88	0.614	-58.912	0.0002968	-94.335
	0.001089	31.99	0.0009697	13.253	0.0001766	-54.186	0.000629	-32.965
	0.002474	39.349	0.002747	57.087	0.001088	-31.225	0.00009947	-93.034
	0.611	-59.525	0.001212	106.259	0.002004	47.159	0.0003438	63.4
	0.001889	-73.417	0.002237	-0.344	0.0007176	49.706	0.0002977	-52.345
	0.00035	135.759	0.001136	40.84	0.611	-59.466	0.001113	38.407
	0.000912	69.389	0.0009092	60.216	0.0006831	67.481	0.0008125	-39.147
	0.0004946	-153.204	0.0007363	102.331	0.0006055	-79.863	0.0005394	75.52
	0.615	-58.679	0.0007058	-8.582	0.0001674	-155.796	0.0009451	148.782
	0.0001535	-127.008	0.001487	-58.02	0.0001074	179.119	0.0000252	26.123
	0.00006466	19.131	0.0009277	145.216	0.621	-58.281	0.0004323	112.611
	0.0008449	-60.542	0.0007344	59.609	0.0006202	-46.284	0.001193	-19.721
	0.001195	-170.806	0.0000775	-58.241	0.0001566	-57.633	0.001236	17.319
	0.618	-57.775						
129.25	0.196	50.002	0.875	-13.846	0.003128	40.948	0.003577	52.809
	0.002728	64.111	0.0001194	113.402	0.0004394	-24.46	0.0005607	41.609
	0.002075	74.443	0.88	-13.806	0.202	49.779	0.002568	49.498
	0.00311	43.023	0.001889	27.264	0.0001025	33.28	0.0002732	115.07
	0.0002555	95.144	0.0008079	33.319	0.003765	42.035	0.003513	37.273
	0.581	-62.368	0.0008008	60.102	0.0003056	25.633	0.0009875	-74.436
	0.0007478	7.01	0.0004755	46.185	0.00009674	172.801	0.002657	38.621
	0.002634	29.601	0.0003755	41.119	0.576	-62.862	0.0002838	91.972
	0.0009099	62.135	0.0007737	41.88	0.0002149	-36.68	0.0003521	48.249
	0.002496	38.641	0.002638	50.167	0.0006426	-30.217	0.0003629	90.844
	0.573	-63.566	0.001085	115.164	0.001483	82.71	0.0003134	-33.021
	0.001353	-116.814	0.001746	19.768	0.0004101	90.514	0.0003321	-101.592
	0.0001591	-169.242	0.0004918	17.098	0.573	-63.482	0.001223	45.908
	0.0007001	80.416	0.000687	50.486	0.0006858	68.503	0.0007226	-4.659
	0.0002641	129.186	0.0005523	-5.931	0.0005357	-113.464	0.0008855	73.944
	0.577	-62.672	0.0007511	14.317	0.0002183	-98.222	0.0004217	174.027
	0.0001919	40.786	0.001081	19.119	0.0001049	-96.602	0.0001319	62.691
	0.0001234	-93.764	0.0003923	174.6	0.582	-62.291	0.0005538	93.875
	0.0009219	-24.582	0.000841	56.839	0.0002927	46.033	0.0008827	6.574
	0.0009353	-179.603	0.00008514	93.103	0.0002002	-134.494	0.001181	27.333
	0.578	-61.425						
149.1	0.172	47.027	0.88	-12.71	0.003374	37.251	0.00338	43.41
	0.002667	53.07	0.0003579	85.074	0.00004539	171.991	0.0007135	49.697
	0.001755	59.46	0.882	-12.67	0.178	46.762	0.003095	47.679
	0.003045	38.669	0.002064	30.109	0.0001771	50.802	0.0004357	96.558
	0.00001397	-106.592	0.0009494	36.409	0.003618	37.394	0.003597	40.831
	0.542	-66.391	0.0007652	76.678	0.0004464	74.935	0.0006614	-135.076
	0.0005466	-78.833	0.0004453	97.848	0.00003292	179.636	0.002924	38.83
	0.002782	32.999	0.0005471	64.132	0.538	-66.943	0.0008403	97.353
	0.0007435	92.108	0.0005901	70.323	0.0002527	-19.304	0.00009055	129.403
	0.002511	37.861	0.002548	42.896	0.0002206	-29.476	0.0008065	92.7
	0.535	-67.738	0.0009683	123.881	0.0009923	118.089	0.0002863	-129.515
	0.0008461	-160.382	0.001278	40.009	0.00008215	125.707	0.0003658	-150.818
	0.00002292	66.937	0.0001209	173.244	0.535	-67.631	0.001335	53.244
	0.0005009	91.272	0.0004785	40.598	0.0006703	66.259	0.0006528	28.761
	0.00004406	51.641	0.0003801	-114.412	0.0004717	-147.215	0.001221	72.183
	0.538	-66.793	0.0007982	37.05	0.0002676	-40.658	0.0001329	43.037
	0.0004881	42.531	0.0006976	96.116	0.0001022	-12.343	0.0002347	98.526
	0.0003037	-27.003	0.0001176	23.847	0.543	-66.426	0.0006728	74.952
	0.001037	9.732	0.0009004	51.679	0.00001821	-43.208	0.0005905	32.704
	0.0006919	171.426	0.000241	64.574	0.0002434	148.515	0.001136	37.176
	0.538	-65.209						
168.95	0.154	43.803	0.883	-11.955	0.003619	33.263	0.003199	33.824
	0.002611	41.486	0.0005823	55.111	0.0004765	76.399	0.0008656	60.029
	0.001438	44.153	0.883	-11.915	0.161	43.506	0.003621	46.194
	0.002975	34.29	0.002225	32.551	0.0002812	62.656	0.0006275	72.093
	0.0002844	-9.391	0.001062	38.881	0.00349	32.479	0.003672	44.363
	0.502	-70.505	0.0007331	93.114	0.0005841	123.928	0.0003486	164.188
	0.000354	-164.734	0.0004176	149.408	0.0001546	6.342	0.003195	39.043
	0.00293	36.244	0.0007149	87.018	0.499	-71.116	0.00138	102.768
	0.0005856	121.978	0.0004148	98.7	0.0002898	-2.057	0.0001627	29.917
	0.002521	37.023	0.00247	35.401	0.0001859	151.624	0.001237	94.593
	0.496	-72.003	0.0008595	132.482	0.0005223	153.378	0.0002607	133.893
	0.00036	155.971	0.0008115	61.107	0.0002438	-0.304	0.0003991	159.797
	0.0001981	120.949	0.000713	149.183	0.496	-71.872	0.001447	60.475
	0.0003103	102.018	0.0002787	30.598	0.0006556	61.219	0.000589	60.462
	0.0001675	153.39	0.0002147	137.182	0.0004113	178.948	0.001549	70.318
	0.499	-71.004	0.0008464	59.677	0.0003165	16.834	0.0006926	55.323
	0.0007274	38.416	0.0003307	172.981	0.0001003	72.098	0.0003349	134.205
	0.0004787	39.716	0.0006103	52.954	0.504	-70.65	0.0007898	55.912
	0.001171	41.731	0.0009284	43.464	0.0003192	49.976	0.0003105	58.748
	0.0004592	162.358	0.0003923	35.904	0.0002856	71.446	0.001095	46.908
	0.498	-69.089						
188.8	0.14	40.438	0.884	-11.431	0.003789	28.943	0.003165	26.936
	0.002567	31.844	0.0007114	38.279	0.0007744	42.055	0.0009963	60.508
	0.001194	32.223	0.884	-11.383	0.148	40.197	0.003961	43.784
	0.002987	31.827	0.002383	34.147	0.0003716	71.177	0.0007675	54.436
	0.0005249	28.175	0.001175	37.971	0.003491	28.125	0.003788	45.792
	0.464	-74.533	0.000784	102.393	0.0006823	152.527	0.0001954	124.835
	0.000223	155.654	0.0003834	-172.219	0.000244	-143.402	0.003376	36.683
	0.003083	36.549	0.0009319	101.809	0.461	-75.163	0.001724	105.673
	0.0004781	140.793	0.0002691	114.979	0.0003439	45.258	0.0003018	40.823
	0.002533	35.133	0.002437	29.814	0.0005172	145.603	0.001541	98.351
	0.459	-76.142	0.0009509	136.229	0.0002629	176.866	0.0002341	99.823
	0.000101	120.276	0.0005035	77.862	0.0003725	25.134	0.000419	136.832
	0.0004441	147.625	0.001111	135.511	0.459	-75.988	0.001518	71.504
	0.0002404	104.615	0.0001781	40.102	0.0007126	59.368	0.0006263	80.426
	0.0003109	112.161	0.0002002	79.25	0.0004109	145.283	0.001726	73.86
	0.462	-75.079	0.0008939	71.475	0.0003558	56.768	0.0009868	70.329
	0.0007428	36.848	0.00008051	-148.24	0.0001407	131.142	0.0004101	162.567
	0.0005008	103.21	0.001014	77.399	0.466	-74.743	0.000928	48.648
	0.001244	58.615	0.000986	32.495	0.0004696	132.628	0.00018	121.918
	0.0003171	143.533	0.0004716	30.615	0.0002956	27.693	0.0009977	59.43
	0.459	-72.903						
208.65	0.13	36.904	0.885	-11.02	0.003744	25.009	0.003452	26.894
	0.00264	29.241	0.0006278	51.448	0.0007405	41.943	0.00103	46.835
	0.001205	32.788	0.886	-10.95	0.137	36.94	0.003829	39.914
	0.003124	32.372	0.002507	32.397	0.0003967	67.017	0.0006656	50.198
	0.0006168	39.837	0.001167	33.523	0.003728	25.58	0.003931	42.234
	0.431	-78.096	0.001096	98.544	0.0006792	130.208	0.0003769	134.614
	0.0002503	-165.756	0.0003188	-172.398	0.0002667	145.253	0.003364	28.937
	0.003168	29.867	0.001205	96.833	0.427	-78.695	0.001768	101.3
	0.0004937	137.419	0.000222	119.285	0.0003265	151.456	0.0001955	-43.603
	0.002566	30.617	0.002534	29.829	0.0006439	129.362	0.001635	104.076
	0.425	-79.749	0.001367	128.425	0.0004804	162.955	0.0001744	-178.5
	0.0003884	119.454	0.0006084	69.714	0.0002111	22.751	0.0003371	155.12
	0.0006615	109.907	0.001161	144.501	0.425	-79.565	0.001608	85.555
	0.0004736	93.9	0.0002974	86.353	0.0008086	59.666	0.000837	66.612
	0.0002914	141.768	0.0004778	137.536	0.0005382	123.263	0.001635	86.765
	0.428	-78.598	0.0008637	66.895	0.0004313	46.307	0.0007581	61.325
	0.0004325	44.629	0.0001771	157.723	0.0002211	111.52	0.0004215	155.704
	0.000304	139.812	0.001154	84.489	0.432	-78.277	0.001107	67.536
	0.001209	42.045	0.001093	28.686	0.0002637	167.604	0.0003226	-151.185
	0.0003197	109.03	0.0003722	79.23	0.0002838	65.47	0.000886	73.663
	0.425	-76.32						
228.5	0.121	33.225	0.886	-10.764	0.003655	22.448	0.003615	25.353
	0.00287	27.841	0.0006648	46.311	0.0007886	38.687	0.0008984	61.554
	0.001301	37.623	0.886	-10.713	0.129	33.595	0.00385	40.1
	0.003027	27.856	0.002482	26.282	0.0004944	32.977	0.0005214	35.804
	0.0006354	21.048	0.0008793	41.079	0.003765	22.863	0.003817	41.203
	0.401	-81.333	0.001416	105.163	0.0007445	120.887	0.0004091	131.467
	0.0002722	131.877	0.0003183	157.333	0.0002975	118.675	0.003487	26.392
	0.003098	25.582	0.001296	96.885	0.398	-82.002	0.002276	98.706
	0.0005726	145.311	0.0003014	156.813	0.0001204	167.435	0.0002075	86.93
	0.002636	26.563	0.00262	27.897	0.0007101	123.034	0.002066	101.337
	0.396	-83.096	0.001292	124.141	0.0005655	141.553	0.0001969	133.18
	0.0004772	147.338	0.0006106	46.049	0.0004731	38.319	0.0002492	115.515
	0.0004629	113.024	0.00143	137.321	0.396	-82.868	0.001994	82.967
	0.0006196	99.699	0.0002995	84.016	0.0007152	38.241	0.0007177	42.872
	0.0002925	109.462	0.0004552	134.959	0.0005669	131.453	0.001908	85.531
	0.399	-81.88	0.0008202	82.649	0.0005414	50.341	0.0008945	52.655
	0.0005942	35.49	0.0003683	141.014	0.0001725	80.248	0.000472	121.983
	0.0005934	121.979	0.001115	82.338	0.403	-81.525	0.001246	71.719
	0.001309	35.165	0.00106	38.114	0.0002548	141.679	0.0001851	116.06
	0.0002105	112.266	0.0003274	92.6	0.0003534	91.728	0.001147	73.497
	0.395	-79.448						
248.35	0.114	29.243	0.887	-10.568	0.003686	18.688	0.003644	24.084
	0.002894	25.221	0.0007528	43.192	0.0007501	34.467	0.0008541	50.696
	0.001219	34.736	0.887	-10.554	0.123	30.324	0.004054	41.067
	0.003017	26.626	0.002457	22.741	0.0005073	22.941	0.0006629	50.234
	0.0006067	27.382	0.00109	39.794	0.003897	20.197	0.003861	40.297
	0.375	-84.256	0.001441	102.48	0.001048	118.822	0.0004721	135.72
	0.0002332	131.227	0.0005153	113.236	0.0001963	106.854	0.003535	24.266
	0.003105	25.276	0.001401	96.934	0.372	-84.888	0.002546	103.175
	0.0007197	137.306	0.0004752	142.084	0.0002162	116.174	0.000342	125.688
	0.002774	23.026	0.002567	22.588	0.0007574	106.465	0.002467	100.866
	0.371	-86.04	0.001437	120.133	0.0006286	136.372	0.0004355	115.458
	0.000266	170.932	0.0005907	35.418	0.0004281	19.247	0.0003868	128.933
	0.000709	135.157	0.001457	125.242	0.371	-85.788	0.002227	90.087
	0.0006167	98.596	0.0002186	67.256	0.0009307	32.203	0.0005583	33.925
	0.0003471	104.481	0.0003992	126.646	0.0005498	130.859	0.002247	86.329
	0.373	-84.801	0.001158	77.694	0.0003574	82.022	0.0008395	45.839
	0.0007102	27.278	0.0003587	135.449	0.000358	97.215	0.0005336	111.049
	0.0007787	95.171	0.00115	86.986	0.377	-84.433	0.001342	78.291
	0.001508	34.344	0.001031	34.172	0.000382	137.113	0.0001777	88.944
	0.0003282	129.217	0.0003491	93.766	0.000244	108.612	0.001276	78.057
	0.368	-82.225						
268.2	0.109	25.531	0.888	-10.474	0.003957	16.614	0.003566	22.65
	0.003006	25.386	0.0006466	33.589	0.0007401	40.523	0.0009499	44.49
	0.001241	34.402	0.887	-10.41	0.118	26.913	0.004036	41.823
	0.003081	28.171	0.002465	23.631	0.000168	1.595	0.0007253	20.706
	0.0005396	30.115	0.001186	32.203	0.004052	18.283	0.004174	38.061
	0.353	-86.981	0.001522	105.722	0.001182	115.373	0.0004292	105.278
	0.0002767	131.935	0.0006022	150.727	0.0001553	97.22	0.003422	19.61
	0.003037	28.444	0.001423	97.055	0.349	-87.637	0.00271	102.495
	0.0007123	132.592	0.0005891	130.823	0.0003454	113.653	0.0005155	138.905
	0.002925	21.054	0.002553	24.455	0.0007941	115.496	0.002657	104.612
	0.348	-88.843	0.001746	120.277	0.0007061	124.382	0.0002876	116.844
	0.0001825	-159.568	0.0006518	25.348	0.0003007	20.518	0.0002273	131.456
	0.0008329	134.502	0.001701	119.041	0.348	-88.572	0.002468	99.533
	0.000714	108.977	0.0001532	88.259	0.0008983	34.181	0.0006151	20.63
	0.0003971	106.413	0.0005371	136.843	0.0006592	109.818	0.002558	92.258
	0.351	-87.543	0.001313	95.216	0.0002952	53.925	0.001113	53.841
	0.0007689	17.376	0.0003244	105.734	0.0005797	116.77	0.0003999	91.924
	0.0007019	92.844	0.00143	85.645	0.355	-87.206	0.001387	84.555
	0.001749	33.599	0.001235	27.62	0.0001664	172.829	0.0003364	121.214
	0.0003706	124.202	0.0002414	103.936	0.0002467	58.244	0.001262	86.591
	0.345	-84.811						
288.05	0.104	21.782	0.888	-10.477	0.00401	14.614	0.003686	22.582
	0.002946	21.781	0.0007879	43.401	0.0007938	38.659	0.001055	43.693
	0.001221	32.379	0.887	-10.386	0.114	23.613	0.004005	40.57
	0.00331	26.249	0.002441	20.838	0.0004025	24.355	0.00067	33.829
	0.0004375	24.724	0.001024	29.981	0.003835	18.797	0.004254	41.546
	0.333	-89.444	0.001775	100.054	0.0008932	112.398	0.0004694	103.836
	0.0004684	112.735	0.0005458	122.258	0.0002535	115.66	0.003495	20.377
	0.003233	26.875	0.001698	100.887	0.329	-90.128	0.003086	101.911
	0.0008031	113.393	0.0005438	106.479	0.0004573	126.1	0.0001809	154.484
	0.002911	20.294	0.002261	26.73	0.001076	105.706	0.003211	102.378
	0.328	-91.397	0.001647	123.197	0.0009182	120.937	0.0003837	123.83
	0.0002383	140.072	0.0008511	34.191	0.0005357	54.629	0.0005517	127.451
	0.0008389	124.619	0.0018	121.69	0.329	-91.062	0.002771	98.348
	0.0007297	96.822	0.0001524	130.426	0.0008046	45.331	0.0006045	32.515
	0.0003003	134.371	0.0006493	115.343	0.0008514	114.833	0.002904	96.623
	0.331	-89.931	0.001487	90.174	0.0003321	76.605	0.001096	58.851
	0.0007265	32.259	0.0004157	141.109	0.0004422	124.807	0.0004083	130.989
	0.0008147	102.204	0.001376	86.733	0.335	-89.615	0.001644	87.646
	0.001559	37.14	0.001274	25.614	0.0001872	151.549	0.0001337	-178.818
	0.0003515	132.544	0.0001667	59.969	0.0003722	83.155	0.001637	90.995
	0.325	-87.061						
307.9	0.1	17.944	0.888	-10.47	0.003746	14.679	0.003493	17.603
	0.002866	16.757	0.0008827	51.279	0.0008212	31.02	0.001032	53.401
