!Hittite Microwave Corporation								
!12 Elizabeth Drive								
!Chelmsford, MA 01824								
!Tel: 978-250-3343								
!Fax: 978-250-3373							
!Device: HMC245QS16, DC-3.5 GHz GaAs MMIC SP3T Non-Reflective Switch in 16 lead QSOP package								
!Misc: Port 1 = RFC, Port 2 = RF1, Port 3 = RF2. Port 4 = RF3, RF3 Selected, Bias: +5VDC, DEEMBEDDED TO THE PINS OF THE DEVICE							
!
# MHZ S MA R 50

19.9 0.015 -14.504 825.4e-6 111.423 563.1e-6 96.204 0.968 -2.025
          656.5e-6 -170.468 0.962 -11.888 333.4e-6 18.351 2.386e-3 -23.461
          3.516e-3 73.788 1.641e-3 55.365 0.962 -12.055 2.339e-3 132.529
          0.969 -1.805 1.39e-3 78.017 1.365e-3 -169.014 0.031 18.124
39.801 0.012 -40.851 2.566e-3 99.778 1.779e-3 98.428 0.965 -2.602
          1.975e-3 63.713 0.912 -22.556 1.678e-3 0.873 2.424e-3 69.213
          1.828e-3 97.86 1.293e-3 -25.584 0.91 -22.786 1.423e-3 76.914
          0.969 -2.282 1.908e-3 103.166 1.524e-3 64.008 0.023 -10.917
59.701 0.01 -41.806 2.413e-3 74.326 2.224e-3 68.599 0.965 -3.33
          1.977e-3 78.097 0.848 -31.794 702.4e-6 -7.08 2.099e-3 80.914
          2.138e-3 64.335 462.7e-6 24.625 0.845 -32.068 2.071e-3 67.1
          0.969 -3.241 2.181e-3 67.064 2.247e-3 80.168 0.022 -14.916
79.602 0.011 -48.558 3.141e-3 63.361 2.515e-3 58.223 0.964 -4.292
          3.636e-3 62.347 0.778 -39.868 334.2e-6 50.901 2.908e-3 59.203
          2.779e-3 65.914 351.1e-6 47.361 0.774 -40.217 2.665e-3 51.928
          0.967 -4.163 2.84e-3 67.847 2.332e-3 63.408 0.023 -20.675
99.502 0.013 -51.74 3.685e-3 56.193 3.499e-3 53.015 0.963 -5.134
          3.697e-3 54.586 0.709 -46.612 83.64e-6 99.577 3.438e-3 45.738
          3.506e-3 50.147 111.1e-6 13.372 0.705 -46.981 3.234e-3 49.969
          0.967 -5.054 3.24e-3 45.531 3.096e-3 48.855 0.024 -27.783
119.402 0.015 -55.965 4.014e-3 47.058 3.534e-3 48.92 0.962 -5.985
          4.053e-3 47.309 0.647 -52.351 271e-6 18.336 3.68e-3 39.487
          3.504e-3 47.416 477.8e-6 52.764 0.641 -52.721 3.292e-3 41.791
          0.965 -5.895 3.646e-3 38.051 3.212e-3 44.892 0.026 -34.106
139.303 0.016 -59.853 4.295e-3 43.088 3.911e-3 41.25 0.961 -6.872
          4.432e-3 45.115 0.59 -57.211 510.8e-6 78.151 3.998e-3 33.344
          4.011e-3 42.393 339.8e-6 73.578 0.586 -57.581 3.801e-3 34.456
          0.964 -6.772 4.053e-3 34.615 3.677e-3 37.286 0.027 -37.261
159.203 0.017 -62.357 4.815e-3 36.878 4.105e-3 34.096 0.961 -7.846
          4.679e-3 38.22 0.542 -61.371 614.9e-6 97.696 4.098e-3 30.483
          3.988e-3 34.46 651.7e-6 85.668 0.537 -61.754 3.632e-3 36.132
          0.964 -7.756 4.328e-3 29.589 3.636e-3 28.266 0.028 -40.01
179.104 0.019 -64.134 4.82e-3 35.376 4.096e-3 29.809 0.961 -8.776
          4.654e-3 36.344 0.5 -64.982 733.4e-6 101.149 4.176e-3 23.844
          4.121e-3 30.973 676.6e-6 112.862 0.495 -65.314 3.556e-3 26.156
          0.964 -8.666 4.314e-3 23.747 3.807e-3 27.239 0.03 -42.863
199.004 0.021 -66.439 4.95e-3 32.594 4.317e-3 24.162 0.959 -9.692
          4.957e-3 32.588 0.463 -68.053 931.8e-6 107.966 4.402e-3 21.286
          4.289e-3 26.162 795.6e-6 110.982 0.459 -68.363 3.984e-3 25.532
          0.964 -9.562 4.471e-3 19.655 4.046e-3 21.946 0.031 -47.264
218.905 0.024 -68.091 5.046e-3 29.54 4.36e-3 23.597 0.959 -10.62
          5.073e-3 32.424 0.431 -70.829 997.3e-6 94.239 4.442e-3 17.078
          4.42e-3 23.246 1.099e-3 107.183 0.427 -71.161 4.002e-3 20.595
          0.963 -10.51 4.675e-3 16.833 4.073e-3 20.476 0.033 -48.714
238.805 0.026 -69.916 5.094e-3 27.781 4.434e-3 19.482 0.958 -11.55
          5.23e-3 27.568 0.403 -73.181 1.25e-3 101.425 4.639e-3 14.29
          4.501e-3 21.234 1.206e-3 105.291 0.401 -73.512 4.007e-3 13.195
          0.963 -11.42 4.596e-3 14.106 4.208e-3 17.817 0.034 -52.664
258.706 0.028 -70.367 5.384e-3 26.973 4.465e-3 14.415 0.958 -12.461
          5.404e-3 25.406 0.379 -75.312 1.392e-3 102.591 4.652e-3 11.538
          4.435e-3 17.226 1.466e-3 102.21 0.376 -75.58 4.168e-3 16.303
          0.963 -12.371 4.572e-3 9.679 4.141e-3 14.996 0.036 -54.974
278.606 0.031 -71.434 5.161e-3 25.284 4.656e-3 18.12 0.959 -13.307
          5.27e-3 24.385 0.357 -77.247 1.705e-3 107.952 4.779e-3 4.062
          4.513e-3 15.28 1.57e-3 108.239 0.355 -77.502 4.117e-3 13.042
          0.962 -13.277 4.445e-3 5.578 4.085e-3 11.533 0.038 -57.127
298.507 0.033 -72.266 5.278e-3 22.533 4.534e-3 13.512 0.958 -14.273
          5.129e-3 23.223 0.339 -78.971 1.717e-3 100.182 4.662e-3 3.904
          4.477e-3 13.228 1.812e-3 99.805 0.337 -79.247 4.205e-3 9.714
          0.962 -14.173 4.748e-3 3.127 4.109e-3 9.819 0.04 -59.439
318.407 0.035 -73.526 5.252e-3 21.491 4.471e-3 11.457 0.957 -15.184
          5.125e-3 23.096 0.322 -80.536 1.879e-3 102.102 4.697e-3 0.894
          4.637e-3 10.491 1.967e-3 99.211 0.321 -80.789 3.989e-3 8.13
          0.961 -15.094 4.683e-3 1.837 4.152e-3 8.311 0.042 -61.324
338.308 0.038 -74.286 5.313e-3 21.342 4.732e-3 10.008 0.957 -16.099
          5.289e-3 21.233 0.307 -81.943 2.012e-3 97.987 4.648e-3 -0.372
          4.486e-3 10.478 2.196e-3 99.678 0.307 -82.199 4.071e-3 6.741
          0.96 -16.028 4.658e-3 -0.311 4.162e-3 7.786 0.043 -63.903
358.209 0.04 -75.002 5.325e-3 20.309 4.606e-3 9.043 0.956 -16.994
          5.321e-3 20.758 0.294 -83.221 2.346e-3 97.82 4.722e-3 -3.529
          4.496e-3 7.874 2.267e-3 97.363 0.294 -83.472 4.243e-3 3.953
          0.96 -16.934 4.679e-3 -2.661 4.093e-3 4.694 0.045 -65.232
378.109 0.043 -75.759 5.307e-3 18.898 4.511e-3 6.144 0.956 -17.94
          5.266e-3 19.925 0.282 -84.359 2.418e-3 97.658 4.69e-3 -4.529
          4.5e-3 6.48 2.445e-3 95.768 0.282 -84.575 4.21e-3 3.143
          0.959 -17.85 4.718e-3 -4.221 4.147e-3 2.751 0.047 -67.708
398.01 0.045 -76.333 5.363e-3 18.283 4.58e-3 4.925 0.956 -18.882
          5.322e-3 18.968 0.271 -85.417 2.668e-3 98.125 4.705e-3 -7.274
          4.522e-3 5.611 2.598e-3 98.727 0.272 -85.639 4.08e-3 1.218
          0.959 -18.762 4.699e-3 -7.226 4.122e-3 0.781 0.049 -69.463
417.91 0.048 -76.928 5.353e-3 18.189 4.563e-3 3.418 0.955 -19.782
          5.456e-3 17.765 0.261 -86.314 2.643e-3 93.942 4.715e-3 -8.652
          4.474e-3 3.562 2.825e-3 92.816 0.262 -86.527 4.049e-3 0.339
          0.959 -19.662 4.682e-3 -9.248 4.147e-3 -0.285 0.051 -71.975
437.811 0.05 -77.424 5.36e-3 17.515 4.497e-3 2.063 0.954 -20.689
          5.379e-3 17.712 0.253 -87.149 2.941e-3 93.114 4.704e-3 -11.121
          4.461e-3 2.691 2.861e-3 93.42 0.254 -87.346 4.089e-3 -2.682
          0.958 -20.588 4.639e-3 -11.464 4.113e-3 -2.822 0.053 -74.234
457.711 0.052 -78.002 5.354e-3 16.766 4.531e-3 2.592 0.955 -21.62
          5.397e-3 16.794 0.245 -87.916 3.122e-3 93.261 4.543e-3 -13.199
          4.401e-3 1.126 3.128e-3 92.687 0.247 -88.125 3.988e-3 -4.29
          0.958 -21.48 4.661e-3 -12.604 4.069e-3 -4.435 0.055 -76.54
477.612 0.055 -78.74 5.333e-3 17.025 4.33e-3 -0.4 0.954 -22.515
          5.333e-3 17.383 0.237 -88.585 3.183e-3 92.331 4.683e-3 -14.254
          4.551e-3 0.938 3.306e-3 91.867 0.239 -88.768 4.048e-3 -4.855
          0.957 -22.405 4.781e-3 -14.596 3.912e-3 -4.663 0.057 -78.057
497.512 0.057 -79.159 5.339e-3 16.122 4.515e-3 -0.074 0.954 -23.404
          5.357e-3 16.612 0.231 -89.182 3.41e-3 92.976 4.587e-3 -15.45
          4.473e-3 -0.428 3.462e-3 91.662 0.233 -89.366 4.02e-3 -6.545
          0.957 -23.304 4.602e-3 -16.755 3.992e-3 -6.345 0.058 -79.652
517.413 0.06 -79.65 5.31e-3 16.478 4.427e-3 -1.712 0.953 -24.317
          5.415e-3 15.331 0.224 -89.783 3.591e-3 90.275 4.623e-3 -18.255
          4.387e-3 -1.974 3.629e-3 91.4 0.227 -89.957 4.022e-3 -7.289
          0.956 -24.237 4.683e-3 -17.114 3.977e-3 -5.912 0.061 -81.102
537.313 0.062 -79.875 5.33e-3 15.938 4.349e-3 -3.277 0.953 -25.253
          5.343e-3 15.986 0.219 -90.186 3.743e-3 90.447 4.602e-3 -19.774
          4.374e-3 -1.505 3.795e-3 90.359 0.222 -90.341 3.949e-3 -7.639
          0.956 -25.133 4.619e-3 -18.309 3.949e-3 -9.205 0.063 -82.51
557.214 0.065 -80.409 5.35e-3 15.539 4.369e-3 -3.744 0.952 -26.152
          5.345e-3 15.565 0.213 -90.657 3.875e-3 90.071 4.559e-3 -23.175
          4.366e-3 -3.357 3.911e-3 88.914 0.217 -90.713 3.917e-3 -10.822
          0.955 -26.052 4.559e-3 -21.63 3.83e-3 -9.322 0.065 -83.65
577.114 0.067 -80.808 5.37e-3 14.95 4.282e-3 -3.694 0.952 -27.072
          5.286e-3 15.483 0.208 -91.027 3.965e-3 89.416 4.587e-3 -23.116
          4.267e-3 -4.529 4.039e-3 89.283 0.212 -91.07 3.72e-3 -11.924
          0.956 -26.972 4.554e-3 -23.347 3.881e-3 -11.699 0.067 -84.644
597.015 0.069 -81.184 5.311e-3 15.186 4.222e-3 -6.84 0.951 -27.965
          5.33e-3 15.552 0.204 -91.298 4.234e-3 88.454 4.555e-3 -24.146
          4.218e-3 -5.625 4.21e-3 88.071 0.208 -91.306 3.775e-3 -11.278
          0.955 -27.915 4.425e-3 -24.764 3.832e-3 -11.522 0.07 -85.518
616.915 0.071 -81.403 5.288e-3 14.602 4.167e-3 -6.608 0.952 -28.871
          5.338e-3 16.207 0.199 -91.593 4.358e-3 86.942 4.45e-3 -25.836
          4.225e-3 -5.751 4.443e-3 87.273 0.204 -91.501 3.805e-3 -12.775
          0.955 -28.811 4.456e-3 -26.411 3.792e-3 -14 0.072 -86.587
636.815 0.073 -81.837 5.356e-3 14.857 4.159e-3 -7.24 0.951 -29.778
          5.357e-3 15.092 0.195 -91.797 4.48e-3 85.914 4.43e-3 -27.811
          4.135e-3 -6.346 4.558e-3 85.701 0.2 -91.671 3.766e-3 -14.779
          0.953 -29.718 4.364e-3 -27.193 3.77e-3 -15.386 0.074 -87.468
656.716 0.075 -82.219 5.298e-3 14.624 4.149e-3 -7.262 0.95 -30.696
          5.371e-3 15.413 0.191 -91.991 4.74e-3 86.217 4.414e-3 -29.572
          4.163e-3 -8.584 4.696e-3 86.318 0.197 -91.804 3.633e-3 -14.431
          0.953 -30.626 4.431e-3 -29.36 3.759e-3 -14.804 0.077 -88.229
676.616 0.077 -82.478 5.245e-3 14.429 4.108e-3 -9.023 0.95 -31.577
          5.294e-3 14.537 0.188 -92.152 4.923e-3 85.708 4.436e-3 -30.572
          3.973e-3 -8.838 4.768e-3 86.414 0.194 -91.891 3.612e-3 -16.11
          0.952 -31.526 4.406e-3 -30.756 3.641e-3 -16.643 0.079 -88.811
696.517 0.079 -82.851 5.294e-3 15.346 4.053e-3 -9.11 0.949 -32.498
          5.308e-3 15.351 0.184 -92.237 5.039e-3 84.236 4.374e-3 -32.92
          4.025e-3 -9.6 5.016e-3 83.939 0.19 -91.921 3.596e-3 -16.869
          0.952 -32.448 4.315e-3 -31.638 3.629e-3 -17.161 0.081 -89.333
716.417 0.081 -83.178 5.279e-3 15.715 3.989e-3 -10.343 0.948 -33.421
          5.256e-3 15.184 0.181 -92.317 5.18e-3 84.029 4.365e-3 -33.968
          4.002e-3 -10.346 5.204e-3 83.53 0.187 -91.941 3.56e-3 -18.135
          0.952 -33.341 4.289e-3 -33.439 3.589e-3 -17.572 0.083 -89.788
736.318 0.082 -83.627 5.28e-3 15.028 3.935e-3 -11.228 0.948 -34.325
          5.162e-3 15.383 0.178 -92.339 5.332e-3 82.516 4.31e-3 -35.781
          3.972e-3 -11.211 5.356e-3 82.647 0.184 -91.933 3.54e-3 -18.916
          0.951 -34.255 4.275e-3 -34.792 3.489e-3 -17.933 0.085 -90.383
756.218 0.084 -84.067 5.24e-3 15.197 3.887e-3 -12.257 0.948 -35.241
          5.271e-3 15.837 0.175 -92.378 5.425e-3 82.625 4.284e-3 -37.431
          3.847e-3 -11.143 5.476e-3 82.365 0.181 -91.883 3.461e-3 -18.701
          0.95 -35.121 4.172e-3 -37.21 3.461e-3 -20.358 0.087 -90.81
776.119 0.086 -84.407 5.236e-3 15.431 3.848e-3 -13.225 0.947 -36.128
          5.253e-3 15.672 0.172 -92.373 5.597e-3 81.568 4.192e-3 -38.166
          3.805e-3 -12.316 5.61e-3 81.774 0.178 -91.826 3.351e-3 -21.324
          0.949 -36.028 4.201e-3 -38.54 3.491e-3 -20.563 0.089 -91.13
796.019 0.087 -84.796 5.161e-3 15.298 3.831e-3 -14.058 0.946 -37.035
          5.244e-3 16.045 0.169 -92.377 5.841e-3 81.305 4.226e-3 -39.708
          3.728e-3 -13.148 5.715e-3 81.117 0.176 -91.79 3.299e-3 -21.908
          0.949 -36.925 4.188e-3 -40.409 3.357e-3 -22.217 0.091 -91.439
815.92 0.089 -85.174 5.28e-3 15.917 3.694e-3 -14.602 0.946 -37.942
          5.186e-3 16.005 0.166 -92.336 5.991e-3 81.005 4.173e-3 -41.451
          3.724e-3 -14.731 5.937e-3 80.515 0.173 -91.723 3.347e-3 -22.279
          0.948 -37.822 4.081e-3 -40.891 3.309e-3 -22.597 0.092 -91.647
835.82 0.091 -85.687 5.216e-3 15.804 3.64e-3 -15.218 0.945 -38.822
          5.192e-3 16.432 0.164 -92.252 6.111e-3 79.984 4.091e-3 -42.85
          3.621e-3 -14.393 6.075e-3 80.244 0.171 -91.599 3.259e-3 -23.834
          0.947 -38.742 4.091e-3 -43.578 3.164e-3 -23.342 0.093 -91.993
855.721 0.092 -86.216 5.236e-3 15.866 3.642e-3 -15.468 0.944 -39.703
          5.17e-3 16.298 0.161 -92.116 6.254e-3 79.66 4.03e-3 -44.861
          3.544e-3 -14.448 6.254e-3 79.521 0.168 -91.522 3.226e-3 -24.686
          0.946 -39.593 4.1e-3 -45.181 3.125e-3 -24.755 0.095 -92.344
875.621 0.094 -86.862 5.142e-3 16.33 3.476e-3 -15.843 0.943 -40.575
          5.166e-3 16.814 0.159 -91.995 6.385e-3 78.599 4.059e-3 -46.031
          3.512e-3 -16.067 6.436e-3 78.977 0.166 -91.365 3.071e-3 -26.704
          0.946 -40.495 4.031e-3 -45.627 3.09e-3 -25.566 0.095 -92.983
895.522 0.095 -87.543 5.179e-3 17.079 3.409e-3 -16.378 0.943 -41.477
          5.091e-3 17.066 0.157 -91.917 6.467e-3 78.257 3.984e-3 -47.574
          3.457e-3 -15.118 6.505e-3 78.096 0.164 -91.268 2.951e-3 -26.04
          0.946 -41.397 4.002e-3 -47.909 2.969e-3 -25.139 0.095 -93.311
915.422 0.097 -88.11 5.15e-3 17.575 3.36e-3 -17.355 0.944 -42.359
          5.216e-3 17.201 0.154 -91.772 6.627e-3 78.22 3.973e-3 -50.011
          3.299e-3 -16.292 6.703e-3 78.02 0.162 -91.164 2.902e-3 -27.371
          0.946 -42.289 3.984e-3 -48.832 2.966e-3 -26.785 0.095 -93.513
935.323 0.099 -88.874 5.105e-3 17.251 3.248e-3 -17.063 0.943 -43.263
          5.116e-3 18.138 0.152 -91.583 6.844e-3 77.387 3.887e-3 -51.073
          3.224e-3 -18.821 6.821e-3 77.337 0.16 -90.994 2.855e-3 -26.478
          0.945 -43.163 3.938e-3 -51.01 2.892e-3 -28.349 0.095 -93.923
955.223 0.1 -89.584 5.182e-3 17.81 3.162e-3 -19.233 0.943 -44.148
          5.134e-3 17.751 0.15 -91.411 7.004e-3 77.259 3.86e-3 -53.009
          3.184e-3 -19.11 6.957e-3 76.891 0.158 -90.795 2.817e-3 -27.448
          0.945 -44.068 3.882e-3 -53.777 2.804e-3 -27.375 0.095 -94.041
975.124 0.101 -90.214 5.129e-3 18.621 3.071e-3 -17.921 0.942 -45.022
          5.118e-3 18.389 0.148 -91.14 7.127e-3 76.676 3.838e-3 -54.63
          3.066e-3 -19.726 7.136e-3 76.576 0.156 -90.525 2.722e-3 -27.282
          0.944 -44.882 3.793e-3 -54.619 2.74e-3 -27.046 0.094 -94.407
995.024 0.102 -90.988 5.071e-3 18.828 2.963e-3 -20.528 0.941 -45.917
          5.101e-3 19.239 0.146 -90.905 7.328e-3 75.883 3.784e-3 -56.133
          2.998e-3 -19.526 7.336e-3 75.662 0.154 -90.286 2.673e-3 -27.955
          0.944 -45.877 3.724e-3 -55.461 2.732e-3 -27.804 0.094 -94.594
1014.925 0.104 -91.621 5.112e-3 19.148 2.962e-3 -19.14 0.941 -46.823
          5.2e-3 19.856 0.144 -90.764 7.457e-3 75.186 3.641e-3 -57.448
          2.911e-3 -19.392 7.491e-3 75.526 0.153 -90.026 2.604e-3 -29.026
          0.944 -46.694 3.714e-3 -56.921 2.615e-3 -28.948 0.093 -94.636
1034.825 0.105 -92.222 5.083e-3 19.976 2.853e-3 -19.686 0.941 -47.74
          5.101e-3 20.093 0.142 -90.502 7.613e-3 74.381 3.667e-3 -59.241
          2.892e-3 -19.186 7.622e-3 74.281 0.151 -89.796 2.566e-3 -29.16
          0.943 -47.689 3.599e-3 -59.334 2.544e-3 -30.892 0.093 -94.604
1054.726 0.106 -92.918 5.067e-3 20.477 2.786e-3 -19.398 0.94 -48.635
          5.084e-3 20.324 0.141 -90.262 7.783e-3 74.126 3.591e-3 -61.135
          2.794e-3 -19.991 7.792e-3 74.057 0.149 -89.488 2.465e-3 -29.1
          0.944 -48.565 3.633e-3 -60.432 2.504e-3 -31.318 0.092 -94.428
1074.626 0.107 -93.563 5.073e-3 20.616 2.67e-3 -20.174 0.941 -49.522
          5.113e-3 20.616 0.139 -89.866 7.865e-3 73.331 3.565e-3 -63.652
          2.686e-3 -19.312 7.965e-3 73.419 0.148 -89.049 2.373e-3 -31.11
          0.943 -49.433 3.586e-3 -63.071 2.385e-3 -30.307 0.092 -94.535
1094.527 0.107 -94.127 5.131e-3 21.221 2.607e-3 -20.045 0.94 -50.441
          5.172e-3 22.053 0.137 -89.574 8.105e-3 72.981 3.547e-3 -65.001
          2.658e-3 -19.128 8.133e-3 73.181 0.146 -88.722 2.297e-3 -29.739
          0.943 -50.35 3.515e-3 -64.127 2.299e-3 -30.887 0.09 -94.585
1114.427 0.108 -94.76 5.108e-3 21.68 2.546e-3 -20.198 0.94 -51.378
          5.118e-3 22.75 0.136 -89.266 8.218e-3 72.304 3.478e-3 -66.584
          2.52e-3 -19.446 8.237e-3 72.105 0.145 -88.404 2.23e-3 -29.61
          0.941 -51.238 3.561e-3 -66.13 2.22e-3 -30.184 0.09 -94.558
1134.328 0.109 -95.357 5.183e-3 23.002 2.483e-3 -19.851 0.939 -52.266
          5.171e-3 22.87 0.134 -88.86 8.391e-3 72.227 3.429e-3 -68.815
          2.455e-3 -19.413 8.372e-3 71.958 0.143 -87.98 2.173e-3 -29.495
          0.942 -52.186 3.429e-3 -68.125 2.138e-3 -30.171 0.089 -94.612
1154.228 0.11 -96.04 5.212e-3 22.678 2.411e-3 -19.625 0.938 -53.195
          5.164e-3 23.58 0.132 -88.514 8.48e-3 71.298 3.377e-3 -71.366
          2.331e-3 -22.301 8.578e-3 71.43 0.142 -87.662 2.07e-3 -30.423
          0.94 -53.035 3.396e-3 -69.938 2.063e-3 -30.789 0.088 -94.82
1174.129 0.111 -96.59 5.165e-3 24.032 2.26e-3 -18.842 0.938 -54.114
          5.159e-3 24.704 0.131 -88.198 8.65e-3 71.089 3.366e-3 -71.047
          2.293e-3 -20.235 8.68e-3 70.902 0.14 -87.248 2.06e-3 -30.528
          0.94 -53.975 3.334e-3 -71.333 2.057e-3 -30.358 0.088 -95.186
1194.029 0.111 -97.235 5.168e-3 24.143 2.219e-3 -21.565 0.938 -55.003
          5.185e-3 25.324 0.13 -87.686 8.728e-3 70.334 3.298e-3 -73.398
          2.164e-3 -21.77 8.788e-3 70.592 0.139 -86.839 1.906e-3 -30.39
          0.941 -54.903 3.309e-3 -73.53 1.923e-3 -31.093 0.087 -95.187
1213.93 0.112 -97.731 5.178e-3 25.202 2.051e-3 -21.971 0.938 -55.882
          5.208e-3 24.942 0.129 -87.187 8.952e-3 70.054 3.233e-3 -74.757
          2.092e-3 -21.23 8.932e-3 70.244 0.138 -86.351 1.845e-3 -31.85
          0.94 -55.732 3.187e-3 -75.403 1.826e-3 -32.588 0.086 -95.158
1233.83 0.112 -98.382 5.232e-3 24.961 1.952e-3 -19.312 0.937 -56.773
          5.196e-3 25.686 0.127 -86.713 9.099e-3 69.377 3.206e-3 -76.523
          1.98e-3 -20.735 9.109e-3 69.934 0.136 -85.897 1.747e-3 -30.266
          0.939 -56.653 3.236e-3 -76.753 1.845e-3 -30.823 0.085 -95.701
1253.731 0.113 -98.895 5.189e-3 25.803 1.838e-3 -20.571 0.936 -57.664
          5.217e-3 26.228 0.126 -86.135 9.237e-3 69.288 3.084e-3 -79.859
          1.834e-3 -20.284 9.259e-3 68.958 0.135 -85.532 1.69e-3 -30.09
          0.94 -57.554 3.206e-3 -79.475 1.696e-3 -29.405 0.084 -95.698
1273.631 0.114 -99.397 5.222e-3 27.26 1.702e-3 -20.493 0.935 -58.543
          5.205e-3 27.313 0.125 -85.543 9.324e-3 68.57 3.175e-3 -82.647
          1.718e-3 -20.093 9.464e-3 68.58 0.134 -85.033 1.612e-3 -29.716
          0.939 -58.404 3.116e-3 -82.137 1.63e-3 -28.638 0.083 -96.137
1293.532 0.114 -99.979 5.209e-3 28.012 1.497e-3 -15.008 0.934 -59.444
          5.269e-3 28.668 0.124 -85.03 9.423e-3 68.192 3.022e-3 -83.914
          1.564e-3 -16.981 9.564e-3 68.609 0.133 -84.623 1.509e-3 -30.512
          0.938 -59.344 3.073e-3 -84.698 1.496e-3 -26.155 0.082 -96.151
1313.432 0.115 -100.552 5.297e-3 29.476 1.479e-3 -15.852 0.934 -60.326
          5.334e-3 28.651 0.123 -84.443 9.71e-3 67.941 2.993e-3 -86.909
          1.489e-3 -16.194 9.699e-3 67.98 0.132 -84.237 1.418e-3 -26.93
          0.937 -60.215 2.969e-3 -86.605 1.444e-3 -26.25 0.081 -96.472
1333.333 0.115 -101.068 5.315e-3 29.69 1.399e-3 -11.613 0.934 -61.197
          5.289e-3 29.598 0.122 -83.789 9.846e-3 67.202 2.893e-3 -89.216
          1.37e-3 -12.224 9.846e-3 67.711 0.131 -83.694 1.326e-3 -23.968
          0.936 -61.137 3.018e-3 -88.251 1.331e-3 -23.788 0.081 -96.667
1353.233 0.116 -101.562 5.355e-3 30.575 1.291e-3 -9.411 0.933 -62.067
          5.387e-3 30.403 0.122 -83.113 9.939e-3 66.914 2.909e-3 -89.988
          1.313e-3 -8.465 9.985e-3 67.143 0.131 -83.174 1.294e-3 -22.661
          0.935 -61.957 2.933e-3 -91.003 1.205e-3 -21.89 0.08 -96.884
1373.134 0.116 -102.107 5.409e-3 31.183 1.163e-3 -6.475 0.932 -62.959
          5.403e-3 31.29 0.121 -82.517 0.01 66.315 2.795e-3 -93.673
