! Hittite Microwave Corporation
! 20 Alpha Road
! Chelmsford, MA 01824
! Tel: 978-250-3343
! Fax: 978-250-3373
! Device: HMC276QS24, 0.7-3.0 GHz, GaAS MMIC 4x2 Switch Matrix in 24-lead QSOP package
! Misc: Data was de-embedded to package pins.
!       Port 1 = OP1
!       Port 2 = VL
!       Port 3 = VH
!       Port 4 = HH
!       Port 5 = HL
!       Port 6 = OP2
!          Vdd = +5 V
!         Vctl = 0 V[Logic 0] / +5 V[Logic 1]
!
!  State 05,  VH to OP1,  VL to OP2
!  Control Lines (Logic)
!    HV 1 = 0, Tone 1 = 1
!    HV 2 = 0, Tone 2 = 0
!
!  Data reformated to new Touchstone file format - Wed Jan 10 14:36:49 2007
!
# MHz S DB R 50
! 6 Port Network Data
! freq  dbS11  angS11  dbS12  angS12  dbS13  angS13  dbS14  angS14  
!       dbS15  angS15  dbS16  angS16  
!       dbS21  angS21  dbS22  angS22  
!       dbS23  angS23  dbS24  angS24  dbS25  angS25  dbS26  angS26  
!       dbS31  angS31  dbS32  angS32  dbS33  angS33  dbS34  angS34  
!       dbS35  angS35  dbS36  angS36  
!       dbS41  angS41  dbS42  angS42  
!       dbS43  angS43  dbS44  angS44  dbS45  angS45  dbS46  angS46  
!       dbS51  angS51  dbS52  angS52  dbS53  angS53  dbS54  angS54  
!       dbS55  angS55  dbS56  angS56  
!       dbS61  angS61  dbS62  angS62  
!       dbS63  angS63  dbS64  angS64  dbS65  angS65  dbS66  angS66  
!     
                10       -10.3425283            -15.107        -43.1042456            -71.829        -2.78126759              3.551        -45.1235356            109.859
                      -42.8256477            -78.811         -45.158072             10.775
                      -50.8151667            131.629        -11.2767471            -11.429        -59.9394106             75.736        -58.9077389           -128.348
                      -47.3670667            -30.746         -2.6860788               2.65
                      -2.84129471              4.247        -37.0774393             68.155        -11.0568394             -9.959        -45.8502998            -53.713
                      -43.8101525           -175.942         -61.396307            124.776
                      -48.8474502            -78.782        -54.6097411            120.991        -45.2784473           -161.598      -0.0610150301             -3.924
                      -49.4939198            -16.934        -51.6141056           -153.617
                      -42.1070339             -3.875         -56.082007             -2.708        -46.8991532             19.903        -48.3473712            -62.529
                     -0.104861108             -3.717        -62.1882266           -101.756
                      -44.6139308            -78.623        -2.55687455              3.381        -54.2574076            -83.869        -49.6772285           -101.861
                      -45.3521248           -166.413        -11.3727247            -13.791

             29.95        -11.700533            -13.659        -60.5457632             33.624         -2.7335428             -0.646        -69.2562155             38.994
                      -56.8327502             26.364        -60.1480461            -102.24
                       -68.351914             91.222         -11.700533            -15.902        -57.2529178           -167.186        -68.0614637             -47.86
                      -62.2600391            105.007        -2.65065024             -0.575
                      -2.78126759             -0.576        -56.1041648            105.136        -11.5023673            -15.386         -64.108845             71.872
                      -66.8111844            125.748        -56.2045809            -52.313
                      -61.7725859            -90.575         -62.313157             65.355        -67.8852821            -30.485       -0.282492854            -12.742
                      -59.7940009             111.54        -68.2256044           -130.856
                      -58.1245644            -93.202        -65.7201146            111.509         -55.582155             153.17        -61.9501516            -16.651
                     -0.282492854            -12.708        -70.9520031              7.347
                      -60.6322092             19.238         -2.6860788             -0.595          -75.62404           -142.652        -60.5893434            162.236
                      -66.5138022            168.275        -11.9375896             -14.01

              49.9       -12.1460609            -13.815        -74.9477932            139.996        -2.65065024             -3.874        -67.5495028            -165.55
                      -68.9320498             26.697         -61.253655             71.581
                      -65.6034343             116.21        -12.1812979            -18.875        -70.6715456           -116.172        -72.8909696           -157.361
                      -64.4282934            -131.38        -2.55687455              -3.72
                      -2.67425322             -3.814        -59.3961043             71.533        -12.2166783             -17.77        -70.4865762              9.639
                       -62.207244            166.511        -81.6920033             89.766
                      -72.9370691            134.377        -67.7612875            -15.018        -60.9519012            -21.182       -0.658405317            -20.547
                      -71.1660973            -78.947        -75.4371278            132.967
                      -72.6119717              6.249        -64.8399398            -85.396        -67.2282183            114.884        -67.4649829            144.098
                     -0.649040476            -20.383        -69.6957739            174.867
                       -64.441319            115.174        -2.58022372              -3.66        -71.1660973            162.378        -76.3403007            -177.89
                      -78.9692322            -59.351         -12.432042            -14.727

             69.85       -12.2878745            -16.951        -85.3184119            -31.165        -2.76931178             -5.701         -74.424928             87.493
                      -82.3643209            142.661        -64.6910996              95.52
                      -77.2213212             81.403        -12.3236927            -24.744        -63.9417902             60.399        -69.2034288            -72.151
                      -78.5476505             39.909         -2.6860788             -5.454
                      -2.76931178             -5.592         -63.390793             96.357        -12.2878745            -23.351        -69.4268071            105.547
                       -77.297347             96.338        -68.5054883              4.608
                      -68.6078406             118.41        -64.6672823             71.793        -66.8302324             25.464        -1.08078593            -27.617
                      -74.7985722            -125.62        -66.7978756             102.25
                       -67.113198             87.038         -71.010432             34.862        -69.3576577            123.491        -76.6713977            109.106
                       -1.0906283            -27.403        -62.0211107             68.655
                      -60.3908422             96.706         -2.6860788             -5.363        -67.7083827             66.792        -68.0856676            106.545
                       -62.537077             17.472        -12.5786428             -18.59

              89.8       -12.5050331            -20.035        -67.5619408             -5.101        -2.86542219             -7.406          -70.75204              3.061
                      -62.9662737             73.356         -60.474835             90.997
                      -68.4043281             46.262        -12.5050331            -30.076        -62.0200146              83.27        -72.2308709            138.252
                       -72.334467              7.799        -2.78126759             -7.124
                      -2.87751112             -7.328        -61.5371929             59.675        -12.5050331            -28.092         -68.605501             75.715
                       -72.363264             82.423        -67.1983254             67.458
                      -70.7072288              64.17        -83.6990765            -53.304        -68.1011053             54.718        -1.60797952            -33.847
                      -70.6065045             99.416        -76.2439472            119.492
                      -67.0856612             72.638        -71.2926699            -57.893         -72.030783             67.646        -74.1283297            -16.265
                      -1.60797952            -33.632        -78.0548538             40.488
                      -59.4611674             69.535        -2.79323987             -6.996        -70.5917902              3.971        -75.2390779             44.363
                      -63.8913422             73.224        -12.7277604            -22.075

            109.75       -12.6902403            -22.577        -63.9870329             51.671        -2.99933485             -8.909        -74.4661694            103.643
                      -70.2855715               66.7        -58.9154018             77.715
                      -68.4180535             -2.938        -12.7277604            -35.098        -60.7308548             70.655        -69.7998297              81.12
                      -67.9198014             37.927        -2.91387916             -8.482
                      -3.01161172             -8.887        -60.0995879             66.623        -12.8032904            -33.096        -71.8453854             77.128
                      -70.5361018             11.354        -67.6537013             32.686
                      -68.6312717             69.852        -71.2513311             63.057        -83.2079254            -81.997        -2.18040806              -39.4
                      -73.5061217            123.433        -69.6244586             117.09
                      -72.5601818             27.307        -75.6503211             53.302        -70.1419998             37.591        -72.7843462            131.406
                      -2.16925085             -39.11        -72.4648121             98.794
                       -59.576214             76.259        -2.92603576             -8.432         -68.980765             72.173        -66.0921178             50.054
                      -66.6006526             84.766        -12.9563496            -25.194

             129.7       -12.8794829             -25.02        -67.9936134             67.968        -3.11045649             -10.28        -68.3906243             61.145
                      -71.0227831             38.389        -58.1455871             73.127
                      -65.7134048             64.862        -12.9563496            -39.874        -58.5770942             73.138        -71.9101676             -0.459
                      -68.9954329             38.341        -3.02390598             -9.766
                      -3.13534444            -10.192        -59.9394106             70.596        -13.0729405             -37.36          -65.32322             83.562
                      -74.6706621             33.359        -66.2191532             61.947
                      -72.8527394              59.64        -81.5714732            -56.938        -68.8763631             90.216        -2.76931178            -44.211
                      -75.2793371            116.142         -68.322428            110.504
                      -68.7470066             56.909        -69.0889099             31.899        -74.9477932             88.255        -70.9612026             89.374
                      -2.76931178            -43.874        -67.6285794             78.371
                      -58.1877858             78.949        -3.04854682             -9.717        -66.6677686             70.734        -68.0329458             60.749
                      -66.5672881             85.548        -13.1515464            -28.106

            149.65       -13.0729405            -27.146        -78.1105774             34.924        -3.24823124            -11.526        -68.4363878             -0.435
                      -66.3751753             34.619        -56.5888988              80.84
                      -66.2923318             46.751        -13.2308701            -44.223        -59.6844249              77.23         -74.009854            -23.663
                      -67.9479496             14.423        -3.16030391            -10.874
                      -3.26086526            -11.485        -57.4643885             85.115        -13.4324079            -41.378        -73.7479912             55.488
                      -68.7043123             66.384        -65.9755503             42.298
                      -68.5240084             31.453        -75.7829327              59.17        -70.5331807              69.58        -3.36260451            -48.316
                      -71.2926699             72.354        -76.3631282            106.976
                      -69.4036961             69.393        -70.3768826              51.82        -75.4371278             28.604        -67.7210505             118.37
                      -3.34982175            -47.964        -68.0417106              49.12
                      -56.1821657             78.724        -3.16030391            -10.873        -73.0729405             29.188        -69.9842965              94.01
                      -66.0432126             88.142        -13.3512308            -30.575

             169.6       -13.2708053            -28.967         -65.804428             69.554        -3.36260451             -12.63        -71.3246033            -30.982
                      -67.2562116             66.036        -55.2040036             74.334
                      -68.7636667             74.285        -13.4732828            -48.309        -57.7144541             84.864        -77.4514244            112.988
                      -68.7232616             46.139        -3.28618857            -11.919
                      -3.38822663            -12.579         -57.348403             72.965        -13.7649228            -45.335         -71.961655             92.008
                      -78.1666608             28.961        -64.3462486             50.077
                      -70.6567207             75.606        -69.6772285             15.517        -66.1114062             72.301        -3.94452549            -51.923
                      -71.0351517            119.184          -68.87395             16.839
                      -65.3827402             34.929        -74.0316724             14.364        -68.4616609             79.526        -70.2940912            138.042
                      -3.91721135            -51.542        -64.9744179             73.544
                      -54.6800726               71.7        -3.29887797            -11.877        -64.8779326             61.792        -69.4422487             65.885
                      -64.7689602             75.906        -13.5556141            -32.981

            189.55       -13.4732828            -30.421        -65.7858087             42.922        -3.47850395            -13.597        -69.8780208             11.825
                      -65.6399366             45.185        -55.2390779             75.499
                      -66.5174803             62.657        -13.7226556            -52.158        -56.3232193             75.103         -75.055269              7.916
                      -67.1546676              6.564        -3.41392454            -12.767
                      -3.51748332            -13.517        -56.4781748             82.384        -14.0666962            -48.975        -69.6428916             83.917
                      -75.3299248             57.974        -71.0568394             48.442
                      -67.0915546             25.636        -75.1591152             39.135        -68.5844726              60.63        -4.49507481            -54.986
                      -67.3792461            110.953        -68.5054883             48.234
                      -65.9307332             61.177        -74.0710841             -8.706        -72.5013689             53.144        -66.7788983            109.262
                      -4.46597632            -54.571        -63.7886294             85.854
                      -55.5197038             79.028        -3.42680207            -12.687        -67.6181334              71.39        -67.9306168             61.956
                      -64.7554343             76.945        -13.7226556            -35.038

             209.5       -13.6387333            -31.694        -66.4005461             47.226        -3.60912129            -14.432        -66.8130873             19.748
                      -68.7114135             50.409        -54.0754743              72.42
                      -70.7610301             50.265        -13.9360789            -55.553         -55.666128              78.97        -76.0543888             77.141
                      -77.9239256              8.513        -3.53051542            -13.537
                      -3.63548213            -14.349        -55.7084209             75.032         -14.424928             -52.22        -67.0994187             69.589
                      -73.3714541              31.31         -65.615032             51.083
                      -66.4972699             38.449        -70.2008304             43.209         -67.460881             74.714        -5.05176384            -57.615
                       -65.294411            120.953        -71.2101882             56.884
                      -66.0414711             40.102        -71.9857873             83.862        -69.7170173             47.391        -67.3731543            106.712
                      -5.00527369            -57.137        -62.1871093             81.104
                      -53.9360789             75.556        -3.54356709            -13.439        -66.0119184              42.32        -72.2950264             94.046
                      -66.7071605            106.366        -13.8929726            -36.792

            229.45       -13.8073967            -32.816        -65.9859257               54.7        -3.72838023            -15.225        -67.3427592              8.064
                      -68.7066787             67.371        -53.6512701              73.86
                      -68.4363878             26.379        -14.1548786            -58.532         -54.841631             78.382        -71.6306596             29.894
                      -78.5036712             39.124        -3.64869261            -14.172
                      -3.74173287            -15.088        -54.8272543             82.542        -14.7985722            -55.189        -67.9133185             69.462
                      -75.4371278             72.196        -65.3168097             49.541
                      -69.6270895             37.836        -72.8718335             66.785        -67.0758478             88.677        -5.54732155            -59.889
                      -63.0152982            120.107        -66.7997756             73.333
                      -67.7953165             59.787        -77.7011117             29.244        -72.3201042             30.375        -63.8995031            114.101
                      -5.49810958            -59.397        -63.9897825             75.413
