! Hittite Microwave Corporation
! 20 Alpha Road
! Chelmsford, MA 01824
! Tel: 978-250-3343
! Fax: 978-250-3373
! Device: HMC276QS24, 0.7-3.0 GHz, GaAS MMIC 4x2 Switch Matrix in 24-lead QSOP package
! Misc: Data was de-embedded to package pins.
!       Port 1 = OP1
!       Port 2 = VL
!       Port 3 = VH
!       Port 4 = HH
!       Port 5 = HL
!       Port 6 = OP2
!          Vdd = +5 V
!         Vctl = 0 V[Logic 0] / +5 V[Logic 1]
!
!  State 16,  HH to OP1, HH to OP2
!  Control Lines (Logic)
!    HV 1 = 1, Tone 1 = 1
!    HV 2 = 1, Tone 2 = 1
!
!  Data reformated to new Touchstone file format - Wed Jan 10 16:02:56  2007
!
# MHz S DB R 50
! 6 Port Network Data
! freq  dbS11  angS11  dbS12  angS12  dbS13  angS13  dbS14  angS14  
!       dbS15  angS15  dbS16  angS16  
!       dbS21  angS21  dbS22  angS22  
!       dbS23  angS23  dbS24  angS24  dbS25  angS25  dbS26  angS26  
!       dbS31  angS31  dbS32  angS32  dbS33  angS33  dbS34  angS34  
!       dbS35  angS35  dbS36  angS36  
!       dbS41  angS41  dbS42  angS42  
!       dbS43  angS43  dbS44  angS44  dbS45  angS45  dbS46  angS46  
!       dbS51  angS51  dbS52  angS52  dbS53  angS53  dbS54  angS54  
!       dbS55  angS55  dbS56  angS56  
!       dbS61  angS61  dbS62  angS62  
!       dbS63  angS63  dbS64  angS64  dbS65  angS65  dbS66  angS66  
!     
                10       -17.2024183             -31.36        -50.2827334             67.558        -51.3118158            -162.77        -5.73018914              3.536
                      -55.9720575           -142.493        -7.95880017              2.109
                      -53.0494968             83.639      -0.0785269103             -3.837        -53.1515464            -23.022         -52.475763             40.951
                      -56.1263794            -69.257         -45.591852            -155.39
                      -47.1329208           -124.721        -51.7743417            134.519      -0.0785269103             -4.135        -38.4163751             50.073
                      -51.7945807             -54.33         -40.631275             59.924
                      -5.78073762              4.754         -55.734959           -178.795        -46.1996244           -174.335         -21.723723            -98.663
                      -59.7855227            -39.514        -5.91698966              3.492
                      -45.4948387             -74.34        -46.7997756           -110.747        -57.0960719             25.068         -49.360209            109.395
                    -0.0697665569             -4.042        -49.0101257            -14.526
                      -8.02418986               3.45         -51.525255            162.185        -42.5790548             39.336        -5.93417244              3.177
                      -48.0417106              9.479        -17.8558006            -22.838

             29.95       -19.8279966            -24.702        -66.1131618             56.356        -62.0794018            163.306        -5.73018914              1.588
                      -58.2870542             -3.203        -8.11214899              0.543
                      -60.9927029           -101.501       -0.282492854            -12.623         -57.721133           -129.833        -59.5020808             11.112
                      -78.0340493            160.186        -64.5785443            -68.871
                       -65.831582           -100.441        -57.9307676            122.812       -0.282492854            -12.491        -66.1201878            -80.292
                      -61.3647422              33.23        -56.2948247            153.769
                      -5.76385542              1.573        -55.6187934            125.111        -72.3165172           -174.344        -24.1521662           -124.979
                      -63.9253966            145.923         -5.7976527              1.407
                      -54.4937729             21.599        -72.6417052           -106.648         -63.643406           -170.831        -54.0229385             122.99
                     -0.282492854            -12.612        -60.8344575             64.569
                      -8.13427866              0.766        -58.7860432             30.709        -58.2443716           -134.303         -5.7976527              1.271
                      -55.5978382           -152.774        -19.6593332            -23.662

              49.9       -21.2096149             -17.54        -79.0311639             38.779        -74.3430279            -30.689        -5.54732155             -0.847
                      -67.1507096           -104.021        -7.93711255             -1.544
                      -66.5303661             50.264        -0.63968572            -20.355        -66.1889908           -168.136        -67.1943474             121.93
                      -67.5205498             62.526        -68.4020426            108.625
                      -66.3444671             30.352        -67.2943472           -162.956        -0.63968572            -20.234        -72.0446749            -58.203
                      -74.1593113             -9.474         -73.914499             51.889
                      -5.54732155             -0.614        -68.5588402             -7.594        -72.7616676             49.035        -24.8825029           -154.667
                      -65.1549266            100.007        -5.61337426             -0.891
                      -60.2780075            167.299          -76.77264            -120.53        -71.6838454             47.922        -68.2502707           -149.893
                      -0.63968572            -20.378        -73.0886049            -97.412
                      -7.98054209             -1.482        -67.9089993            147.015        -61.9306034            127.226        -5.62996622             -0.797
                      -79.7685911             97.295        -21.4116215            -15.892

             69.85       -21.1103466             -18.88        -60.1648492              59.81        -72.6752775            105.251        -5.61337426             -1.532
                      -74.2082209             66.882        -8.00233856             -2.457
                      -62.8617988             66.363         -1.0906283            -27.358        -71.3534442            106.657        -66.5617398            -42.777
                      -68.2054749            134.928        -63.7993843             34.158
                       -69.634987             51.135        -63.1578047            154.812         -1.0906283            -27.238        -67.8982108            109.721
                      -71.5449212            -87.441        -74.1770648            165.085
                      -5.59681393             -1.382        -80.3609111            -65.664        -81.3586462            160.821        -24.8825029           -152.852
                      -66.1184308             68.622        -5.66324553             -1.639
                      -74.8512287            -15.021         -71.229153           -138.905        -65.4491749            124.263         -71.737359             41.389
                      -1.08078593            -27.443        -72.0030657             58.522
                      -8.02418986             -2.367        -74.5260882             99.114        -68.6336183              25.57        -5.67993313               -1.5
                      -62.0057781             64.759         -21.310031            -17.758

              89.8       -21.2096149            -19.915        -74.5076076             176.29        -64.5038234             59.726        -5.61337426             -2.365
                       -67.266231             37.603        -8.02418986             -3.406
                      -66.9647511            107.647        -1.59753347            -33.563        -74.5492445            150.155        -66.1642295             86.624
                      -75.4268608            102.768        -64.7900425             77.597
                      -75.6030723            149.412        -77.5229672            154.514        -1.61843815            -33.446        -65.9272952             90.211
                      -71.1629565             51.646         -69.133542             31.859
                      -5.61337426             -2.214        -69.4113929             11.582        -66.6996435             72.412        -24.7314401           -154.246
                      -98.7784935           -110.445        -5.67993313             -2.373
                      -62.2364101             33.763        -77.5688031            132.818        -77.5951041            152.235        -72.2522035             89.884
                      -1.59753347            -33.649        -65.7184367             89.567
                      -8.02418986             -3.293        -64.5389061             38.996        -73.8500792            118.722        -5.69665284              -2.29
                      -72.8565548             53.079         -21.310031            -18.623

            109.75       -21.2096149            -20.865        -61.4649219             83.068        -69.1509611             60.879        -5.61337426             -3.008
                      -64.4746956             47.696        -8.04609628             -4.257
                      -67.9241259             91.438        -2.18040806            -39.011        -76.9542331             42.953        -71.4308245             25.973
                      -81.1986397           -115.713        -63.2041563             66.572
                      -65.1549266             82.531        -78.1175681             76.336        -2.19157962            -38.948        -65.3795124             84.001
                       -71.059942            109.573         -68.266004             26.037
                      -5.62996622             -2.954        -70.9092003             24.713         -66.269062             46.016        -24.5829598           -154.785
                      -64.3147883             72.792        -5.67993313             -3.099
                      -69.7223363             36.298        -82.5034084           -119.014        -95.8043397            178.119        -71.6339742             59.129
                      -2.16925085            -39.125        -67.5370825             24.621
                      -8.04609628             -4.212        -66.0798657            102.817        -66.2298238             37.018        -5.71340481             -3.006
                      -61.8067403             46.394         -21.310031            -19.692

             129.7       -21.2096149            -21.739        -62.6789815             87.075        -74.9526497             43.668        -5.61337426             -3.753
                      -66.9029982              0.348        -8.04609628             -5.168
                      -65.4719768             39.083        -2.74544943            -43.772        -74.9235512            135.241        -67.2102702              15.88
                      -76.0764763           -167.041        -70.6123973             31.786
                       -67.493751             47.383        -69.9980162            118.019        -2.79323987            -43.713        -62.8184355             93.542
                       -71.007347             20.014        -68.3860612             38.922
                      -5.64658994             -3.662        -68.8258286             39.025        -63.5789049             67.386        -24.5829598           -156.152
                      -61.8679126             82.588        -5.67993313             -3.769
                      -69.2890544             38.645        -75.6978284            103.299        -73.5102353            -31.587        -62.5103636             86.753
                      -2.74544943            -43.878        -63.0806848             54.571
                      -8.06805809             -5.056        -70.9734838             46.232        -67.4138472             28.216        -5.71340481             -3.707
                      -64.6390837             58.741         -21.310031            -20.306

            149.65       -21.1103466            -22.644        -63.5644907             90.139        -70.9980985             54.882        -5.61337426             -4.472
                       -64.108845             21.021        -8.04609628             -5.966
                      -66.6902564               82.6        -3.33705776            -47.875        -70.9765568             99.158        -66.7090408             20.419
                      -87.6999477             169.16        -64.7584383             57.624
                      -66.9068449             55.328        -66.0223373             153.38        -3.38822663            -47.859        -70.2713904             86.092
                      -77.8966114           -161.643        -67.9327815             46.567
                      -5.64658994             -4.409        -73.2468222             60.738        -65.1659403             53.525        -24.5829598           -157.699
                      -62.7992322             90.134        -5.69665284              -4.51
                      -66.0851145             17.181        -74.6004065            134.293         -78.666029              41.59         -63.258337             76.973
                      -3.33705776            -48.013        -65.5456767             74.303
                      -8.06805809             -5.967        -64.1507654             52.471        -65.9324526             53.311        -5.69665284             -4.459
                      -63.3613254             63.303         -21.310031            -20.626

             169.6       -20.9151498            -23.146        -63.2861886             74.075         -70.296933             77.137        -5.62996622             -5.198
                      -66.5432709             17.484        -8.06805809             -6.871
                      -65.8146008             91.163        -3.91721135            -51.415        -64.9621062            115.334        -69.0174815              4.716
                      -78.8695255            119.171        -68.9539378             44.761
                      -65.2481967             60.023        -70.7940735            108.097         -3.9719258            -51.469        -67.5164215             61.215
                      -83.7684999            -65.612        -70.4402205             13.263
                      -5.64658994             -5.095        -72.8298818             44.479        -66.3534876             74.645         -24.436975           -158.351
                      -62.1781755              92.07        -5.69665284              -5.21
                      -70.2827334             13.499        -75.5456706           -138.127        -70.5859114           -146.525        -61.4556734             84.007
                      -3.90358643            -51.593        -67.0386574             58.283
                      -8.09007556             -6.813        -65.1643661             40.809        -66.9010755             35.951        -5.71340481             -5.157
                       -64.120004             40.183        -21.2096149            -21.344

            189.55       -20.8191722            -23.843        -62.5324253             88.601        -67.1844105             37.701        -5.62996622             -5.889
                      -64.9069186              10.86        -8.06805809             -7.735
                      -62.3951645             71.315        -4.46597632             -54.46        -62.6235859            131.708         -70.155971             18.283
                      -78.0063872             91.216        -66.8187986             63.412
                       -66.024075             61.429        -67.9154789            135.189        -4.53890613            -54.582        -64.7194678             58.719
                      -72.5712537           -152.507        -68.4249243              7.043
                      -5.66324553             -5.757        -70.3140032             15.501        -65.8827258             56.562        -24.5829598           -158.311
                      -59.9653257              87.81        -5.69665284             -5.901
                      -65.7083758             36.835        -72.3921568             80.123        -78.2799259            170.929        -60.7962945             90.896
                      -4.45146355            -54.655        -66.9318902             39.926
                      -8.11214899             -7.656        -68.8474502             22.873        -67.0035707             25.591        -5.71340481              -5.82
                      -64.8217622             28.561        -21.1103466            -22.192

             209.5        -20.630341            -24.555        -62.4284152             66.427        -66.1730647             42.819        -5.64658994             -6.541
                      -66.8283257             30.019        -8.09007556             -8.565
                      -62.3985983             92.492         -4.9898321            -57.066        -63.4268021            128.364        -71.3598663              3.555
                      -74.2798576             96.203         -64.242293             52.908
                      -66.1783702             54.881        -62.6837124             118.08        -5.09850417            -57.215        -66.5654382             38.739
                      -81.5548355             78.293        -66.0571575             28.286
                      -5.66324553             -6.411        -67.6327614             33.377        -65.8417867             60.706        -24.5829598            -158.92
                      -59.2355472             93.785        -5.69665284             -6.545
                      -66.5046137             20.903        -72.1636615             161.36        -78.2870542             90.201        -59.6426456             82.528
                       -4.9898321            -57.248        -63.8899828             55.823
                      -8.09007556             -8.439        -65.6233256              39.89         -67.491693             31.874        -5.71340481             -6.485
                      -64.0394241             55.149        -20.9151498            -22.636

            229.45       -20.4455279             -25.05        -60.8968323             80.379        -65.4118441              51.42        -5.66324553             -7.202
                      -63.6381226             10.627        -8.11214899             -9.369
                      -62.1915796             81.617        -5.46545582            -59.293        -62.2882529            132.071        -67.8145166             16.883
                       -75.666128            165.823        -65.7083758             53.564
                      -65.3248233             46.809        -61.5704324            118.673        -5.62996622            -59.516        -65.2275594             60.602
                      -74.7509782           -171.267        -64.9008082             19.249
                      -5.66324553             -7.103        -66.0432126             25.508        -68.0790598             55.422        -24.5829598            -159.33
                      -58.7333328             91.904        -5.71340481             -7.219
                       -65.321617              8.986        -69.6481654            130.185        -74.1239128            123.915        -59.7432555             93.726
                      -5.48176735            -59.464        -65.5243213             39.548
