!Hittite Microwave Corporation								
!12 Elizabeth Drive								
!Chelmsford, MA 01824								
!Tel: 978-250-3343								
!Fax: 978-250-3373
!Device: HMC232, DC - 15 GHz GaAs MMIC Non-Reflective SPDT Switch 
!Misc: Port1=RFC, Port2= RF1, Port3=RF2, RF2 ON, Control: -5VDC								
!
# MHZ S MA R 50

150 0.065 -1.162 231.6e-6 -40.213 0.917 -7.898
          495.7e-6 0.656 0.196 170.278 609.6e-6 -23.208
          0.915 -7.862 337.7e-6 -74.812 0.055 -0.31
224.25 0.069 -8.574 318.5e-6 -29.75 0.903 -10.778
          253.5e-6 -32.587 0.188 168.995 274e-6 -49.029
          0.902 -10.757 263.3e-6 -54.509 0.062 -9.574
298.5 0.069 -13.256 215.3e-6 -44.776 0.898 -13.933
          195.5e-6 -53.079 0.186 166.748 120.8e-6 -91.798
          0.897 -13.939 245.6e-6 -75.162 0.063 -15.999
372.75 0.07 -16.634 159.9e-6 -59.524 0.896 -17.208
          183.7e-6 -4.329 0.186 163.97 185.8e-6 -120.316
          0.895 -17.166 160.7e-6 -76.34 0.064 -22.214
447 0.071 -20.793 91.76e-6 -114.87 0.894 -20.477
          115.1e-6 -76.186 0.186 161.314 159.1e-6 -123.25
          0.893 -20.41 248.6e-6 -118.559 0.066 -28.495
521.25 0.074 -24.763 123.3e-6 -109.451 0.894 -23.685
          56.82e-6 -130.079 0.185 158.727 126.7e-6 -76.26
          0.892 -23.641 198.4e-6 -85.142 0.068 -33.095
595.5 0.076 -28.099 62.23e-6 3.036 0.892 -26.919
          91.95e-6 -71.872 0.184 156.191 131.6e-6 -102.901
          0.891 -26.93 153.3e-6 -120.882 0.07 -36.153
669.75 0.077 -31.607 14.95e-6 -40.738 0.89 -30.235
          67.51e-6 2.626 0.182 153.502 195.4e-6 -120.542
          0.889 -30.196 171.2e-6 -121.899 0.071 -40.072
744 0.078 -35.673 5.179e-6 167.256 0.89 -33.454
          51.61e-6 117.183 0.18 150.817 171.7e-6 -141.025
          0.888 -33.412 174.1e-6 -132.283 0.073 -45.985
818.25 0.081 -40.438 39.25e-6 124.674 0.888 -36.686
          49.77e-6 70.326 0.178 147.905 129.2e-6 -149.874
          0.888 -36.629 131.2e-6 -149.424 0.075 -52.501
892.5 0.084 -44.931 104.2e-6 93.092 0.888 -39.958
          91.73e-6 51.284 0.177 144.749 171.9e-6 -141.104
          0.886 -39.923 155.5e-6 -150.238 0.077 -57.573
966.75 0.087 -48.357 72.69e-6 65.252 0.887 -43.239
          81.94e-6 80.821 0.176 141.508 190.6e-6 -145.552
          0.885 -43.217 165.3e-6 -145.837 0.078 -60.16
1041 0.09 -51.504 103.9e-6 75.726 0.886 -46.471
          69.86e-6 65.303 0.175 138.374 172.3e-6 -135.313
          0.885 -46.41 153.6e-6 -141.663 0.079 -62.015
1115.25 0.091 -55.08 106.7e-6 55.129 0.886 -49.694
          99.74e-6 89.602 0.175 135.516 168.4e-6 -169.238
          0.884 -49.558 151e-6 -160.838 0.08 -64.916
1189.5 0.093 -59.572 82.47e-6 55.914 0.885 -52.998
          138.2e-6 100.119 0.174 132.608 184.5e-6 -173.735
          0.884 -52.848 153.1e-6 -155.38 0.082 -69.784
1263.75 0.096 -64.405 145.9e-6 79.074 0.884 -56.287
          150.4e-6 98.719 0.173 129.505 224.7e-6 -152.337
          0.882 -56.194 212.9e-6 -162.501 0.084 -75.812
1338 0.1 -68.609 168.1e-6 67.44 0.883 -59.513
          166.5e-6 85.269 0.172 126.349 205.3e-6 -175.036
          0.882 -59.457 201.8e-6 -176.932 0.086 -80.61
1412.25 0.103 -72.057 214.5e-6 77.424 0.882 -62.727
          197.2e-6 69.147 0.172 123.324 187.7e-6 -171.645
          0.881 -62.661 186.7e-6 -179.381 0.088 -83.64
1486.5 0.105 -75.447 212.7e-6 67.491 0.882 -65.998
          201.9e-6 77.435 0.172 120.522 268.1e-6 171.007
          0.881 -65.92 225.2e-6 178.981 0.089 -86.047
1560.75 0.106 -79.603 222.8e-6 64.134 0.882 -69.285
          210.8e-6 70.28 0.171 117.75 246.8e-6 174.993
          0.88 -69.213 251.4e-6 172.67 0.09 -89.832
1635 0.108 -84.381 212.9e-6 61.565 0.881 -72.518
          263.1e-6 75.719 0.17 114.816 238.9e-6 168.342
          0.879 -72.464 271e-6 163.778 0.091 -95.243
1709.25 0.111 -89.008 213.1e-6 61.627 0.88 -75.736
          236.6e-6 78.983 0.169 111.614 283.1e-6 159.184
          0.878 -75.67 242.9e-6 169.578 0.093 -100.762
1783.5 0.115 -92.935 233.4e-6 59.26 0.879 -79.009
          219e-6 66.21 0.168 108.338 318e-6 158.859
          0.877 -78.939 258.4e-6 155.566 0.094 -105.124
1857.75 0.118 -96.288 253.9e-6 61.172 0.879 -82.274
          272.7e-6 60.283 0.169 105.271 294.5e-6 160.561
          0.877 -82.227 264.8e-6 159.431 0.095 -107.301
1932 0.119 -99.659 255.5e-6 54.005 0.879 -85.526
          298.8e-6 60.705 0.169 102.561 293.5e-6 154.594
          0.876 -85.416 311e-6 147.101 0.096 -109.82
2006.25 0.12 -103.706 345.5e-6 55.934 0.879 -88.77
          348.9e-6 54.583 0.168 99.866 316.3e-6 147.493
          0.876 -88.686 369.1e-6 145.199 0.097 -113.955
2080.5 0.121 -108.302 403.4e-6 54.534 0.878 -92.068
          329e-6 58.074 0.167 96.966 343.2e-6 141.02
          0.876 -92.021 337.2e-6 140.038 0.098 -119.508
2154.75 0.124 -112.722 438.8e-6 52.595 0.878 -95.36
          314.4e-6 52.647 0.167 93.857 344.2e-6 131.517
          0.875 -95.305 313.2e-6 132.129 0.1 -125.215
2229 0.126 -116.653 411e-6 46.616 0.877 -98.575
          333.5e-6 51.232 0.167 90.833 352e-6 135.753
          0.874 -98.53 312.6e-6 125.853 0.103 -128.977
2303.25 0.128 -120.241 448.7e-6 50.637 0.876 -101.783
          423.1e-6 53.581 0.167 88.123 418.6e-6 134.026
          0.874 -101.736 335.7e-6 128.007 0.105 -131.425
2377.5 0.129 -123.93 415.6e-6 51.477 0.875 -105.057
          358.9e-6 51.225 0.166 85.515 379.7e-6 125.527
          0.873 -105 367.1e-6 123.576 0.105 -134.023
2451.75 0.129 -127.942 429.1e-6 48.838 0.875 -108.375
          401.4e-6 42.469 0.164 82.795 400.7e-6 122.675
          0.872 -108.286 377.4e-6 117.753 0.105 -137.856
2526 0.129 -132.214 432.8e-6 49.517 0.874 -111.652
          454.2e-6 46.092 0.163 79.696 442.8e-6 122.286
          0.872 -111.537 436.2e-6 115.586 0.106 -143.295
2600.25 0.13 -136.556 496.9e-6 42.437 0.872 -114.866
          529.1e-6 45.769 0.162 76.473 442.4e-6 115.379
          0.871 -114.768 441.5e-6 112.018 0.108 -148.633
2674.5 0.132 -140.838 502.5e-6 38.194 0.872 -118.1
          570.3e-6 41.411 0.162 73.443 469.7e-6 113.876
          0.87 -118.025 418.1e-6 111.145 0.11 -152.413
2748.75 0.133 -144.76 526.5e-6 38.896 0.871 -121.36
          567.6e-6 40.709 0.162 70.742 469e-6 106.057
          0.869 -121.29 478.2e-6 107.868 0.11 -154.724
2823 0.133 -148.339 564.8e-6 39.036 0.87 -124.575
          562.6e-6 35.466 0.161 68.162 505.1e-6 102.035
          0.868 -124.512 514.9e-6 107.678 0.11 -157.278
2897.25 0.133 -151.967 580.6e-6 33.786 0.87 -127.807
          640.7e-6 31.637 0.159 65.211 514.4e-6 100.52
          0.868 -127.754 505.7e-6 102.43 0.109 -161.215
2971.5 0.132 -156.153 604.9e-6 33.31 0.87 -131.126
          682.9e-6 31.796 0.158 61.83 557.6e-6 94.747
          0.868 -131.04 545.1e-6 97.318 0.109 -166.077
3045.75 0.131 -160.601 637.8e-6 28.317 0.868 -134.424
          630.9e-6 31.279 0.158 58.416 560.7e-6 90.363
          0.867 -134.324 568.3e-6 89.535 0.11 -170.863
3120 0.132 -164.951 636.7e-6 28.099 0.867 -137.631
          654.4e-6 29.733 0.158 55.358 595.6e-6 92.229
          0.865 -137.566 565.6e-6 86.905 0.113 -174.649
3194.25 0.133 -168.588 637.3e-6 28.507 0.867 -140.827
          723.5e-6 28.212 0.158 52.706 641e-6 86.033
          0.865 -140.77 621.5e-6 84.556 0.114 -177.414
3268.5 0.133 -171.742 743.7e-6 26.514 0.866 -144.106
          734.5e-6 24.794 0.157 50.047 656.3e-6 80.289
          0.864 -144.067 626.2e-6 81.922 0.113 179.611
3342.75 0.131 -175.254 744.4e-6 18.282 0.865 -147.398
          753.5e-6 20.393 0.156 46.948 621.6e-6 76.442
          0.864 -147.319 606.6e-6 76.95 0.111 176.148
3417 0.128 -179.648 776.4e-6 17.302 0.864 -150.661
          757.6e-6 18.401 0.155 43.574 632.7e-6 71.487
          0.863 -150.567 639.2e-6 73.225 0.111 171.443
3491.25 0.128 175.537 779.1e-6 15.227 0.863 -153.875
          787.2e-6 18.014 0.155 40.442 683.7e-6 76.124
          0.862 -153.792 683.4e-6 69.026 0.113 166.415
3565.5 0.129 171.189 797.5e-6 14.198 0.862 -157.118
          855.2e-6 16.446 0.156 37.601 682.2e-6 69.772
          0.861 -157.024 738.7e-6 68.417 0.116 161.989
3639.75 0.131 167.797 843.7e-6 12.954 0.861 -160.414
          835.9e-6 15.039 0.156 35.061 703.2e-6 66.561
          0.859 -160.314 787.9e-6 65.516 0.117 158.145
3714 0.13 165.056 917.3e-6 10.873 0.86 -163.609
          853.1e-6 11.658 0.154 32.384 735.6e-6 60.125
          0.858 -163.536 751e-6 60.997 0.116 154.839
3788.25 0.128 161.988 955e-6 8.155 0.859 -166.793
          890.3e-6 8.167 0.153 29.411 784.4e-6 56.881
          0.857 -166.713 752.1e-6 59.595 0.113 151.228
3862.5 0.126 157.968 929.5e-6 4.82 0.859 -170.099
          961.8e-6 4.925 0.153 26.24 781.9e-6 56.882
          0.857 -169.983 779e-6 55.135 0.112 146.523
3936.75 0.125 153.67 1.004e-3 3.4 0.858 -173.418
          994e-6 0.976 0.153 23.045 801.5e-6 52.425
          0.856 -173.321 806.2e-6 54.386 0.113 140.999
4011 0.126 149.855 976.5e-6 1.178 0.857 -176.64
          983.6e-6 -0.12 0.153 20.247 890e-6 47.565
          0.854 -176.605 868.7e-6 51.922 0.117 136.029
4085.25 0.126 146.632 968.5e-6 -1.189 0.856 -179.824
          1.01e-3 -0.714 0.152 17.611 869.4e-6 45.13
          0.853 -179.807 859.7e-6 47.519 0.118 132.118
4159.5 0.125 143.581 1.031e-3 -2.455 0.855 176.935
          1.067e-3 -4.641 0.152 14.712 860.4e-6 43.066
          0.853 176.955 900.6e-6 43.326 0.116 128.753
4233.75 0.123 140.049 1.062e-3 -4.667 0.854 173.671
          1.09e-3 -6.291 0.151 11.708 961.8e-6 42.801
          0.852 173.735 935.8e-6 41.378 0.112 125.208
4308 0.121 135.921 1.112e-3 -6.358 0.853 170.447
          1.078e-3 -7.428 0.152 8.869 1.014e-3 38.275
          0.851 170.55 906.8e-6 37.548 0.112 120.545
4382.25 0.121 131.683 1.136e-3 -8.168 0.852 167.212
          1.093e-3 -10.188 0.151 6.141 965.8e-6 35.252
          0.85 167.31 941e-6 34.501 0.115 115.162
4456.5 0.121 127.756 1.13e-3 -12.273 0.85 163.946
          1.147e-3 -12.466 0.15 3.233 985.5e-6 32.769
          0.849 164.03 1.02e-3 33.622 0.119 110.322
4530.75 0.121 124.279 1.173e-3 -15.708 0.85 160.669
          1.162e-3 -16.016 0.149 9.158e-3 1.025e-3 29.96
          0.847 160.749 1.054e-3 29.222 0.12 106.555
4605 0.121 120.959 1.224e-3 -17.151 0.849 157.446
          1.214e-3 -17.628 0.149 -3.251 1.034e-3 25.517
          0.847 157.526 1.041e-3 24.924 0.117 103.597
4679.25 0.12 117.414 1.25e-3 -19.353 0.849 154.258
          1.235e-3 -19.166 0.15 -6.18 1.065e-3 23.617
          0.846 154.332 1.064e-3 24.446 0.115 100.27
4753.5 0.119 113.551 1.288e-3 -22.06 0.848 150.974
          1.256e-3 -19.972 0.151 -8.777 1.126e-3 20.582
          0.846 151.032 1.151e-3 20.54 0.116 95.435
4827.75 0.12 109.517 1.303e-3 -24.135 0.847 147.67
          1.295e-3 -22.958 0.15 -11.322 1.165e-3 16.739
          0.845 147.72 1.18e-3 16.088 0.119 89.498
4902 0.121 105.759 1.329e-3 -27.631 0.845 144.46
          1.316e-3 -26.775 0.149 -14.17 1.199e-3 14.371
          0.843 144.504 1.165e-3 13.314 0.122 84.377
4976.25 0.123 102.509 1.343e-3 -29.817 0.844 141.287
          1.346e-3 -28.032 0.149 -17.305 1.249e-3 11.321
          0.842 141.351 1.204e-3 11.564 0.121 80.619
5050.5 0.124 99.542 1.402e-3 -32.302 0.843 138.07
          1.369e-3 -29.459 0.15 -20.303 1.269e-3 7.563
          0.842 138.133 1.23e-3 7.428 0.118 77.374
5124.75 0.123 96.382 1.459e-3 -33 0.843 134.809
          1.39e-3 -32.339 0.151 -22.724 1.276e-3 4.173
          0.841 134.87 1.271e-3 3.937 0.117 73.487
5199 0.122 92.444 1.459e-3 -35.674 0.842 131.543
          1.421e-3 -35.309 0.15 -24.83 1.305e-3 1.369
          0.84 131.607 1.329e-3 1.135 0.119 68.374
5273.25 0.123 87.798 1.464e-3 -38.264 0.841 128.312
          1.473e-3 -37.367 0.149 -27.353 1.363e-3 -0.909
          0.839 128.372 1.34e-3 -3.079 0.123 62.902
5347.5 0.125 83.339 1.505e-3 -40.322 0.84 125.107
          1.529e-3 -40.482 0.148 -30.46 1.365e-3 -4.736
          0.837 125.167 1.35e-3 -5.531 0.125 58.478
5421.75 0.129 79.725 1.55e-3 -43.741 0.839 121.882
          1.518e-3 -43.293 0.148 -33.71 1.397e-3 -7.728
          0.837 121.936 1.375e-3 -8.024 0.124 55.289
5496 0.13 76.79 1.594e-3 -46.36 0.838 118.666
          1.541e-3 -44.92 0.149 -36.384 1.453e-3 -11.195
          0.836 118.705 1.377e-3 -11.004 0.122 52.065
5570.25 0.131 73.603 1.624e-3 -47.758 0.838 115.447
          1.57e-3 -47.1 0.15 -38.336 1.456e-3 -15.37
          0.836 115.483 1.426e-3 -12.543 0.122 47.744
5644.5 0.131 69.4 1.651e-3 -49.209 0.837 112.172
          1.644e-3 -50.081 0.149 -40.304 1.499e-3 -18.669
          0.835 112.223 1.456e-3 -15.627 0.124 42.208
5718.75 0.132 64.688 1.678e-3 -51.888 0.835 108.894
          1.71e-3 -53.053 0.147 -43.027 1.57e-3 -21.04
          0.833 108.96 1.477e-3 -19.517 0.128 36.947
5793 0.136 60.512 1.694e-3 -55.641 0.834 105.696
          1.694e-3 -56.086 0.146 -46.325 1.554e-3 -23.665
          0.832 105.766 1.517e-3 -22.381 0.13 33.002
5867.25 0.139 57.33 1.716e-3 -58.032 0.833 102.55
          1.688e-3 -57.524 0.147 -49.315 1.562e-3 -27.024
          0.832 102.615 1.543e-3 -24.494 0.13 29.981
5941.5 0.141 54.51 1.761e-3 -60.141 0.833 99.343
          1.722e-3 -59.633 0.149 -51.48 1.596e-3 -28.79
          0.831 99.392 1.592e-3 -27.279 0.128 26.752
6015.75 0.14 51.041 1.803e-3 -62.583 0.832 96.078
          1.752e-3 -62.335 0.148 -53.083 1.61e-3 -31.009
          0.83 96.128 1.614e-3 -31.645 0.128 22.567
6090 0.141 46.735 1.808e-3 -64.949 0.831 92.831
          1.805e-3 -64.226 0.146 -55.011 1.673e-3 -34.931
          0.829 92.896 1.641e-3 -34.392 0.129 17.933
6164.25 0.143 42.383 1.802e-3 -67.802 0.83 89.609
          1.852e-3 -67.309 0.144 -57.776 1.686e-3 -38.082
          0.828 89.69 1.677e-3 -36.672 0.132 13.747
6238.5 0.147 38.785 1.842e-3 -69.554 0.829 86.39
          1.858e-3 -69.825 0.143 -60.961 1.697e-3 -40.31
          0.827 86.475 1.706e-3 -39.651 0.134 10.432
6312.75 0.148 35.925 1.879e-3 -70.791 0.828 83.172
          1.873e-3 -71.936 0.144 -63.666 1.773e-3 -43.144
          0.826 83.226 1.754e-3 -42.712 0.133 7.661
6387 0.148 32.936 1.917e-3 -74.126 0.828 79.981
          1.911e-3 -75.005 0.145 -65.455 1.817e-3 -46.395
          0.826 80.001 1.794e-3 -45.934 0.13 4.91
6461.25 0.146 28.946 1.956e-3 -77.91 0.827 76.781
          1.956e-3 -78.081 0.143 -66.992 1.842e-3 -49.101
          0.826 76.816 1.808e-3 -48.832 0.128 1.672
6535.5 0.147 24.246 1.977e-3 -80.184 0.827 73.519
          1.984e-3 -79.752 0.14 -69.175 1.88e-3 -51.897
          0.826 73.584 1.844e-3 -52.004 0.128 -2.24
6609.75 0.149 20.003 2.024e-3 -82.119 0.826 70.254
          1.971e-3 -81.456 0.138 -72.076 1.885e-3 -54.488
          0.825 70.314 1.88e-3 -55.049 0.132 -6.242
6684 0.152 16.94 2.048e-3 -84.428 0.825 67.037
          1.982e-3 -84.766 0.137 -75 1.887e-3 -57.518
          0.823 67.097 1.904e-3 -56.85 0.136 -9.478
6758.25 0.153 14.566 2.046e-3 -86.707 0.824 63.826
          2.027e-3 -87.183 0.137 -77.324 1.918e-3 -60.697
          0.822 63.925 1.933e-3 -59.08 0.137 -11.842
6832.5 0.151 11.742 2.077e-3 -89.487 0.824 60.618
          2.058e-3 -89.966 0.136 -79.219 1.964e-3 -63.348
          0.822 60.705 1.961e-3 -62.535 0.134 -13.982
6906.75 0.148 7.924 2.108e-3 -92.734 0.824 57.382
          2.086e-3 -92.786 0.134 -81.267 2.007e-3 -65.788
          0.822 57.451 2.002e-3 -65.756 0.13 -16.543
6981 0.147 3.632 2.107e-3 -95.015 0.824 54.116
          2.109e-3 -94.505 0.132 -83.803 2.056e-3 -68.098
          0.822 54.211 2.022e-3 -68.476 0.129 -19.909
7055.25 0.148 -0.17 2.102e-3 -97.521 0.823 50.892
          2.14e-3 -97.316 0.131 -86.484 2.092e-3 -71.286
          0.821 50.963 2.046e-3 -71.042 0.132 -23.755
7129.5 0.148 -3.076 2.119e-3 -99.862 0.822 47.674
          2.141e-3 -99.631 0.13 -88.645 2.111e-3 -73.969
          0.82 47.72 2.085e-3 -73.419 0.136 -27.208
7203.75 0.147 -5.475 2.159e-3 -101.457 0.821 44.441
          2.141e-3 -101.426 0.129 -90.321 2.141e-3 -76.91
          0.819 44.49 2.125e-3 -75.993 0.136 -29.643
7278 0.144 -8.024 2.199e-3 -103.872 0.821 41.22
          2.169e-3 -103.821 0.127 -92.03 2.165e-3 -79.838
          0.818 41.276 2.171e-3 -79.82 0.131 -31.107
7352.25 0.14 -11.213 2.222e-3 -106.251 0.821 38.011
          2.202e-3 -106.15 0.124 -94.164 2.216e-3 -81.82
          0.819 38.052 2.21e-3 -83.134 0.126 -32.831
7426.5 0.137 -14.85 2.25e-3 -107.744 0.822 34.752
          2.219e-3 -108.096 0.122 -96.72 2.227e-3 -84.297
          0.819 34.8 2.22e-3 -85.231 0.124 -36.134
7500.75 0.136 -18.147 2.299e-3 -109.638 0.821 31.478
          2.233e-3 -110.592 0.12 -99.237 2.232e-3 -87.268
          0.818 31.526 2.242e-3 -88.007 0.127 -40.19
7575 0.135 -20.58 2.308e-3 -112.941 0.819 28.251
          2.279e-3 -113.069 0.119 -101.343 2.275e-3 -90.538
          0.817 28.284 2.307e-3 -91.221 0.129 -43.269
7649.25 0.133 -22.188 2.296e-3 -116.001 0.818 25.041
          2.287e-3 -115.256 0.116 -103.374 2.322e-3 -93.137
          0.816 25.095 2.322e-3 -93.636 0.127 -44.528
7723.5 0.129 -23.664 2.305e-3 -118.25 0.818 21.797
          2.283e-3 -117.894 0.114 -105.796 2.369e-3 -95.492
          0.817 21.87 2.334e-3 -96.016 0.121 -44.303
7797.75 0.124 -25.614 2.292e-3 -120.04 0.818 18.499
          2.284e-3 -119.97 0.112 -108.445 2.41e-3 -97.995
          0.817 18.594 2.386e-3 -98.845 0.115 -44.488
7872 0.12 -27.919 2.29e-3 -121.265 0.819 15.242
          2.298e-3 -121.723 0.112 -110.554 2.421e-3 -101.354
          0.816 15.325 2.435e-3 -102.336 0.113 -46.617
7946.25 0.117 -30.149 2.33e-3 -123.386 0.818 12.015
          2.32e-3 -123.604 0.11 -111.802 2.451e-3 -103.79
          0.816 12.087 2.472e-3 -104.075 0.114 -49.981
8020.5 0.115 -31.624 2.36e-3 -126.054 0.817 8.758
          2.34e-3 -126.225 0.107 -112.903 2.498e-3 -106.514
          0.815 8.84 2.5e-3 -106.377 0.115 -52.46
8094.75 0.112 -31.751 2.366e-3 -128.209 0.816 5.483
          2.381e-3 -127.111 0.102 -114.874 2.506e-3 -110.067
          0.814 5.557 2.538e-3 -109.703 0.112 -52.603
8169 0.108 -30.897 2.376e-3 -130.752 0.816 2.22
          2.414e-3 -129.373 0.098 -118.071 2.529e-3 -113
          0.814 2.288 2.553e-3 -111.891 0.106 -51.323
8243.25 0.102 -30.244 2.38e-3 -132.321 0.816 -1.03
          2.419e-3 -132.31 0.096 -121.628 2.598e-3 -114.915
          0.814 -0.972 2.611e-3 -114.22 0.101 -51.25
8317.5 0.096 -30.798 2.4e-3 -134.743 0.816 -4.319
          2.434e-3 -133.808 0.096 -124.113 2.648e-3 -116.895
          0.814 -4.238 2.649e-3 -116.705 0.1 -53.616
8391.75 0.093 -32.282 2.461e-3 -136.324 0.815 -7.611
          2.469e-3 -136.364 0.095 -125.293 2.683e-3 -120.116
          0.814 -7.503 2.686e-3 -119.403 0.102 -57.043
8466 0.092 -33.019 2.485e-3 -138.421 0.814 -10.847
          2.48e-3 -138.3 0.092 -126.241 2.7e-3 -122.744
          0.812 -10.743 2.749e-3 -122.766 0.104 -58.594
8540.25 0.094 -31.71 2.486e-3 -140.17 0.813 -14.04
          2.489e-3 -139.997 0.087 -128.3 2.779e-3 -124.617
          0.811 -13.96 2.786e-3 -124.989 0.103 -56.789
8614.5 0.095 -28.513 2.517e-3 -141.71 0.813 -17.3
          2.502e-3 -141.824 0.084 -131.436 2.817e-3 -127.292
          0.811 -17.231 2.8e-3 -127.433 0.1 -53.929
8688.75 0.094 -24.933 2.554e-3 -143.817 0.813 -20.619
          2.538e-3 -143.488 0.083 -134.073 2.848e-3 -130.584
          0.811 -20.566 2.843e-3 -130.105 0.095 -52.966
8763 0.091 -22.662 2.576e-3 -146.452 0.812 -23.941
          2.564e-3 -145.811 0.082 -135.206 2.912e-3 -133.219
          0.81 -23.866 2.915e-3 -133.268 0.093 -54.766
8837.25 0.089 -22.262 2.573e-3 -147.33 0.811 -27.193
          2.583e-3 -147.837 0.078 -135.419 2.96e-3 -136.141
          0.81 -27.111 2.936e-3 -136.239 0.095 -57.631
8911.5 0.091 -22.763 2.6e-3 -149.531 0.811 -30.404
          2.593e-3 -149.43 0.073 -136.921 3.009e-3 -138.786
          0.809 -30.35 2.985e-3 -138.566 0.099 -58.728
8985.75 0.096 -22.381 2.661e-3 -152.17 0.81 -33.683
          2.627e-3 -151.822 0.068 -140.869 3.048e-3 -141.759
