! Hittite Microwave Corporation
! 20 Alpha Road
! Chelmsford, MA 01824
! Tel: 978-250-3343
! Fax: 978-250-3373
! Device: HMC276QS24, 0.7-3.0 GHz, GaAS MMIC 4x2 Switch Matrix in 24-lead QSOP package
! Misc: Data was de-embedded to package pins.
!       Port 1 = OP1
!       Port 2 = VL
!       Port 3 = VH
!       Port 4 = HH
!       Port 5 = HL
!       Port 6 = OP2
!          Vdd = +5 V
!         Vctl = 0 V[Logic 0] / +5 V[Logic 1]
!
!  State 12,  HL to OP1,  HH to OP2
!  Control Lines (Logic)
!    HV 1 = 1, Tone 1 = 0
!    HV 2 = 1, Tone 2 = 1
!
!  Data reformated to new Touchstone file format - Wed Jan 10 15:55:32 2007
!
# MHz S DB R 50
! 6 Port Network Data
! freq  dbS11  angS11  dbS12  angS12  dbS13  angS13  dbS14  angS14  
!       dbS15  angS15  dbS16  angS16  
!       dbS21  angS21  dbS22  angS22  
!       dbS23  angS23  dbS24  angS24  dbS25  angS25  dbS26  angS26  
!       dbS31  angS31  dbS32  angS32  dbS33  angS33  dbS34  angS34  
!       dbS35  angS35  dbS36  angS36  
!       dbS41  angS41  dbS42  angS42  
!       dbS43  angS43  dbS44  angS44  dbS45  angS45  dbS46  angS46  
!       dbS51  angS51  dbS52  angS52  dbS53  angS53  dbS54  angS54  
!       dbS55  angS55  dbS56  angS56  
!       dbS61  angS61  dbS62  angS62  
!       dbS63  angS63  dbS64  angS64  dbS65  angS65  dbS66  angS66  
!     
                10       -10.6330534            -14.912        -41.5092456           -178.311        -44.1339729           -118.992        -51.3310041             94.214
                       -2.6860788              2.983        -43.6513371           -174.709
                      -46.2369449           -175.708      -0.0697665569             -3.858         -46.622967             89.337        -52.4794164              0.925
                      -45.7285092            172.303        -52.4138896            -86.622
                      -45.6515833           -133.768        -55.0946832            -11.997      -0.0260968338             -3.918        -53.0183366             24.298
                      -50.4113733             173.41        -54.2798576             65.497
                      -41.5996217             36.119        -54.1194981             19.658        -43.3128577             38.126        -11.0879159            -14.433
                      -59.1170476            -57.599        -2.70977838              2.288
                      -2.80522868              3.693        -42.3745899            -76.848        -48.9588093            100.162        -45.9824658            -41.402
                      -11.4697748             -8.295        -43.1353444           -139.539
                      -49.8617855            158.099        -43.9609553            176.866        -46.0466967           -133.705        -2.80522868              4.069
                       -53.424256            -23.676        -10.9031028            -12.063

             29.95       -11.5350825            -12.687        -58.3658546            -43.885        -56.0048965             32.733        -62.2061242             22.376
                      -2.69792051             -0.678        -61.2006342            179.757
                      -56.7846288             36.892       -0.282492854            -12.634        -56.2495856             29.332        -65.4687157             18.795
                      -64.5491653           -170.711        -56.5596238           -142.208
                      -58.9769496            -95.354        -59.1484898             24.767       -0.273524459            -12.577        -56.7786323             15.927
                      -64.5917974            -42.198        -57.3740441            -80.134
                      -71.0661507            118.855        -64.4167315             98.866         -60.631275             94.177        -11.5350825            -15.968
                      -61.9762844              62.66         -2.6860788             -0.706
                      -2.69792051             -0.449        -60.1004665            -62.465        -64.0338944            -26.068        -62.8461148           -170.354
                       -11.700533            -16.291        -64.2678105              4.028
                      -71.3791611             37.129        -62.2285481            -43.812        -61.7576854           -134.023        -2.72165246             -0.656
                      -59.3556859             33.562        -11.4373041             -13.02

              49.9       -11.9033257            -14.059        -68.9320498            169.321        -77.0341181           -140.808        -72.6119717             34.571
                      -2.59192189             -3.741        -63.2950692             95.446
                        -60.49964           -158.828        -0.63968572            -20.313        -64.3850154             84.423        -66.1677625             47.293
                      -71.2608534             94.076        -68.3496423            -19.584
                      -68.3678327           -165.613         -64.166187              40.04        -0.63968572            -20.223        -72.8680113            133.502
                      -66.9938495              26.69        -65.4883006           -175.835
                      -83.4049216            -46.462        -64.0657387             -54.67        -62.4767983            122.353        -12.0065256            -18.661
                      -66.7637463           -177.393        -2.60363584             -3.936
                      -2.61536561              -3.69        -69.7463121            -96.397        -74.4112242            124.364        -69.6060647            172.018
                      -12.3236927            -18.607        -67.4588307            -49.641
                      -71.2926699              87.94        -64.8687991             -9.695        -67.2262223             26.347        -2.62711123             -3.826
                      -77.1209777            128.641        -11.8691964            -13.733

             69.85       -12.0411998            -17.856         -72.637983             52.503        -69.0445059            -62.127        -69.0913834            142.832
                      -2.72165246             -5.458        -61.4875709             53.686
                      -73.5020101             -6.311         -1.0906283            -27.369        -75.7509208             23.703        -79.4367116             23.205
                       -72.826078             -3.332         -68.230084             83.772
                      -76.0103817           -159.831        -81.6257667            139.357         -1.0906283            -27.206        -65.9755503             69.596
                      -69.5094813             95.085        -67.8166525             -0.513
                      -67.7655338              88.46        -72.3885399             91.476        -65.0782191            167.056        -12.1812979            -24.279
                      -63.6183385            123.442         -2.7335428             -5.791
                      -2.72165246             -5.338        -65.4459223            108.146         -84.698556             136.11        -65.3617812             90.852
                      -12.3957752            -24.592        -77.0650397           -142.675
                      -66.0171263             87.191        -75.8043397             31.347        -67.3549045             80.276         -2.7335428             -5.661
                       -66.125461             54.316        -12.0411998            -17.428

              89.8       -12.2166783              -21.5        -70.5331807             89.746        -66.5506537               64.3         -67.460881              102.7
                      -2.82925605             -7.113        -59.9394106             82.233
                      -74.3204143             97.035        -1.59753347            -33.563        -75.0160329             57.433        -81.4382308            -35.411
                      -69.2789369              53.56        -68.5309636            105.986
                      -68.5518626            -12.767        -73.9837441            -39.393        -1.61843815            -33.456        -68.1675792             67.854
                       -81.977375           -165.733        -70.3969855             29.521
                      -72.4940452            127.211        -70.6300995            -10.482        -80.5051619             36.782        -12.3957752            -29.519
                      -61.0807859             79.191        -2.82925605             -7.523
                      -2.82925605             -7.013        -83.4139245           -146.443        -74.1548786             27.216        -60.7915359             67.307
                      -12.5417599            -29.839        -68.0373271             64.145
                       -59.701193             99.697        -69.8942865             28.944         -68.030756             10.901        -2.84129471             -7.404
                      -71.0848033             29.565        -12.2166783            -20.663

            109.75       -12.3596591            -24.646        -70.9366921             115.16        -69.3576577            105.236        -70.7072288               68.8
                      -2.96260799             -8.554        -58.8924334             85.133
                      -67.0503845             92.817        -2.18040806            -39.011        -74.9526497             109.04        -75.1690704             29.715
                       -69.231039            -15.573        -69.4062609             73.648
                      -70.3768826             61.335        -71.9204407             88.506        -2.19157962            -38.927        -70.5302606             -6.759
                      -72.5971431            177.307        -75.0996226             50.365
                      -69.9842965             55.565        -69.2587371             59.862        -67.2062868             54.474        -12.6528816            -34.288
                       -58.666029             88.617        -2.95040013             -9.045
                      -2.96260799             -8.454        -71.1222291             48.395        -68.6453607             52.435        -60.3337903               88.4
                      -12.7654433             -35.11        -68.1011053              60.92
                       -58.351474             73.949        -66.1571678              37.23        -65.8690579             44.793        -2.97483303             -8.944
                      -75.9121734             -1.668         -12.432042            -23.721

             129.7       -12.5786428             -27.61        -65.5670847             94.201        -64.0449574             71.819        -69.6508035             78.382
                      -3.07325776             -9.844         -56.972603             81.405
                      -66.8991532             75.562        -2.75737241            -43.774         -71.103496            119.509        -69.9596557             21.368
                      -71.2799293             82.967        -68.4180535             41.555
                      -67.5350142             84.455         -73.905882             116.08        -2.79323987            -43.702        -69.6113161             54.413
                      -72.6491545             44.917         -67.411808              21.89
                      -71.5350825             66.289        -69.0988083             68.804        -73.2030243             52.025        -12.9178312            -38.931
                      -61.0975246             81.073        -3.07325776             -10.44
                      -3.08563964             -9.726          -68.87395             47.366        -66.9068449             58.279        -59.5349508             86.552
                      -12.9950396            -39.561        -70.7820431             47.992
                      -57.8829865             64.876        -71.8794211             -7.029        -66.9338197                 55         -3.0980392            -10.312
                      -67.7676578             40.013        -12.6528816            -26.469

            149.65       -12.7654433            -30.306        -64.7404302               65.8        -70.6537587             70.941         -69.322018              48.74
                      -3.19787811            -10.956        -57.6347055             76.794
                       -63.181576             69.408        -3.33705776            -47.856        -69.6904712            133.937        -71.7878291             12.271
                      -72.7692206             33.336        -67.1685349             48.109
                      -76.9542331             31.272        -75.8043397            107.319        -3.38822663            -47.859        -67.6915209             42.709
                      -66.6155225              33.64        -71.7878291              63.15
                      -70.5011133             46.017        -66.8722856             22.642        -72.7805623             19.001        -13.1911177            -43.079
                      -57.7345062             73.669        -3.19787811            -11.674
                      -3.21043905            -10.896        -73.3512308             38.497        -68.5611673             94.343        -57.7144541             81.191
                      -13.2708053            -43.945        -68.7446291             58.772
                      -56.5596238             73.337        -67.5681665             54.159        -70.2374501             42.036        -3.22301819            -11.635
                      -64.9960054             37.526        -12.8794829            -28.707

             169.6       -12.9563496            -32.576        -64.9651825             69.138         -65.321617             77.687        -66.2316036             49.422
                      -3.32431251            -11.966        -54.9575089             66.824
                      -63.2621297              68.31        -3.90358643            -51.424        -65.7184367             105.98        -71.6273463             33.481
                      -70.1924016             40.926         -68.030756             62.676
                      -67.9718388             26.461        -68.5704819            132.471         -3.9719258             -51.47        -69.0420456             92.108
                      -90.9275185            -87.123        -64.7945668             31.153
                      -67.9827193             71.535        -69.2385843             56.173        -69.3934442             49.591        -13.4732828            -46.945
                      -57.8016827             70.831        -3.32431251             -12.76
                      -3.33705776            -11.924        -74.0754743             36.447        -74.2350155              -7.24        -57.9444677             81.218
                      -13.5143509            -48.046        -67.9089993             24.883
                      -54.5076076             71.132         -64.528659             61.053        -67.6999477             28.936        -3.34982175            -12.737
                      -65.2768525              18.05        -13.1121545            -30.912

            189.55       -13.1121545            -34.527         -64.242293             69.389        -69.5198711             49.407        -65.3650023             44.933
                      -3.45261454            -12.845        -55.4680019             74.779
                      -63.6341622             79.803        -4.45146355            -54.485        -66.7184482            102.834        -69.3857632             41.791
                      -76.0268583             -0.643        -67.3853421             60.545
                      -67.7231636             76.734        -67.0660454            126.778        -4.53890613            -54.592        -65.9513893             73.284
                      -73.6470891             15.964        -67.4199676             18.091
                      -67.5040484             78.786        -71.7407146             29.601        -72.1214799             83.539        -13.7649228            -50.644
                      -55.8742791             76.332        -3.45261454            -13.773
                      -3.47850395            -12.745        -79.8024873             -3.387        -79.8878111             13.656        -57.0526578             77.813
                      -13.7226556            -51.816        -66.9376801             58.931
                      -54.5029936             73.886        -69.6772285             64.426        -76.3631282             31.015        -3.47850395            -13.684
                      -65.4768707              31.97         -13.310925            -32.779

             209.5       -13.2708053            -36.294        -64.2578781             95.894        -69.3704217             76.522        -68.4295079             50.504
                      -3.58284021             -13.61        -54.5538831             78.564
                      -63.2041563              86.83         -4.9898321            -57.034        -65.7419575             115.57        -72.0446749             75.816
                      -68.0504842              3.623        -66.7391805             65.381
                      -71.0785813             88.096        -63.3103143            126.774        -5.09850417            -57.224        -65.9651874             76.605
                      -73.6303855             59.879        -67.0758478             40.749
                      -65.7201146             50.246        -75.4166059             70.245         -66.622967             64.644        -14.0666962            -53.778
                      -56.7010525             74.831        -3.58284021            -14.622
                      -3.58284021            -13.499         -66.999681              1.445        -69.2663065              62.53        -55.8526993             76.839
                      -13.9794001            -55.215        -63.9911576             41.627
                      -55.1640914             72.759        -68.1675792             38.844         -65.565436              9.481        -3.59597081             -14.55
                      -67.6453193             50.066        -13.5143509            -34.353

            229.45       -13.3917245            -37.816        -64.7060187             93.782        -65.6249853             61.158        -65.7402753             53.044
                      -3.68844503            -14.283        -54.1194981             75.327
                      -61.9338584             87.293        -5.48176735            -59.246         -61.940372            117.587        -71.8216396             18.869
                      -70.0145084             -5.931        -67.0094087             48.107
                      -69.1012847             62.822        -62.1703659            130.167        -5.61337426            -59.493        -70.0807921             85.471
                       -90.958135             49.389        -69.8455805             -4.122
                      -65.6499185             62.042        -70.2092674             66.041        -67.9436132             97.716        -14.3339754            -56.735
                       -55.179037             76.043        -3.68844503            -15.401
                      -3.70173637            -14.157        -78.0340493             -5.922        -75.1243617             57.259        -55.2491252              81.47
                      -14.2439654            -58.371        -65.3424792              51.18
