!Hittite Microwave Corporation								
!12 Elizabeth Drive								
!Chelmsford, MA 01824								
!Tel: 978-250-3343								
!Fax: 978-250-3373								
!Device: HMC270MS8G, DC-8 GHz GaAS MMIC SPDT non-reflective switch in 8-lead MSOP grounded base package								
!Misc: Port1 = RFCom, Port2 = RF1, Port3 = RF2, RF2 selected, Vctl=-5V								
!
# MHZ S MA R 50

10 0.217 54.092 0.766 125.302 0.017 112.003
          1.003 176.81 0.383 47.027 0.02 125.863
          0.108 -15.964 0.077 -23.086 0.161 145.196
69.82 0.064 -4.847 0.966 -2.081 1.31e-3 128.797
          0.95 -1.528 0.076 5.229 390.4e-6 -80.633
          2.159e-3 -132.533 2.183e-3 174.18 0.053 -2.051
129.641 0.037 39.037 0.952 -1.865 119.3e-6 -28.972
          0.953 -1.882 0.057 34.225 233.2e-6 127.66
          548.9e-6 157.172 387.3e-6 106.595 0.052 4.445
189.461 0.059 12.501 0.942 -2.314 330.8e-6 43.405
          0.935 -2.027 0.064 16.404 252.1e-6 80.998
          149.4e-6 25.753 351.2e-6 55.451 0.055 9.026
249.281 0.07 45.58 0.939 -2.604 94.21e-6 -16.045
          0.94 -2.472 0.078 36.751 311.7e-6 74.123
          469.1e-6 139.948 145e-6 78.069 0.054 12.602
309.102 0.069 28.607 0.941 -2.825 498.3e-6 91.109
          0.931 -2.892 0.076 28.942 190.5e-6 30.861
          627.2e-6 68.053 311.4e-6 -42.954 0.058 15.062
368.922 0.086 41.684 0.931 -2.87 566.2e-6 105.34
          0.932 -2.989 0.093 37.177 481.9e-6 146.651
          831.3e-6 -5.206 823.2e-6 155.171 0.059 18.841
428.743 0.086 33.596 0.933 -3.409 727.8e-6 65.509
          0.923 -3.696 0.09 35.982 816.2e-6 107.376
          571.4e-6 53.22 879.1e-6 103.719 0.061 21.348
488.563 0.105 38.322 0.93 -3.746 330.8e-6 90.835
          0.929 -3.343 0.109 38.748 514.8e-6 92.034
          1.159e-3 94.091 598.7e-6 94.132 0.063 23.728
548.383 0.104 34.335 0.925 -3.998 872.6e-6 93.503
          0.921 -4.191 0.105 38.615 448.5e-6 101.422
          347.9e-6 111.23 716.2e-6 98.401 0.064 25.736
608.204 0.12 36.99 0.927 -4.214 922.4e-6 102.151
          0.924 -3.823 0.124 38.497 849.2e-6 114.751
          816.2e-6 106.364 497.7e-6 154.971 0.067 26.496
668.024 0.115 33.601 0.926 -4.196 823.2e-6 94.633
          0.919 -4.676 0.119 37.682 1.015e-3 115.565
          920.5e-6 86.678 886.3e-6 87.149 0.068 29.601
727.844 0.135 32.003 0.925 -4.933 753.2e-6 80.923
          0.922 -4.691 0.135 38.447 936.3e-6 121.724
          903.9e-6 80.632 1.294e-3 127.672 0.071 30.163
787.665 0.131 32.313 0.925 -4.596 1.047e-3 90.342
          0.915 -4.961 0.135 37.461 960.7e-6 122.228
          1.278e-3 93.987 909.4e-6 110.975 0.072 33.092
847.485 0.145 28.945 0.92 -5.27 901.7e-6 84.969
          0.917 -4.961 0.143 37.458 989.4e-6 116.116
          1.076e-3 70.916 806.5e-6 107.365 0.074 33.076
907.305 0.143 31.364 0.921 -5.489 1.103e-3 90.397
          0.915 -5.932 0.147 36.601 1.173e-3 119.455
          1.125e-3 87.857 1.228e-3 126.98 0.076 35.536
967.126 0.151 26.251 0.921 -5.548 1.142e-3 88.304
          0.919 -5.19 0.151 36.071 1.011e-3 124.175
          1.307e-3 105.033 1.383e-3 123.202 0.078 35.479
1026.946 0.155 28.181 0.914 -5.943 1.237e-3 89.332
          0.897 -6.274 0.159 35.508 1.206e-3 119.397
          1.235e-3 103.847 1.358e-3 133.382 0.081 37.963
1086.766 0.162 23.871 0.919 -6.302 1.383e-3 98.181
          0.918 -5.366 0.159 35.017 1.576e-3 128.993
          1.322e-3 92.395 1.485e-3 135.554 0.081 38.183
1146.587 0.169 27.258 0.913 -6.183 1.33e-3 88.191
          0.913 -6.54 0.168 33.771 1.657e-3 128.046
          1.169e-3 95.859 1.687e-3 127.853 0.085 38.7
1206.407 0.168 23.883 0.918 -6.751 1.349e-3 92.406
          0.918 -6.194 0.168 33.375 1.661e-3 128.973
          1.525e-3 96.089 1.949e-3 138.725 0.087 39.904
1266.228 0.176 24.86 0.917 -6.974 1.309e-3 89.361
          0.91 -8.032 0.176 32.492 1.872e-3 133.424
          1.162e-3 88.359 1.913e-3 137.598 0.09 39.941
1326.048 0.176 22.264 0.911 -7.044 1.556e-3 100.326
          0.903 -5.823 0.178 31.73 1.961e-3 128.716
          1.671e-3 94.839 1.913e-3 132.75 0.092 41.359
1385.868 0.187 21.987 0.918 -7.443 1.462e-3 94.918
          0.917 -8.065 0.184 31.861 2.051e-3 134.097
          1.74e-3 91.792 2.119e-3 133.366 0.094 41.263
1445.689 0.189 22.642 0.904 -7.964 1.647e-3 98.535
          0.915 -6.07 0.191 29.488 2.194e-3 138.741
          1.63e-3 101.491 2.2e-3 140.544 0.098 42.366
1505.509 0.191 20.554 0.923 -8.304 1.587e-3 102.024
          0.925 -9.646 0.191 29.263 2.267e-3 141.999
          1.63e-3 100.061 2.613e-3 135.665 0.098 42.364
1565.329 0.197 20.664 0.9 -7.953 1.576e-3 96.261
          0.896 -7.01 0.199 27.799 2.578e-3 140.42
          1.908e-3 105.343 2.417e-3 141.937 0.103 42.78
1625.15 0.196 19.418 0.902 -8.793 1.643e-3 95.487
          0.924 -9.912 0.196 27.383 2.747e-3 143.282
          1.773e-3 94.411 2.593e-3 142.61 0.104 43.422
1684.97 0.207 18.741 0.909 -8.283 1.668e-3 97.394
          0.914 -7.844 0.204 26.88 2.759e-3 143.031
          1.652e-3 94.634 2.665e-3 148.188 0.108 43.267
1744.79 0.204 17.464 0.915 -8.734 1.774e-3 97.62
          0.92 -10.308 0.203 25.927 2.857e-3 144.902
          1.869e-3 103.972 3.06e-3 141.482 0.109 44.111
1804.611 0.212 17 0.902 -9.853 1.921e-3 99.113
          0.902 -10.395 0.212 25.222 3.085e-3 143.053
          1.949e-3 97.323 2.927e-3 142.404 0.112 43.75
1864.431 0.207 16.65 0.908 -8.7 2.007e-3 101.414
          0.903 -10.653 0.211 23.686 3.18e-3 145.043
          1.957e-3 101.395 3.229e-3 142.181 0.114 44.467
1924.251 0.214 14.663 0.893 -10.492 1.81e-3 106.122
          0.891 -10.432 0.216 23.216 3.364e-3 145.874
          2.018e-3 102.998 3.221e-3 141.372 0.116 44.273
1984.072 0.215 14.844 0.914 -9.98 1.813e-3 101.684
          0.904 -10.808 0.216 21.293 3.657e-3 146.335
          1.944e-3 101.025 3.215e-3 143.664 0.119 44.792
2043.892 0.216 13.596 0.904 -9.883 2.077e-3 104.551
          0.894 -10.923 0.218 20.89 3.878e-3 147.066
          2.192e-3 101.172 3.752e-3 146.331 0.12 44.866
2103.713 0.221 14.238 0.888 -10.03 1.945e-3 102.526
          0.873 -12.261 0.223 19.187 3.797e-3 150.118
          1.97e-3 103.979 3.666e-3 146.723 0.124 44.703
2163.533 0.214 12.275 0.911 -10.97 2.043e-3 105.965
          0.883 -10.993 0.218 19.384 4.111e-3 149.264
          2.034e-3 102.293 3.883e-3 150.739 0.125 45.944
2223.353 0.222 11.055 0.899 -10.505 2.121e-3 106.906
          0.867 -9.507 0.223 17.532 4.028e-3 152.131
          1.954e-3 110.198 4.253e-3 151.576 0.128 45.278
2283.174 0.22 12.144 0.914 -11.58 2.211e-3 109.107
          0.895 -10.552 0.221 16.687 4.499e-3 151.425
          2.244e-3 108.506 4.295e-3 151.803 0.13 46.507
2342.994 0.221 11.005 0.887 -11.517 2.087e-3 108.778
          0.894 -11.212 0.222 15.058 4.61e-3 152.69
          2.046e-3 106.259 4.618e-3 151.451 0.131 45.977
2402.814 0.218 10.629 0.898 -11.551 2.173e-3 104.106
          0.883 -11.949 0.218 14.273 4.767e-3 153.621
          2.088e-3 106.898 4.924e-3 153.149 0.134 47.106
2462.635 0.222 8.078 0.883 -12.004 2.07e-3 103.72
          0.889 -10.545 0.22 13.97 4.957e-3 151.158
          1.973e-3 114.043 4.964e-3 152.063 0.133 46.77
2522.455 0.218 10.186 0.905 -11.881 2.349e-3 110.117
          0.891 -10.248 0.22 12.46 4.984e-3 154.56
          2.253e-3 107.499 5.022e-3 156.578 0.137 47.279
2582.275 0.213 9.458 0.895 -11.047 2.245e-3 106.429
          0.922 -11.84 0.215 11.794 5.14e-3 157.859
          2.478e-3 109.46 5.151e-3 157.504 0.137 47.863
2642.096 0.213 9.971 0.894 -11.831 2.146e-3 111.608
          0.903 -13.093 0.217 9.79 5.356e-3 159.242
          2.298e-3 109.4 5.361e-3 155.393 0.138 47.863
2701.916 0.209 8.315 0.903 -12.865 2.424e-3 109.152
          0.918 -13.625 0.211 9.123 5.637e-3 158.259
          2.187e-3 102.428 5.689e-3 155.856 0.14 48.771
2761.737 0.208 8.469 0.915 -12.472 2.287e-3 104.361
          0.887 -12.617 0.208 7.275 5.933e-3 159.032
          2.204e-3 106.044 5.644e-3 161.391 0.14 48.891
2821.557 0.202 8.558 0.901 -13.241 2.211e-3 104.697
          0.911 -13.971 0.202 6.436 6.047e-3 158.771
          2.148e-3 101.785 5.987e-3 157.703 0.141 49.64
2881.377 0.203 8.054 0.913 -13.171 2.223e-3 102.734
          0.9 -14.319 0.198 5.37 6.261e-3 161.244
          2.319e-3 103.369 6.154e-3 159.264 0.139 49.823
2941.198 0.198 10.541 0.893 -13.541 2.205e-3 101.374
          0.907 -15.057 0.193 3.905 6.504e-3 160.193
          2.275e-3 104.669 6.404e-3 159.197 0.141 50.149
3001.018 0.189 9.149 0.913 -14.868 2.159e-3 102.221
          0.89 -14.652 0.184 3.229 6.62e-3 163.48
          2.258e-3 108.961 6.648e-3 163.394 0.14 50.564
3060.838 0.19 9.71 0.917 -14.322 2.079e-3 107.548
          0.895 -15.012 0.18 2.209 6.75e-3 163.439
          2.278e-3 105.369 6.665e-3 164.097 0.142 51.053
3120.659 0.185 9.104 0.903 -15.062 2.105e-3 103.217
          0.891 -15.685 0.172 1.986 6.993e-3 163.255
          2.03e-3 102.633 6.934e-3 164.554 0.141 51.627
3180.479 0.191 11.441 0.903 -15.426 2.161e-3 106.321
          0.898 -16.635 0.169 0.891 7.3e-3 165.702
          2.038e-3 100.026 6.989e-3 163.711 0.143 51.672
3240.299 0.179 11.857 0.889 -16.608 2.136e-3 101.415
          0.877 -15.658 0.161 1.701 7.507e-3 166.19
          1.88e-3 103.491 7.341e-3 167.51 0.143 52.134
3300.12 0.179 10.953 0.907 -15.854 1.795e-3 101.713
          0.876 -16.01 0.157 1.223 7.709e-3 167.501
          1.781e-3 98.466 7.739e-3 169.502 0.143 51.957
3359.94 0.173 10.687 0.89 -15.767 1.882e-3 99.291
          0.88 -14.828 0.152 -0.144 7.9e-3 168.188
          1.542e-3 98.511 8.034e-3 169.951 0.143 51.748
3419.76 0.175 10.143 0.898 -15.983 1.696e-3 103.721
          0.901 -16.547 0.149 0.057 8.206e-3 168.605
          1.904e-3 98.349 8.169e-3 167.909 0.141 51.714
3479.581 0.169 11.999 0.892 -16.575 1.716e-3 100.134
          0.909 -15.943 0.143 -1.539 8.533e-3 169.414
          1.636e-3 109.477 8.587e-3 168.981 0.14 51.139
3539.401 0.157 11.45 0.911 -16.449 1.58e-3 104.783
          0.889 -17.045 0.138 -1.64 8.783e-3 170.927
          1.654e-3 101.057 8.62e-3 172.535 0.138 51.269
3599.222 0.155 11.757 0.904 -17.698 1.276e-3 103.475
          0.891 -16.996 0.137 -3.944 9.154e-3 171.406
          1.545e-3 102.654 8.864e-3 171.169 0.137 50.837
3659.042 0.139 13.608 0.917 -16.413 1.281e-3 106.105
          0.909 -16.947 0.125 -2.086 9.099e-3 173.689
          1.171e-3 102.152 9.553e-3 173.797 0.135 51.087
3718.862 0.141 9.777 0.889 -18.911 1.126e-3 97.83
          0.921 -17.977 0.123 -6.347 9.728e-3 172.044
          1.203e-3 107.133 9.772e-3 171.888 0.132 50.887
3778.683 0.138 15.085 0.928 -18.405 1.078e-3 111.596
          0.927 -18.621 0.12 -5.125 9.844e-3 174.011
          1.011e-3 107.099 9.935e-3 172.9 0.13 51.05
3838.503 0.129 14.019 0.907 -18.872 980.8e-6 110.846
          0.898 -19.719 0.113 -7.107 0.01 174.464
          1.046e-3 99.483 9.933e-3 172.999 0.127 50.971
3898.323 0.119 17.598 0.919 -19.477 741.4e-6 107.773
          0.909 -19.992 0.104 -7.947 0.01 176.041
          1.15e-3 110.892 0.011 174.442 0.124 50.639
3958.144 0.108 14.903 0.908 -19.805 510.8e-6 102.005
          0.914 -20.409 0.1 -7.54 0.011 176.323
          746.2e-6 110.808 0.011 175.193 0.122 50.865
4017.964 0.106 16.511 0.902 -20.893 424.4e-6 110.192
          0.916 -20.752 0.091 -11.1 0.011 176.185
          376.7e-6 122.142 0.011 175.853 0.118 50.822
4077.784 0.094 17.866 0.918 -21.733 325.2e-6 120.243
          0.902 -21.967 0.084 -10.242 0.011 177.299
          333.9e-6 147.18 0.011 176.509 0.116 50.708
4137.605 0.09 19.78 0.903 -20.947 62.13e-6 159.697
          0.9 -21.962 0.079 -11.155 0.012 178.123
          73.8e-6 59.363 0.012 176.325 0.112 50.581
4197.425 0.079 24.502 0.9 -21.94 140.7e-6 -93.301
          0.899 -22.899 0.071 -9.622 0.012 178.544
          175.2e-6 -58.077 0.012 177.488 0.109 50.743
4257.246 0.073 23.078 0.895 -22.193 285.1e-6 -85.819
          0.904 -22.565 0.067 -12.485 0.012 178.418
          306.4e-6 -108.73 0.012 178.005 0.104 49.983
4317.066 0.064 31.057 0.911 -22.841 690.1e-6 -83.309
          0.891 -23.354 0.059 -9.119 0.013 -179.322
          512.4e-6 -110.812 0.012 178.399 0.101 49.719
4376.886 0.054 27.511 0.904 -23.377 957.9e-6 -93.37
          0.89 -23.724 0.06 -7.886 0.013 -179.701
          734.6e-6 -86.273 0.013 -178.496 0.097 48.582
4436.707 0.052 37.734 0.911 -23.169 1.389e-3 -93.748
          0.889 -23.932 0.053 -5.851 0.013 -178.571
          987.5e-6 -85.068 0.013 -179.025 0.094 48.176
4496.527 0.039 40.978 0.889 -24.815 1.476e-3 -93.112
          0.894 -24.273 0.054 -2.899 0.014 -179.234
          1.53e-3 -91.275 0.014 -178.069 0.09 47.392
4556.347 0.039 54.089 0.906 -24.776 1.565e-3 -96.072
          0.899 -24.465 0.05 3.357 0.014 -177.357
          1.876e-3 -91.992 0.014 -177.083 0.087 47.146
4616.168 0.028 68.816 0.892 -25.419 1.935e-3 -99.706
          0.885 -25.107 0.053 5.349 0.014 -176.79
          1.843e-3 -98.644 0.014 -177.247 0.082 46.15
4675.988 0.03 79.072 0.902 -25.166 2.188e-3 -101.159
          0.889 -25.907 0.051 6.081 0.015 -175.87
          2.119e-3 -102.464 0.015 -175.948 0.078 45.345
4735.808 0.03 113.601 0.888 -26.045 2.189e-3 -100.124
          0.893 -25.758 0.053 9.419 0.015 -175.997
          2.072e-3 -97.842 0.015 -174.084 0.074 43.88
4795.629 0.028 125.124 0.897 -26.8 2.51e-3 -102.393
          0.899 -26.219 0.056 8.122 0.016 -174.469
          2.451e-3 -100.754 0.016 -174.837 0.07 41.842
4855.449 0.037 135.752 0.899 -27.203 2.682e-3 -101.538
          0.895 -27.072 0.058 11.029 0.016 -174.12
          2.681e-3 -100.693 0.017 -174.445 0.067 40.123
4915.269 0.042 148.156 0.891 -27.361 2.811e-3 -101.51
          0.89 -27.935 0.06 8.235 0.017 -173.52
          2.713e-3 -95.653 0.017 -175.025 0.063 38.174
4975.09 0.055 148.869 0.888 -28.259 3.005e-3 -100.749
          0.886 -28.779 0.062 9.464 0.017 -173.595
          3.261e-3 -100.723 0.017 -174.416 0.061 36.424
5034.91 0.069 160.063 0.882 -28.81 3.146e-3 -98.921
          0.9 -28.718 0.066 7.065 0.018 -173.103
          3.389e-3 -101.868 0.018 -172.571 0.057 34.579
5094.731 0.074 161.214 0.887 -29.393 3.44e-3 -98.1
          0.888 -29.138 0.067 5.487 0.018 -172.741
          3.64e-3 -97.349 0.018 -172.788 0.054 31.728
5154.551 0.086 166.694 0.884 -29.406 3.65e-3 -98.097
          0.884 -31.005 0.072 3.453 0.018 -171.676
          3.97e-3 -98.924 0.019 -174.043 0.05 28.356
5214.371 0.092 166.42 0.876 -29.817 3.858e-3 -96.563
          0.874 -31.48 0.073 0.693 0.019 -171.75
          3.994e-3 -103.861 0.019 -173.462 0.048 25.281
5274.192 0.11 165.945 0.873 -31.043 4.338e-3 -98.676
          0.871 -31.759 0.077 -2.82 0.02 -171.319
          4.414e-3 -99.114 0.019 -172.528 0.045 19.527
5334.012 0.12 167.196 0.877 -31.213 4.646e-3 -99.151
          0.869 -31.267 0.079 -5.165 0.02 -170.719
          4.833e-3 -98.391 0.02 -171.389 0.044 15.869
5393.832 0.137 166.811 0.872 -31.824 4.824e-3 -100.346
          0.856 -32.077 0.081 -6.563 0.021 -170.608
          4.811e-3 -100.635 0.02 -170.951 0.043 11.114
5453.653 0.149 169.764 0.865 -31.92 5.035e-3 -99.147
          0.848 -33.551 0.085 -9.221 0.021 -170.081
          4.79e-3 -101.331 0.021 -171.762 0.043 8.092
5513.473 0.156 168.323 0.856 -32.748 5.256e-3 -99.337
          0.852 -33.174 0.086 -11.828 0.022 -169.931
          5.197e-3 -99.978 0.021 -170.481 0.042 2.559
5573.293 0.169 167.029 0.859 -33.285 5.514e-3 -100.031
          0.843 -32.592 0.09 -13.556 0.022 -169.853
          5.386e-3 -96.623 0.022 -169.218 0.042 -1.281
5633.114 0.182 165.465 0.859 -33.206 5.902e-3 -99.348
          0.847 -32.656 0.092 -15.802 0.023 -169.16
          5.985e-3 -97.158 0.022 -168.41 0.043 -7.127
5692.934 0.2 165.705 0.85 -33.575 6.126e-3 -99.09
          0.837 -33.871 0.096 -17.528 0.023 -168.482
          6.048e-3 -97.842 0.023 -169.045 0.044 -10.526
5752.754 0.206 166.724 0.85 -34.072 6.348e-3 -98.118
          0.851 -34.267 0.102 -20.496 0.024 -168.21
          6.33e-3 -97.604 0.024 -168.525 0.047 -14.532
5812.575 0.216 164.916 0.849 -34.972 6.526e-3 -98.352
          0.848 -34.196 0.107 -20.991 0.024 -168.185
          6.616e-3 -97.668 0.024 -168.159 0.049 -16.93
5872.395 0.222 163.281 0.856 -34.963 6.943e-3 -98.285
          0.844 -33.733 0.109 -22.323 0.025 -167.181
          7.022e-3 -95.74 0.025 -167.037 0.052 -18.625
5932.216 0.236 160.611 0.844 -35.363 6.94e-3 -99.364
          0.848 -35.49 0.113 -23.477 0.026 -167.227
          7.303e-3 -95.485 0.026 -166.629 0.053 -19.781
5992.036 0.248 160.981 0.841 -35.811 7.007e-3 -97.817
          0.85 -36.377 0.119 -25.985 0.026 -167.349
          7.37e-3 -96.694 0.026 -167.493 0.056 -21.566
6051.856 0.252 159.899 0.837 -36.607 7.296e-3 -95.999
          0.85 -37.156 0.121 -28.516 0.027 -167.64
          7.637e-3 -96.685 0.027 -167.183 0.057 -23.135
6111.677 0.258 158.148 0.844 -36.778 7.885e-3 -94.474
          0.837 -36.271 0.123 -29.666 0.028 -166.903
          8.054e-3 -93.138 0.028 -166.358 0.06 -24.608
6171.497 0.265 156.429 0.841 -37.044 8.174e-3 -93.823
          0.834 -37.44 0.126 -31.281 0.029 -166.737
          8.295e-3 -94.056 0.028 -166.666 0.063 -25.2
6231.317 0.274 154.331 0.836 -37.308 8.538e-3 -92.959
          0.841 -38.353 0.129 -32.413 0.029 -166.623
          8.894e-3 -94.689 0.03 -166.291 0.065 -25.436
6291.138 0.281 153.214 0.833 -38.294 8.902e-3 -92.709
          0.84 -38.881 0.131 -34.815 0.03 -166.6
          8.894e-3 -92.391 0.03 -165.944 0.068 -25.676
6350.958 0.289 151.222 0.837 -38.543 9.359e-3 -92.736
          0.825 -39.042 0.132 -34.975 0.031 -166.428
          9.342e-3 -92.312 0.031 -166.391 0.071 -24.888
6410.778 0.292 150.199 0.833 -39.011 9.671e-3 -91.864
          0.823 -39.007 0.132 -36.314 0.031 -165.99
          9.607e-3 -91.241 0.031 -166.258 0.073 -24.218
6470.599 0.295 147.491 0.833 -39.475 0.01 -91.63
          0.82 -39.678 0.131 -36.876 0.032 -165.751
          0.01 -89.99 0.032 -166.233 0.075 -23.448
6530.419 0.301 145.78 0.828 -39.969 0.01 -90.321
          0.829 -40.312 0.132 -38.06 0.032 -165.531
          0.01 -90.621 0.033 -165.423 0.076 -23.38
6590.24 0.305 143.884 0.83 -40.601 0.011 -91.488
          0.823 -40.633 0.133 -37.957 0.033 -165.822
          0.011 -90.995 0.033 -165.557 0.079 -22.903
6650.06 0.312 142.703 0.828 -40.935 0.012 -91.301
          0.818 -41.049 0.136 -37.706 0.034 -165.607
          0.011 -92.138 0.034 -165.961 0.082 -21.101
6709.88 0.309 141.201 0.826 -41.505 0.012 -91.242
          0.818 -41.566 0.134 -38.117 0.035 -165.372
          0.012 -90.357 0.035 -165.742 0.084 -19.129
6769.701 0.312 138.371 0.824 -42.127 0.012 -90.88
          0.816 -42.114 0.136 -36.762 0.036 -165.26
          0.012 -89.999 0.036 -166.317 0.086 -16.684
6829.521 0.314 137.11 0.823 -42.541 0.013 -90.519
          0.815 -42.564 0.135 -36.725 0.036 -165.38
          0.013 -91.657 0.036 -165.875 0.087 -13.572
6889.341 0.313 135.161 0.821 -43.069 0.013 -90.984
          0.814 -43.05 0.134 -36.603 0.037 -165.33
          0.013 -91.632 0.037 -165.11 0.088 -11.102
6949.162 0.309 133.8 0.82 -43.608 0.014 -91.993
          0.817 -43.356 0.133 -37.491 0.038 -165.331
          0.014 -91.379 0.038 -165.771 0.09 -8.933
7008.982 0.306 130.944 0.819 -44.268 0.014 -91.403
          0.811 -44.102 0.133 -37.268 0.039 -165.53
          0.014 -92.524 0.039 -165.888 0.093 -6.815
7068.802 0.307 129.147 0.816 -44.608 0.015 -91.061
          0.806 -44.573 0.134 -37.697 0.04 -165.535
          0.014 -91.93 0.04 -165.968 0.096 -4.846
7128.623 0.301 127.192 0.812 -45.225 0.015 -91.064
          0.805 -44.98 0.135 -37.677 0.041 -165.918
          0.014 -92.198 0.041 -165.988 0.1 -2.835
7188.443 0.297 125.474 0.812 -45.645 0.015 -90.991
          0.813 -45.205 0.137 -37.789 0.042 -165.963
          0.015 -91.888 0.042 -165.727 0.104 -0.299
7248.263 0.286 123.741 0.814 -46.274 0.016 -91.316
