! Hittite Microwave Corporation
! 20 Alpha Road
! Chelmsford, MA 01824
! Tel: 978-250-3343
! Fax: 978-250-3373
! Device: HMC276QS24, 0.7-3.0 GHz, GaAS MMIC 4x2 Switch Matrix in 24-lead QSOP package
! Misc: Data was de-embedded to package pins.
!       Port 1 = OP1
!       Port 2 = VL
!       Port 3 = VH
!       Port 4 = HH
!       Port 5 = HL
!       Port 6 = OP2
!          Vdd = +5 V
!         Vctl = 0 V[Logic 0] / +5 V[Logic 1]
!
!  State 06,  VH to OP1,  VH to OP2
!  Control Lines (Logic)
!    HV 1 = 0, Tone 1 = 1
!    HV 2 = 0, Tone 2 = 1
!
!  Data reformated to new Touchstone file format - Wed Jan 10 15:12:41 2007
!
# MHz S DB R 50
! 6 Port Network Data
! freq  dbS11  angS11  dbS12  angS12  dbS13  angS13  dbS14  angS14  
!       dbS15  angS15  dbS16  angS16  
!       dbS21  angS21  dbS22  angS22  
!       dbS23  angS23  dbS24  angS24  dbS25  angS25  dbS26  angS26  
!       dbS31  angS31  dbS32  angS32  dbS33  angS33  dbS34  angS34  
!       dbS35  angS35  dbS36  angS36  
!       dbS41  angS41  dbS42  angS42  
!       dbS43  angS43  dbS44  angS44  dbS45  angS45  dbS46  angS46  
!       dbS51  angS51  dbS52  angS52  dbS53  angS53  dbS54  angS54  
!       dbS55  angS55  dbS56  angS56  
!       dbS61  angS61  dbS62  angS62  
!       dbS63  angS63  dbS64  angS64  dbS65  angS65  dbS66  angS66  
!     
                10       -17.0156177            -32.374        -48.1232068           -154.719        -5.71340481              3.876        -39.1721463             -99.54
                      -52.8909696             99.611        -7.70205568              2.685
                      -43.8547129            -71.689      -0.0785269103             -3.946        -45.1360784            -69.069        -41.9642971            -33.277
                      -44.2083858             22.477        -44.2027474            164.676
                      -5.98592566              4.392        -42.2961692           -119.537        -23.4785039           -112.698        -46.4478609           -113.102
                      -42.1158948            -50.774         -5.7976527              4.073
                      -40.4519304            -91.994        -56.1765709           -113.874        -53.2628036           -159.093      -0.0348132315             -3.818
                      -49.7783831           -139.091        -51.9204407             96.558
                      -44.2692304            -32.697        -52.4502323             114.91        -59.3395711            127.891        -50.2855715            120.598
                    -0.0348132315             -3.945        -50.2855715             35.155
                      -7.76553384               4.82        -50.4113733             66.166        -5.91698966              4.436        -46.8207031             75.328
                      -52.3272826            -86.396        -19.3315249            -24.235

             29.95       -19.9135725            -25.341        -63.6765002             56.605         -5.7976527              1.608        -55.8526993            -72.038
                      -60.6546582            -98.163        -7.89389908              0.688
                      -63.8669055            151.726       -0.273524459            -12.654        -66.1166741           -103.847        -59.4611674              56.48
                      -64.8096648            -30.158         -62.082713           -159.332
                        -5.831582               1.65        -56.0213626             57.663        -24.1521662           -123.625         -78.096613             164.78
                      -54.2798576             74.555        -5.74700597              1.577
                      -53.8159164             95.191         -59.576214              0.026        -59.6343138            -124.16       -0.273524459            -12.763
                       -58.351474            129.249        -66.3030928           -171.284
                       -63.009155           -179.503        -59.1563681             61.365        -64.3247861            -89.286        -57.8897963             77.352
                     -0.282492854            -12.643        -58.3802591             -159.6
                      -7.93711255              0.881        -68.0395186             151.38        -5.78073762              1.648        -70.6478379            -65.558
                      -61.5123465           -134.208        -19.4938827            -22.657

              49.9       -21.5144143            -16.642        -69.1559444           -108.349        -5.61337426             -0.787        -70.5273415           -111.169
                      -69.4293788            123.991        -7.74432287             -1.627
                      -64.0118104              96.01       -0.658405317            -20.298        -66.4296324             82.667        -68.6406619             82.179
                      -68.1787079            -85.254        -65.2117179            159.279
                      -5.62996622             -0.693        -64.2607148             52.675        -25.0362395           -154.769        -70.2008304            -85.713
                      -69.0199348            144.655         -5.5637877             -0.693
                      -70.4056153           -103.141        -73.5061217             53.892        -70.6893689            -19.966       -0.649040476            -20.514
                      -63.9117588              -53.3        -72.6528816               4.44
                      -66.9647511             61.681        -62.9834008             34.964        -75.2944825             -58.51         -61.316093             80.823
                     -0.630341029            -20.372        -67.2582145            136.567
                      -7.76553384             -1.452        -65.1533544            115.941        -5.58028512              -0.62        -63.3217657             52.258
                      -68.6594727            112.912        -21.0121999             -15.26

             69.85       -21.4116215            -17.767        -64.0574202            103.023        -5.66324553             -1.569        -77.7613145            -88.478
                       -66.556195              98.34        -7.80811182             -2.461
                      -69.7676796             59.774         -1.0906283            -27.317        -61.7587489            114.542        -73.0651189             71.736
                      -70.1980199            -62.157        -66.4515112             80.074
                      -5.67993313             -1.396        -61.9132642            111.313        -25.0362395           -154.179        -73.4773809             139.73
                      -77.0774393            127.024        -5.61337426             -1.362
                      -74.3475577             95.168        -68.4089008              5.088        -70.4517862             83.991         -1.0906283            -27.629
                      -75.5197038              49.47        -80.0200006             13.149
                      -69.0395861             99.924        -64.6021193             -1.746        -70.6123973             94.647         -71.047538            159.987
                      -1.08078593            -27.423        -74.5957429             129.38
                      -7.82947933             -2.359        -69.9187423             57.616        -5.62996622             -1.227        -64.5697202             66.024
                      -63.5057711             79.093        -20.8191722            -17.658

              89.8       -21.6184382            -18.147        -65.2641049             72.201        -5.66324553             -2.366        -68.8066544             39.904
                       -75.447407             64.835        -7.82947933             -3.508
                      -63.9103962             37.221        -1.61843815            -33.536        -63.5044708             99.297        -80.8737494            163.852
                      -68.1209941             -53.03        -66.4991053             74.711
                      -5.69665284             -2.304        -83.0460796           -169.664        -25.0362395           -156.629        -67.0269461             30.454
                      -65.3248233             73.295        -5.62996622             -2.163
                      -64.9191523             81.125         -69.360209           -163.637        -74.1106755            -36.104        -1.60797952            -33.878
                      -78.0479134             58.606        -65.7201146             78.197
                      -64.7719689            107.217        -72.0030657            142.029        -70.6212439            102.594         -68.052679             93.382
                      -1.60797952            -33.643        -64.5359772             96.548
                      -7.82947933             -3.422        -63.1615538             80.002        -5.62996622             -2.032        -66.3408615             54.385
                      -69.1609305             90.807        -20.8191722            -18.934

            109.75       -21.5144143            -18.395        -66.8953099             68.187        -5.67993313             -3.072        -69.3347297              72.88
                       -69.086437             85.388        -7.85089954             -4.412
                      -64.3390886             50.872        -2.18040806            -38.973        -65.6699167             93.092        -73.6889893            156.457
                      -73.0455957           -105.916         -72.860372             14.895
                      -5.69665284             -3.009        -66.9068449             91.203        -24.7314401           -158.352        -66.6883802             57.937
                      -68.1099391             56.493        -5.62996622             -2.828
                      -65.6649129             27.601        -70.7310994           -100.187        -71.0630458             65.682        -2.18040806            -39.389
                      -68.1920811            162.628        -65.3360547             87.492
                      -65.2085531             37.559        -73.9101894           -177.826        -69.1759062              27.48        -73.0690288            105.801
                      -2.16925085             -39.12        -66.8397721              69.78
                       -7.8723727             -4.335        -71.4373041             42.121        -5.64658994             -2.727        -65.1959053             68.975
                      -70.0365468             93.675        -20.9151498            -20.376

             129.7       -21.5144143             -18.88        -65.1880097             77.727        -5.67993313             -3.836        -66.3048876             44.889
                       -66.874202             59.746        -7.85089954             -5.411
                      -68.8066544             40.369        -2.76931178            -43.725         -65.251376             88.769        -82.7109651             74.907
                      -78.2941884              46.22        -66.9106933             60.581
                      -5.69665284             -3.765        -63.7859428             88.788        -24.7314401           -160.529        -67.1665525             58.865
                      -73.4161117             21.067        -5.61337426             -3.485
                      -63.7644796             57.374        -78.4163751            157.543        -77.6612071              16.62        -2.76931178            -44.202
                      -72.4940452            118.603        -67.3144861             51.135
                      -66.3462704             57.744        -78.7709504            152.758         -67.252207              76.81        -74.0273043             94.126
                      -2.75737241            -43.882         -63.675174             87.151
                       -7.8723727             -5.279        -66.2977106             32.981        -5.64658994             -3.433        -73.2308701            110.259
                      -63.4616671             59.953        -20.9151498            -21.266

            149.65       -21.4116215            -19.259          -64.08101             70.496        -5.69665284             -4.572        -71.3406142             41.468
                      -64.9268071             48.919        -7.85089954             -6.281
                      -63.8981424             73.879        -3.34982175            -47.796        -65.1895883             80.736        -74.3566244            143.905
                      -76.1765709             73.143        -66.6509409             16.811
                      -5.71340481              -4.53         -63.323039            102.106        -24.7314401           -162.255        -71.9857873             83.337
                      -65.8656444              38.54        -5.61337426              -4.23
                       -67.805978              31.58        -80.0645146            137.731        -66.3570985             77.521        -3.36260451            -48.337
                      -69.1236039            117.208        -65.3360547              42.17
                      -63.7470797             61.097        -78.5036712           -170.231        -66.2672746             61.442        -70.9673411             66.557
                      -3.34982175            -47.974        -64.3778233             71.204
                       -7.8723727             -6.245          -68.25701             24.075        -5.64658994             -4.157        -66.3390592              51.89
                      -62.8944639             93.903        -20.8191722            -22.117

             169.6        -21.310031            -19.287        -63.7270461             44.184        -5.69665284             -5.297        -67.3731543             18.709
                      -66.3697483             48.683         -7.8723727             -7.213
                      -64.9008082             42.856        -3.91721135            -51.345        -62.0090614             68.267        -86.3066827            -50.213
                      -68.8210311            129.412        -65.3104042              21.48
                      -5.71340481             -5.252        -63.4901794             96.291        -24.7314401            -163.28        -66.7259815             53.189
                      -67.6620915             38.173        -5.62996622             -4.891
                      -67.8423251             55.404         -80.206555            110.177        -68.2615058             60.968        -3.94452549            -51.933
                      -65.8502998             98.993        -69.8671939             54.562
                       -64.698556             48.653        -79.3880056            148.284        -68.3065923             51.354        -68.6830436            113.704
                      -3.91721135             -51.53        -64.2253228             68.159
                      -7.89389908             -7.153        -62.8533501             35.811        -5.66324553             -4.819         -64.477604             57.395
                      -62.9650516             72.774        -20.7242435            -23.213

            189.55       -21.1103466            -19.545         -63.258337               52.6        -5.69665284             -6.016         -64.850561             28.733
                      -66.8435909             38.243        -7.89389908             -8.121
                      -63.1453196             53.405        -4.46597632            -54.396        -60.8077258             83.291        -75.7084209            122.086
                      -79.3476248            119.642        -68.0088882             20.225
                      -5.73018914             -5.903        -62.2905139             83.297        -24.5829598           -164.046        -67.2682363             58.733
                       -66.500941             36.362        -5.62996622             -5.548
                      -63.9980364             34.005        -78.1035924             27.963        -70.6006158             49.164        -4.50966069             -55.01
                      -64.7719689             110.48        -66.1272195             63.587
                      -66.5858081             49.398         -74.841631            145.832        -69.3678674             12.461        -69.5432937            117.068
                      -4.46597632            -54.599        -61.6930588             74.353
                      -7.91547894             -8.016        -64.4746956              12.67        -5.66324553             -5.456        -69.0938577             53.236
                       -63.059658             86.055         -20.630341            -24.367

             209.5       -20.9151498            -19.772        -64.5888505             62.255        -5.71340481             -6.693        -66.6528091             24.781
                      -66.0623926             26.407        -7.89389908             -8.952
                      -62.4399106             48.698        -5.00527369            -56.939        -61.1390178             81.711        -78.2018978            117.335
                       -71.737359            150.164        -67.7083827             -1.025
                      -5.73018914             -6.571        -60.6014362             87.745        -24.5829598           -164.943        -72.8336872             69.517
                      -66.1766013              35.99        -5.62996622              -6.19
                      -65.8196917             21.087        -71.8521819            109.463         -67.647414             68.974        -5.05176384            -57.645
                       -65.565436            126.518         -68.030756             50.276
                      -64.7164774             57.352        -72.4830713            159.139        -71.4535243             37.606        -65.4834002            118.988
                      -5.00527369            -57.176        -64.3749481             64.308
                      -7.93711255             -8.865        -65.8878567              2.361        -5.66324553             -6.098        -64.7524314             77.091
                       -61.678294             60.152        -20.5374429            -25.246

            229.45       -20.7242435            -19.939        -63.9732981             63.129        -5.73018914             -7.362        -70.9919383             22.768
                      -64.9929182             44.262        -7.91547894             -9.844
                      -62.2973007             44.765        -5.49810958            -59.123        -60.1074989             93.959        -70.5040236            137.329
                      -75.4680019            121.785        -63.5854647             -1.688
                      -5.74700597             -7.243        -59.8621258             97.337        -24.5829598           -165.755        -67.2082783              66.55
                      -70.4749641              6.037        -5.62996622             -6.798
                      -66.4478609             33.121         -73.551479             134.22         -68.241293             75.815         -5.5637877            -59.902
                      -63.5344289            124.906        -67.2042957             51.697
                      -66.6118027             60.741        -76.3688445             152.06        -66.8035768             30.979        -63.1428248            112.927
                      -5.49810958            -59.407        -63.2293146             76.937
