!Hittite Microwave Corporation								
!12 Elizabeth Drive								
!Chelmsford, MA 01824								
!Tel: 978-250-3343								
!Fax: 978-250-3373
!Device: HMC221, DC - 3 GHz GaAs MMIC SPDT Switch in 6-lead SOT26 plastic package
!Misc: Port 1 = RFC, Port 2 = RF1, Port 3 = RF2, RF2 Selected, Bias: +3VDC								
!
# MHZ S MA R 50

90 4.344e-3 -45.969 7.757e-3 88.151 0.981 -0.403
          8.176e-3 87.287 0.975 -19.253 7.729e-3 80.089
          0.981 -0.409 7.132e-3 77.435 0.011 -22.178
109.55 3.366e-3 -34.902 9.482e-3 87.867 0.979 -0.565
          9.553e-3 90.167 0.973 -23.212 9.843e-3 86.721
          0.979 -0.563 8.875e-3 87.065 0.011 -20.129
129.1 2.178e-3 -11.621 0.013 84.723 0.979 -0.618
          0.013 80.066 0.975 -26.98 0.013 83.578
          0.979 -0.494 0.013 83.154 9.571e-3 -12.622
148.65 2.042e-3 -17.346 0.015 86.677 0.978 -0.559
          0.015 85.635 0.972 -30.815 0.016 82.63
          0.978 -0.492 0.016 84.371 9.88e-3 -8.438
168.2 2.975e-3 -5.735 0.016 83.558 0.978 -0.528
          0.017 82.993 0.971 -34.716 0.017 78.245
          0.979 -0.525 0.017 79.143 0.011 -14.672
187.75 3.716e-3 -2.312 0.018 80.79 0.978 -0.527
          0.018 79.445 0.97 -38.574 0.017 74.803
          0.979 -0.561 0.018 74.184 0.012 -19.42
207.3 3.983e-3 -3.743 0.02 80.083 0.977 -0.54
          0.02 78.538 0.97 -42.363 0.019 73.678
          0.977 -0.583 0.019 72.546 0.012 -20.309
226.85 4.152e-3 -2.808 0.022 78.673 0.977 -0.542
          0.022 78.269 0.971 -46.146 0.021 72.385
          0.976 -0.588 0.021 72.137 0.012 -20.667
246.4 4.737e-3 -5.118 0.024 76.892 0.977 -0.587
          0.024 75.91 0.971 -49.88 0.023 70.252
          0.978 -0.526 0.023 70.814 0.013 -22.353
265.95 5.048e-3 -5.351 0.026 74.795 0.977 -0.62
          0.026 74.647 0.968 -53.532 0.024 68.364
          0.976 -0.559 0.025 68.036 0.013 -24.355
285.5 5.294e-3 -7.579 0.027 73.582 0.976 -0.622
          0.027 73.096 0.966 -57.153 0.026 65.8
          0.975 -0.635 0.026 64.63 0.014 -27.902
305.05 5.681e-3 -11.124 0.029 72.944 0.975 -0.616
          0.029 71.509 0.966 -60.713 0.027 63.659
          0.975 -0.669 0.028 62.508 0.014 -30.514
324.6 6.286e-3 -13.635 0.031 71.94 0.976 -0.625
          0.03 70.546 0.964 -64.179 0.029 62.931
          0.975 -0.611 0.029 62.644 0.015 -30.69
344.15 6.834e-3 -14.215 0.032 69.576 0.974 -0.619
          0.032 69.662 0.963 -67.631 0.03 60.7
          0.974 -0.572 0.03 60.278 0.015 -34.241
363.7 6.986e-3 -16.055 0.033 67.874 0.974 -0.607
          0.034 68.206 0.961 -70.978 0.032 58.948
          0.975 -0.587 0.031 59.183 0.016 -35.851
383.25 7.379e-3 -22.234 0.035 66.734 0.974 -0.614
          0.035 67.277 0.959 -74.215 0.033 57.359
          0.974 -0.587 0.033 57.865 0.016 -37.937
402.8 7.816e-3 -26.502 0.036 65.767 0.973 -0.618
          0.036 66.06 0.957 -77.426 0.034 55.788
          0.974 -0.586 0.034 56.46 0.016 -40.382
422.35 8.122e-3 -27.249 0.037 64.7 0.973 -0.601
          0.038 64.319 0.956 -80.632 0.035 54.032
          0.974 -0.585 0.036 54.784 0.017 -42.474
441.9 8.866e-3 -27.535 0.039 63.554 0.973 -0.551
          0.038 63.149 0.953 -83.726 0.036 51.792
          0.974 -0.551 0.038 51.817 0.018 -43.417
461.45 9.378e-3 -34.717 0.04 62.84 0.974 -0.505
          0.04 62.41 0.952 -86.741 0.037 50.727
          0.975 -0.513 0.038 49.893 0.018 -44.262
481 9.979e-3 -36.022 0.041 60.562 0.973 -0.488
          0.041 60.35 0.95 -89.761 0.038 48.826
          0.974 -0.517 0.038 48.628 0.019 -46.489
500.55 0.011 -39.389 0.042 59.132 0.973 -0.5
          0.042 59.057 0.948 -92.661 0.039 47.37
          0.973 -0.536 0.038 47.665 0.02 -48.161
520.1 0.011 -43.69 0.042 58.424 0.973 -0.523
          0.042 58.551 0.947 -95.469 0.04 46.176
          0.972 -0.53 0.039 46.494 0.021 -49.662
539.65 0.012 -44.348 0.042 56.945 0.973 -0.532
          0.043 57.604 0.945 -98.292 0.04 44.306
          0.973 -0.471 0.041 44.628 0.021 -52.025
559.2 0.013 -47.958 0.043 56.81 0.973 -0.551
          0.043 56.892 0.942 -101.05 0.041 43.139
          0.973 -0.482 0.041 42.271 0.022 -53.664
578.75 0.013 -52.307 0.043 56.315 0.972 -0.537
          0.044 56.172 0.94 -103.703 0.041 41.713
          0.973 -0.495 0.042 40.758 0.023 -55.28
598.3 0.014 -55.01 0.044 56.011 0.971 -0.531
          0.044 55.374 0.938 -106.305 0.042 40.437
          0.972 -0.496 0.042 39.723 0.023 -56.782
617.85 0.014 -57.418 0.045 55.95 0.971 -0.529
          0.045 54.787 0.936 -108.832 0.042 39.364
          0.972 -0.531 0.042 39.279 0.024 -58.11
637.4 0.014 -60.427 0.045 55.852 0.971 -0.518
          0.046 54.515 0.934 -111.294 0.043 38.272
          0.973 -0.599 0.042 39.155 0.025 -59.181
656.95 0.015 -61.894 0.047 54.894 0.969 -0.481
          0.046 53.944 0.933 -113.828 0.043 36.485
          0.97 -0.513 0.043 37.749 0.026 -60.034
676.5 0.016 -61.364 0.047 53.132 0.97 -0.491
          0.047 53.11 0.931 -116.165 0.044 35.475
          0.97 -0.506 0.044 36.798 0.028 -62.324
696.05 0.017 -59.135 0.048 51.719 0.969 -0.404
          0.046 52.39 0.929 -118.49 0.044 34.417
          0.969 -0.426 0.045 34.318 0.029 -66.269
715.6 0.02 -60.636 0.047 50.561 0.969 -0.335
          0.047 51.954 0.928 -120.774 0.044 33.179
          0.969 -0.377 0.044 31.942 0.03 -70.167
735.15 0.022 -65.655 0.046 49.864 0.97 -0.34
          0.047 51.687 0.926 -123.002 0.044 31.895
          0.97 -0.375 0.043 30.909 0.029 -72.956
754.7 0.023 -69.612 0.046 50.205 0.971 -0.388
          0.047 51.214 0.924 -125.183 0.044 30.907
          0.97 -0.326 0.043 31.554 0.029 -74.255
774.25 0.024 -72.757 0.046 51.611 0.97 -0.365
          0.047 50.652 0.923 -127.293 0.044 29.738
          0.969 -0.246 0.044 31.758 0.03 -74.985
793.8 0.025 -75.865 0.047 52.144 0.969 -0.33
          0.047 50.282 0.922 -129.431 0.044 28.758
          0.971 -0.266 0.045 29.76 0.031 -75.66
813.35 0.026 -78.408 0.048 51.845 0.969 -0.297
          0.048 50.043 0.921 -131.495 0.044 27.857
          0.972 -0.281 0.046 27.209 0.031 -76.38
832.9 0.027 -80.471 0.049 50.86 0.97 -0.279
          0.048 49.69 0.919 -133.502 0.044 26.95
          0.972 -0.317 0.045 25.229 0.032 -77.3
852.45 0.028 -82.337 0.049 49.473 0.971 -0.287
          0.048 49.065 0.918 -135.499 0.044 25.99
          0.972 -0.405 0.043 24.616 0.033 -78.443
872 0.03 -84.018 0.048 48.25 0.971 -0.323
          0.048 48.806 0.918 -137.417 0.044 25.08
          0.97 -0.343 0.043 25.907 0.034 -78.98
891.55 0.031 -85.712 0.047 48.108 0.972 -0.353
          0.048 49.192 0.917 -139.352 0.044 24.005
          0.971 -0.312 0.044 25.451 0.035 -80.09
911.1 0.032 -87.843 0.047 48.798 0.971 -0.334
          0.048 49.006 0.915 -141.122 0.044 22.884
          0.971 -0.274 0.045 23.629 0.035 -81.064
930.65 0.034 -89.849 0.047 49.41 0.971 -0.301
          0.048 48.68 0.915 -142.905 0.044 21.849
          0.971 -0.277 0.044 21.387 0.036 -82.071
950.2 0.035 -91.476 0.048 49.415 0.971 -0.277
          0.048 48.559 0.915 -144.777 0.043 20.985
          0.971 -0.334 0.043 19.891 0.037 -83.208
969.75 0.037 -93.408 0.048 49.173 0.972 -0.233
          0.047 48.37 0.914 -146.538 0.043 20.288
          0.971 -0.372 0.042 20.417 0.038 -84.182
989.3 0.038 -94.829 0.048 47.968 0.971 -0.263
          0.047 48.147 0.913 -148.284 0.043 19.471
          0.97 -0.266 0.043 20.382 0.039 -84.864
1008.85 0.04 -96.182 0.047 47.416 0.972 -0.287
          0.047 48.293 0.911 -149.973 0.043 18.295
          0.971 -0.251 0.043 18.534 0.04 -86.043
1028.4 0.042 -97.416 0.047 47.566 0.972 -0.323
          0.047 48.334 0.911 -151.657 0.043 17.249
          0.971 -0.279 0.043 16.499 0.041 -87.17
1047.95 0.043 -98.529 0.046 48.205 0.971 -0.355
          0.047 48.262 0.912 -153.304 0.042 16.446
          0.97 -0.315 0.042 15.573 0.043 -88.166
1067.5 0.044 -99.638 0.046 48.973 0.97 -0.351
          0.046 48.387 0.91 -154.858 0.042 15.702
          0.969 -0.338 0.041 16.36 0.043 -89.271
1087.05 0.046 -101.183 0.046 49.677 0.97 -0.292
          0.046 48.574 0.911 -156.564 0.041 14.893
          0.97 -0.247 0.042 16.451 0.045 -90.167
1106.6 0.048 -102.856 0.047 49.877 0.97 -0.248
          0.046 48.688 0.911 -158.117 0.041 13.933
          0.972 -0.239 0.042 14.332 0.046 -91.32
1126.15 0.05 -104.575 0.047 49.549 0.971 -0.227
          0.046 48.645 0.91 -159.673 0.041 13.136
          0.972 -0.292 0.041 11.989 0.047 -92.401
1145.7 0.052 -106.051 0.047 48.918 0.972 -0.225
          0.045 48.677 0.91 -161.238 0.04 12.387
          0.972 -0.387 0.04 10.747 0.048 -93.347
1165.25 0.054 -107.134 0.046 48.266 0.972 -0.242
          0.045 48.931 0.91 -162.779 0.04 11.504
          0.972 -0.458 0.039 11.13 0.049 -94.218
1184.8 0.056 -108.272 0.045 47.778 0.973 -0.299
          0.045 49.069 0.91 -164.241 0.039 10.457
          0.969 -0.311 0.038 11.925 0.051 -95.206
1204.35 0.057 -109.375 0.044 48.001 0.972 -0.318
          0.044 49.494 0.909 -165.695 0.039 9.554
          0.97 -0.211 0.039 10.924 0.052 -96.288
1223.9 0.059 -110.588 0.043 48.735 0.972 -0.359
          0.044 49.541 0.909 -167.123 0.038 8.451
          0.972 -0.196 0.04 8.879 0.053 -97.297
1243.45 0.061 -111.987 0.043 49.78 0.971 -0.381
          0.044 49.676 0.909 -168.562 0.038 7.379
          0.973 -0.288 0.039 6.67 0.055 -98.346
1263 0.064 -113.514 0.043 50.887 0.971 -0.367
          0.043 50.059 0.909 -170.008 0.037 6.469
          0.973 -0.438 0.037 5.118 0.056 -99.462
1282.55 0.066 -114.936 0.043 51.782 0.97 -0.328
          0.042 50.405 0.908 -171.407 0.037 5.67
          0.971 -0.517 0.036 4.862 0.057 -100.513
1302.1 0.068 -115.997 0.043 51.903 0.971 -0.273
          0.042 51.034 0.908 -172.779 0.036 4.706
          0.969 -0.438 0.035 5.342 0.059 -101.566
1321.65 0.07 -117.11 0.042 52.097 0.971 -0.284
          0.041 51.468 0.908 -174.148 0.036 3.758
          0.968 -0.339 0.035 5.578 0.061 -102.857
1341.2 0.073 -118.281 0.042 52.376 0.972 -0.312
          0.041 52.136 0.908 -175.527 0.036 2.479
          0.969 -0.265 0.036 3.889 0.062 -104.47
1360.75 0.075 -119.587 0.042 52.603 0.972 -0.345
          0.041 52.908 0.908 -176.914 0.035 0.894
          0.972 -0.287 0.036 0.7 0.064 -106.361
1380.3 0.077 -121.092 0.041 52.627 0.973 -0.393
          0.04 53.511 0.908 -178.288 0.034 -0.704
          0.975 -0.448 0.035 -2.486 0.065 -108.294
1399.85 0.079 -122.555 0.041 52.58 0.973 -0.498
          0.04 54.33 0.907 -179.525 0.033 -1.595
          0.973 -0.593 0.033 -4.032 0.066 -109.253
1419.4 0.081 -123.87 0.04 52.846 0.974 -0.618
          0.039 54.922 0.907 179.162 0.032 -3.006
          0.97 -0.725 0.031 -4.075 0.067 -110.343
1438.95 0.084 -125.236 0.038 53.578 0.973 -0.752
          0.039 55.894 0.906 177.826 0.032 -4.196
          0.967 -0.689 0.03 -3.253 0.069 -111.692
1458.5 0.086 -126.644 0.037 55.262 0.971 -0.863
          0.038 56.914 0.906 176.531 0.031 -5.236
          0.966 -0.565 0.03 -2.849 0.07 -112.886
1478.05 0.089 -128.072 0.036 57.916 0.967 -0.896
          0.038 57.716 0.905 175.289 0.03 -6.314
          0.967 -0.466 0.03 -3.828 0.072 -113.817
1497.6 0.092 -129.543 0.036 60.653 0.964 -0.769
          0.037 58.478 0.905 174.008 0.029 -7.555
          0.971 -0.486 0.03 -6.295 0.074 -115.147
1517.15 0.094 -131.27 0.037 62.375 0.964 -0.549
          0.037 59.747 0.904 172.77 0.028 -8.712
          0.972 -0.66 0.03 -9.896 0.076 -116.626
1536.7 0.096 -132.766 0.038 62.188 0.966 -0.445
          0.036 60.717 0.902 171.61 0.028 -9.946
          0.971 -0.918 0.028 -12.342 0.077 -118.266
1556.25 0.098 -134.376 0.038 61.185 0.969 -0.51
          0.036 61.677 0.901 170.419 0.027 -11.436
          0.966 -1.09 0.026 -13.414 0.078 -119.946
1575.8 0.099 -136.116 0.037 60.532 0.971 -0.711
          0.035 62.98 0.901 169.228 0.027 -13.069
          0.96 -1.085 0.025 -13.077 0.08 -121.618
1595.35 0.101 -137.762 0.035 61.288 0.969 -0.941
          0.035 64.91 0.898 168.162 0.026 -14.566
          0.956 -0.886 0.024 -11.724 0.081 -123.31
1614.9 0.102 -139.264 0.033 64.021 0.963 -1.013
          0.034 66.905 0.897 167.103 0.025 -16.165
          0.958 -0.444 0.025 -12.651 0.081 -124.642
1634.45 0.103 -140.291 0.033 67.481 0.959 -0.892
          0.034 68.794 0.896 166.066 0.024 -17.965
          0.962 -0.331 0.025 -16.771 0.082 -126.219
1654 0.104 -141.179 0.034 70.325 0.958 -0.675
          0.034 70.078 0.897 165.016 0.023 -19.947
          0.965 -0.524 0.024 -21.244 0.082 -127.406
1673.55 0.105 -141.854 0.034 72.023 0.959 -0.471
          0.034 71.25 0.897 163.963 0.022 -21.802
          0.964 -0.788 0.022 -24.213 0.083 -128.25
1693.1 0.107 -142.207 0.034 72.681 0.962 -0.37
          0.034 72.88 0.898 162.918 0.022 -23.526
          0.959 -0.844 0.021 -24.768 0.083 -128.939
1712.65 0.109 -142.404 0.034 73.595 0.965 -0.37
          0.033 74.777 0.898 161.852 0.021 -26.386
          0.955 -0.494 0.02 -24.045 0.085 -129.38
1732.2 0.112 -143.121 0.033 74.974 0.965 -0.525
          0.033 76.794 0.899 160.803 0.02 -28.257
          0.958 -0.185 0.02 -26.066 0.087 -130.212
1751.75 0.116 -144.474 0.033 76.847 0.965 -0.623
          0.033 78.737 0.899 159.696 0.02 -31.051
          0.962 -0.211 0.02 -30.352 0.088 -131.355
1771.3 0.119 -146.438 0.032 79.127 0.964 -0.647
          0.033 80.568 0.9 158.573 0.019 -34.055
          0.964 -0.408 0.019 -34.304 0.089 -132.378
1790.85 0.121 -148.533 0.032 81.571 0.962 -0.612
          0.033 82.402 0.901 157.475 0.018 -36.91
          0.962 -0.544 0.018 -36.765 0.09 -133.065
1810.4 0.122 -149.797 0.032 83.775 0.961 -0.541
          0.033 84.491 0.902 156.419 0.018 -39.978
          0.96 -0.4 0.017 -38.695 0.092 -133.538
1829.95 0.123 -150.554 0.033 86.568 0.961 -0.443
          0.034 86.59 0.901 155.409 0.017 -43.311
          0.962 -0.253 0.017 -41.63 0.093 -133.803
1849.5 0.125 -151.582 0.033 89.218 0.961 -0.301
          0.034 88.136 0.901 154.36 0.017 -46.485
          0.966 -0.288 0.017 -45.993 0.096 -134.148
1869.05 0.127 -152.576 0.034 90.882 0.964 -0.136
          0.034 89.877 0.901 153.339 0.017 -50.247
          0.968 -0.364 0.017 -50.995 0.098 -134.839
1888.6 0.129 -153.587 0.035 91.388 0.969 -0.056
          0.034 91.799 0.901 152.353 0.016 -54.533
          0.967 -0.418 0.016 -55.843 0.101 -135.849
1908.15 0.131 -154.782 0.036 91.076 0.975 -0.2
          0.034 93.583 0.9 151.369 0.016 -59.023
          0.966 -0.451 0.016 -59.962 0.104 -137.003
1927.7 0.133 -155.942 0.035 91.029 0.98 -0.65
          0.035 95.555 0.901 150.29 0.016 -64.316
          0.966 -0.551 0.015 -63.894 0.107 -138.219
1947.25 0.135 -157.02 0.034 93.153 0.977 -1.159
          0.035 97.375 0.901 149.298 0.016 -69.924
          0.966 -0.472 0.015 -68.154 0.109 -139.439
1966.8 0.137 -157.919 0.033 97.132 0.971 -1.425
          0.035 99.471 0.9 148.361 0.015 -75.227
          0.969 -0.397 0.015 -72.801 0.112 -140.577
1986.35 0.139 -158.788 0.033 101.824 0.963 -1.352
          0.036 101.304 0.9 147.412 0.015 -80.069
          0.972 -0.473 0.016 -78.77 0.115 -141.768
2005.9 0.141 -159.754 0.035 105.887 0.96 -0.988
          0.037 102.647 0.9 146.423 0.015 -84.584
          0.975 -0.762 0.016 -85.62 0.118 -143.085
2025.45 0.144 -160.798 0.037 107.937 0.964 -0.573
          0.037 104.283 0.9 145.452 0.016 -89.25
          0.972 -1.17 0.016 -90.204 0.121 -144.399
2045 0.146 -161.884 0.039 106.791 0.972 -0.573
          0.037 106.103 0.9 144.535 0.016 -93.806
          0.967 -1.066 0.016 -93.065 0.124 -145.891
2064.55 0.148 -163.04 0.039 105.89 0.978 -0.955
          0.038 108.135 0.9 143.687 0.017 -98.782
          0.967 -0.815 0.016 -97.734 0.127 -147.367
2084.1 0.15 -164.33 0.038 106.612 0.978 -1.487
          0.039 109.911 0.899 142.808 0.017 -103.925
          0.972 -0.843 0.017 -103.607 0.13 -148.866
2103.65 0.152 -165.558 0.038 109.361 0.974 -1.903
          0.04 111.217 0.899 141.877 0.017 -108.74
          0.976 -1.23 0.017 -108.915 0.132 -150.314
2123.2 0.154 -166.395 0.038 113.545 0.966 -1.958
          0.041 112.184 0.899 140.941 0.018 -112.657
          0.972 -1.706 0.017 -111.413 0.134 -151.572
2142.75 0.157 -167.197 0.04 116.928 0.962 -1.646
          0.041 114.255 0.899 140.033 0.019 -115.429
          0.962 -1.516 0.018 -112.012 0.137 -152.424
2162.3 0.16 -168.166 0.042 118.112 0.964 -1.391
          0.042 116.262 0.899 139.131 0.019 -118.431
          0.964 -0.955 0.02 -115.088 0.141 -153.709
2181.85 0.163 -169.449 0.044 118.102 0.968 -1.377
          0.043 117.911 0.899 138.234 0.02 -121.233
          0.976 -0.861 0.022 -120.819 0.144 -155.301
2201.4 0.165 -170.812 0.045 118.035 0.971 -1.572
          0.045 118.83 0.899 137.387 0.021 -124.11
          0.986 -1.453 0.022 -127.121 0.146 -156.923
2220.95 0.166 -171.967 0.045 118.804 0.972 -1.857
          0.046 118.998 0.899 136.604 0.022 -127.191
          0.983 -2.499 0.022 -131.114 0.148 -158.311
2240.5 0.167 -172.88 0.046 120.342 0.972 -2.086
          0.046 119.61 0.898 135.757 0.023 -129.233
          0.966 -3.005 0.021 -129.944 0.15 -159.413
2260.05 0.17 -173.746 0.047 121.439 0.971 -2.241
          0.046 121.631 0.898 134.892 0.024 -131.684
          0.953 -2.384 0.023 -127.689 0.153 -160.398
2279.6 0.173 -174.685 0.047 122.248 0.971 -2.409
          0.048 123.842 0.899 134.019 0.026 -133.923
          0.954 -1.58 0.026 -128.608 0.156 -161.55
2299.15 0.176 -175.794 0.048 123.184 0.97 -2.654
          0.049 125.567 0.899 133.216 0.027 -135.969
          0.965 -1.135 0.029 -132.673 0.159 -162.921
2318.7 0.178 -177.015 0.048 124.711 0.966 -2.929
          0.051 126.412 0.898 132.472 0.028 -137.889
          0.978 -1.34 0.03 -138.401 0.162 -164.41
2338.25 0.18 -178.097 0.049 127.215 0.96 -3.043
          0.053 126.337 0.898 131.659 0.029 -139.726
          0.985 -2.177 0.03 -143.11 0.164 -165.762
2357.8 0.181 -179.12 0.051 129.744 0.956 -2.931
          0.054 126.281 0.899 130.794 0.03 -140.885
          0.981 -3.189 0.03 -144.817 0.166 -166.867
2377.35 0.183 -179.928 0.053 130.956 0.955 -2.793
          0.055 126.775 0.898 130.036 0.031 -142.173
          0.968 -3.702 0.029 -143.694 0.169 -167.806
2396.9 0.185 179.292 0.055 131.277 0.956 -2.772
          0.055 128.011 0.898 129.288 0.033 -143.276
          0.952 -3.513 0.031 -141.107 0.172 -168.722
2416.45 0.188 178.474 0.057 131.458 0.957 -2.893
          0.056 129.848 0.898 128.51 0.034 -144.357
          0.942 -2.72 0.034 -139.167 0.175 -169.669
2436 0.191 177.597 0.057 132.334 0.955 -3.076
          0.058 131.844 0.898 127.705 0.035 -145.664
          0.947 -1.714 0.038 -140.233 0.179 -170.691
2455.55 0.194 176.422 0.059 134.204 0.95 -3.042
          0.06 132.855 0.899 126.946 0.037 -146.23
          0.97 -1.574 0.041 -146.178 0.182 -172.105
2475.1 0.197 175.249 0.063 135.347 0.95 -2.792
          0.063 132.555 0.899 126.212 0.038 -146.97
          0.983 -2.594 0.042 -151.565 0.185 -173.393
2494.65 0.199 174.123 0.066 134.648 0.955 -2.609
          0.064 132.122 0.898 125.481 0.04 -147.874
          0.98 -3.82 0.04 -153.497 0.187 -174.57
2514.2 0.201 173.168 0.068 132.603 0.963 -2.778
          0.064 132.144 0.898 124.746 0.042 -149.001
          0.966 -4.567 0.04 -152.337 0.189 -175.593
2533.75 0.202 172.403 0.067 130.495 0.97 -3.444
          0.065 132.904 0.898 124.01 0.044 -150.42
          0.948 -4.495 0.041 -149.718 0.191 -176.493
2553.3 0.205 171.593 0.065 130.523 0.968 -4.446
          0.066 134.28 0.898 123.292 0.046 -152.207
          0.939 -3.884 0.044 -148.345 0.193 -177.473
2572.85 0.207 170.897 0.063 133.925 0.953 -5.032
          0.067 135.74 0.897 122.644 0.047 -153.504
          0.94 -3.288 0.047 -148.65 0.196 -178.292
2592.4 0.21 170.186 0.064 138.279 0.938 -4.949
          0.07 136.897 0.898 121.888 0.047 -153.857
          0.948 -2.868 0.052 -150.572 0.199 -179.144
2611.95 0.213 169.339 0.068 141.458 0.93 -4.398
