!Hittite Microwave Corporation								
!12 Elizabeth Drive								
!Chelmsford, MA 01824								
!Tel: 978-250-3343								
!Fax: 978-250-3373							
!Device: HMC241QS16, DC-3.5 GHz GaAs MMIC SP4T Non-Reflective Switch in 16 lead QSOP package								
!Misc: Port 1 = RFC, Port 2 = RF1, Port 3 = RF2. Port 4 = RF3, Port 5 = RF 4, RF3 Selected, Bias: +5VDC, DEEMBEDDED TO THE PINS OF THE DEVICE							
!
# MHZ S MA R 50

0.01	0.999	-0.206	0.00007276	137.968	0.00001317	120.914	0.001805	120.168
	0.00004743	120.147	0.00002349	61.964	0.997	-0.214	0.00005896	114.821
	0.00005559	93.653	0.00002289	-54.106	0.00007644	116.652	0.00009865	148.337
	0.998	-0.264	0.00004314	114.771	0.00006942	123.639	0.001839	119.507
	0.0000165	80.895	0.00002091	147.276	0.999	-0.148	0.00004808	124.882
	0.00004239	48.732	0.00006167	117.947	0.00003929	-133.127	0.00002157	31.098
	0.997	-0.174						
19.105	0.453	-58.769	0.0007301	94.87	0.0006333	90.606	0.813	29.341
	0.0007807	86.854	0.0006553	89.434	0.966	-12.329	0.0003765	50.216
	0.0005495	83.871	0.0002686	39.943	0.0006144	88.346	0.000408	58.225
	0.966	-12.303	0.0005316	87.794	0.0002214	31.911	0.813	29.251
	0.0006086	88.679	0.0006152	86.714	0.451	-56.779	0.0006963	87.711
	0.0007689	87.953	0.0002528	46.911	0.0002339	28.963	0.0006361	83.381
	0.966	-12.27						
38.201	0.248	-70.141	0.001278	76.223	0.001202	73.756	0.912	13.613
	0.001317	80.757	0.001314	77.413	0.909	-23.333	0.0006016	-26.416
	0.001081	75.947	0.0004915	-85.109	0.001229	74.185	0.0006401	-28.1
	0.91	-23.294	0.0009569	73.222	0.0005097	-89.31	0.912	13.615
	0.001097	75.942	0.0009711	72.804	0.249	-65.942	0.001243	69.484
	0.001373	81.521	0.0004848	-83.979	0.0004974	-88.07	0.00127	70.287
	0.909	-23.246						
57.296	0.164	-72.298	0.001939	72.245	0.001737	71.757	0.929	8.638
	0.002152	73.09	0.00194	73.347	0.838	-32.899	0.0002212	57.917
	0.001724	66.86	0.0001422	-126.775	0.001735	70.703	0.0002375	59.492
	0.838	-32.791	0.001596	69.559	0.0001972	-125.714	0.93	8.64
	0.001738	67.381	0.001587	70.812	0.17	-66.175	0.001922	69.267
	0.002168	73.125	0.0001052	151.546	0.0001966	-133.133	0.001923	68.121
	0.838	-32.724						
76.392	0.123	-71.629	0.002529	65.699	0.002251	63.624	0.934	6.059
	0.002808	64.787	0.002496	67.017	0.763	-41.022	0.0001639	95.904
	0.002229	57.252	0.0001033	133.696	0.00224	62.783	0.0001425	94.014
	0.764	-40.934	0.002085	61.55	0.00008244	178.378	0.934	6.083
	0.002238	58.151	0.002059	62.108	0.13	-64.183	0.002492	62.244
	0.002789	65.264	0.00008289	120.976	0.0001216	-151.404	0.002479	61.791
	0.763	-40.799						
95.487	0.097	-69.684	0.002993	59.617	0.002676	56.148	0.937	4.468
	0.003278	58.362	0.00292	60.012	0.692	-47.875	0.0003032	112.651
	0.002607	49.759	0.0001434	97.156	0.002656	56.256	0.000318	114.554
	0.693	-47.802	0.002453	55.109	0.0001158	164.117	0.937	4.453
	0.002598	50.567	0.002404	55.641	0.107	-61.406	0.002891	55.089
	0.003242	59.338	0.0000928	102.865	0.00009665	160.908	0.002908	55.893
	0.693	-47.561						
114.583	0.081	-66.892	0.003305	54.202	0.003001	50.4	0.938	3.312
	0.003652	53.809	0.003299	55.388	0.626	-53.625	0.0004977	120.814
	0.002853	43.531	0.0001203	69.865	0.002979	50.042	0.0004684	126.343
	0.628	-53.534	0.002686	48.699	0.0001012	142.391	0.938	3.296
	0.00282	43.552	0.002636	48.085	0.092	-58.19	0.003196	50.383
	0.003622	54.002	0.00008542	67.931	0.0001016	142.447	0.003225	50.292
	0.628	-53.235						
133.678	0.069	-63.547	0.003525	49.998	0.003193	44.649	0.939	2.442
	0.003825	49.16	0.003542	50.39	0.569	-58.512	0.0007033	124.461
	0.00305	38.368	0.0001582	93.403	0.003178	44.587	0.0007012	130.532
	0.57	-58.379	0.002851	43.448	0.0001747	146.321	0.939	2.451
	0.003026	37.27	0.002849	42.685	0.081	-54.846	0.003393	45.317
	0.003833	49.232	0.0001507	93.577	0.0001655	146.349	0.003376	45.497
	0.57	-58.002						
152.773	0.06	-59.718	0.003687	46.767	0.003352	40.518	0.938	1.763
	0.004004	45.812	0.003687	47.144	0.519	-62.667	0.0009251	126.993
	0.003214	33.326	0.0002163	109.543	0.003336	40.572	0.0009378	129.436
	0.52	-62.523	0.003011	38.701	0.0002162	142.557	0.939	1.741
	0.00322	32.803	0.003023	38.89	0.074	-51.618	0.003532	41.598
	0.004001	45.815	0.0002301	118.043	0.0001683	144.483	0.003497	41.317
	0.52	-62.068						
171.869	0.053	-55.561	0.003853	44.678	0.003468	37.014	0.938	1.188
	0.004148	43.342	0.003842	44.806	0.474	-66.261	0.001166	125.568
	0.003319	29.696	0.0002648	110.179	0.003464	37.757	0.001161	124.37
	0.476	-66.131	0.003107	35.211	0.0002054	138.826	0.939	1.155
	0.003319	28.99	0.003124	35.367	0.068	-48.236	0.00364	38.76
	0.004148	43.673	0.0002775	112.407	0.0002127	138.86	0.003626	38.364
	0.477	-65.559						
190.964	0.048	-51.086	0.003977	42.956	0.003534	34.126	0.938	0.685
	0.004245	41.643	0.00398	42.871	0.436	-69.41	0.001396	122.794
	0.003405	25.937	0.0003035	110.695	0.003546	34.63	0.001409	120.429
	0.438	-69.289	0.003153	32.734	0.000247	135.165	0.938	0.65
	0.003403	25.62	0.003185	32.377	0.064	-44.813	0.003714	36.143
	0.00425	41.935	0.0002858	111.567	0.0002676	131.1	0.003723	36.537
	0.439	-68.567						
210.06	0.044	-46.501	0.004045	41.53	0.00357	32.329	0.938	0.25
	0.00433	40.437	0.004075	41.602	0.402	-72.174	0.001635	120.731
	0.003491	22.14	0.0003445	107.07	0.003624	32.018	0.001625	120.204
	0.404	-72.035	0.003212	30.885	0.0003081	125.839	0.938	0.204
	0.003467	22.655	0.003227	30.237	0.061	-41.461	0.003779	34.448
	0.004341	40.59	0.0003183	109.547	0.0002828	125.778	0.00379	35.13
	0.406	-71.205						
229.155	0.041	-41.989	0.004119	40.494	0.00362	30.428	0.938	-0.138
	0.004382	39.47	0.004157	40.538	0.373	-74.649	0.001882	119.078
	0.003549	19.47	0.000386	104.205	0.003695	30.218	0.001814	119.808
	0.374	-74.483	0.003265	29.212	0.0003425	125.145	0.938	-0.174
	0.003506	19.756	0.003275	28.522	0.058	-38.125	0.003824	33.413
	0.004422	39.612	0.0003851	103.488	0.0003273	126.83	0.003843	33.609
	0.377	-73.575						
248.251	0.039	-37.478	0.00421	39.688	0.003684	28.641	0.938	-0.492
	0.004445	39.174	0.004224	39.687	0.346	-76.892	0.002111	118.465
	0.003563	17.095	0.0004256	105.536	0.00371	28.438	0.002065	118.03
	0.349	-76.723	0.0033	27.276	0.0003753	126.861	0.937	-0.533
	0.003559	17.503	0.003322	26.766	0.056	-34.903	0.003838	32.526
	0.004482	38.634	0.0004301	108.105	0.000376	128.049	0.003866	32.151
	0.351	-75.691						
267.346	0.037	-33.182	0.004266	39.405	0.003706	27.609	0.938	-0.822
	0.004504	38.639	0.004265	38.993	0.324	-78.911	0.002315	116.957
	0.00355	15.334	0.0004934	105.482	0.003705	27.405	0.002331	117.335
	0.326	-78.729	0.003356	25.816	0.000399	123.312	0.937	-0.864
	0.003556	15.829	0.003327	25.374	0.055	-31.802	0.003853	31.672
	0.004511	38.152	0.0004689	106.07	0.0003932	128.379	0.003864	31.226
	0.328	-77.545						
286.441	0.036	-29.307	0.004256	38.551	0.003745	26.114	0.938	-1.146
	0.004515	37.865	0.004296	38.877	0.303	-80.749	0.002487	115.573
	0.003567	13.21	0.0005412	102.922	0.003725	25.508	0.002543	115.9
	0.305	-80.547	0.003387	23.867	0.0004533	124.63	0.937	-1.146
	0.003589	13.965	0.003349	24.285	0.054	-28.846	0.003859	30.383
	0.004494	37.972	0.0005037	105.318	0.0004238	124.764	0.003887	30.207
	0.308	-79.247						
305.537	0.035	-25.937	0.004304	38.399	0.003726	25.319	0.938	-1.405
	0.00454	37.872	0.004356	38.752	0.285	-82.429	0.00278	114.331
	0.003598	11.146	0.0005464	107.735	0.003689	24.487	0.002793	114.908
	0.287	-82.301	0.003363	22.345	0.0005243	122.92	0.938	-1.425
	0.00361	11.644	0.003384	22.936	0.054	-26.173	0.00388	29.32
	0.004535	37.707	0.0005677	107.177	0.0004741	117.845	0.003905	29.888
	0.29	-80.819						
324.632	0.035	-22.961	0.004384	38.563	0.003754	24.212	0.937	-1.643
	0.004525	38.279	0.004363	38.528	0.268	-83.975	0.003003	113.329
	0.003583	9.687	0.0006172	106.684	0.003742	23.881	0.003022	113.373
	0.271	-83.87	0.00339	22.03	0.0005243	121.433	0.937	-1.737
	0.003637	9.486	0.003401	22.895	0.053	-24.037	0.003864	29.067
	0.004519	38.094	0.000573	105.836	0.0005334	115.135	0.003845	29.061
	0.273	-82.331						
343.728	0.034	-20.47	0.00437	38.535	0.003739	23.48	0.937	-1.929
	0.004531	38.109	0.004352	38.63	0.253	-85.462	0.003205	113.201
	0.003595	8.829	0.0006416	106.963	0.003729	22.387	0.003228	112.672
	0.255	-85.353	0.003383	20.817	0.0005172	121.501	0.938	-1.989
	0.003618	8.296	0.003381	20.976	0.053	-21.96	0.003825	29.395
	0.004514	37.541	0.0006517	104.8	0.0005602	115.532	0.003827	28.923
	0.258	-83.735						
362.823	0.034	-18.28	0.00439	38.416	0.003786	22.644	0.937	-2.21
	0.00457	38.429	0.004426	38.815	0.24	-86.81	0.003433	112.325
	0.003631	6.506	0.0006588	105.107	0.003768	23.343	0.003423	112.593
	0.242	-86.673	0.003397	19.793	0.0005825	117.048	0.938	-2.274
	0.003602	5.948	0.003344	19.913	0.053	-20.036	0.003797	29.145
	0.004538	37.724	0.0006914	102.393	0.0005923	113.791	0.003861	29.509
	0.245	-85.01						
381.919	0.034	-16.537	0.004464	38.462	0.003758	22.023	0.937	-2.411
	0.004552	39.089	0.004424	38.835	0.227	-88.073	0.003666	111.63
	0.003608	5.652	0.0007158	102	0.003733	21.483	0.003612	111.281
	0.229	-87.963	0.003384	19.319	0.0006206	112.848	0.937	-2.551
	0.003579	5.148	0.003334	19.177	0.054	-18.423	0.003764	27.901
	0.004516	38.885	0.0007208	99.78	0.0006242	114.653	0.003778	28.906
	0.232	-86.245						
401.014	0.035	-15.111	0.004443	39.168	0.003707	21.957	0.937	-2.744
	0.004549	39.517	0.00445	39.01	0.216	-89.252	0.003882	111.125
	0.003608	4.172	0.0007928	100.031	0.003722	21.665	0.003849	110.007
	0.218	-89.13	0.003301	18.383	0.0006695	112.34	0.937	-2.818
	0.00363	3.203	0.003353	19.1	0.054	-17.151	0.003741	28.45
	0.004523	39.302	0.00071	101.047	0.0006473	111.236	0.003754	28.716
	0.221	-87.544						
420.109	0.035	-13.976	0.004489	39.553	0.003748	21.327	0.937	-2.988
	0.004593	39.512	0.004495	40.508	0.205	-90.321	0.004042	110.55
	0.003604	2.709	0.0008112	104.734	0.003711	20.699	0.004077	110.046
	0.208	-90.222	0.003353	18.267	0.0006391	115.144	0.936	-3.058
	0.0036	2.719	0.003304	18.155	0.054	-15.9	0.003726	28.876
	0.00453	40.109	0.0007695	103.164	0.0006889	112.652	0.003734	28.141
	0.21	-88.647						
439.205	0.036	-12.993	0.004479	40.157	0.003707	20.757	0.936	-3.244
	0.004533	40.786	0.004524	40.137	0.195	-91.372	0.004238	109.758
	0.003587	1.37	0.0008421	101.351	0.003712	20.759	0.004245	109.846
	0.198	-91.291	0.003348	17.858	0.0007168	110.41	0.936	-3.322
	0.003589	0.653	0.003293	18.253	0.054	-15.027	0.003657	29.134
	0.004527	40.879	0.0008316	103.818	0.0007079	109.886	0.00364	28.78
	0.201	-89.789						
458.3	0.037	-12.038	0.004503	41.105	0.00367	20.972	0.936	-3.43
	0.004548	41.551	0.004534	40.435	0.186	-92.406	0.004485	109.836
	0.003571	0.346	0.0008817	101.381	0.003683	20.64	0.004452	109.545
	0.189	-92.308	0.003298	17.952	0.0007624	112.572	0.936	-3.494
	0.003578	-0.048	0.003275	17.759	0.054	-14.027	0.003632	29.095
	0.004532	41.262	0.0008773	100.889	0.0007265	110.185	0.003602	29.378
	0.192	-90.929						
477.396	0.037	-11.23	0.004526	41.477	0.003667	20.523	0.936	-3.677
	0.00451	42.292	0.004549	41.332	0.177	-93.432	0.0047	109.409
	0.003552	-0.726	0.0009107	102.298	0.00367	20.002	0.004694	109.411
	0.18	-93.354	0.003267	17.137	0.0007954	111.528	0.936	-3.677
	0.003536	-0.697	0.003297	17.468	0.055	-13.272	0.003578	29.817
	0.00452	41.969	0.0009496	101.078	0.0007731	110.864	0.003597	29.285
	0.183	-92.087						
496.491	0.038	-10.44	0.004523	42.366	0.003652	19.88	0.936	-3.853
	0.004514	43.583	0.004573	42.075	0.169	-94.442	0.004879	109.495
	0.003561	-2.542	0.0009739	100.517	0.003634	19.451	0.004901	109.243
	0.172	-94.377	0.003254	16.941	0.0008372	110.111	0.936	-3.896
	0.003531	-1.692	0.003283	17.202	0.055	-12.617	0.003541	30.09
	0.004473	43.36	0.0009907	101.772	0.000816	111.036	0.003533	30.23
	0.176	-93.199						
515.587	0.039	-9.743	0.004567	42.889	0.003579	19.766	0.936	-4.036
	0.00451	44.239	0.004596	42.714	0.161	-95.341	0.005104	109.011
	0.003533	-3.497	0.001047	101.262	0.003576	19.283	0.00511	108.727
	0.164	-95.325	0.003225	16.735	0.0008638	109.893	0.936	-4.08
	0.003532	-3.287	0.00324	16.839	0.055	-12.237	0.003516	30.691
	0.004493	44.293	0.001027	102.812	0.0008284	112.412	0.003477	30.634
	0.169	-94.272						
534.682	0.04	-8.985	0.004614	43.305	0.003611	20.241	0.935	-4.225
	0.004511	45.164	0.004602	43.219	0.153	-96.371	0.00532	108.717
	0.003502	-3.938	0.001098	102.334	0.003548	19.333	0.005299	108.423
	0.157	-96.397	0.003205	16.628	0.0008864	109.712	0.936	-4.321
	0.003521	-4.486	0.00321	16.78	0.056	-11.97	0.003452	31.268
	0.00449	45.098	0.001053	103.274	0.0008695	111.075	0.003439	31.573
	0.162	-95.434						
553.777	0.041	-8.29	0.004631	44.107	0.003566	20.144	0.935	-4.467
	0.004505	46.256	0.004613	43.919	0.146	-97.45	0.005515	108.592
	0.003494	-5.174	0.00111	102.391	0.003537	19.528	0.005487	108.33
	0.15	-97.527	0.003198	15.936	0.0009033	109.156	0.935	-4.552
	0.003483	-5.266	0.003194	16.23	0.056	-11.928	0.003353	31.772
	0.00448	45.857	0.001097	102.554	0.0009311	109.01	0.003355	32.266
	0.156	-96.615						
572.873	0.041	-7.607	0.004629	44.796	0.003493	19.492	0.935	-4.674
	0.004484	47.42	0.004627	44.829	0.14	-98.449	0.005699	108.512
	0.003492	-6.545	0.001125	101.187	0.003498	19.497	0.005693	108.018
	0.143	-98.601	0.003167	15.608	0.0009461	108.947	0.936	-4.774
	0.00344	-6.45	0.003158	16.33	0.057	-12.12	0.003285	32.638
	0.004484	47.293	0.001147	101.99	0.0009618	108.153	0.003284	33.18
	0.151	-97.708						
591.968	0.042	-6.859	0.004649	45.243	0.0035	19.157	0.935	-4.885
	0.00448	48.501	0.004655	45.478	0.134	-99.487	0.005877	108.218
	0.003475	-7.58	0.001155	100.361	0.00347	19.615	0.00589	107.822
	0.138	-99.686	0.003118	15.573	0.0009822	108.403	0.935	-4.96
	0.003413	-7.537	0.003117	16.505	0.057	-12.417	0.003232	33.71
	0.004483	48.866	0.001168	102.304	0.0009799	108.244	0.00325	33.864
	0.145	-98.823						
611.064	0.042	-6.057	0.004681	46.184	0.003489	19.399	0.934	-5.158
	0.004486	49.44	0.004685	45.75	0.128	-100.578	0.006069	107.94
	0.00344	-8.384	0.001197	100.978	0.003463	20.009	0.0061	107.965
	0.132	-100.894	0.003095	15.756	0.001016	108.132	0.935	-5.168
	0.003404	-8.389	0.003096	16.03	0.058	-12.939	0.003174	34.197
	0.004471	49.783	0.001205	101.994	0.001013	108.811	0.003216	33.989
	0.141	-99.986						
630.159	0.042	-5.148	0.004701	47.219	0.003447	19.637	0.934	-5.373
	0.004472	50.771	0.004688	46.338	0.122	-101.666	0.006271	107.999
	0.003399	-9.349	0.001245	101.149	0.003414	19.957	0.006313	107.913
	0.127	-102.172	0.003074	16.272	0.001084	108.326	0.935	-5.457
	0.003415	-9.381	0.003066	15.902	0.059	-13.805	0.003148	34.932
	0.004444	50.869	0.001263	101.454	0.001037	108.671	0.003163	34.781
	0.136	-101.081						
649.255	0.043	-4.207	0.004728	47.665	0.00342	19.464	0.934	-5.541
	0.004455	52.314	0.004695	47.477	0.117	-102.715	0.006477	107.779
	0.003371	-10.683	0.001279	100.786	0.003355	19.714	0.006488	107.744
	0.122	-103.34	0.003017	15.862	0.001102	107.944	0.935	-5.651
	0.003412	-10.424	0.003036	15.848	0.059	-14.989	0.00311	36.665
	0.004427	52.193	0.001282	102.009	0.001062	108.368	0.003058	35.522
	0.132	-102.184						
668.35	0.043	-3.492	0.004729	48.677	0.003393	19.564	0.934	-5.703
	0.004447	53.833	0.004705	48.251	0.111	-103.485	0.006706	107.802
	0.003357	-11.114	0.001337	100.863	0.003328	19.658	0.006716	107.797
	0.117	-104.408	0.00299	15.985	0.001088	109.754	0.934	-5.808
	0.003353	-12.345	0.003025	16.333	0.06	-16.64	0.003038	37.093
	0.004408	53.436	0.001319	101.176	0.001121	108.174	0.002978	36.474
	0.128	-103.298						
687.445	0.044	-3.704	0.00474	49.447	0.003296	19.607	0.935	-5.857
	0.004426	55.344	0.004705	49.162	0.106	-104.008	0.00691	107.639
	0.003311	-12.803	0.00135	101.543	0.003325	19.619	0.006939	107.455
	0.112	-105.338	0.002974	15.473	0.001137	109.269	0.934	-5.951
	0.003325	-13.164	0.002962	15.584	0.061	-18.959	0.002956	38.209
	0.004395	55.028	0.001361	101.077	0.001162	106.556	0.002951	37.948
	0.125	-104.28						
706.541	0.045	-5.541	0.004739	50.153	0.003293	20.032	0.935	-5.924
	0.00442	56.381	0.004696	50.458	0.103	-104.047	0.007096	107.623
	0.003291	-13.942	0.001369	102.09	0.003279	20.401	0.007087	107.62
	0.108	-105.589	0.002893	15.904	0.001209	107.143	0.934	-6.034
	0.003312	-13.661	0.002932	15.852	0.061	-21.611	0.002894	40.112
	0.004436	56.63	0.001359	102.02	0.001186	107.869	0.002857	40.115
	0.122	-105.296						
725.636	0.044	-7.408	0.004753	50.985	0.003211	20.054	0.935	-6.113
	0.004452	57.823	0.004747	51.408	0.1	-104.801	0.007258	107.741
	0.003278	-14.685	0.001417	103.356	0.003241	20.526	0.007287	107.726
	0.105	-105.959	0.002887	15.919	0.001257	109.816	0.934	-6.226
	0.003283	-14.091	0.002859	16.093	0.06	-22.898	0.00282	40.426
	0.004391	57.984	0.001406	103.558	0.001275	109.294	0.002793	41.109
	0.119	-106.166						
744.732	0.042	-8.46	0.00479	52.389	0.003179	20.642	0.935	-6.253
	0.004421	59.889	0.004793	52.378	0.097	-105.981	0.007459	107.782
	0.003247	-15.001	0.001491	102.493	0.003143	21.14	0.007445	107.807
	0.103	-106.809	0.002873	16.644	0.001275	108.361	0.934	-6.394
	0.003223	-15.546	0.002837	17.406	0.06	-23.992	0.002794	41.789
	0.004402	59.419	0.001481	102.018	0.001246	109.142	0.002731	42.598
	0.116	-106.942						
763.827	0.041	-9.305	0.004775	53.364	0.003106	21.204	0.935	-6.429
	0.004396	60.783	0.004818	53.306	0.094	-107.017	0.00765	107.824
	0.003175	-16.613	0.001569	102.981	0.003133	20.626	0.007685	107.744
	0.101	-107.86	0.002823	18.4	0.001284	108.916	0.937	-6.579
	0.003216	-16.335	0.002822	16.485	0.06	-25.039	0.00266	43.928
	0.004421	60.789	0.001564	101.452	0.001322	108.747	0.002648	43.807
	0.113	-107.721						
782.923	0.04	-10.237	0.004832	54.145	0.00312	20.532	0.935	-6.633
	0.004397	62.658	0.004803	54.108	0.091	-107.79	0.007897	107.876
	0.003206	-17.527	0.001578	100.319	0.003048	21.659	0.007873	107.721
	0.098	-108.781	0.002789	16.88	0.001341	108.816	0.937	-6.736
	0.003201	-17.171	0.002802	16.378	0.061	-26.55	0.002601	45.819
	0.004441	62.466	0.001567	103.336	0.001362	107.839	0.002545	45.901
	0.111	-108.542						
802.018	0.04	-11.185	0.004869	55.186	0.00304	20.469	0.935	-6.766
	0.004415	64.293	0.004881	54.871	0.087	-108.625	0.008085	107.894
	0.003138	-18.315	0.001618	101.674	0.002986	20.68	0.008057	107.554
	0.094	-109.627	0.002752	17.277	0.001376	107.979	0.937	-6.938
	0.003189	-19.224	0.002762	16.792	0.061	-28.073	0.002509	47.884
	0.004438	64.406	0.001626	101.571	0.001382	107.975	0.00249	48.089
	0.108	-109.198						
821.113	0.039	-12.719	0.0049	56.36	0.002912	20.969	0.934	-7.031
	0.004409	66.24	0.004898	56.159	0.084	-109.478	0.008282	107.833
	0.003132	-19.584	0.001639	102.586	0.002927	21.66	0.008302	107.481
	0.091	-110.49	0.002761	17.248	0.001424	108.222	0.937	-7.262
	0.003134	-20.867	0.002771	16.38	0.061	-29.389	0.002428	49.574
	0.004451	65.98	0.001666	100.994	0.001437	107.737	0.002403	49.443
	0.106	-109.961						
840.209	0.038	-14.244	0.004881	57.303	0.002889	21.713	0.934	-7.304
	0.004437	67.334	0.004876	57.381	0.08	-110.238	0.008476	107.771
	0.003077	-20.878	0.001702	101.588	0.002907	21.847	0.008474	107.589
	0.088	-111.15	0.002685	16.899	0.001452	107.679	0.937	-7.528
	0.003075	-21.88	0.002709	15.801	0.061	-30.52	0.002429	51.387
	0.004466	67.806	0.001685	102.316	0.00142	108.288	0.002375	51.779
	0.103	-110.528						
859.304	0.038	-15.808	0.004887	58.459	0.002816	22.945	0.934	-7.605
	0.004463	68.634	0.004907	58.661	0.077	-110.789	0.008652	107.809
	0.003097	-22.616	0.001734	102.059	0.002828	22.832	0.008627	107.49
	0.085	-111.718	0.002643	16.134	0.00148	108.252	0.937	-7.705
	0.003041	-23.074	0.002612	15.654	0.061	-31.284	0.002295	54.579
	0.004461	69.288	0.001711	102.527	0.001495	109.131	0.002264	55.071
	0.101	-111.169						
878.4	0.037	-17.453	0.004929	59.316	0.002761	23.491	0.935	-7.9
	0.004462	70.778	0.004966	59.477	0.073	-111.66	0.008832	107.853
	0.003036	-23.378	0.001781	101.393	0.00276	23.668	0.008866	107.473
	0.082	-112.51	0.002549	16.296	0.001503	108.401	0.937	-7.953
	0.003016	-23.916	0.002526	16.517	0.062	-32.025	0.002234	57.399
	0.004484	70.604	0.00177	101.857	0.001526	109.774	0.00222	57.525
	0.099	-111.945						
