! Hittite Microwave Corporation
! 20 Alpha Road
! Chelmsford, MA 01824
! Tel: 978-250-3343
! Fax: 978-250-3373
! Device: HMC276QS24, 0.7-3.0 GHz, GaAS MMIC 4x2 Switch Matrix in 24-lead QSOP package
! Misc: Data was de-embedded to package pins.
!       Port 1 = OP1
!       Port 2 = VL
!       Port 3 = VH
!       Port 4 = HH
!       Port 5 = HL
!       Port 6 = OP2
!          Vdd = +5 V
!         Vctl = 0 V[Logic 0] / +5 V[Logic 1]
!
!  State 10,  HL to OP1,  VH to OP2
!  Control Lines (Logic)
!    HV 1 = 1, Tone 1 = 0
!    HV 2 = 0, Tone 2 = 1
!
!  Data reformated to new Touchstone file format - Wed Jan 10 15:51:44 2007
!
# MHz S DB R 50
! 6 Port Network Data
! freq  dbS11  angS11  dbS12  angS12  dbS13  angS13  dbS14  angS14  
!       dbS15  angS15  dbS16  angS16  
!       dbS21  angS21  dbS22  angS22  
!       dbS23  angS23  dbS24  angS24  dbS25  angS25  dbS26  angS26  
!       dbS31  angS31  dbS32  angS32  dbS33  angS33  dbS34  angS34  
!       dbS35  angS35  dbS36  angS36  
!       dbS41  angS41  dbS42  angS42  
!       dbS43  angS43  dbS44  angS44  dbS45  angS45  dbS46  angS46  
!       dbS51  angS51  dbS52  angS52  dbS53  angS53  dbS54  angS54  
!       dbS55  angS55  dbS56  angS56  
!       dbS61  angS61  dbS62  angS62  
!       dbS63  angS63  dbS64  angS64  dbS65  angS65  dbS66  angS66  
!     
                10       -10.5741658            -13.832        -42.5324253             -1.553        -44.2493737             29.021        -46.6248292              5.192
                      -2.70977838              3.401        -45.3360547            -84.175
                      -41.2166064            -34.379      -0.0173891743             -3.759        -45.5440321            -37.284        -45.5951596            -61.696
                      -43.2217595             65.275        -47.0758478           -107.823
                      -44.4239559           -154.193        -52.4138896             79.938         -11.600885            -12.968        -53.0222255           -154.424
                      -46.5138022            -24.993        -2.63887276              3.004
                      -50.6953181            128.048        -57.0712373             136.59        -48.6571191           -143.735      -0.0435383851             -4.368
                      -43.1740623            169.683         -41.818512            -45.386
                      -2.79323987              4.326        -44.4630718           -130.789        -42.3154246           -175.211        -60.8795144              5.103
                      -11.3086219             -8.975        -45.7067001             70.975
                       -41.271736            101.303        -46.7335213             52.275        -2.56854129              4.055        -47.5598665             75.259
                      -41.1162708             66.318        -10.7221402            -11.241

             29.95       -11.4373041            -13.109        -62.9944289            -81.263        -60.6903215              35.48        -64.0990926            110.839
                      -2.70977838             -0.612        -52.7352839             54.536
                      -69.8347939             27.207       -0.282492854            -12.579        -62.2859924            -68.587        -58.1175681             46.881
                      -68.0680581            119.544        -79.0935404            150.998
                      -63.3281341              0.814        -58.6140398             40.742        -11.6339742            -15.977        -64.4848792              3.074
                      -78.2372782            -60.243        -2.67425322             -0.334
                      -53.3876667           -139.611        -56.5362746            116.403        -63.7283802              20.03       -0.273524459            -12.806
                      -59.1879532            -19.345        -63.1328524            -68.112
                       -2.7335428             -0.362         -55.264218            -64.662        -62.9455218              83.76        -59.8024873           -116.373
                      -11.6671899            -15.796        -62.0694757             -96.14
                      -72.5712537            -67.347        -74.2082209             87.102         -2.6860788             -0.373        -53.6178788             83.038
                      -65.9032679            -76.843        -10.9950178             -11.92

              49.9       -11.8013375            -14.123        -58.9384311             76.327        -62.3108901             92.823        -66.4187136            102.047
                      -2.62711123             -3.783        -64.7299427            -12.527
                      -71.2958579            -72.862       -0.658405317             -20.33        -65.8213893             89.569        -63.0497807           -111.805
                      -66.8876283           -142.872        -68.0878713            -25.784
                      -75.1095098            -21.259        -76.6418438           -149.807        -12.0760131            -18.465        -73.0494968            167.377
                      -68.1920811           -134.938        -2.58022372              -3.71
                      -70.9458755              55.88        -71.6240342            150.739        -80.6294071           -117.212       -0.658405317            -20.579
                      -68.4386823             -2.583        -59.8963897             112.83
                      -2.63887276             -3.634        -65.4834002            116.592        -72.6082622            111.548        -74.2394893            141.116
                      -12.2522035            -18.591        -70.0724789              4.572
                      -69.4370984            -10.727        -62.4123473             54.419        -2.60363584              -3.58        -73.6847902            136.383
                      -62.9017396            113.432        -11.4049544            -13.493

             69.85       -11.9719892            -17.846        -66.6958874            111.784         -67.160608             95.508        -67.5660908             30.487
                       -2.7335428              -5.46        -68.0724571             77.309
                      -63.0831619              90.47         -1.0906283             -27.37        -58.9692322             85.238        -68.9612461           -137.659
                      -68.5961488             12.103        -62.6447595             86.373
                      -64.7060187             58.766        -77.5425815            -22.794        -12.3236927            -23.959        -77.7613145             12.768
                       -71.564632            -14.822        -2.69792051             -5.556
                      -68.7779723            102.381        -75.0013649            -83.935        -72.5528083             23.358         -1.0906283            -27.629
                        -86.51932             66.935        -63.6473707            106.535
                      -2.74544943             -5.359        -72.3740875              13.78        -68.2166522             86.157         -67.493751             53.463
                      -12.3236927            -24.381        -65.9032679             76.742
                      -68.8618946            116.589        -65.8061226            106.541        -2.69792051             -5.406        -68.5170587             51.386
                       -65.956561             81.718        -11.5679215             -17.51

              89.8       -12.1460609            -21.315        -71.4373041             70.654        -68.0088882             42.238        -71.7945807              75.17
                      -2.84129471             -7.158        -60.8968323             85.082
                      -64.7674563            106.252        -1.60797952            -33.525         -70.845389            128.565        -80.4245243             -32.32
                      -69.5615551              4.774        -67.1804389             27.287
                      -62.1136787              80.69        -65.4768707             90.234        -12.5417599            -28.888        -68.6524138             80.701
                      -69.8698994             60.918        -2.79323987             -7.277
                      -66.9821984              9.465        -84.4514636             91.861        -75.4422659             149.12        -1.60797952            -33.868
                      -63.9472616             84.498        -73.2828218            114.441
                      -2.85335007                 -7        -80.7119786            141.974        -66.5027772              77.43        -66.9261041            105.018
                      -12.5050331            -29.497        -65.5736824             98.967
                      -62.1303131             81.651        -68.3360245             35.951        -2.80522868             -7.148        -65.6699167             62.183
                      -62.2893833             63.569        -11.7676059            -21.018

            109.75       -12.3236927            -24.508        -66.4278117             52.303        -66.9919066             94.677        -66.2654876             62.708
                      -2.97483303             -8.535        -62.8787209             90.619
                      -64.3262153              56.92        -2.18040806            -38.994         -68.799475             91.546        -79.0857188            -41.828
                       -82.658904            -139.55        -64.7090056             43.549
                      -64.5125808             68.452        -68.2817658             47.375        -12.8032904            -33.779        -77.4643885             -8.752
                      -71.0506374             76.211        -2.92603576             -8.752
                      -67.2502054             56.371        -81.8776108            130.632        -72.5270506             56.487        -2.19157962            -39.401
                      -66.2209307             79.377        -70.6389642              8.524
                      -2.97483303             -8.483        -68.7636667            -29.434        -67.1408224             53.392        -70.8423621            123.631
                      -12.7277604            -34.727        -66.0015119             93.128
                      -63.6500148             71.941        -65.9617358              12.78        -2.92603576             -8.701        -68.4570603             38.055
                      -61.6761868            106.252        -11.9719892            -24.338

             129.7       -12.5050331            -27.409        -66.6266917             61.877        -64.6124535             66.651        -82.3631806              41.71
                       -3.0980392             -9.856        -61.9121816             73.077
                      -66.6434724             58.999        -2.76931178            -43.736        -64.8384236             85.886        -70.3768826            122.107
                      -67.4485867             27.313        -70.4691638             42.002
                      -64.2281489             49.242        -65.2609209             87.194        -13.1121545            -38.296        -86.9763788             -4.933
                      -65.7486894             47.477        -3.03621766            -10.151
                      -67.5557195             33.304        -88.8066544            -14.683        -70.1336278             62.318        -2.76931178            -44.191
                      -63.5161812             79.255        -67.7379697             90.554
                      -3.11045649             -9.746        -71.8352007             33.231         -68.542568             80.585        -65.7858087             91.338
                      -12.9563496            -39.279        -62.6447595             64.735
                      -62.0463588             79.513        -66.0571575             17.031        -3.04854682            -10.062        -69.3449124              12.74
                      -62.7038474             72.511        -12.1812979            -27.267

            149.65       -12.6902403            -30.015        -64.0269871             71.194        -64.0546492             75.036        -68.8908557              5.329
                      -3.22301819            -10.989        -60.7829769             71.165
                      -64.0504942             78.566        -3.34982175            -47.799        -61.7247823             91.675        -72.6715409            145.334
                      -75.0946832             -3.378        -64.3491143              7.913
                      -61.0268514             57.297        -63.8682613             98.774        -13.3917245            -42.428        -70.8031072             92.506
                      -62.4146409             57.479        -3.16030391             -11.36
                      -66.8035768             17.547        -81.3627097            108.465        -71.2070314             48.571        -3.36260451            -48.306
                      -66.7751078             97.823        -69.9678616             56.809
                      -3.22301819            -10.909        -73.0651189             89.917        -66.5119637            102.086        -66.5691383            115.936
                      -13.2308701            -43.559         -60.766833              72.56
                      -60.0872961             87.064        -66.2422895            -15.129        -3.18533531             -11.32        -70.1057795             57.093
                      -61.1866826             67.594         -12.432042            -29.835

             169.6       -12.8794829            -32.281        -64.6524295             76.667        -62.4848884             72.391        -69.9187423             35.731
                      -3.34982175            -12.009        -59.0700967              56.37
                      -62.6106718             72.315        -3.91721135            -51.345        -61.3373435             90.128           -77.7479            -153.34
                      -74.3339754             17.447        -63.8777578              8.001
                      -60.6875007             73.744          -63.94863             82.595        -13.7649228            -46.476        -71.7709732             110.95
                      -64.8947022             56.322        -3.28618857            -12.468
                      -66.1184308             20.628        -74.3430279            138.734        -70.6893689             66.761        -3.94452549            -51.914
                      -64.0325125             92.131        -69.5615551             51.876
                      -3.36260451            -11.938        -71.2354838             -7.429        -62.2724419             54.842        -68.5844726             60.941
                      -13.4732828            -47.661        -61.9806475             67.572
                      -59.0078877             70.764        -67.3751844              5.628        -3.31158593            -12.417        -73.1397101             40.155
                      -60.2029978             68.566        -12.6528816            -32.217

            189.55       -13.0729405            -34.291        -63.3268601             93.489        -63.7577832               62.9        -67.5764744             13.665
                      -3.47850395             -12.88        -58.9077389              70.55
                      -63.5318197            100.987        -4.46597632            -54.375        -62.4848884             94.068        -82.4767983             99.326
                      -73.5020101              5.759        -65.1848535            -13.276
                      -61.6867279              70.87        -61.5020147             90.009        -14.0666962            -50.175        -69.6640059             77.688
                      -61.2056224             62.409        -3.41392454            -13.415
                      -70.3854924             -2.133        -85.6001235            106.946        -73.3229971             45.875        -4.49507481            -55.016
                       -63.258337             87.933        -66.8187986              62.09
                      -3.49147764            -12.769        -69.4422487              2.989         -64.508201             60.872        -63.9911576             92.505
                      -13.6805931            -51.425        -59.7940009             78.905
                      -58.4671911             81.319        -66.8283257             -0.766        -3.43969872            -13.335        -69.9596557             41.044
                      -61.3039732             77.728        -12.8413031            -34.281

             209.5       -13.2308701            -35.987        -62.6106718              82.53        -61.2817973             70.335        -68.3655568             32.282
                      -3.59597081            -13.656        -57.8625891             78.107
                      -63.6857892             69.005        -5.00527369            -56.912        -61.4290107             96.272        -79.1092048            124.193
                      -72.7654433            -14.076         -64.499448              6.627
                      -60.5605745             64.398        -60.6210064            101.469        -14.3793327            -53.509        -68.6101809             72.559
                      -62.5685413             58.157        -3.53051542            -14.257
                      -67.6957333             15.825        -80.2609842            110.143         -73.609551             95.918        -5.03623946            -57.632
                      -62.7074055             98.566        -68.1342787             42.145
                      -3.60912129            -13.526        -71.3022376             -1.608        -62.2544073             58.204        -62.0057781             89.658
                      -13.9360789            -54.781        -59.5267216             70.171
                       -58.322784             74.696        -69.0691467             20.544        -3.55663841            -14.167        -68.2705044             39.393
                      -58.9461212              73.26        -13.0729405            -36.026

            229.45       -13.3917245            -37.481         -63.589403             92.621        -61.1747418             75.841        -68.6008236            -18.057
                      -3.72838023             -14.34        -58.7558838             72.248
                      -63.0744952             79.782        -5.48176735            -59.159        -59.6928049              92.15        -81.3535694             47.545
                      -75.9884615             -4.385        -67.7974477              3.443
                      -59.3395711             68.635        -59.2994144              92.18        -14.7036435            -56.503        -71.4697748             65.934
                      -63.1528085             73.377        -3.63548213             -15.01
                      -64.1339729             18.712        -72.6193956            159.762        -71.2799293             66.681        -5.54732155            -59.918
                      -61.5745963             94.288        -72.5417599             42.876
                      -3.72838023            -14.221        -69.3372742             17.963        -61.2426241             70.586        -62.4756432              95.64
                      -14.1993078            -57.974        -60.2493559             66.798
