! Hittite Microwave Corporation
! 20 Alpha Road
! Chelmsford, MA 01824
! Tel: 978-250-3343
! Fax: 978-250-3373
! Device: HMC276QS24, 0.7-3.0 GHz, GaAS MMIC 4x2 Switch Matrix in 24-lead QSOP package
! Misc: Data was de-embedded to package pins.
!       Port 1 = OP1
!       Port 2 = VL
!       Port 3 = VH
!       Port 4 = HH
!       Port 5 = HL
!       Port 6 = OP2
!          Vdd = +5 V
!         Vctl = 0 V[Logic 0] / +5 V[Logic 1]
!
!  State 03,  VL to OP1,  HL to OP2
!  Control Lines (Logic)
!    HV 1 = 0, Tone 1 = 0
!    HV 2 = 1, Tone 2 = 0
!
!  Data reformated to new Touchstone file format - Wed Jan 10 14:24:32 2007
!
# MHz S DB R 50
! 6 Port Network Data
! freq  dbS11  angS11  dbS12  angS12  dbS13  angS13  dbS14  angS14  
!       dbS15  angS15  dbS16  angS16  
!       dbS21  angS21  dbS22  angS22  
!       dbS23  angS23  dbS24  angS24  dbS25  angS25  dbS26  angS26  
!       dbS31  angS31  dbS32  angS32  dbS33  angS33  dbS34  angS34  
!       dbS35  angS35  dbS36  angS36  
!       dbS41  angS41  dbS42  angS42  
!       dbS43  angS43  dbS44  angS44  dbS45  angS45  dbS46  angS46  
!       dbS51  angS51  dbS52  angS52  dbS53  angS53  dbS54  angS54  
!       dbS55  angS55  dbS56  angS56  
!       dbS61  angS61  dbS62  angS62  
!       dbS63  angS63  dbS64  angS64  dbS65  angS65  dbS66  angS66  
!     
                10       -10.6330534             -12.29        -2.85335007               2.83        -45.0300375             12.113         -47.113198             88.495
                      -47.5474315           -123.996        -48.6312717           -153.655
                      -2.88961689              3.492        -10.8423621             -9.095        -47.2402044            -71.559        -41.8281552            -94.933
                      -53.9447258            -67.281        -40.7592463             112.36
                        -42.76334             30.637        -40.4968804           -167.099      -0.0610150301              -3.38        -43.3626045             22.418
                      -49.8861499            169.963        -45.1927462            114.346
                      -50.8939646           -113.424        -54.2484438            -89.362        -51.0506374            -105.97      -0.0435383851             -3.719
                      -44.7090056             16.841        -43.8587752             41.008
                      -40.5070033              78.14         -50.130839           -145.699        -41.6048444             -48.48        -53.7818874            106.694
                      -11.0879159            -11.185        -2.74544943              1.927
                      -58.0826709           -134.899        -37.0774393             58.319        -45.4296779            101.288        -50.3768826            137.503
                      -2.76931178              2.826        -11.1191041             -9.536

             29.95       -11.5679215            -13.566        -2.70977838             -0.588        -62.3267713           -112.988        -60.0217419              90.24
                      -60.4913638           -144.453        -60.4245243            127.039
                       -2.7335428             -0.588        -11.6339742            -16.007        -61.6477895            -62.024        -66.8245136            -49.201
                      -63.3882266             38.411         -58.322784            144.904
                      -65.1564991            128.792        -57.5556824            116.123       -0.273524459            -12.463        -55.2090056           -164.876
                      -60.3817612           -102.984        -61.8646822            -64.724
                      -71.4697748            -26.777        -57.8286995            -11.583        -67.8166525             65.892       -0.282492854            -12.736
                      -60.1048611              32.85        -63.3421611            -50.249
                      -63.2129534           -164.824        -57.1584708             23.604        -60.4473567            -17.025        -62.9785039            159.025
                      -11.5679215            -15.864         -2.6860788             -0.589
                      -58.0826709             -1.849        -62.3997432             98.061        -61.7917812              7.308        -57.4190988             43.596
                      -2.67425322             -0.619        -11.4697748            -12.972

              49.9       -12.1812979            -14.173        -2.62711123             -3.741        -71.9823357               3.56        -72.1989701              6.637
                      -62.7062193            128.701        -67.5081708            -40.668
                      -2.63887276             -3.691        -12.2878745            -18.492        -62.0331767            123.527         -69.558944           -106.775
                      -81.0827535            104.561        -65.7824276             90.628
                      -61.9262654           -136.683        -61.4916953             77.786       -0.658405317            -20.232        -76.3232193            -96.726
                      -64.7194678            -43.277         -61.432083             92.529
                      -76.0268583              1.526        -64.6509456            139.142        -65.1392169            -57.681       -0.649040476            -20.527
                      -62.4976167               5.33        -66.8359549            104.187
                      -64.7659526             67.004        -67.8573359            -43.699         -63.675174            -53.426        -64.6851392             61.984
                      -12.0065256            -18.743        -2.60363584             -3.793
                      -61.4177549             69.378        -61.6173917             92.735        -72.9602109            -13.502        -70.4056153            -36.913
                      -2.61536561             -3.713        -11.9033257            -14.284

             69.85       -12.2166783            -18.123         -2.7335428             -5.363        -67.6683894             46.361        -73.1713095             -17.47
                      -66.6322817             69.406         -61.785378             80.309
                      -2.75737241             -5.303        -12.3236927            -24.302        -69.1834037            150.293         -65.296009             75.613
                       -68.241293             48.073        -67.4036561            166.368
                      -76.2891569            121.907        -72.9795429           -134.432        -1.11034656            -27.217        -75.7296449             39.078
                       -66.682754             62.782        -66.7940768             34.262
                      -72.5270506            -32.517        -75.9339017             40.078        -76.6241596           -107.986        -1.11034656            -27.575
                      -69.1062396            103.099        -73.0416963             53.392
                      -66.5322084              8.098        -64.9605685             56.935        -73.8159164             85.432        -71.1191041            114.476
                      -12.1812979            -24.392        -2.70977838             -5.485
                      -63.4062072             66.922        -71.5187095             56.726        -67.6056147             95.593        -72.1989701            -53.652
                      -2.72165246             -5.345        -12.0760131            -18.181

              89.8       -12.3596591            -21.673        -2.85335007             -7.003        -81.2066203              89.15        -74.5817672             88.294
                      -79.5020808            125.889        -61.1787202             82.486
                      -2.86542219             -6.924        -12.5050331            -29.418        -63.7711811             81.551        -70.3511042              46.53
                      -60.9480253             67.185        -66.5414262              0.903
                       -81.008297             177.53        -65.7604829             92.552        -1.62890939             -33.34        -71.2672074             31.938
                      -71.8623866             42.446        -64.3405201             50.066
                      -70.5888503            107.722        -77.8761821             93.107        -70.9857824              8.752        -1.62890939            -33.803
                      -68.8522624            117.936        -67.3650385             59.475
                      -67.4240503             57.187        -63.5815282              62.01        -73.4937926             71.372        -67.8766737             44.715
                      -12.3596591            -29.636        -2.81723405             -7.114
                       -59.243505             75.098        -71.5580567             93.606         -68.898111             53.786         -67.805978              34.41
                      -2.82925605             -7.006        -12.2522035            -22.023

            109.75       -12.5417599            -25.028        -2.97483303             -8.376        -71.6273463             42.731        -78.6884057              5.972
                      -69.5981934             70.427        -59.4042106             79.822
                      -2.99933485             -8.306        -12.7277604            -34.708        -72.8794829             97.213        -66.8876283             34.011
                      -62.5405674             51.341        -70.5215061             37.497
                       -65.387584             69.142        -63.2976082             89.454        -2.22518079            -38.768        -71.9719892           -114.693
                      -72.9911629             53.659        -70.0835649             58.791
                      -67.8252016             13.187        -72.3488536            115.278        -72.0551084            161.079        -2.21396595            -39.292
                      -69.4242362              38.84        -68.2368077             34.554
                      -68.8282283             53.042        -65.5637877             78.088        -69.2235002             85.691         -67.926289            120.764
                      -12.6156829            -34.703        -2.95040013             -8.485
                      -59.3315249            105.436        -65.3859691             28.679        -65.0439982             55.754        -75.4886457             34.171
                      -2.96260799             -8.464        -12.4684609            -25.186

             129.7       -12.7277604            -28.016         -3.0980392             -9.628        -66.5802479             39.178        -69.9160216             -2.758
                      -70.2430976             69.104        -57.3740441             88.894
                      -3.11045649             -9.568        -12.9563496             -39.09        -68.6995814             58.138        -77.6082845             38.487
                      -60.1092579             61.857        -69.7196764             80.286
                      -74.5538831             57.525        -68.6101809            116.923        -2.82925605            -43.497        -77.4320146            150.647
                      -71.7273001             36.411        -65.2641049             24.884
                      -72.1144695             48.222        -75.6450585             38.694        -75.7829327           -169.298        -2.80522868            -44.037
                       -65.578634            109.258        -70.8817952             61.518
                      -68.0176287             75.498        -60.7336898             52.237        -68.0702573             77.252        -66.8245136             61.178
                      -12.8413031            -39.323        -3.07325776             -9.768
                      -59.0545027             76.625        -63.1465673             35.891        -74.2663806              78.71        -73.1515464             51.664
                      -3.08563964               -9.7        -12.6528816            -28.175

            149.65       -12.9178312            -30.601        -3.22301819            -10.728        -70.5917902             46.284        -67.6202216              48.74
                      -64.5565008             62.709         -56.351707             85.974
                      -3.24823124            -10.688        -13.2308701            -43.404        -64.5067415            100.638        -69.7010799             74.598
                      -59.4042106             62.161        -68.5961488             52.613
                      -66.8397721             22.601        -66.5895168             99.691        -3.45261454            -47.572        -80.2914705             23.546
                      -72.6417052             69.563        -70.2657245             45.814
                      -68.3473712             18.968        -68.6195483             72.782        -74.3430279             83.421        -3.40106608            -48.111
                      -71.7206006              89.08        -71.9926945            -16.497
                      -67.0817345             65.328        -59.3637546             64.782        -70.3768826             50.885        -66.4132594             87.865
                      -13.0729405              -43.7        -3.21043905            -10.872
                      -56.7010525             92.217        -66.3426641             88.012        -69.3347297               78.2        -70.0448256             56.485
                      -3.21043905            -10.852        -12.8794829            -30.881

             169.6       -13.0729405            -32.843        -3.34982175            -11.698        -69.0666795             53.946        -67.4752463             28.268
                      -65.8758892             15.658        -55.4938144             87.338
                      -3.37540612            -11.647        -13.4732828            -47.502        -66.1554033              95.45        -76.4319732             65.194
                      -59.4611674             50.307        -67.6202216             55.636
                      -68.1165704             33.702        -63.8034208             95.183        -4.04080713            -51.117        -72.4102637             17.646
                      -69.1062396             48.905        -68.3541863             37.863
                      -67.2422037             65.769        -70.6360083             17.489        -78.9154018             73.752        -3.98565843            -51.647
                      -66.0049794            101.768        -71.3662931             46.123
                      -70.3740145             42.827        -58.8314795              57.51        -76.5246235             18.345        -68.1209941            107.412
                      -13.3512308            -47.697        -3.32431251            -11.873
                      -55.8473127             80.486        -70.1727661             57.937        -66.5858081             25.049         -67.254209             11.669
                      -3.34982175            -11.841        -13.0729405            -33.397

            189.55       -13.2708053            -34.857        -3.47850395            -12.555        -66.9415422             43.541        -67.8508995             21.168
                      -66.3210574             58.407        -54.5864233             78.696
                      -3.51748332            -12.475        -13.7226556            -51.229        -63.4785039             89.932        -69.7944631             23.692
                      -59.1484898             59.164        -69.9596557             56.435
                      -67.8273402             14.915        -65.3072032            101.196        -4.61245348            -54.133        -75.1690704           -146.205
                      -71.4600208             52.924        -67.8123811             31.005
                      -68.9102168             46.841        -79.8450444             28.697        -76.4839673             82.064        -4.55356587            -54.707
                      -62.3780156            105.945        -70.4142537             10.976
                      -74.1106755             50.679        -58.9307479             63.673        -74.5399746             25.341        -67.5681665            101.175
                      -13.5970743            -51.443        -3.45261454             -12.74
                      -54.9672356             82.762        -72.6491545             82.028        -67.7889259             34.244        -72.3236927              50.56
                      -3.47850395            -12.671        -13.2308701            -35.507

             209.5       -13.4324079            -36.743        -3.60912129            -13.259        -69.1012847              44.88        -68.5124287             29.389
                      -67.3265919             30.311         -54.088658             86.006
                      -3.63548213            -13.169        -13.9794001             -54.59        -63.1353444             97.255        -68.7066787             47.795
                      -58.9307479             67.541        -69.4422487             38.004
                      -71.3727247             19.628        -62.1303131             98.407        -5.19274621            -56.724        -69.1784046            147.034
                      -69.7569893             82.505        -67.3955118             42.305
                       -70.345386             48.754        -74.0623105             28.496        -73.8116555            114.572        -5.11414034            -57.256
                      -63.2444446             99.066        -70.2374501              25.47
                      -66.3156641              28.97        -57.9581895             57.475        -70.5040236             40.549        -63.0288286            106.484
                      -13.8500792            -54.837        -3.58284021            -13.454
                      -54.5771136             81.466        -68.1276338             51.549        -66.8187986             59.695        -68.1475836             47.929
                      -3.59597081            -13.395        -13.4324079            -37.409

            229.45       -13.5556141            -38.274        -3.72838023            -13.881        -78.5770942             54.516        -67.8659252             61.512
                      -65.0145518             51.244         -53.884377             81.106
                      -3.74173287            -13.793        -14.1993078            -57.665        -61.3444386             92.674        -76.0875411             30.392
                      -59.0156395              57.06        -67.6936269             44.661
                      -69.6376211             24.242         -61.880846             95.023        -5.71340481            -58.964        -68.9734402            159.518
                      -72.3093477             41.839         -67.499928             63.363
                       -69.483561             53.758        -71.9961502             64.178        -66.4041766             86.928        -5.62996622            -59.499
                      -62.4976167             86.427        -73.3755044             11.373
                      -66.5709889              18.48         -58.351474             59.231        -74.8224674            106.038        -62.5720444            101.974
                      -14.0666962            -57.857        -3.70173637            -14.094
