! Hittite Microwave Corporation
! 20 Alpha Road
! Chelmsford, MA 01824
! Tel: 978-250-3343
! Fax: 978-250-3373
! Device: HMC276QS24, 0.7-3.0 GHz, GaAS MMIC 4x2 Switch Matrix in 24-lead QSOP package
! Misc: Data was de-embedded to package pins.
!       Port 1 = OP1
!       Port 2 = VL
!       Port 3 = VH
!       Port 4 = HH
!       Port 5 = HL
!       Port 6 = OP2
!          Vdd = +5 V
!         Vctl = 0 V[Logic 0] / +5 V[Logic 1]
!
!  State 07,  VH to OP1,  HL to OP2
!  Control Lines (Logic)
!    HV 1 = 0, Tone 1 = 1
!    HV 2 = 1, Tone 2 = 0
!
!  Data reformated to new Touchstone file format - Wed Jan 10 15:15:55 2007
!
# MHz S DB R 50
! 6 Port Network Data
! freq  dbS11  angS11  dbS12  angS12  dbS13  angS13  dbS14  angS14  
!       dbS15  angS15  dbS16  angS16  
!       dbS21  angS21  dbS22  angS22  
!       dbS23  angS23  dbS24  angS24  dbS25  angS25  dbS26  angS26  
!       dbS31  angS31  dbS32  angS32  dbS33  angS33  dbS34  angS34  
!       dbS35  angS35  dbS36  angS36  
!       dbS41  angS41  dbS42  angS42  
!       dbS43  angS43  dbS44  angS44  dbS45  angS45  dbS46  angS46  
!       dbS51  angS51  dbS52  angS52  dbS53  angS53  dbS54  angS54  
!       dbS55  angS55  dbS56  angS56  
!       dbS61  angS61  dbS62  angS62  
!       dbS63  angS63  dbS64  angS64  dbS65  angS65  dbS66  angS66  
!     
                10       -10.4575749            -15.427        -49.1459806             50.328        -2.65065024              3.234        -49.3271004           -171.157
                      -48.2682539            141.543        -42.9321205             -2.411
                      -48.3088528            141.893      -0.0260968338              -3.98                -40             69.088        -50.6537587             50.216
                      -42.3392698             47.077        -45.3040034            -75.295
                      -2.70977838              4.445                -40            150.436        -11.1504046             -9.728        -66.3787951             69.214
                      -46.7807942             97.863        -51.7575119            -97.731
                      -59.8706792            -70.776        -42.3495092            171.916        -51.7541498            -34.061      -0.0697665569             -4.064
                      -49.1634247             84.992        -44.6405656              72.22
                      -55.4576983            -33.606        -52.7202434             167.57        -45.9634614            -77.782        -46.9049213           -144.013
                      -11.1504046            -10.807        -2.65065024              2.603
                      -40.1719339            -52.353        -51.1912647            164.611        -52.1144695            -39.144        -39.1721463           -177.802
                      -2.59192189              2.472        -11.1504046            -10.487

             29.95       -11.7340047            -13.913        -57.3356109              39.43         -2.7335428             -0.633         -60.183459             97.292
                      -56.2214303             91.191        -53.1357682             49.027
                      -55.0111408             92.321       -0.273524459            -12.643        -62.4422115            -42.645        -60.0409199            124.193
                      -64.9513478           -127.932        -64.3076541            117.736
                      -2.74544943             -0.433        -67.5619408            131.129        -11.5350825            -15.828        -65.8078176            174.304
                      -68.1675792           -157.471        -62.5487171            -43.065
                      -55.3400778            -134.84        -66.0886155            -32.788        -72.5160348             80.134       -0.273524459            -12.731
                      -61.3049825             99.063        -58.4236163            -81.349
                      -61.9523263            -82.316        -66.8914682             43.404        -69.8888612             67.839        -67.4875784             96.002
                      -11.7676059            -16.134        -2.62711123               -0.6
                      -62.9565019              23.35        -74.2260748             17.334        -59.8024873            162.888        -60.3130548            -18.155
                      -2.62711123             -0.619         -11.700533            -13.516

              49.9       -12.1812979            -13.978        -66.4496859             16.239        -2.63887276             -3.941        -69.0150289              79.43
                      -64.7224594            152.779        -72.7957077             -4.241
                       -61.424916            174.863       -0.649040476            -20.297        -68.5193746              17.65        -68.0746575            -95.803
                      -63.2054125            135.143        -76.6065113             43.626
                      -2.66244371             -3.841        -65.0828961             85.713        -12.2166783            -17.915        -77.0650397            127.468
                      -60.3166575             71.568        -66.4789375             26.513
                      -71.2418193             42.067        -64.4196206             54.946        -74.7795033             -2.794       -0.649040476            -20.557
                         -61.5871            126.277        -62.6872622             -48.37
                      -64.2692304            136.957        -63.8101525            115.515        -73.1990536            -43.477        -72.0795021             91.995
                      -12.2522035              -19.1        -2.52196804             -3.698
                      -61.0975246             15.971        -71.6538883             61.716        -75.3553296            -21.731        -63.9308577            -17.117
                      -2.53358796             -3.618        -12.1460609            -14.736

             69.85       -12.3236927            -17.038        -67.4978685             63.203        -2.76931178             -5.681        -70.5947311            -18.372
                       -70.845389             46.534         -61.836736              66.88
                      -68.3883425             144.14         -1.0906283            -27.316        -80.6762264           -162.475        -74.5214644             14.299
                      -71.8726033            -31.232        -70.5011133             49.003
                      -2.76931178             -5.581        -68.8210311            131.742        -12.3236927            -23.375        -63.4785039             59.857
                      -65.2545565            108.639        -71.8862443             38.591
                      -70.9275185            -79.753        -72.3524539           -129.746        -65.4005143             59.445         -1.0906283            -27.629
                      -74.2663806             22.273        -63.9294921              0.973
                      -68.7660493             34.527        -74.9429394              52.46         -61.894879            120.132        -75.2340586              2.883
                      -12.3957752            -25.107        -2.65065024              -5.37
                      -61.4886018             82.069        -66.3878514             54.632        -70.8848359           -151.723        -74.0710841             31.727
                      -2.65065024             -5.329        -12.2878745            -18.877

              89.8       -12.5417599            -19.978        -72.2628894             11.433        -2.86542219             -7.421        -67.7485609             59.542
                      -70.5859114             87.001        -59.0545027             97.861
                      -70.5244233            -12.645        -1.60797952            -33.514        -64.5389061             64.651        -71.5580567            132.187
                      -65.7739808            -26.852        -76.7188942            -21.544
                      -2.87751112             -7.312        -71.7945807             40.485        -12.5417599            -28.278        -72.7767801            141.024
                       -64.547699             65.518        -80.6903215            148.976
                      -70.3396716             67.341         -72.174239             63.373        -73.6805931             50.636        -1.61843815             -33.89
                      -83.9541058             64.558        -66.1061415             48.125
                      -67.5847902             42.423        -69.9733364             65.513        -60.6640291             82.545        -68.9563732            103.241
                      -12.5417599            -30.578        -2.74544943             -7.036
                      -60.2618794             70.865        -71.1818184             66.254        -69.4165279             46.581        -74.2216079             58.154
                      -2.75737241             -6.946        -12.4684609            -22.599

            109.75       -12.7277604            -22.652        -66.0921178             81.642        -2.99933485             -8.922        -69.9897818             15.123
                      -72.5934398             -39.38        -57.6612071             92.079
                      -73.1042975             33.968        -2.18040806            -38.973        -66.4332751             59.939         -74.141594            131.848
                      -81.6772403            104.772        -65.3344493             77.092
                      -2.99933485             -8.842        -80.5791242             81.149        -12.8032904            -33.175        -66.5617398             87.133
                      -58.8390754             62.574        -69.1310564             28.307
                      -78.1245644             59.264        -70.1057795            -27.109        -71.2576781             63.094        -2.18040806            -39.378
                      -68.0680581            123.381        -65.9101261             85.775
                      -74.7083654             56.604        -69.2134587             85.696        -60.5476132             45.231        -73.3795566             122.61
                      -12.7654433            -35.723        -2.87751112             -8.395
                      -57.9444677             90.649        -69.6984265             114.27        -76.3118503            -73.752        -81.6194847             -0.177
                      -2.87751112             -8.345        -12.6528816            -26.022

             129.7       -12.9178312            -25.062        -75.0405347              4.361        -3.11045649            -10.312        -66.4569896             23.826
                       -73.966381            -46.642        -56.3574157             86.781
                       -72.117974            103.085        -2.75737241            -43.723        -65.8366828             50.573        -79.0700967           -117.824
                      -75.7829327             59.595        -67.2122626             41.938
                      -3.12289155            -10.214        -66.1801394             83.807        -13.1121545            -37.411        -66.8933888             71.633
                      -58.3371171             66.738        -69.1111973            -32.486
                      -67.6852062             58.126        -82.5463879             55.811        -65.9513893             85.377        -2.78126759            -44.194
                      -68.5728121             48.172        -66.6378752             27.329
                      -71.2165052             56.165        -70.2997757             46.724        -58.3586613             66.705        -66.6080844             95.442
                      -12.9950396            -40.514        -2.99933485             -9.641
                      -56.0488757              87.98        -64.7494296             83.069        -71.7306517            164.351        -71.6671899             -6.209
                      -2.99933485             -9.603        -12.8413031            -29.037

            149.65       -13.1121545            -27.281        -67.1784537             11.071        -3.23561556            -11.518        -72.9640739             35.294
                      -71.8930728              9.031        -55.0258253             89.488
                      -67.0171987             44.865        -3.34982175            -47.796        -65.2402535             67.857        -78.8163076             -135.4
                      -69.3067885             61.336        -68.6383134             39.635
                      -3.24823124            -11.486        -68.7612847            143.442        -13.4732828            -41.496        -78.3730538             87.792
                      -58.3084744             77.968        -71.5121689             -6.421
                      -67.8358998             60.736        -71.8318084           -171.556         -68.112149             68.307        -3.36260451            -48.337
                      -67.7147143             80.705         -69.195914             30.941
                       -69.141003             11.657        -71.2576781             68.703        -58.4890608             72.897        -69.3194779             98.729
                      -13.2308701            -44.975        -3.12289155            -10.738
                      -54.5957429             85.274        -66.7448434             51.428        -71.0568394            -38.548        -66.0606472             17.992
                      -3.13534444            -10.747        -13.0339027            -31.874

             169.6        -13.310925            -29.001        -66.2227086             80.619        -3.36260451            -12.622         -68.563495             40.856
                      -76.9298002              5.078         -53.914499             83.402
                      -66.9280324             27.467        -3.91721135            -51.352        -64.3305042             91.901         -75.055269            -62.618
                      -76.1486509             27.931        -66.2084957             60.004
                      -3.37540612            -12.561        -63.4280909             83.084        -13.7649228            -45.402        -70.8726793             48.296
                      -58.0548538             61.559        -73.9101894            -16.412
                      -71.3566546             66.791        -86.2369449           -151.762        -69.8240207             83.578        -3.94452549            -51.943
                      -66.5119637              88.12        -68.7779723             50.268
                       -69.360209             18.279        -81.6498898             47.611        -57.8422395             62.118         -65.360171            102.423
                      -13.4732828            -49.246        -3.24823124            -11.744
                      -55.5508733             84.959        -68.2502707             32.779        -69.6957739              6.136        -71.1316108             21.711
                      -3.26086526            -11.722        -13.2308701            -34.427

            189.55       -13.5143509            -30.527        -65.1360784             56.106        -3.47850395            -13.597        -66.0798657             47.544
                       -72.971805              5.235        -53.0964477             86.468
                      -67.5806313             60.256        -4.46597632            -54.392        -64.8369076            100.391        -79.3799144            133.919
                       -70.544871             26.541        -67.2382056             68.619
                      -3.50447075            -13.498        -63.7017364             93.991        -14.1106755            -49.043        -72.0065256             22.711
                      -57.8354669             64.684        -69.1186391            -67.326
                       -65.591852             26.281        -77.1710045             45.856        -69.2612595             61.676        -4.49507481            -55.007
                      -64.9038629             97.662        -68.6688934              24.74
                      -77.6944482              13.66        -70.0172601             23.633        -56.7546877             68.985        -69.1709114              90.82
                      -13.6805931            -53.021        -3.37540612            -12.581
                      -53.4405675             88.007        -66.3480742             71.586         -68.149803            -27.198        -67.5993621              25.38
                      -3.38822663            -12.521        -13.3917245            -36.658

             209.5       -13.6387333            -31.798        -66.5635888              43.75        -3.60912129            -14.433        -69.2966503             31.522
                       -69.064213             -5.764        -52.7428139             88.647
                      -65.7234715             47.972         -4.9898321            -56.927         -65.491569            106.048        -75.8043397            111.613
                      -71.5876846             59.487        -67.9718388             59.925
                      -3.62229171            -14.349        -65.1298047             92.213        -14.4707639            -52.315        -65.5128439             92.031
                      -56.1041648             66.368        -70.3969855            -20.169
                      -67.4752463             24.331        -79.9049769            140.427        -71.5416404             90.846        -5.05176384            -57.658
                      -61.9555894              94.06        -71.9478952              5.658
                      -80.0234836             -4.372        -68.6688934             46.429        -57.0836457             59.799        -62.2364101            101.178
                      -13.9360789            -56.449        -3.50447075            -13.322
                      -52.6156829             86.311        -67.7485609              37.13        -72.4830713            -45.977        -81.5071791              45.15
                      -3.50447075            -13.263        -13.5556141            -38.644

            229.45       -13.8073967            -32.842        -66.3914766             60.867        -3.71504809            -15.216        -68.8066544             42.005
                      -80.3094537            -18.951        -52.1214799             87.038
                      -65.3376604             41.488        -5.48176735            -59.141         -62.732353              101.4        -76.5888988             96.395
                      -69.3372742             50.321        -71.1472695             44.237
                      -3.74173287            -15.071        -61.4382308             98.965        -14.7985722            -55.299        -65.2402535            107.123
                       -56.730809             64.267        -68.8932734            -47.559
                      -66.2013979              19.88        -70.7670286            120.996        -65.9015542             75.081        -5.54732155            -59.958
                      -61.9577655             95.471         -69.564167             42.484
                      -71.8453854             -0.442        -71.8999067             24.199        -55.7296449             62.793        -62.3222308             99.485
                      -14.1548786            -59.586        -3.60912129            -13.963
