!Hittite Microwave Corporation								
!12 Elizabeth Drive								
!Chelmsford, MA 01824								
!Tel: 978-250-3343								
!Fax: 978-250-3373							
!Device: HMC240, DC-4 GHz GaAs MMIC SPDT SWITCH							
!Misc: Port1 = RFC, Port2 = RF1, Port3 = RF2, RF1 ON, Vctl=-5V, Data includes 2 SMA connectors, Room							
!
# MHZ S MA R 50

180 0.021 3.198 0.965 -7.922 0.016 66.84
          0.965 -7.973 0.019 10.767 0.017 73.112
          0.016 66.518 0.017 73.037 0.959 -39.067
200 0.029 -13.483 0.958 -8.558 0.016 59.517
          0.957 -8.618 0.026 -11.831 0.016 61.165
          0.016 59.411 0.016 60.882 0.96 -43.296
220 0.029 -18.875 0.953 -9.337 0.016 64.471
          0.952 -9.374 0.027 -18.041 0.015 66.233
          0.016 64.25 0.015 66.047 0.955 -47.448
240 0.029 -17.751 0.953 -10.051 0.019 64.951
          0.951 -10.083 0.026 -16.964 0.019 68.286
          0.019 64.628 0.019 68.234 0.951 -51.253
260 0.03 -18.429 0.954 -10.848 0.021 54.868
          0.953 -10.888 0.029 -18.661 0.021 57.02
          0.022 54.947 0.022 57.033 0.952 -55.17
280 0.031 -22.759 0.954 -11.734 0.021 49.98
          0.953 -11.768 0.03 -23.369 0.02 50.41
          0.021 50.094 0.02 50.499 0.952 -59.318
300 0.031 -27.66 0.953 -12.584 0.02 50.826
          0.952 -12.626 0.03 -27.864 0.019 51.964
          0.02 50.86 0.019 51.917 0.948 -63.288
320 0.031 -30.81 0.952 -13.371 0.022 51.176
          0.951 -13.421 0.03 -31.004 0.02 53.496
          0.022 51.238 0.02 53.341 0.944 -67.023
340 0.031 -33.519 0.952 -14.163 0.023 49.905
          0.951 -14.213 0.03 -33.8 0.022 53.382
          0.023 49.844 0.022 53.118 0.941 -70.688
360 0.032 -36.633 0.951 -14.983 0.024 48.086
          0.95 -15.008 0.031 -37.254 0.023 52.43
          0.024 48.116 0.023 52.122 0.938 -74.352
380 0.032 -39.249 0.95 -15.799 0.026 46.588
          0.95 -15.815 0.031 -40.409 0.025 51.662
          0.026 46.597 0.025 51.564 0.935 -77.909
400 0.034 -39.915 0.951 -16.522 0.027 41.362
          0.95 -16.535 0.032 -41.071 0.027 45.936
          0.027 41.126 0.027 45.882 0.935 -81.314
420 0.035 -42.94 0.951 -17.336 0.028 38.474
          0.95 -17.326 0.032 -45.259 0.027 42.727
          0.028 38.307 0.027 42.644 0.932 -84.79
440 0.036 -46.394 0.95 -18.165 0.028 37.87
          0.949 -18.152 0.033 -49.743 0.027 41.973
          0.028 37.657 0.027 41.945 0.929 -88.131
460 0.037 -48.508 0.95 -18.976 0.029 35.98
          0.948 -18.973 0.033 -52.923 0.028 40.785
          0.029 35.888 0.028 40.791 0.926 -91.351
480 0.039 -50.362 0.95 -19.808 0.03 33.934
          0.948 -19.821 0.033 -55.727 0.029 39.465
          0.03 33.792 0.029 39.36 0.924 -94.528
500 0.039 -52.294 0.949 -20.598 0.031 32.269
          0.947 -20.625 0.034 -58.149 0.03 38.091
          0.031 32.079 0.03 37.972 0.921 -97.6
520 0.04 -53.608 0.948 -21.352 0.032 30.549
          0.947 -21.382 0.033 -60.433 0.031 36.48
          0.032 30.389 0.031 36.518 0.918 -100.562
540 0.04 -54.738 0.948 -22.099 0.033 28.625
          0.947 -22.171 0.033 -62.182 0.032 34.827
          0.033 28.509 0.032 34.815 0.916 -103.501
560 0.041 -54.978 0.949 -22.903 0.034 24.757
          0.947 -22.971 0.035 -61.733 0.032 30.084
          0.034 24.748 0.032 30.011 0.916 -106.345
580 0.042 -56.948 0.948 -23.731 0.034 23.269
          0.947 -23.819 0.035 -63.658 0.033 28.525
          0.034 23.126 0.033 28.325 0.913 -109.212
600 0.042 -59.493 0.948 -24.566 0.034 21.446
          0.947 -24.645 0.036 -65.626 0.033 27.685
          0.034 21.191 0.033 27.444 0.912 -111.991
620 0.041 -61.386 0.947 -25.339 0.035 19.518
          0.946 -25.387 0.037 -66.664 0.033 26.845
          0.035 19.487 0.033 26.767 0.909 -114.68
640 0.04 -63.119 0.946 -26.116 0.036 17.851
          0.945 -26.142 0.037 -67.353 0.034 26.357
          0.035 17.881 0.034 26.345 0.907 -117.354
660 0.039 -63.268 0.947 -26.822 0.036 15.981
          0.946 -26.864 0.038 -65.948 0.037 24.003
          0.036 16.016 0.037 23.897 0.905 -120.021
680 0.041 -64.902 0.949 -27.694 0.037 14.24
          0.947 -27.759 0.041 -66.346 0.036 18.742
          0.036 14.295 0.036 18.746 0.903 -122.625
700 0.042 -69.644 0.948 -28.55 0.037 12.789
          0.946 -28.598 0.043 -69.223 0.035 17.263
          0.037 12.781 0.035 17.199 0.901 -125.14
720 0.042 -73.14 0.947 -29.349 0.039 9.688
          0.946 -29.381 0.045 -70.702 0.035 17.537
          0.039 9.689 0.035 17.521 0.9 -127.487
740 0.043 -76.64 0.946 -30.176 0.038 7.466
          0.945 -30.191 0.047 -72.723 0.035 16.971
          0.037 7.476 0.035 16.996 0.899 -130.03
760 0.043 -79.794 0.946 -30.961 0.037 6.666
          0.945 -30.994 0.048 -74.302 0.036 16.285
          0.037 6.558 0.036 16.128 0.897 -132.488
780 0.044 -82.31 0.946 -31.792 0.038 5.143
          0.945 -31.824 0.05 -75.333 0.037 13.579
          0.038 5.018 0.037 13.456 0.895 -134.821
800 0.045 -85.586 0.945 -32.586 0.038 4.208
          0.944 -32.624 0.052 -77.875 0.037 12.689
          0.038 4.198 0.036 12.558 0.893 -137.077
820 0.046 -86.552 0.946 -33.34 0.04 0.289
          0.945 -33.34 0.053 -78.267 0.036 10.943
          0.04 0.276 0.036 10.98 0.894 -139.179
840 0.048 -89.081 0.945 -34.162 0.039 -1.019
          0.944 -34.193 0.054 -81.2 0.037 10.096
          0.039 -1.072 0.036 10.071 0.892 -141.419
860 0.049 -90.555 0.945 -35.01 0.038 -2.287
          0.944 -35.05 0.054 -83.597 0.037 9.086
          0.038 -2.372 0.037 9.037 0.891 -143.6
880 0.05 -91.983 0.945 -35.818 0.038 -3.479
          0.943 -35.858 0.055 -86.132 0.037 7.937
          0.038 -3.455 0.037 7.922 0.889 -145.693
900 0.051 -92.698 0.945 -36.592 0.039 -4.426
          0.943 -36.699 0.055 -88.135 0.037 6.893
          0.038 -4.427 0.037 6.809 0.888 -147.711
920 0.053 -93.263 0.945 -37.361 0.039 -5.696
          0.943 -37.439 0.055 -89.808 0.038 5.444
          0.039 -5.758 0.037 5.42 0.886 -149.658
940 0.053 -93.746 0.944 -38.147 0.039 -7.537
          0.943 -38.242 0.055 -91.383 0.038 4.117
          0.039 -7.573 0.038 4.116 0.885 -151.644
960 0.054 -94.607 0.944 -38.987 0.039 -8.783
          0.943 -39.07 0.055 -93.243 0.038 3.164
          0.039 -8.753 0.038 3.174 0.883 -153.665
980 0.055 -95.662 0.943 -39.837 0.039 -9.973
          0.943 -39.891 0.055 -95.243 0.038 2.064
          0.039 -10.07 0.038 2.159 0.883 -155.629
1000 0.055 -96.445 0.943 -40.625 0.039 -11.041
          0.942 -40.614 0.056 -96.582 0.038 1.08
          0.039 -11.056 0.038 1.111 0.881 -157.521
1020 0.056 -96.884 0.943 -41.378 0.039 -13.019
          0.942 -41.375 0.056 -97.69 0.038 -0.298
          0.039 -12.992 0.038 -0.2 0.88 -159.341
1040 0.056 -98.119 0.943 -42.18 0.039 -14.263
          0.941 -42.189 0.057 -99.209 0.038 -1.214
          0.039 -14.216 0.038 -1.183 0.879 -161.241
1060 0.057 -99.676 0.943 -43.025 0.039 -15.507
          0.941 -42.991 0.058 -100.272 0.038 -2.28
          0.039 -15.493 0.038 -2.278 0.878 -163.116
1080 0.057 -101.745 0.943 -43.849 0.039 -16.656
          0.941 -43.818 0.059 -101.644 0.038 -3.195
          0.039 -16.674 0.038 -3.311 0.877 -164.949
1100 0.058 -103.717 0.944 -44.641 0.039 -17.775
          0.941 -44.593 0.06 -102.557 0.038 -4.25
          0.039 -17.75 0.038 -4.198 0.876 -166.732
1120 0.058 -105.577 0.943 -45.403 0.039 -19.111
          0.941 -45.39 0.061 -103.189 0.039 -5.197
          0.039 -19.1 0.038 -5.118 0.875 -168.491
1140 0.059 -107.936 0.942 -46.209 0.04 -20.305
          0.94 -46.162 0.063 -103.751 0.039 -6.249
          0.04 -20.25 0.039 -6.187 0.874 -170.247
1160 0.06 -110.299 0.943 -47.067 0.04 -22.619
          0.939 -47.008 0.065 -104.903 0.038 -7.664
          0.04 -22.644 0.038 -7.595 0.874 -172.011
1180 0.062 -112.549 0.942 -47.881 0.039 -23.735
          0.939 -47.83 0.067 -105.986 0.038 -8.585
          0.039 -23.626 0.038 -8.57 0.873 -173.794
1200 0.063 -114.647 0.942 -48.664 0.039 -24.476
          0.939 -48.604 0.069 -107.448 0.038 -9.268
          0.039 -24.537 0.038 -9.334 0.872 -175.445
1220 0.065 -116.338 0.941 -49.435 0.039 -25.4
          0.939 -49.394 0.07 -108.744 0.038 -10.167
          0.039 -25.5 0.038 -10.237 0.871 -177.039
1240 0.067 -117.637 0.941 -50.235 0.04 -26.849
          0.938 -50.214 0.071 -110.496 0.039 -11.12
          0.04 -26.912 0.038 -11.218 0.871 -178.619
1260 0.069 -118.615 0.941 -51.065 0.04 -29.417
          0.938 -51.055 0.073 -112.466 0.038 -12.558
          0.04 -29.515 0.038 -12.465 0.87 179.822
1280 0.071 -119.583 0.941 -51.857 0.039 -30.472
          0.938 -51.857 0.074 -114.376 0.038 -13.16
          0.039 -30.418 0.038 -13.283 0.87 178.206
1300 0.073 -120.232 0.94 -52.648 0.039 -31.368
          0.938 -52.658 0.075 -116.221 0.038 -14.103
          0.039 -31.426 0.038 -14.125 0.869 176.726
1320 0.075 -120.613 0.94 -53.429 0.039 -32.223
          0.939 -53.429 0.076 -118.261 0.038 -14.966
          0.039 -32.282 0.038 -14.937 0.869 175.271
1340 0.076 -120.97 0.94 -54.24 0.039 -33.763
          0.937 -54.25 0.076 -120.305 0.038 -15.883
          0.039 -33.843 0.038 -15.963 0.868 173.797
1360 0.077 -121.184 0.94 -55.081 0.038 -35.033
          0.938 -55.081 0.077 -122.147 0.038 -16.829
          0.038 -34.996 0.038 -16.847 0.867 172.294
1380 0.079 -121.404 0.94 -55.921 0.038 -36.136
          0.938 -55.921 0.077 -124.108 0.038 -17.791
          0.038 -36.118 0.038 -17.749 0.867 170.803
1400 0.08 -122 0.939 -56.702 0.038 -37.106
          0.938 -56.682 0.078 -126.006 0.038 -18.649
          0.038 -37.164 0.038 -18.494 0.866 169.431
1420 0.081 -122.586 0.939 -57.463 0.038 -38.032
          0.938 -57.453 0.079 -127.161 0.038 -19.367
          0.038 -38.024 0.038 -19.325 0.865 168.011
1440 0.082 -123.671 0.939 -58.276 0.038 -39.762
          0.937 -58.265 0.08 -128.47 0.038 -20.297
          0.038 -39.81 0.038 -20.202 0.866 166.572
1460 0.083 -124.775 0.939 -59.116 0.038 -40.832
          0.938 -59.096 0.081 -129.362 0.037 -20.99
          0.038 -40.817 0.037 -20.98 0.865 165.125
1480 0.084 -126.155 0.939 -59.926 0.038 -41.899
          0.937 -59.917 0.082 -130.285 0.037 -21.692
          0.038 -41.97 0.037 -21.677 0.864 163.7
1500 0.085 -127.68 0.939 -60.708 0.037 -42.919
          0.937 -60.714 0.084 -131.17 0.037 -22.367
          0.037 -42.983 0.037 -22.433 0.864 162.308
1520 0.086 -129.243 0.938 -61.5 0.037 -44.091
          0.937 -61.452 0.085 -132.217 0.037 -23.093
          0.037 -44.029 0.037 -23.092 0.864 160.95
1540 0.087 -131.033 0.938 -62.295 0.037 -45.257
          0.936 -62.276 0.087 -133.102 0.037 -23.97
          0.037 -45.301 0.037 -23.828 0.863 159.547
1560 0.088 -132.962 0.937 -63.128 0.037 -46.394
          0.936 -63.126 0.088 -133.94 0.037 -24.559
          0.037 -46.48 0.037 -24.603 0.862 158.14
1580 0.09 -134.723 0.937 -63.965 0.037 -47.807
          0.936 -63.937 0.09 -134.92 0.037 -25.499
          0.037 -47.853 0.037 -25.472 0.862 156.795
1600 0.092 -136.219 0.937 -64.734 0.036 -48.966
          0.935 -64.726 0.093 -135.511 0.037 -26.059
          0.036 -48.983 0.036 -26.063 0.862 155.505
1620 0.093 -137.769 0.937 -65.476 0.036 -49.847
          0.935 -65.497 0.095 -136.524 0.036 -26.6
          0.036 -49.913 0.036 -26.642 0.862 154.209
1640 0.095 -139.159 0.936 -66.302 0.036 -51.16
          0.934 -66.327 0.097 -137.53 0.036 -27.309
          0.036 -51.098 0.036 -27.361 0.862 152.929
1660 0.097 -140.371 0.936 -67.151 0.036 -52.184
          0.933 -67.143 0.098 -138.727 0.036 -27.975
          0.036 -52.172 0.036 -28.04 0.861 151.634
1680 0.099 -141.33 0.935 -67.966 0.036 -53.248
          0.933 -67.97 0.1 -139.875 0.036 -28.709
          0.036 -53.235 0.036 -28.694 0.861 150.359
1700 0.1 -142.128 0.935 -68.728 0.035 -54.243
          0.933 -68.757 0.101 -141.026 0.036 -29.223
          0.035 -54.381 0.036 -29.357 0.861 149.156
1720 0.102 -142.472 0.935 -69.493 0.035 -55.411
          0.932 -69.515 0.102 -142.564 0.036 -29.985
          0.035 -55.42 0.036 -30.019 0.86 147.961
1740 0.103 -143.046 0.935 -70.286 0.035 -56.537
          0.932 -70.314 0.103 -144.233 0.036 -30.626
          0.035 -56.64 0.036 -30.658 0.86 146.746
1760 0.105 -143.337 0.935 -71.128 0.035 -57.699
          0.932 -71.148 0.104 -145.813 0.035 -31.259
          0.035 -57.732 0.035 -31.154 0.859 145.462
1780 0.106 -143.843 0.934 -71.921 0.034 -58.742
          0.932 -71.938 0.104 -147.338 0.035 -31.878
          0.034 -58.635 0.035 -31.887 0.86 144.223
1800 0.107 -144.193 0.933 -72.718 0.034 -59.805
          0.931 -72.718 0.105 -148.793 0.035 -32.433
          0.034 -59.71 0.035 -32.383 0.859 143.035
1820 0.108 -144.654 0.933 -73.499 0.034 -60.822
          0.931 -73.499 0.106 -150.381 0.035 -32.949
          0.034 -60.749 0.035 -32.877 0.858 141.836
1840 0.108 -145.144 0.933 -74.323 0.034 -61.872
          0.93 -74.327 0.106 -151.417 0.035 -33.438
          0.034 -61.822 0.035 -33.482 0.858 140.549
1860 0.109 -145.865 0.933 -75.161 0.033 -62.972
          0.931 -75.177 0.107 -152.708 0.034 -34.057
          0.033 -62.93 0.034 -34.075 0.857 139.296
1880 0.11 -146.88 0.933 -75.977 0.033 -64.022
          0.93 -75.991 0.107 -154.088 0.034 -34.508
          0.033 -64.046 0.034 -34.53 0.858 138.045
1900 0.111 -147.754 0.933 -76.768 0.033 -65.394
          0.931 -76.817 0.108 -154.811 0.034 -35.019
          0.033 -65.419 0.034 -35.029 0.856 136.788
1920 0.112 -148.747 0.933 -77.567 0.033 -66.614
          0.93 -77.537 0.11 -155.817 0.034 -35.682
          0.033 -66.637 0.034 -35.548 0.857 135.605
1940 0.113 -150.152 0.932 -78.401 0.032 -67.667
          0.93 -78.374 0.111 -156.884 0.034 -36.288
          0.032 -67.75 0.034 -36.312 0.856 134.335
1960 0.115 -151.581 0.932 -79.262 0.032 -68.783
          0.93 -79.235 0.114 -157.701 0.034 -36.98
          0.032 -68.776 0.034 -36.997 0.856 133.05
1980 0.116 -153.06 0.932 -80.07 0.032 -69.871
          0.929 -80.027 0.116 -158.385 0.033 -37.451
          0.032 -69.881 0.033 -37.438 0.856 131.864
2000 0.118 -154.673 0.932 -80.854 0.031 -71.037
          0.929 -80.844 0.118 -158.929 0.033 -37.809
          0.031 -71.06 0.033 -37.832 0.856 130.726
2020 0.119 -156.142 0.932 -81.622 0.031 -72.157
          0.929 -81.632 0.12 -159.72 0.033 -38.18
          0.031 -72.124 0.033 -38.18 0.857 129.533
2040 0.121 -157.415 0.931 -82.446 0.031 -73.168
          0.929 -82.421 0.121 -160.378 0.033 -38.533
          0.031 -73.187 0.033 -38.525 0.856 128.382
2060 0.123 -158.698 0.93 -83.289 0.03 -74.272
          0.928 -83.262 0.123 -161.194 0.033 -39.018
          0.03 -74.319 0.033 -38.887 0.856 127.286
2080 0.124 -159.864 0.931 -84.099 0.03 -75.319
          0.928 -84.104 0.125 -162.189 0.032 -39.471
          0.03 -75.233 0.032 -39.344 0.857 126.125
2100 0.126 -160.917 0.931 -84.885 0.03 -76.331
          0.927 -84.887 0.126 -163.013 0.032 -39.778
          0.03 -76.387 0.032 -39.752 0.857 125.107
2120 0.128 -161.854 0.93 -85.648 0.029 -77.458
          0.927 -85.67 0.128 -164.143 0.032 -40.206
          0.029 -77.358 0.032 -40.159 0.857 124.13
2140 0.13 -162.637 0.93 -86.467 0.029 -78.441
          0.927 -86.479 0.129 -165.313 0.032 -40.524
          0.029 -78.388 0.032 -40.464 0.856 123.04
2160 0.131 -163.376 0.93 -87.294 0.029 -79.457
          0.926 -87.331 0.131 -166.484 0.032 -40.815
          0.029 -79.45 0.031 -40.766 0.856 121.982
2180 0.132 -164.03 0.93 -88.11 0.028 -80.61
          0.926 -88.133 0.132 -167.752 0.031 -41.143
          0.028 -80.529 0.031 -40.999 0.857 120.935
2200 0.134 -164.677 0.93 -88.909 0.028 -81.694
          0.926 -88.926 0.134 -168.899 0.031 -41.441
          0.028 -81.637 0.031 -41.409 0.856 119.908
2220 0.135 -165.429 0.929 -89.684 0.028 -82.699
          0.926 -89.708 0.135 -169.966 0.031 -41.676
          0.028 -82.749 0.031 -41.654 0.856 118.886
2240 0.136 -166.186 0.928 -90.513 0.027 -83.825
          0.925 -90.53 0.136 -171.286 0.031 -42.04
          0.027 -83.675 0.031 -41.909 0.856 117.819
2260 0.138 -166.992 0.928 -91.349 0.027 -84.86
          0.925 -91.382 0.137 -172.611 0.031 -42.317
          0.027 -84.772 0.031 -42.195 0.855 116.739
2280 0.139 -167.877 0.927 -92.16 0.027 -85.886
          0.925 -92.2 0.138 -173.785 0.03 -42.563
          0.027 -85.93 0.03 -42.472 0.855 115.645
2300 0.141 -168.73 0.927 -92.949 0.026 -86.989
          0.925 -92.985 0.14 -174.876 0.03 -42.776
          0.026 -87.098 0.03 -42.693 0.854 114.557
2320 0.142 -169.628 0.926 -93.742 0.026 -88.083
          0.924 -93.775 0.141 -175.912 0.03 -42.914
          0.026 -88.163 0.03 -42.934 0.854 113.452
2340 0.143 -170.71 0.926 -94.573 0.026 -89.143
          0.923 -94.594 0.143 -176.924 0.03 -43.065
          0.026 -89.138 0.03 -43.018 0.853 112.328
2360 0.145 -171.847 0.925 -95.428 0.025 -90.348
          0.923 -95.421 0.144 -177.784 0.03 -43.186
          0.025 -90.306 0.03 -43.149 0.853 111.15
2380 0.146 -173.031 0.925 -96.247 0.025 -91.539
          0.923 -96.239 0.146 -178.534 0.029 -43.285
          0.025 -91.49 0.029 -43.282 0.854 110.022
2400 0.148 -174.221 0.924 -97.029 0.024 -92.626
          0.922 -97.021 0.148 -179.323 0.029 -43.366
          0.024 -92.601 0.029 -43.382 0.854 108.941
2420 0.149 -175.498 0.923 -97.831 0.024 -93.619
          0.922 -97.829 0.149 -179.963 0.029 -43.385
          0.024 -93.749 0.029 -43.469 0.853 107.815
2440 0.151 -176.813 0.923 -98.663 0.024 -94.786
          0.922 -98.643 0.151 179.367 0.029 -43.448
          0.024 -94.85 0.029 -43.535 0.853 106.689
2460 0.152 -177.996 0.923 -99.499 0.023 -95.993
          0.921 -99.467 0.152 178.671 0.029 -43.677
          0.023 -95.88 0.029 -43.572 0.853 105.584
2480 0.154 -179.179 0.923 -100.328 0.023 -97.078
          0.921 -100.274 0.154 177.908 0.029 -43.747
          0.023 -97.125 0.029 -43.633 0.854 104.508
2500 0.155 179.706 0.923 -101.122 0.022 -98.19
          0.921 -101.062 0.155 177.119 0.029 -43.638
          0.022 -98.395 0.028 -43.513 0.854 103.479
2520 0.157 178.666 0.922 -101.912 0.022 -99.349
          0.921 -101.852 0.157 176.273 0.028 -43.598
          0.022 -99.359 0.028 -43.486 0.854 102.49
2540 0.158 177.621 0.922 -102.732 0.022 -100.434
          0.92 -102.677 0.158 175.36 0.028 -43.597
          0.022 -100.44 0.028 -43.461 0.855 101.492
2560 0.16 176.612 0.922 -103.559 0.021 -101.557
          0.92 -103.5 0.16 174.451 0.028 -43.604
          0.021 -101.639 0.028 -43.448 0.855 100.516
2580 0.161 175.727 0.921 -104.361 0.021 -102.759
          0.919 -104.305 0.161 173.436 0.028 -43.528
          0.021 -102.718 0.028 -43.449 0.855 99.554
2600 0.163 174.982 0.92 -105.133 0.02 -103.805
          0.919 -105.103 0.163 172.392 0.028 -43.426
          0.02 -103.8 0.028 -43.321 0.855 98.64
2620 0.165 174.154 0.92 -105.928 0.02 -104.779
          0.919 -105.893 0.165 171.35 0.028 -43.359
          0.02 -104.912 0.028 -43.17 0.855 97.731
2640 0.167 173.312 0.92 -106.745 0.019 -105.985
          0.918 -106.729 0.166 170.18 0.028 -43.121
          0.02 -105.968 0.028 -43.21 0.854 96.772
2660 0.169 172.562 0.919 -107.556 0.019 -107.235
          0.918 -107.571 0.168 168.853 0.028 -42.943
          0.019 -107.17 0.028 -43.095 0.854 95.808
2680 0.171 171.868 0.919 -108.382 0.019 -108.356
          0.917 -108.387 0.17 167.642 0.027 -42.884
          0.019 -108.393 0.028 -42.871 0.854 94.855
2700 0.173 171.144 0.918 -109.188 0.018 -109.472
          0.917 -109.188 0.172 166.528 0.027 -42.69
          0.018 -109.604 0.027 -42.754 0.854 93.908
2720 0.175 170.332 0.917 -109.99 0.018 -110.678
          0.916 -109.99 0.174 165.366 0.027 -42.499
          0.018 -110.715 0.027 -42.613 0.854 92.945
2740 0.177 169.485 0.917 -110.811 0.017 -111.993
          0.915 -110.805 0.176 164.211 0.027 -42.388
          0.017 -111.976 0.027 -42.407 0.853 91.935
2760 0.179 168.561 0.916 -111.653 0.017 -113.237
