! Hittite Microwave Corporation					
! 20 Alpha Road
! Chelmsford, MA 01824
! Tel: 978-250-3343
! Fax: 978-250-3373
! Device: HMC241LP3, DC-4 GHz, High Isolation SP4T Non-Reflective Switch in leadless QFN SMT package
! Misc: Port 1 = RFCom
!       Port 2 = RF1
!       Port 3 = RF2
!       Port 4 = RF3
!       Port 5 = RF4
!       Vdd    = + 5 V
!  
!  RF4 selected, Vctl= 0/+5 V
!
!  Data reformated to new Touchstone file format - Tue Jan 09 08:12:18 2007
!
# MHz S DB R 50
! 5 Port Network Data
! freq  dbS11  angS11  dbS12  angS12  dbS13  angS13  dbS14  angS14  
!       dbS15  angS15  
!       dbS21  angS21  dbS22  angS22  dbS23  angS23  
!       dbS24  angS24  dbS25  angS25  
!       dbS31  angS31  dbS32  angS32  
!       dbS33  angS33  dbS34  angS34  dbS35  angS35  
!       dbS41  angS41  
!       dbS42  angS42  dbS43  angS43  dbS44  angS44  dbS45  angS45  
!       dbS51  angS51  dbS52  angS52  dbS53  angS53  dbS54  angS54  
!       dbS55  angS55  
!     
             10       -4.95903          -53.13        -53.7989           78.87        -54.5632          80.548        -54.2664          80.381
                  -0.714807          13.984
                   -53.8758          79.043        -0.14893         -21.342        -63.4746         -19.528        -80.7763          42.589
                   -51.2513          56.963
                   -54.4341          79.887        -63.7297          -5.143       -0.184346         -21.761        -94.8849         139.955
                   -52.2879          57.529
                   -54.3385          79.642        -97.2276         153.655        -85.4883         110.838       -0.193223         -21.832
                   -52.1215          58.145
                  -0.752613          13.974        -51.1913          58.823        -52.0482          58.834        -51.8183          58.287
                    -12.076         -74.765

          39.95       -6.09037         -59.645          -52.01           69.85        -52.8566          70.402         -52.586          69.981
                  -0.686561          10.797
                   -52.0935          69.972        -0.97325         -29.426        -65.0424          -8.019        -82.7633          47.133
                   -50.2969           48.93
                   -52.8033          69.987        -65.2498            2.66        -1.02196         -29.855        -119.055         177.363
                   -51.3502          49.768
                   -52.6566          69.437        -108.615         176.121        -91.8828         155.033        -1.02196         -29.906
                   -51.1692          50.658
                  -0.724243          10.797        -50.2742          50.392        -51.2007           50.78        -50.9704           50.78
                   -13.0729         -74.951

           69.9       -7.35085         -66.144        -50.5361          60.888        -51.4341          60.313        -51.1787          59.638
                   -0.64904           7.624
                   -50.6153          60.959        -1.90569          -37.48        -66.9783           3.548         -85.365          51.708
                   -49.4577          40.916
                   -51.4341          60.142        -67.1132          10.522        -1.95994         -37.918        -96.0434          35.713
                   -50.5244          42.027
                   -51.2513          59.286        -103.947          18.842        -112.876          19.002        -1.95994         -37.948
                   -50.3283           43.19
                  -0.686561           7.634        -49.4629          41.982         -50.446          42.744        -50.2149          43.292
                    -14.244         -75.234

          99.85       -8.84986         -72.626         -49.284          51.973        -50.2205           50.27        -49.9788          49.339
                  -0.621006           4.461
                   -49.3653          51.992        -2.93821         -45.501        -69.4603          15.161         -89.084          56.253
                   -48.6901           32.92
                   -50.2629           50.34         -69.481          18.429        -2.99933         -45.948         -89.757          73.653
                    -49.773          34.304
                   -50.0503          49.178        -95.7403          41.404        -90.5098           63.52        -2.99933         -45.958
                   -49.5642           35.74
                   -0.66778           4.481        -48.7209           33.59        -49.7516          34.725        -49.5251           35.82
                   -15.5457         -75.672

          129.8       -10.6331         -79.072        -48.1965          43.117        -49.1609          40.286        -48.9296          39.099
                  -0.593062           1.312
                   -48.2773          43.085        -4.11024         -53.463        -72.9063          27.073        -95.5561          60.352
                   -47.9914           24.96
                   -49.2336          40.589        -72.7052          26.664        -4.18023         -53.919        -86.1784         111.425
                    -49.084          26.617
                   -49.0003          39.127        -91.6307          63.861         -84.881         107.525        -4.16619         -53.908
                   -48.8667           28.33
                  -0.639686           1.342        -48.0417          25.237        -49.1137          26.742        -48.8884          28.389
                   -17.1397         -76.349

         159.75        -12.111         -83.983        -47.6056          36.442        -48.5101          32.684        -48.3156           31.34
                  -0.574483          -1.084
                   -47.6558          36.458        -5.20855         -59.628        -75.0454          65.509        -92.0204          48.296
                   -47.6077          18.842
                   -48.6078           32.48        -74.4204           64.19        -5.27207         -60.072         -84.081          115.07
                    -48.683          20.657
                   -48.3656          31.409        -88.8402          60.851        -83.2862         105.333        -5.25615         -60.031
                   -48.4663          23.014
                  -0.630341          -1.054        -47.6369          19.054        -48.7233          20.582        -48.5055          23.125
                   -18.1316         -76.917

          189.7       -13.3109         -87.929        -47.2003          31.527        -48.1631          26.814        -47.9458          25.371
                  -0.574483          -3.068
                   -47.2322          31.416        -6.19608           -64.5        -71.2323          94.715        -90.0503          50.163
                   -47.3853          14.049
                   -48.1809          26.675        -70.9735          94.449        -6.28517         -64.921        -81.9785         117.333
                   -48.4548            15.9
                   -48.0045          25.459         -87.564          60.127        -81.5299          102.66        -6.24942          -64.86
                   -48.2391          19.003
                  -0.630341          -3.048        -47.4159          14.016        -48.4939          15.779        -48.2503          19.204
                   -18.7108         -77.432

         219.65       -14.3793         -91.101        -46.9319          27.552        -47.9176          21.903        -47.7211           20.58
                  -0.574483          -4.831
                   -46.9919          27.457        -7.09155         -68.356        -67.3246         103.425          -86.76          65.496
                   -47.2043            9.85
                   -47.9306          21.849        -67.4057         104.475        -7.17052         -68.746        -79.1249         106.261
                   -48.3156           12.06
                   -47.7528          20.624        -87.5082          69.427        -79.5267         107.097        -7.13095         -68.644
                   -48.1011          15.662
                  -0.621006          -4.809        -47.2662            9.98        -48.3542          11.942        -48.1321          15.664
                   -19.1721         -77.736

          249.6       -15.2391         -93.697        -46.7941          24.423        -47.7507          17.673         -47.564           16.46
                  -0.574483          -6.463
                   -46.8551          24.484        -7.91548         -71.504        -64.6006          106.26        -87.0778          64.161
                   -47.1547           6.422
                   -47.8017          17.887        -64.4892         104.473        -7.98054         -71.879        -76.6596         105.047
                   -48.2548           8.727
                   -47.6119          16.425        -87.6537          70.285        -77.5426         103.045        -7.93711         -71.721
                   -48.0264          12.952
                  -0.630341          -6.407        -47.2302           6.451        -48.3066           8.826        -48.0945          13.009
                   -19.3315         -78.349

         279.55       -15.9721         -95.806        -46.6528          21.851        -47.6349          14.516         -47.467          12.962
                  -0.574483          -8.019
                   -46.7128          21.988        -8.63597          -74.19        -62.4342         103.723        -85.9514          63.558
                   -47.1309           3.313
                   -47.6957          14.532        -62.5127         104.623        -8.70668         -74.523        -75.7936          101.49
                   -48.1943           5.715
                   -47.5082          13.168        -84.8673          67.459        -75.8689         103.195        -8.65947         -74.339
                   -48.0023          10.761
                  -0.611682          -7.894        -47.1428           3.401        -48.2435           6.066        -48.0242          10.959
                   -19.4123         -79.004

          309.5       -16.7129         -97.416        -46.5525          19.837        -47.5619          11.598        -47.4179          10.098
                  -0.574483          -9.444
                   -46.6025          19.952        -9.31948          -76.35        -60.8526         102.933        -85.9963          70.189
                   -47.0994           0.682
                   -47.6119          11.516        -60.9065         102.799        -9.39601         -76.653        -74.9284         100.427
                   -48.2099           3.433
                   -47.4609           10.17        -86.1979          81.794         -75.214         100.311        -9.31948         -76.461
                   -47.9958           8.945
                  -0.621006          -9.363        -47.1329           0.793        -48.2525           3.534        -48.0329           9.109
                   -19.4939         -79.737

         339.45       -17.2024         -98.537        -46.5009          18.142        -47.5267           8.875        -47.3732           7.368
                  -0.583768         -10.831
                   -46.5525          18.142          -9.897          -78.21        -59.5021         100.852        -84.6391          69.989
                   -47.1112          -1.885
                   -47.5682           8.917        -59.5185         100.957        -9.95146          -78.49        -74.0887          97.996
                   -48.2189            1.19
                   -47.4322           7.468        -83.9336          74.239        -74.0011           96.09         -9.8699           -78.3
                   -48.0242           7.364
                  -0.630341         -10.741        -47.1606          -1.667        -48.2863           1.322        -48.0439           7.411
                   -19.4123         -81.086

          369.4       -17.6546         -99.385         -46.468          16.627         -47.502           6.464         -47.363           4.902
                  -0.593062         -12.173
                   -46.5193          16.661        -10.4287           -79.8        -58.3659          99.147        -83.3179          70.619
                   -47.1349           -4.15
                   -47.5516           6.632        -58.4236          99.296        -10.4866         -80.055        -73.2668           96.43
                   -48.2525           -0.74
                   -47.4057           4.963        -83.6513          72.512        -73.1991          97.245        -10.3711         -79.853
                   -48.0439           5.938
                  -0.639686         -12.082        -47.1745          -3.997         -48.293          -0.605        -48.0725           6.069
                   -19.3315          -81.92

         399.35       -18.1316         -99.781        -46.4296          15.296        -47.4794           4.355        -47.3428           2.659
                  -0.593062         -13.487
                   -46.4808          15.382        -10.9031         -81.142        -57.3548          97.372        -83.1366          74.344
                   -47.1626           -6.25
                   -47.5309           4.453        -57.3998           97.61        -10.9643         -81.355        -72.4066          93.813
                   -48.2593          -2.593
                   -47.4037           2.812        -82.9736          69.182        -72.2807          93.207        -10.8122         -81.109
                   -48.0659           4.663
                  -0.630341         -13.387        -47.2043          -6.187        -48.2998          -2.416        -48.0923           4.784
                   -19.1721         -82.645

          429.3       -18.4164          -99.84        -46.4187          14.178        -47.4814           2.353         -47.365           0.487
                  -0.602367         -14.773
                   -46.4716          14.303        -11.3086         -82.269        -56.4493          95.691        -82.8811          73.113
                   -47.2103          -8.208
                   -47.5371           2.409         -56.484          95.971        -11.3727         -82.426        -71.6141          92.838
                   -48.3202          -4.282
                   -47.4138           0.673        -82.2679           70.99        -71.6075          92.818        -11.2133         -82.134
                   -48.1055           3.588
                   -0.64904         -14.673        -47.2482          -8.188        -48.3519          -4.167        -48.1631           3.575
                   -19.0156         -83.657

         459.25       -18.6363         -99.941        -46.4078          13.172        -47.5144           0.395        -47.3914          -1.425
                  -0.611682         -16.034
                    -46.468          13.239        -11.7005         -83.269         -55.682          94.281        -82.4595          72.927
                   -47.2743         -10.123
                   -47.5536            0.51        -55.7137          94.017         -11.734         -83.344         -70.952          90.795
                   -48.3769          -5.824
                   -47.4322          -1.295        -82.3906          74.368         -70.897           91.52        -11.6009         -83.031
                   -48.1743           2.611
                   -0.64904         -15.934        -47.3044          -9.992        -48.4203          -5.755        -48.2167           2.717
                   -18.8619         -84.475

          489.2       -18.8619         -99.642        -46.4024          12.297        -47.5309          -1.418        -47.4261          -3.243
                  -0.621006         -17.278
                   -46.4515          12.366         -12.076         -84.173        -54.9624          92.503        -81.4454          71.688
                   -47.3468         -11.766
                   -47.5744          -1.264        -55.0063          92.632        -12.1461          -84.17        -70.2431          89.418
                   -48.4318          -7.074
                   -47.4691          -3.211        -81.6457          73.874        -70.3683            90.1         -11.972         -83.883
                   -48.2368           1.835
                  -0.658405         -17.176        -47.3711         -11.721        -48.4801          -6.967        -48.2795           1.939
                    -18.786          -85.54

         519.15       -18.9384         -99.583        -46.4187          11.525        -47.5495          -3.061        -47.4588          -5.059
                  -0.611682         -18.514
                   -46.4606          11.599        -12.3958         -84.956        -54.3476          90.998        -80.8096          75.852
                   -47.3894         -13.347
                   -47.5994          -2.927         -54.393          91.259         -12.432         -84.867        -69.5537          88.139
                   -48.4847          -8.344
                   -47.5082          -4.927        -81.0249          72.597         -69.765          88.189        -12.2522         -84.645
                   -48.2908           1.115
                  -0.658405         -18.404        -47.4281          -13.23        -48.5263          -8.175         -48.336           1.254
                   -18.6363         -86.555

          549.1       -18.9384         -99.322        -46.4333          10.756        -47.5952           -4.72        -47.4999          -6.826
                  -0.630341         -19.727
                   -46.4771          10.834        -12.6902         -85.623        -53.7649          89.683        -80.2996          73.957
                   -47.4404         -15.037
                   -47.6328          -4.626        -53.7946          89.795        -12.7278          -85.46        -69.1186          86.353
                   -48.5263          -9.676
                   -47.5454          -6.726        -80.2987          73.729        -69.1286          86.476         -12.505           -85.3
                   -48.3678           0.332
                   -0.66778         -19.617        -47.4752         -14.949        -48.5751          -9.616        -48.3929           0.468
                   -18.4164         -87.903

         579.05       -19.0156         -99.164        -46.4515          10.015         -47.639          -6.339        -47.5536          -8.527
                  -0.630341         -20.934
                   -46.5009          10.154        -12.9563         -86.233        -53.1832          88.351         -79.905          71.027
                   -47.4835         -16.652
                   -47.6747          -6.198         -53.207          88.319         -12.995         -85.988        -68.5263          85.077
                   -48.5728         -10.975
                   -47.6077          -8.379        -79.6094          71.561        -68.5728           85.39        -12.7278         -85.859
                   -48.4203          -0.263
                   -0.66778         -20.821         -47.535         -16.539        -48.6125         -10.905        -48.4571          -0.146
                   -18.2728         -88.898

            609       -18.9384         -99.484        -46.4954           9.519        -47.6789          -7.785        -47.6307         -10.167
                  -0.639686         -22.129
