!Hittite Microwave Corporation								
!12 Elizabeth Drive								
!Chelmsford, MA 01824								
!Tel: 978-250-3343								
!Fax: 978-250-3373								
!Device: HMC287MS8, 2.3-2.5 GHz LNA with AGC in 8-lead Grounded Base surface Mount Plastic Package								
!Misc: Vdd = +3V Idd = 9.6 mA Vctl = 0V , DEEMBEDDED TO THE PINS OF THE DEVICE								
!	
# MHZ S MA R 50

1000 0.941 84.66 0.976 -110.984 3.403e-3 -164.164 0.903 65.1
1020 0.939 86.057 1.048 -110.19 3.443e-3 -162.402 0.901 66.016
1040 0.935 87.608 1.116 -109.463 3.478e-3 -160.131 0.893 67.18
1060 0.936 89.139 1.192 -108.516 3.523e-3 -157.828 0.888 68.594
1080 0.935 90.63 1.272 -107.598 3.563e-3 -155.804 0.878 70.022
1100 0.937 92.298 1.357 -107.214 3.62e-3 -153.924 0.864 70.953
1120 0.936 93.671 1.453 -106.675 3.688e-3 -152.545 0.856 72.236
1140 0.933 95.201 1.554 -106.515 3.76e-3 -150.729 0.85 73.153
1160 0.931 96.706 1.658 -106.31 3.829e-3 -148.6 0.84 74.294
1180 0.933 98.15 1.765 -106.007 3.913e-3 -146.389 0.829 75.772
1200 0.932 99.648 1.871 -106.009 4.009e-3 -144.519 0.814 77.096
1220 0.927 101.18 1.998 -106.431 4.08e-3 -142.165 0.805 77.68
1240 0.926 102.733 2.123 -106.602 4.132e-3 -140.874 0.791 78.709
1260 0.926 104.256 2.25 -106.894 4.216e-3 -139.546 0.773 79.748
1280 0.928 105.764 2.386 -107.285 4.337e-3 -137.815 0.758 80.874
1300 0.925 107.117 2.522 -107.697 4.408e-3 -136.387 0.745 82.256
1320 0.928 108.363 2.673 -108.056 4.488e-3 -134.746 0.731 83.972
1340 0.926 109.787 2.825 -108.726 4.546e-3 -133.236 0.714 85.272
1360 0.927 111.252 2.985 -109.401 4.629e-3 -131.923 0.696 86.6
1380 0.927 112.59 3.151 -110.137 4.713e-3 -130.897 0.677 87.952
1400 0.926 113.79 3.338 -111.045 4.747e-3 -129.965 0.663 89.313
1420 0.927 115.311 3.495 -111.87 4.839e-3 -128.822 0.641 90.95
1440 0.926 116.524 3.667 -112.801 4.904e-3 -128.127 0.621 92.82
1460 0.928 117.795 3.853 -113.741 4.965e-3 -127.379 0.603 94.796
1480 0.929 119.097 4.045 -114.836 5.013e-3 -126.586 0.582 96.598
1500 0.928 120.302 4.254 -116.075 5.05e-3 -125.865 0.565 98.385
1520 0.93 121.473 4.449 -117.249 5.108e-3 -125.383 0.544 100.545
1540 0.932 122.697 4.654 -118.364 5.137e-3 -124.908 0.526 103.008
1560 0.931 123.794 4.853 -119.637 5.136e-3 -124.565 0.508 105.644
1580 0.931 124.834 5.054 -121.005 5.141e-3 -124.239 0.49 108.438
1600 0.931 125.947 5.271 -122.349 5.192e-3 -123.799 0.473 111.511
1620 0.929 126.892 5.503 -123.686 5.186e-3 -123.776 0.458 114.61
1640 0.93 127.877 5.73 -125.08 5.151e-3 -123.768 0.442 117.866
1660 0.933 128.806 5.965 -126.41 5.125e-3 -123.638 0.43 121.605
1680 0.934 129.635 6.199 -127.764 5.094e-3 -123.45 0.42 125.485
1700 0.934 130.498 6.419 -129.238 5.006e-3 -123.268 0.411 129.47
1720 0.935 131.269 6.687 -130.75 4.929e-3 -123.092 0.405 133.683
1740 0.935 132.006 6.924 -132.316 4.865e-3 -123.24 0.398 138.058
1760 0.933 132.729 7.164 -133.941 4.797e-3 -123.605 0.394 142.537
1780 0.933 133.372 7.44 -135.64 4.72e-3 -124.122 0.392 146.776
1800 0.93 133.888 7.708 -137.357 4.581e-3 -124.687 0.392 150.924
1820 0.93 134.342 7.939 -138.858 4.427e-3 -125.396 0.396 155.347
1840 0.928 134.789 8.223 -140.665 4.245e-3 -126.039 0.403 159.445
1860 0.924 135.142 8.506 -142.545 4.047e-3 -127.059 0.41 163.496
1880 0.922 135.358 8.786 -144.399 3.849e-3 -128.457 0.418 167.456
1900 0.921 135.502 9.04 -146.229 3.628e-3 -129.759 0.429 171.333
1920 0.916 135.518 9.373 -148.227 3.373e-3 -131.485 0.439 174.585
1940 0.909 135.665 9.671 -150.236 3.069e-3 -134.044 0.451 177.521
1960 0.9 135.634 9.92 -152.302 2.754e-3 -136.858 0.466 -179.752
1980 0.893 135.373 10.182 -154.447 2.433e-3 -140.087 0.484 -177.191
2000 0.883 135.088 10.493 -156.662 2.06e-3 -144.622 0.501 -174.627
2020 0.871 134.636 10.808 -158.992 1.721e-3 -152.096 0.516 -172.337
2040 0.856 134.187 11.061 -161.285 1.375e-3 -163.619 0.532 -170.359
2060 0.842 133.656 11.322 -163.674 1.082e-3 175.808 0.546 -168.742
2080 0.825 132.965 11.601 -166.18 931.5e-6 146.142 0.562 -167.393
2100 0.806 132.193 11.875 -168.821 1.049e-3 112.189 0.581 -166.315
2120 0.785 131.41 12.074 -171.337 1.446e-3 91.313 0.598 -165.213
2140 0.761 130.385 12.293 -174.075 1.954e-3 77.871 0.613 -164.093
2160 0.734 129.338 12.486 -176.883 2.54e-3 69.091 0.626 -163.088
2180 0.704 128.238 12.659 -179.727 3.173e-3 62.923 0.639 -162.363
2200 0.672 127.054 12.838 177.296 3.824e-3 58.026 0.648 -162.16
2220 0.64 125.781 12.928 174.315 4.499e-3 54.053 0.655 -161.936
2240 0.604 124.545 13.013 171.427 5.176e-3 50.587 0.666 -161.655
2260 0.566 123.331 13.011 168.528 5.842e-3 47.48 0.673 -161.173
2280 0.527 122.05 12.982 165.589 6.507e-3 44.647 0.676 -160.619
2300 0.489 121.025 12.98 162.677 7.141e-3 42.087 0.675 -160.319
2320 0.447 119.98 12.92 159.794 7.792e-3 39.836 0.671 -160.293
2340 0.406 118.948 12.813 157.005 8.419e-3 37.763 0.669 -160.35
2360 0.365 118.084 12.651 154.292 9.012e-3 35.882 0.666 -160.222
2380 0.325 117.248 12.462 151.694 9.578e-3 34.132 0.662 -159.802
2400 0.286 116.495 12.266 149.395 0.01 32.465 0.658 -159.065
2420 0.248 115.96 12.043 147.038 0.011 31.084 0.649 -158.205
2440 0.211 115.565 11.848 144.889 0.011 29.521 0.637 -157.796
2460 0.176 115.749 11.62 142.869 0.012 28.217 0.626 -157.433
2480 0.143 116.176 11.361 140.899 0.012 27.235 0.616 -157.019
2500 0.109 116.575 11.094 139.015 0.012 26.375 0.607 -156.519
2520 0.079 118.435 10.824 137.463 0.013 25.903 0.599 -155.303
2540 0.051 120.77 10.567 136.067 0.013 25.677 0.588 -153.907
2560 0.024 131.405 10.327 134.637 0.014 25.511 0.574 -152.638
2580 8.505e-3 -142.364 10.11 133.124 0.014 25.29 0.56 -151.82
2600 0.025 -90.039 9.856 131.818 0.015 25.168 0.549 -151.122
2620 0.042 -78.136 9.568 130.976 0.015 24.678 0.542 -150.407
2640 0.062 -71.513 9.279 130.151 0.015 24.169 0.534 -149.28
2660 0.081 -67.01 9.038 129.505 0.016 23.723 0.526 -147.725
2680 0.1 -63.242 8.843 128.956 0.016 23.336 0.515 -146.202
2700 0.117 -62.449 8.662 128.333 0.016 23.073 0.502 -145.077
2720 0.134 -59.959 8.494 127.811 0.017 23.167 0.488 -144.328
2740 0.151 -58.06 8.312 127.32 0.017 23.424 0.476 -143.547
2760 0.165 -56.902 8.118 127.03 0.017 23.698 0.469 -142.476
2780 0.178 -55.514 7.915 126.861 0.017 23.951 0.463 -140.922
2800 0.191 -53.841 7.745 126.666 0.018 24.436 0.454 -138.933
2820 0.204 -51.911 7.601 126.381 0.018 24.927 0.442 -137.166
2840 0.216 -50.538 7.46 126.217 0.018 25.431 0.427 -135.972
2860 0.226 -48.892 7.326 126.169 0.018 25.927 0.415 -135.058
2880 0.236 -47.191 7.191 126.231 0.019 26.543 0.407 -134.185
2900 0.247 -45.379 7.034 126.239 0.019 27.399 0.4 -132.882
2920 0.258 -43.854 6.896 126.332 0.019 28.068 0.393 -130.992
2940 0.266 -41.968 6.763 126.45 0.019 28.744 0.384 -128.964
2960 0.275 -39.739 6.65 126.641 0.02 29.527 0.373 -127.255
2980 0.283 -37.866 6.531 126.859 0.02 30.407 0.36 -125.85
3000 0.29 -36.507 6.417 126.97 0.02 31.27 0.35 -124.976
