!Hittite Microwave Corporation								
!12 Elizabeth Drive								
!Chelmsford, MA 01824								
!Tel: 978-250-3343								
!Fax: 978-250-3373								
!Device: HMC253QS24, DC-2.5 GHz GaAS MMIC SP8T Non-Reflective Switch in 24-lead QSOP package								
!Misc: Port 1 = RFCom, Port 2 = RF1, Port 3 = RF2, Port 4 = RF3, Port 5 = RF4, Port 6 = RF5, Port 7 = RF6, Port 8 = RF7, Port 9 = RF8, RF5 selected, Vdd=+5V							
!
# MHZ S MA R 50

30	0.672	40.848	0.005142	31.946	0.001341	-5.739	0.002428	-49.315
	0.004453	-155.001	0.656	-44.23	0.003432	50.198	0.0008622	49.768
	0.001271	47.27	0.0005891	-77.596	0.714	-49.916	0.001951	112.963
	0.001265	53.694	0.002609	-152.437	0.0002754	-20.203	0.002069	142.773
	0.0005238	32.143	0.001782	-115.629	0.001093	-24.446	0.002855	96.079
	0.72	-49.57	0.003768	-48.183	0.0002926	142.895	0.001365	-154.465
	0.00042	-16.209	0.001472	-84.76	0.001647	-77.323	0.000836	-51.494
	0.003485	-136.823	0.001085	79.826	0.709	-50.236	0.003189	118.285
	0.001095	-11.617	0.001392	0.325	0.0001155	127.505	0.0005456	-86.795
	0.001294	-132.367	0.0005974	-15.349	0.0008807	153.604	0.003373	-9.742
	0.708	-50.763	0.002144	168.774	0.004568	-179.733	0.006007	34.451
	0.001196	-153.27	0.662	-43.957	0.002182	4.858	0.003156	-38.977
	0.002285	-121.58	0.001271	-129.145	0.674	41.192	0.005556	23.401
	0.001729	52.434	0.003024	-18.334	0.001038	124.465	0.001891	119.956
	0.000006611	122.412	0.001235	99.116	0.001565	83.951	0.002313	32.405
	0.708	-50.917	0.0007321	34.67	0.002716	7.019	0.003683	61.923
	0.001369	151.221	0.001655	-172.418	0.002758	-27.438	0.002589	-121.019
	0.002821	40.544	0.002473	-59.96	0.721	-49.521	0.0004697	5.688
	0.002028	41.758	0.003419	-82.472	0.0009151	-149.714	0.001307	7.237
	0.0001528	-49.674	0.001557	-24.095	0.00422	131.603	0.001338	-165.79
	0.727	-50.495						
49.85	0.474	50.679	0.004329	43.979	0.0007251	-11.424	0.001648	-48.293
	0.003696	-154.145	0.785	-30.227	0.002736	48.573	0.00108	38.511
	0.001289	67.077	0.000271	-83.384	0.716	-48.706	0.001185	137.868
	0.0009405	105.407	0.001879	84.016	0.0001013	57.714	0.001466	-152.577
	0.0004464	107.721	0.001186	-53.498	0.0007692	19.938	0.002133	95.037
	0.72	-48.743	0.002443	-51.141	0.0001583	-136.59	0.001367	-114.546
	0.0003317	-79.361	0.001036	-90.486	0.001176	-88.942	0.000783	-35.111
	0.002343	-34.468	0.0009057	84.102	0.712	-49.306	0.00244	120.553
	0.0009346	7.888	0.001004	24.905	0.00004647	111.206	0.0003425	162.779
	0.0009157	-142.382	0.000426	-142.168	0.0005407	-138.875	0.002563	8.434
	0.711	-49.784	0.002058	162.192	0.003074	154.296	0.004224	-37.992
	0.000798	128.332	0.791	-29.984	0.002011	3.141	0.002539	-46.03
	0.002069	-115.163	0.000648	-167.901	0.477	51.13	0.005426	34.845
	0.0019	58.845	0.00293	-3.51	0.0007756	106.1	0.00126	-70.354
	0.00005218	59.398	0.00093	16.487	0.001151	49.032	0.00277	47.029
	0.712	-49.749	0.0003599	20.467	0.001825	3.737	0.003292	63.864
	0.0008684	85.854	0.001196	171.595	0.001931	-96.892	0.00173	-55.819
	0.002808	41.965	0.001862	-33.915	0.721	-48.731	0.000437	22.358
	0.002076	53.424	0.002321	151.875	0.0006577	-29.343	0.0009538	-13.18
	0.000121	-164.623	0.001774	-10.738	0.002973	32.462	0.001093	-128.754
	0.725	-49.054						
69.7	0.355	53.893	0.003738	50.063	0.0004139	-15.92	0.001062	-57.895
	0.002979	-157.986	0.835	-22.912	0.002608	40.04	0.001428	34.372
	0.001511	68.574	0.00006725	139.554	0.688	-50.879	0.0007317	157.404
	0.0007868	151.26	0.001516	-44.928	0.0002257	96.158	0.001169	-93.631
	0.0004293	177.285	0.0008599	3.118	0.0004655	50.196	0.001792	88.622
	0.692	-51.194	0.001691	-59.518	0.00007229	-61.721	0.001251	-80.914
	0.0003037	-149.302	0.0008096	-101.575	0.0009408	-105.911	0.0007288	-19.172
	0.001721	62.309	0.0008584	82.777	0.686	-51.729	0.002112	117.316
	0.0008582	20.644	0.0008094	44.351	0.000004163	-105.599	0.0002224	47.631
	0.0007152	-166.893	0.0003461	85.126	0.0003321	-76.681	0.002196	21.291
	0.684	-52.228	0.001944	151.844	0.002261	122.653	0.003298	-115.879
	0.0005865	44.344	0.84	-22.7	0.001908	6.87	0.001984	-57.315
	0.001684	-112.163	0.0006894	151.322	0.358	54.346	0.00533	42.605
	0.002071	60.08	0.002883	6.639	0.0008846	67.982	0.0009191	93.972
	0.00008601	-39.979	0.0007884	-71.907	0.0009544	8.402	0.003138	54.347
	0.685	-52.055	0.0001178	-0.015	0.001344	-4.992	0.003133	60.115
	0.000585	14.969	0.0009684	150.199	0.001507	-171.847	0.001255	3.804
	0.002876	43.266	0.001581	-13.413	0.693	-51.21	0.0004532	33.787
	0.002206	55.224	0.001727	20.923	0.0005294	84.877	0.0007848	-39.21
	0.0001163	71.124	0.001964	0.408	0.002345	-72.409	0.001015	-97.045
	0.695	-51.138						
89.55	0.281	54.023	0.003253	53.799	0.000223	-1.194	0.0006013	-71.76
	0.002293	-163.761	0.858	-18.706	0.002709	31.143	0.001793	32.851
	0.00181	64.159	0.0003746	101.818	0.653	-53.994	0.000364	175.395
	0.0006793	-164.222	0.001252	-175.479	0.0003552	90.545	0.0009493	-36.192
	0.0004307	-114.764	0.0006079	58.206	0.0002066	57.297	0.001555	80.716
	0.657	-54.561	0.001097	-69.403	0.000003399	17.284	0.0011	-50.072
	0.0002916	140.157	0.0006412	-114.159	0.0007693	-124.392	0.0006671	-3.755
	0.00124	157.536	0.0008459	79.98	0.652	-55.087	0.001899	112.544
	0.0008173	30.974	0.0006674	62.238	0.00004895	-120.767	0.0001259	-70.144
	0.0006006	159.983	0.0002916	-49.42	0.0001665	-15.445	0.001955	32.489
	0.65	-55.624	0.001821	139.569	0.001634	89.463	0.002607	164.69
	0.0004251	-40.951	0.862	-18.523	0.001757	12.043	0.001459	-70.524
	0.001226	-111.359	0.0008266	129.695	0.284	54.374	0.005236	48.753
	0.00224	59.127	0.002861	14.699	0.001296	44.003	0.0006517	-103.776
	0.0001212	-140.141	0.0006945	-161.992	0.000817	-33.783	0.003475	58.646
	0.652	-55.327	0.00008899	159.872	0.0009754	-15.276	0.003069	54.34
	0.000363	-57.586	0.0008031	127.308	0.001189	111.814	0.0008813	61.893
	0.002942	44.334	0.001391	5.531	0.658	-54.601	0.0004818	43.831
	0.00237	53.156	0.001278	-111.746	0.0004345	-162.166	0.0006645	-66.747
	0.0001139	-52.43	0.002135	9.839	0.001888	-178.671	0.0009812	-66.832
	0.659	-54.197						
109.4	0.232	52.589	0.002825	56.424	0.0002138	45.242	0.0002329	-84.391
	0.001634	-170.584	0.87	-16.113	0.002915	23.24	0.002155	32.2
	0.00215	57.833	0.0006892	92.412	0.616	-57.508	0.00003285	-167.415
	0.000592	-120.448	0.001031	53.368	0.0004697	78.268	0.0007618	20.584
	0.0004387	-47.32	0.0003872	112.703	0.0001962	0.451	0.001363	72.154
	0.62	-58.315	0.0005699	-79.928	0.00006068	-94.884	0.0009362	-20.492
	0.0002819	69.225	0.0004969	-127.353	0.0006246	-143.49	0.0006012	11.293
	0.000817	-107.874	0.0008474	76.545	0.615	-58.842	0.001733	107.141
	0.0007946	40.259	0.0005493	79.493	0.00009071	-146.025	0.000041	171.713
	0.000547	121.259	0.0002435	175.841	0.00001756	45.101	0.001762	43.077
	0.613	-59.424	0.001693	126.131	0.001087	55.609	0.002015	84.617
	0.0002826	-126.647	0.873	-15.96	0.001566	17.564	0.000952	-85.171
	0.0007295	-112.12	0.0009397	114.896	0.236	52.743	0.005148	54.039
	0.002409	57.117	0.00286	21.574	0.00181	30.297	0.0004173	58.493
	0.0001558	120.254	0.0006204	107.441	0.0007036	-76.589	0.003797	61.473
	0.615	-59.008	0.0002789	137.133	0.0006532	-26.225	0.003055	47.667
	0.0001654	-130.628	0.0006642	103.788	0.0009147	34.837	0.0005546	119.576
	0.003001	45.158	0.001238	23.855	0.621	-58.379	0.0005155	53.29
	0.002553	49.28	0.0008857	115.227	0.0003558	-49.704	0.000566	-94.914
	0.0001134	-176.917	0.002298	18.281	0.001493	74.571	0.0009658	-37.191
	0.62	-57.666						
129.25	0.199	50.315	0.002435	58.425	0.0003663	62.052	0.00008282	35.448
	0.0009924	-177.977	0.877	-14.447	0.003174	16.281	0.002513	31.888
	0.002516	50.87	0.001001	84.367	0.577	-61.232	0.0002788	29.859
	0.0005144	-76.922	0.0008306	-78.104	0.0005777	63.767	0.0005932	77.122
	0.0004493	19.938	0.000183	166.909	0.0004283	2.968	0.001193	63.285
	0.581	-62.274	0.0000782	-90.811	0.0001214	-21.731	0.000769	8.654
	0.0002748	-2.391	0.0003652	-140.845	0.0004938	-162.877	0.0005333	26.154
	0.0004258	-13.57	0.0008561	72.798	0.577	-62.805	0.001591	101.42
	0.0007828	49.027	0.0004428	96.433	0.0001301	-171.821	0.00004021	-126.599
	0.0005448	80.211	0.0002005	40.417	0.0001222	-75.242	0.001596	53.343
	0.575	-63.437	0.001563	111.918	0.0005802	21.419	0.001476	4.23
	0.0001497	147.416	0.88	-14.325	0.001356	23.235	0.0004606	-102.551
	0.0002135	-116.255	0.001025	102.389	0.203	50.195	0.005064	58.789
	0.002579	54.516	0.002874	27.658	0.002356	20.5	0.0002028	-140.438
	0.0001885	20.347	0.0005547	16.61	0.0006022	-119.72	0.004111	63.501
	0.577	-62.904	0.0004595	114.677	0.0003558	-37.548	0.003069	40.543
	0.00002147	-25.011	0.0005388	79.947	0.000664	-42.463	0.0002534	176.958
	0.003054	45.797	0.001105	41.851	0.582	-62.361	0.0005517	62.464
	0.00275	44.414	0.000522	-18.387	0.0002845	62.31	0.0004779	-123.437
	0.0001142	57.651	0.002459	26.03	0.001134	-32.809	0.0009598	-7.848
	0.58	-61.352						
149.1	0.174	47.589	0.00207	60.034	0.0005561	59.907	0.0003282	34.568
	0.0003652	174.475	0.881	-13.358	0.003462	9.996	0.002869	31.694
	0.002899	43.7	0.00131	76.538	0.538	-65.086	0.0005783	46.744
	0.0004433	-33.623	0.0006437	150.235	0.000682	48.288	0.0004356	133.438
	0.0004623	87.034	0.00001147	41.619	0.000682	24.968	0.001037	54.235
	0.542	-66.36	0.0003914	78.195	0.00018	50.866	0.0006016	38.006
	0.0002708	-74.207	0.0002411	-154.492	0.0003712	177.594	0.0004646	40.969
	0.00005457	80.84	0.0008688	68.873	0.538	-66.899	0.001464	95.52
	0.0007779	57.525	0.000343	113.153	0.0001681	162.374	0.0001174	115.637
	0.0005821	39.821	0.0001616	-95.189	0.0002568	-15.309	0.001445	63.427
	0.536	-67.582	0.001428	97.176	0.00009894	-13.175	0.0009674	-76.316
	0.00002363	61.505	0.883	-13.266	0.001131	28.943	0.00005632	133.246
	0.0003118	70.016	0.001089	90.819	0.179	47.141	0.004981	63.203
	0.002751	51.547	0.002896	33.153	0.002916	12.301	0.000005161	-164.649
	0.0002209	-80.019	0.0004947	-74.482	0.0005084	-163.047	0.004419	65.065
	0.538	-66.933	0.0006349	92.077	0.00007338	-49.898	0.003102	33.174
	0.0002016	-97.059	0.0004217	55.92	0.000428	-119.977	0.00003363	53.765
	0.003104	46.302	0.0009833	59.635	0.543	-66.47	0.0005893	71.467
	0.002957	38.963	0.0001803	-152.141	0.0002179	174.193	0.0003965	-152.116
	0.0001161	-67.563	0.002617	33.23	0.0008031	-140.297	0.0009597	21.32
	0.539	-65.171						
168.95	0.156	44.641	0.001722	61.379	0.0007548	52.441	0.0005535	13.226
	0.0002512	-14.378	0.884	-12.651	0.003764	4.194	0.003223	31.538
	0.003296	36.479	0.001616	68.739	0.498	-69.032	0.0008695	63.53
	0.0003756	9.594	0.0004652	18.459	0.000785	32.399	0.0002846	-170.519
	0.000477	153.91	0.0002	94.82	0.0009358	50.625	0.0008903	45.072
	0.503	-70.536	0.0008462	67.056	0.0002375	123.462	0.0004356	68.566
	0.000268	-145.974	0.000122	-168.192	0.000254	157.995	0.0003957	55.893
	0.0003037	-5.44	0.000884	64.839	0.499	-71.084	0.001346	89.509
	0.0007777	65.887	0.0002478	129.786	0.0002052	136.481	0.0001919	-3.073
	0.0006445	1.435	0.0001239	129.393	0.0003876	44.429	0.001304	73.409
	0.496	-71.822	0.001289	82.064	0.0003655	132.758	0.0004799	-156.944
	0.00009724	154.428	0.885	-12.589	0.0008976	34.763	0.0005021	60.54
	0.0008345	66.569	0.001139	79.652	0.162	43.833	0.004897	67.4
	0.002923	48.346	0.002925	38.178	0.003482	4.847	0.0002019	2.56
	0.0002535	179.661	0.0004389	-165.648	0.0004198	153.501	0.00472	66.35
	0.499	-71.056	0.0008063	69.358	0.000199	120.244	0.003148	25.664
	0.0003755	-170.252	0.00031	31.79	0.0002018	162.485	0.0003114	110.951
	0.003151	46.714	0.0008692	77.296	0.504	-70.668	0.0006277	80.355
	0.003171	33.18	0.0001517	-106.043	0.000154	-74.18	0.0003192	179.107
	0.0001181	167.26	0.00277	40.07	0.0004822	112.521	0.0009631	50.369
	0.498	-69.086						
188.8	0.142	41.545	0.001601	62.566	0.0009126	44.892	0.0006645	-0.279
	0.0006749	-14.784	0.886	-12.189	0.004032	-1.395	0.003396	27.569
	0.0035	28.65	0.001831	64.71	0.46	-72.886	0.0009677	74.589
	0.0003579	39.392	0.0002694	-38.936	0.0008069	15.248	0.0002176	-153.77
	0.0003773	-178.705	0.0004084	140.832	0.001054	65.191	0.0008679	50.88
	0.465	-74.588	0.001034	63.666	0.0003939	154.019	0.0003601	81.167
	0.0002588	150.552	0.00007489	-155.494	0.0002399	130.641	0.0003978	52.543
	0.0004622	45.936	0.0008811	65.678	0.462	-75.154	0.001387	82.936
	0.0007261	67.929	0.0002368	145.143	0.0002563	104.33	0.0002183	-114.831
	0.0007025	-24.775	0.0001095	27.715	0.0004678	91.354	0.001279	85.482
	0.458	-75.951	0.001234	71.064	0.00067	109.015	0.0001706	136.765
	0.000221	104.714	0.886	-12.141	0.000764	35.731	0.0007751	48.398
	0.001133	65.514	0.001206	77.5	0.149	40.504	0.004995	69.423
	0.003049	46.286	0.003031	40.267	0.003911	-1.374	0.0002773	157.698
	0.0002884	102.845	0.0003365	125.702	0.0003535	132.621	0.005068	67.921
	0.462	-75.097	0.0009694	62.427	0.0004295	115.915	0.003166	21.234
	0.0004111	128.207	0.0002662	49.988	0.0001418	119.835	0.0004263	150.455
	0.003113	45.925	0.0008004	96.268	0.466	-74.75	0.0007329	87.887
	0.003428	27.796	0.0003494	139.044	0.0001775	34.553	0.0002673	140.791
	0.0001841	102.188	0.002931	42.717	0.0003419	60.567	0.0009576	73.335
	0.459	-72.919						
208.65	0.131	38.243	0.001916	60.803	0.0009288	47.279	0.0005629	14.648
	0.0006576	-10.76	0.888	-11.864	0.00412	-6.381	0.003257	16.862
	0.003248	21.443	0.001869	66.921	0.425	-76.278	0.0008107	72.42
	0.0003866	30.728	0.0001007	84.674	0.0007563	4.639	0.0002951	139.535
	0.0001403	119.873	0.00058	158.137	0.0008909	55.769	0.00111	82.283
	0.431	-78.113	0.0007619	77.371	0.0006615	101.461	0.0005202	48.085
	0.0002909	122.863	0.0001778	-143.408	0.0003496	96.166	0.0005734	19.094
	0.0002251	14.073	0.0009075	79.371	0.428	-78.703	0.001753	82.08
	0.0007356	59.422	0.0003883	145.493	0.0003027	86.874	0.000128	-171.94
	0.0007333	-25.524	0.0001995	41.736	0.00047	91.718	0.001574	96.43
	0.425	-79.564	0.001344	73.314	0.0006035	122.418	0.0002628	129.436
	0.0002755	121.629	0.888	-11.799	0.0008949	21.022	0.0005622	50.122
	0.0009225	62.734	0.001287	92.136	0.139	37.316	0.005415	66.463
	0.003093	46.276	0.003176	35.976	0.003989	-5.824	0.0001471	-132.925
	0.0002756	93.255	0.0001802	121.691	0.0004143	153.1	0.005418	69.061
	0.428	-78.682	0.001004	89.527	0.0004898	120.262	0.003131	22.235
	0.0001969	122.774	0.0003525	150.113	0.000367	161.94	0.0001888	146.107
	0.003011	43.814	0.0008813	107.065	0.432	-78.288	0.0009943	89.511
	0.003598	24.109	0.0002855	97.625	0.0003113	123.57	0.0002281	83.007
	0.0003314	174.085	0.003083	36.853	0.0005392	122.695	0.0009857	81.273
	0.425	-76.327						
228.5	0.122	34.961	0.001875	55.686	0.0009224	55.522	0.0007356	25.165
	0.0008693	-38.919	0.888	-11.667	0.004054	-9.86	0.003427	14.672
	0.003248	21.555	0.002045	59.404	0.395	-79.375	0.001194	76.835
	0.0003686	40.295	0.0002139	123.78	0.001018	15.505	0.0002677	133.588
	0.000243	104.686	0.0005068	153.186	0.0009995	61.416	0.001187	78.155
	0.402	-81.38	0.001069	80.546	0.0006458	111.348	0.0005455	30.957
	0.0003697	124.417	0.0002402	101.881	0.0001423	83.755	0.0006622	25.425
	0.0002808	56.505	0.001109	89.14	0.398	-81.99	0.001985	95.189
	0.001086	67.797	0.0003498	124.262	0.0002731	130.617	0.00007681	173.726
	0.000829	-33.957	0.0003606	93.772	0.0005652	76.523	0.001903	92.721
	0.396	-82.882	0.00135	78.14	0.000591	141.285	0.0002638	145.778
	0.0001821	87.624	0.888	-11.631	0.0009936	9.782	0.0005149	44.762
	0.0009366	56.018	0.001321	88.591	0.131	33.999	0.005502	65.524
	0.003268	43.125	0.003082	32.919	0.004143	-11.545	0.0002969	136.002
	0.0001875	97.965	0.0002205	131.312	0.0006219	132.366	0.005462	66.894
	0.398	-81.915	0.000918	93.213	0.0003844	113.844	0.003212	15.064
	0.0002443	153.059	0.0003194	139.069	0.0002999	165.158	0.0002424	138.108
	0.003208	44.17	0.001033	92.788	0.403	-81.524	0.001252	89.339
	0.003444	21.218	0.0004164	120.096	0.0001982	158.49	0.0001242	77.026
	0.0002076	-171.687	0.003128	36.608	0.0004363	102.24	0.001215	93.16
	0.394	-79.466						
248.35	0.115	31.686	0.002013	59.974	0.00104	47.928	0.0008502	17.955
	0.001054	-48.098	0.888	-11.557	0.004072	-15.869	0.003336	10.605
	0.003311	21.789	0.002099	55.334	0.369	-82.101	0.001269	82.507
	0.000574	79.766	0.0003262	106.576	0.001127	18.465	0.0004702	141.035
	0.0002502	97.551	0.0004227	139.008	0.001191	49.478	0.001292	83.483
	0.376	-84.264	0.001262	82.134	0.0008055	89.833	0.0004251	19.392
	0.0002514	101.524	0.0003396	149.913	0.0002378	64.852	0.0007222	25.562
	0.0003178	68.164	0.001154	90.368	0.373	-84.918	0.002397	96.805
	0.0009593	70.464	0.0002618	113.005	0.0002537	136.273	0.0001064	82.974
	0.001013	-41.181	0.0003717	94.076	0.0006464	97.778	0.002213	98.059
	0.371	-85.836	0.001563	79.261	0.0005731	122.237	0.0003468	102.9
	0.000275	150.442	0.889	-11.549	0.001089	11.545	0.0005786	40.152
	0.001025	60.623	0.0015	86.645	0.125	30.792	0.005886	66.723
	0.003339	42.417	0.003326	30.663	0.004366	-15.852	0.0002846	108.855
	0.0002348	134.738	0.0003939	136.032	0.0007135	127.541	0.005754	66.853
	0.373	-84.798	0.001395	97.412	0.0003781	140.791	0.003272	8.322
	0.0002525	117.918	0.0003631	85.604	0.0003739	124.627	0.0004313	123.491
	0.003281	39.934	0.001166	95.5	0.377	-84.445	0.00142	97.958
	0.003613	19.742	0.0004912	130.93	0.0003527	138.729	0.0002116	115.032
	0.0001758	-170.543	0.003097	33.636	0.0004612	113.238	0.001461	104.821
	0.368	-82.202						
268.2	0.11	28.265	0.002231	60.215	0.00107	52.843	0.0006737	11.399
	0.0009124	-50.661	0.889	-11.548	0.004293	-21.71	0.003321	10.027
	0.003418	16.499	0.002055	54.606	0.345	-84.685	0.001273	88.762
	0.0003216	42.592	0.0002359	146.377	0.001105	18.267	0.0006242	138.206
	0.0004713	102.803	0.0002819	134.781	0.001104	44.937	0.001574	88.095
	0.353	-86.993	0.00129	85.364	0.0006928	97.554	0.000655	32.984
	0.0003482	74.876	0.0002959	163.865	0.0005093	101.7	0.0006855	17.936
	0.0003854	78.664	0.001214	88.219	0.35	-87.64	0.00267	100.798
	0.001019	69.678	0.0004051	94.983	0.0002204	152.823	0.0002499	136.171
	0.001107	-41.797	0.0002832	89.603	0.0008477	100.117	0.002638	100.803
	0.348	-88.635	0.001593	79.159	0.0006567	118.454	0.0004592	113.122
	0.0004096	-176.562	0.889	-11.504	0.00111	-1.829	0.000495	39.065
	0.00111	54.1	0.001472	83.892	0.119	27.463	0.006219	68.037
	0.003342	44.199	0.003272	30.423	0.004522	-19.329	0.0001714	105.962
	0.0002352	-173.981	0.0007158	115.604	0.0007496	106.843	0.006159	66.252
	0.351	-87.542	0.001816	102.918	0.0004284	114.139	0.003363	4.504
	0.0003116	125.96	0.0005155	109.682	0.0002241	93.698	0.0004158	146.099
	0.003542	40.315	0.00149	98.965	0.355	-87.117	0.00132	100.879
	0.003636	16.335	0.000489	119.129	0.0005628	142.397	0.0003134	66.678
	0.0004828	124.051	0.003044	28.379	0.0004768	128.451	0.001503	102.874
	0.345	-84.77						
288.05	0.105	24.888	0.002042	64.314	0.0009459	51.62	0.0008805	6.864
	0.001153	-54.148	0.89	-11.619	0.004564	-25.645	0.003282	6.349
	0.003568	14.387	0.002017	56.43	0.325	-87.031	0.001511	101.803
	0.0002073	50.614	0.0004406	136.639	0.001037	-4.296	0.0005208	98.642
	0.0002855	102.737	0.0003455	155.085	0.0009768	47.508	0.001698	90.722
	0.333	-89.486	0.001402	94.94	0.0007275	107.735	0.0007793	26.316
	0.0004118	85.839	0.0003963	126.578	0.0003045	103.855	0.0006567	-7.801
	0.0004338	114.817	0.001576	88.618	0.329	-90.171	0.002897	104.101
	0.001185	66.675	0.0006137	128.36	0.0004488	111.866	0.0003466	142.755
	0.0009909	-50.644	0.0002611	46.041	0.0008723	102.164	0.002885	100.129
	0.328	-91.142	0.001432	78.186	0.0006609	125.584	0.0004937	121.336
	0.0005505	130.864	0.89	-11.536	0.001043	-0.132	0.0004702	26.164
	0.001085	67.485	0.001698	76.63	0.116	24.221	0.006479	67.894
	0.003564	44.124	0.003365	31.82	0.004493	-26.077	0.0002667	108.473
	0.0004239	140.34	0.0005986	114.823	0.0006616	121.428	0.006484	68.339
	0.331	-89.938	0.001532	99.825	0.0004133	84.491	0.003424	3.888
	0.0004122	169.026	0.0004025	136.145	0.0001164	115.08	0.0006948	130.898
	0.003551	41.049	0.001731	98.031	0.334	-89.579	0.001838	104.503
	0.003601	10.961	0.0005566	131.845	0.0003585	131.293	0.0002993	95.129
	0.0004906	121.951	0.003293	30.244	0.0004341	123.29	0.001649	90.144
	0.324	-87.123						
307.9	0.101	21.728	0.002109	61.465	0.0009968	40.444	0.0007284	1.724
	0.001173	-61.085	0.889	-11.71	0.004588	-31.452	0.003084	2.359
