!Hittite Microwave Corporation								
!12 Elizabeth Drive								
!Chelmsford, MA 01824								
!Tel: 978-250-3343								
!Fax: 978-250-3373								
!Device: HMC252QS24, DC-3 GHz GaAS MMIC SP6T Non-Reflective Switch in 24-lead QSOP package								
!Misc: Port 1 = RFCom, Port 2 = RF1, Port 3 = RF2, Port 4 = RF3, Port 5 = RF4, Port 6 = RF5, Port 7 = RF6, All Off CtlA Low, Vdd=+5V							
!
# MHZ S MA R 50

30	0.992	-2.932	0.002173	85.09	0.002088	85.95	0.001803	86.975
	0.001758	87.91	0.002136	85.381	0.002291	84.778	0.002143	85.953
	0.915	-20.464	0.0002864	70.152	0.00003898	77.469	0.00005317	139.465
	0.00001263	87.183	0.00004928	52.591	0.002123	86.115	0.0002898	70.176
	0.917	-20.261	0.0005456	53.943	0.00004202	3.748	0.00002942	-152.472
	0.00002993	-131.097	0.001799	86.641	0.00003597	78.797	0.0005502	56.044
	0.916	-20.739	0.00004144	-4.929	0.00003772	-23.186	0.00006839	119.779
	0.001791	88.404	0.00004074	-64.89	0.00006024	98.742	0.00004032	41.695
	0.916	-20.571	0.000496	61.051	0.00003393	81.787	0.00211	85.44
	0.00003106	174.542	0.00003044	126.695	0.00004236	139.757	0.0005427	57.966
	0.918	-20.164	0.0002406	66.151	0.00228	84.93	0.00005041	-78.086
	0.00001599	78.818	0.00002855	55.151	0.00004564	90.77	0.0002489	53.009
	0.916	-20.565						
47.35	0.99	-4.496	0.003532	76.178	0.003408	76.445	0.002968	77.428
	0.00293	78.166	0.003477	76.286	0.003683	75.008	0.00349	75.625
	0.851	-30.418	0.0003563	64.138	0.00006296	23.016	0.00002275	115.68
	0.00002154	85.344	0.0000382	50.415	0.003476	75.958	0.0003865	62.086
	0.854	-30.169	0.0006829	45.101	0.00004199	-53.36	0.00004114	-125.195
	0.00003387	-139.077	0.002972	77.848	0.00004167	110.971	0.0006776	44.647
	0.851	-30.799	0.0000771	-135.732	0.00003203	-104.033	0.00006469	70.522
	0.002949	77.995	0.00003947	68.953	0.0000593	70.244	0.00003352	49.408
	0.851	-30.603	0.0006531	45.516	0.00003812	130.257	0.00348	76.12
	0.00004354	67.301	0.00001891	142.41	0.00002026	-140.418	0.0006758	42.2
	0.855	-30.051	0.000295	62.601	0.003745	75.464	0.00004099	-9.73
	0.00002716	130.055	0.00002645	87.954	0.00003797	94.176	0.0003208	50.063
	0.851	-30.524						
64.7	0.988	-6.027	0.004749	65.58	0.004622	66.644	0.003994	67.384
	0.003989	66.847	0.004672	66.257	0.004932	65.573	0.004726	65.387
	0.78	-39.006	0.0003802	65.123	0.00008377	67.292	0.00002472	7.047
	0.00002721	131.095	0.00004974	97.455	0.004632	66.019	0.0004148	52.291
	0.785	-38.705	0.0007518	36.692	0.00004075	-157.745	0.00006194	157.884
	0.00003416	-80.456	0.004023	67.273	0.00003228	119.645	0.0006813	38.627
	0.78	-39.448	0.0001084	137.402	0.00001927	173.447	0.00003885	92.331
	0.004012	67.098	0.00004733	156.187	0.00003215	97.952	0.00004599	145.957
	0.781	-39.254	0.0006832	34.141	0.00006481	160.23	0.004691	65.847
	0.00004068	63.534	0.00003423	107.934	0.00004636	-130.801	0.0006611	33.483
	0.785	-38.582	0.0003744	60.441	0.004999	65.774	0.00005428	96.048
	0.00003478	98.387	0.00003679	-171.373	0.00005217	90.813	0.0003658	59.307
	0.78	-39.113						
82.05	0.988	-7.523	0.00567	57.021	0.005586	57.528	0.004816	57.81
	0.004848	57.425	0.005626	57.641	0.005921	57.355	0.005691	56.884
	0.711	-46.333	0.000403	66.747	0.00007007	139.522	0.00003584	-106.634
	0.00002529	-143.162	0.00005875	123.534	0.005562	57.238	0.0004426	54.414
	0.715	-46.033	0.0007037	34.151	0.00005812	117.486	0.00004295	152.67
	0.00007737	152.308	0.00485	57.812	0.00007233	130.782	0.0006682	33.51
	0.711	-46.817	0.00007892	116.866	0.00003976	143.431	0.00001065	48.048
	0.004823	57.74	0.00006753	126.333	0.0000498	155.988	0.00007657	119.312
	0.712	-46.648	0.0006386	33.067	0.00009348	157.651	0.005653	57.32
	0.00006984	170.079	0.00006349	94.881	0.00006918	174.833	0.0005868	32.734
	0.715	-45.895	0.0004197	65.562	0.005954	56.959	0.00009814	81.016
	0.00003537	59.909	0.00002513	-165.086	0.00007675	135.526	0.0003769	62.405
	0.71	-46.441						
99.4	0.987	-9.001	0.006361	49.803	0.006274	50.321	0.005482	49.933
	0.005519	50.009	0.00635	50.028	0.006683	50.073	0.006397	49.598
	0.646	-52.46	0.0004838	72.746	0.0001485	146.323	0.00003955	134.001
	0.00005216	107.521	0.00004906	149.671	0.006273	50.031	0.0004568	72.599
	0.652	-52.164	0.0005684	37.151	0.00005957	173.874	0.00004854	136.877
	0.0001496	138.295	0.005472	49.953	0.0001046	130.182	0.0005762	39.028
	0.647	-52.974	0.00007062	113.859	0.00002441	131.517	0.0000612	98.174
	0.005464	50.169	0.00006536	145.278	0.00008253	142.632	0.0001184	122.065
	0.647	-52.758	0.0005287	36.708	0.0001194	121.993	0.006325	49.914
	0.00006423	136.544	0.00007271	158.296	0.00005016	136.933	0.0005093	34.984
	0.651	-51.944	0.0004015	72.861	0.006699	50.566	0.00003984	73.499
	0.00003477	146.729	0.00005067	147.134	0.0001354	145.473	0.0004163	72.588
	0.646	-52.594						
116.75	0.987	-10.504	0.006898	43.989	0.006871	44.003	0.005939	43.177
	0.005985	43.674	0.006904	44.198	0.007278	44.659	0.006866	43.512
	0.588	-57.58	0.0004932	83.588	0.0001778	134.479	0.00005613	122.518
	0.0000903	148.605	0.0001022	127.081	0.006819	43.851	0.0005358	79.027
	0.594	-57.223	0.0005046	49.997	0.00008011	140.385	0.00008995	111.534
	0.00007272	118.91	0.005948	43.311	0.0001573	121.911	0.0005412	50.233
	0.59	-58.139	0.0001477	137.477	0.00007301	147.421	0.00004419	156.148
	0.005963	43.509	0.00005245	158.466	0.0001108	133.308	0.0001552	132.149
	0.591	-57.866	0.0005149	54.507	0.000148	130.61	0.006892	44.195
	0.00009799	111.796	0.00009688	126.111	0.00006232	152.589	0.0004609	54.113
	0.594	-57.012	0.0004483	80.59	0.007247	44.756	0.00008742	122.279
	0.00006995	116.496	0.00009415	136.527	0.0001986	131.07	0.0005154	82.218
	0.59	-57.682						
134.1	0.986	-12.028	0.007306	38.541	0.007252	38.781	0.006293	37.426
	0.006307	37.905	0.007292	38.951	0.007666	39.782	0.007262	38.652
	0.537	-62.005	0.0006088	87.594	0.0002351	122.975	0.00009846	125.212
	0.00009456	128.132	0.000105	105.841	0.00722	38.848	0.0005947	88.19
	0.545	-61.6	0.0005221	64.82	0.0001216	118.566	0.0001001	114.012
	0.0001052	131.792	0.006317	37.928	0.0002004	125.318	0.0005723	65.286
	0.541	-62.567	0.0001953	134.947	0.0001217	134.622	0.00008438	133.869
	0.006308	38.114	0.0001066	141.204	0.0001079	134.217	0.000206	132.224
	0.54	-62.306	0.0005076	68.818	0.0002102	126.986	0.00729	38.856
	0.0001259	128.583	0.0001244	113.231	0.0001283	126.89	0.0005213	70.381
	0.543	-61.437	0.0005332	84.542	0.00764	40.066	0.0001325	127.818
	0.0001175	105.15	0.00009921	127.629	0.0002501	123.318	0.0005169	85.067
	0.539	-62.068						
151.45	0.986	-13.546	0.00758	34.018	0.007537	34.296	0.006559	32.613
	0.006566	32.929	0.007597	34.456	0.007919	35.681	0.007584	34.379
	0.493	-65.828	0.0007244	91.488	0.0002841	123.252	0.0001216	131.744
	0.0001064	109.897	0.000106	101.46	0.007553	34.296	0.0006972	92.187
	0.501	-65.424	0.0006248	78.358	0.0001509	112.693	0.0001371	113.497
	0.0001365	129.675	0.006585	32.947	0.0002432	129.459	0.0006528	78.832
	0.498	-66.383	0.0002358	124.402	0.0001608	123.325	0.0001156	119.78
	0.006536	33.482	0.0001251	119.175	0.0001507	121.879	0.0002443	131.068
	0.497	-66.106	0.0005822	81.818	0.0002565	121.369	0.007612	34.381
	0.0001084	135.978	0.0001363	112.704	0.0001553	125.646	0.0006082	82.326
	0.499	-65.232	0.0006418	88.361	0.007946	35.897	0.0001524	123.973
	0.000141	114.799	0.00009615	122.077	0.0002991	121.267	0.0006201	91.136
	0.495	-65.825						
168.8	0.986	-15.053	0.007765	30.326	0.007761	30.381	0.006759	28.61
	0.006748	28.806	0.007831	30.712	0.008112	32.24	0.007806	30.416
	0.455	-69.134	0.0008437	95.082	0.0003259	123.306	0.0001381	131.909
	0.0001284	116.181	0.0001406	101.797	0.007802	30.285	0.0008383	93.268
	0.463	-68.769	0.0007694	88.225	0.0001703	111.805	0.0001716	110.3
	0.0001523	112.465	0.006786	28.499	0.0003088	126.451	0.0007802	90.315
	0.46	-69.657	0.0002771	118.97	0.0001776	119.268	0.0001347	114.312
	0.006736	29.252	0.0001328	114.079	0.0001986	111.777	0.0002808	122.453
	0.459	-69.407	0.0007409	91.605	0.0003113	121.243	0.007861	30.71
	0.0001121	125.876	0.0001579	115.81	0.0001592	127.94	0.0007401	92.173
	0.46	-68.537	0.0007725	92.462	0.008158	32.329	0.0001701	113.822
	0.0001627	116.993	0.0001068	124.619	0.0003226	121.574	0.0007793	95.446
	0.458	-69.117						
186.15	0.987	-16.556	0.007913	27.144	0.00793	26.94	0.006903	25.091
	0.006865	25.466	0.008002	27.529	0.008278	29.337	0.007945	26.96
	0.422	-72.003	0.0009748	96.41	0.0003797	114.214	0.0001613	122.847
	0.0001466	126.224	0.0001997	102.682	0.00795	26.926	0.0009869	94.857
	0.429	-71.655	0.0009382	94.258	0.0002014	111.076	0.0001784	112.912
	0.0001792	104.89	0.006928	24.924	0.0003832	118.279	0.0009509	98.316
	0.427	-72.491	0.000324	119.683	0.0001759	117.021	0.0001518	103.915
	0.00692	25.472	0.0001512	121.933	0.0002126	115.36	0.0003278	112.407
	0.425	-72.322	0.0009165	97.544	0.0003774	122.308	0.008036	27.442
	0.0001652	114.079	0.0001925	118.849	0.0001809	113.895	0.0009272	99.543
	0.427	-71.46	0.0009061	95.607	0.008307	29.439	0.0002021	100.226
	0.0001899	107.435	0.0001305	126.428	0.0003433	120.975	0.000894	94.683
	0.424	-72.028						
203.5	0.987	-18.064	0.008045	24.385	0.008071	23.94	0.006991	21.733
	0.006985	22.676	0.008145	24.68	0.008408	27.004	0.008058	24.337
	0.392	-74.521	0.001077	96.478	0.0004441	105.825	0.0001795	114.077
	0.0001644	117.677	0.0002396	113.458	0.008055	23.938	0.001128	95.537
	0.4	-74.123	0.001147	98.373	0.0002522	113.474	0.0001948	118.187
	0.0002129	115.219	0.006999	22.036	0.0004213	113.397	0.001144	99.51
	0.398	-75.025	0.0003859	120.589	0.0001848	119.927	0.0001579	110.819
	0.007015	22.37	0.0001406	117.976	0.000225	116.986	0.0003718	120.351
	0.396	-74.872	0.001057	102.335	0.000411	114.918	0.00817	24.341
	0.0002043	111.045	0.0002039	117.021	0.000217	115.13	0.001118	101.289
	0.397	-74.02	0.001009	96.716	0.008461	26.876	0.0002306	102.107
	0.0001918	113.053	0.0001563	113.654	0.0004225	116.991	0.0009725	95.564
	0.394	-74.524						
220.85	0.987	-19.571	0.008158	22.108	0.008152	21.808	0.007068	19.044
	0.007083	19.658	0.008236	22.063	0.008477	24.757	0.00814	22.078
	0.366	-76.84	0.001191	96.502	0.0004591	111.469	0.0002195	121.724
	0.0002236	104.831	0.0002309	97.36	0.008217	21.581	0.001254	98.197
	0.374	-76.389	0.001313	100.461	0.000275	109.306	0.0002591	113.138
	0.0002108	112.539	0.007076	19.157	0.0004566	110.256	0.001319	99.762
	0.373	-77.255	0.0004459	117.061	0.000237	119.871	0.0001832	118.957
	0.0071	19.448	0.0001547	111.526	0.0002516	112.128	0.0003867	115.292
	0.371	-77.148	0.001308	101.438	0.0004674	108.899	0.008236	21.871
	0.0002192	108.679	0.0002116	103.639	0.0002427	113.823	0.001315	101.656
	0.372	-76.34	0.001108	93.998	0.008487	24.567	0.0002222	101.65
	0.0002075	121.92	0.0002014	120.13	0.0004772	110.049	0.001095	95.042
	0.37	-76.741						
238.2	0.987	-21.058	0.008238	20.02	0.008264	19.703	0.007144	16.805
	0.007131	17.592	0.008283	19.99	0.008567	23.067	0.008155	19.71
	0.344	-78.823	0.00135	97.303	0.0004945	110.552	0.0001737	112.184
	0.0002208	104.32	0.0002655	104.314	0.008241	19.66	0.001365	99.007
	0.352	-78.364	0.001528	100.729	0.0002569	105.64	0.0002364	99.118
	0.0002125	109.881	0.00711	16.83	0.0005171	109.135	0.001545	99.813
	0.351	-79.223	0.0004562	112.091	0.0002724	118.756	0.0001875	110.662
	0.007127	17.238	0.0001904	124.162	0.0002803	106.113	0.0004627	114.984
	0.349	-79.138	0.001472	101.977	0.0005098	111.91	0.008267	19.919
	0.0002221	109.296	0.0002678	107.537	0.000262	109.391	0.001498	102.258
	0.349	-78.393	0.001208	96.005	0.008527	22.8	0.0002264	104.036
	0.0002405	104.203	0.0001988	110.507	0.0005038	113.307	0.001228	97.723
	0.347	-78.733						
255.55	0.987	-22.558	0.008302	18.079	0.008333	17.694	0.00723	14.585
	0.007207	15.295	0.008356	18.146	0.008599	21.753	0.008227	18.089
	0.324	-80.692	0.001482	98.235	0.0005439	109.652	0.0002162	109.484
	0.0002264	105.941	0.0002561	111.33	0.008302	17.862	0.001487	98.219
	0.332	-80.161	0.001714	99.846	0.000257	109.287	0.0002682	102.933
	0.0002486	106.395	0.007135	14.467	0.0005851	110.62	0.001726	100.346
	0.332	-80.933	0.000505	110.706	0.0002622	111.569	0.0001862	107.107
	0.007193	15.179	0.0001915	111.83	0.0003038	103.53	0.0005167	110.102
	0.33	-80.972	0.001667	101.882	0.0005464	110.131	0.008329	18.189
	0.0002473	110.425	0.000287	112.573	0.0002608	112.026	0.00165	101.674
	0.33	-80.198	0.001346	96.16	0.008557	21.63	0.0002503	102.468
	0.0002128	100.078	0.0002038	113.273	0.000542	110.051	0.00136	96.502
	0.328	-80.506						
272.9	0.987	-24.06	0.008338	16.482	0.008408	15.942	0.007287	12.62
	0.007276	13.304	0.008419	16.492	0.008616	20.3	0.008337	16.981
	0.306	-82.322	0.001613	97.947	0.0005822	106.707	0.0002215	105.399
	0.0002528	99.492	0.0002907	102.807	0.008368	16.124	0.001632	97.713
	0.315	-81.776	0.001891	99.911	0.0002871	112.997	0.0002926	109.708
	0.0002509	106.389	0.007204	12.324	0.0006304	107.344	0.001902	99.614
	0.314	-82.499	0.0005598	111.766	0.0002827	102.336	0.0002224	108.405
	0.007221	13.358	0.0002197	108.317	0.0003283	103.836	0.0005343	107.879
	0.312	-82.573	0.00185	101.444	0.0006033	107.725	0.008401	16.624
	0.000252	104.2	0.0002773	108.53	0.0002922	108.692	0.001857	101.724
	0.312	-81.866	0.001495	95.606	0.008582	20.286	0.0002777	102.049
	0.000261	103.892	0.0002155	107.085	0.0005926	105.731	0.001473	96.249
	0.31	-82.099						
290.25	0.987	-25.587	0.008341	14.871	0.008466	14.205	0.007305	10.485
	0.007304	11.317	0.008461	14.727	0.008612	18.892	0.008364	15.423
	0.29	-83.801	0.001751	96.505	0.0006459	103.822	0.0002384	102.124
	0.0002769	96.839	0.0003212	95.861	0.00843	14.516	0.001759	97.026
	0.299	-83.212	0.00209	99.901	0.0003321	112.066	0.0003097	107.089
	0.0002731	104.444	0.007305	10.565	0.0006581	103.325	0.002091	99.446
	0.298	-83.912	0.0005777	109.376	0.0003157	98.984	0.0002547	105.489
	0.007265	11.628	0.0002573	106.174	0.0003547	105.677	0.0005786	106.147
	0.296	-84.033	0.002034	101.001	0.00066	106.973	0.008442	14.997
	0.0002502	103.046	0.0002974	104.731	0.0003539	106.892	0.00205	101.29
	0.296	-83.42	0.001627	94.956	0.008617	18.942	0.0003134	99.935
	0.0002877	104.086	0.0002223	105.349	0.0006486	105.602	0.001608	96.296
	0.294	-83.557						
307.6	0.988	-27.111	0.00833	13.226	0.008481	12.316	0.00732	8.282
	0.007306	9.318	0.008491	12.863	0.008594	17.615	0.008341	13.451
	0.276	-85.177	0.001892	95.091	0.0007156	103.03	0.0002825	102.786
	0.0002956	100.043	0.0003394	96.681	0.0085	12.843	0.001874	95.953
	0.285	-84.515	0.002293	99.419	0.000372	106.324	0.0003253	96.524
	0.0003165	98.393	0.007375	8.884	0.00069	102.094	0.002282	99.553
	0.284	-85.153	0.0005922	105.24	0.0003457	101.085	0.0002553	100.411
	0.007331	9.71	0.0002721	101.444	0.0003664	108.029	0.0006374	105.471
	0.282	-85.385	0.002215	100.552	0.0006949	105.605	0.008477	13.32
	0.0002622	103.284	0.0003282	104.859	0.0003865	107.483	0.002215	100.206
	0.281	-84.829	0.001742	94.75	0.00865	17.677	0.0003451	98.441
	0.0002856	101.706	0.0002392	106.632	0.0006923	106.632	0.001759	95.422
	0.28	-84.892						
324.95	0.988	-28.581	0.00832	11.841	0.008458	10.475	0.007353	6.531
	0.007311	7.605	0.008506	11.272	0.008586	16.287	0.008375	11.845
	0.263	-86.412	0.002032	95.007	0.0007511	103.743	0.0002996	104.745
	0.0003204	99.987	0.0003734	95.542	0.008561	10.936	0.002016	95.211
	0.271	-85.726	0.002463	99.025	0.0003997	99.846	0.0003413	90.753
	0.0003324	93.573	0.00737	6.924	0.000739	102.101	0.00245	98.183
	0.271	-86.249	0.0006611	104.835	0.0003763	101.585	0.0002353	104.066
	0.007366	7.566	0.0002569	101.948	0.0003595	109.085	0.0006576	107.921
	0.269	-86.568	0.002368	99.784	0.0007249	100.89	0.008542	11.707
	0.0002911	93.347	0.0003143	102.464	0.0003554	103.066	0.002398	99.583
	0.268	-86.071	0.001853	94.976	0.008657	16.326	0.0003605	101.402
	0.0003337	104.183	0.000278	98.445	0.0007195	102.683	0.001879	94.492
	0.267	-86.088						
342.3	0.987	-30.059	0.008291	10.527	0.008429	9.252	0.0073	4.975
	0.007267	5.889	0.008428	10.217	0.008563	14.919	0.00833	10.288
	0.251	-87.515	0.002152	96.224	0.0008372	102.751	0.0002883	99.024
	0.0003257	101.343	0.0003449	96.23	0.008507	9.395	0.002153	95.178
	0.259	-86.787	0.002624	97.64	0.0004322	98.42	0.0003872	99.281
	0.0003686	97.572	0.007357	5.202	0.0007859	100.17	0.002622	97.934
	0.259	-87.277	0.0007192	101.337	0.000378	100.251	0.0002063	114.221
	0.007382	5.852	0.0002364	100.959	0.0003955	104.21	0.0007188	105.124
	0.257	-87.579	0.002524	98.488	0.0008201	98.059	0.008544	9.861
	0.0003295	96.783	0.0003319	96.196	0.0003767	99.339	0.002556	98.979
	0.256	-87.205	0.001938	94.016	0.008642	15.149	0.0004023	97.935
	0.0003255	99.739	0.000274	105.041	0.0007762	99.275	0.001982	95.849
	0.255	-87.144						
359.65	0.988	-31.587	0.008232	9.531	0.008394	8.04	0.007291	3.729
	0.007272	4.599	0.008402	9.056	0.008468	14.364	0.008279	9.033
	0.24	-88.575	0.002269	95.889	0.0008379	101.916	0.0003031	98.786
	0.0003534	97.779	0.0004042	98.084	0.008463	7.648	0.002307	94.911
	0.248	-87.745	0.002786	96.755	0.000436	101.276	0.0003663	101.096
	0.0003242	93.588	0.007275	3.257	0.0008144	102.921	0.002817	98.11
	0.248	-88.183	0.0007873	101.936	0.0004042	100.254	0.0002853	113.664
	0.007315	4.364	0.0002817	105.355	0.0004154	102.006	0.0007455	102.627
	0.246	-88.575	0.002704	98.793	0.0008224	101.269	0.008458	8.51
	0.0003503	99.439	0.0003879	99.634	0.0004425	104.395	0.00273	99.034
	0.245	-88.324	0.002043	94.818	0.008538	14.301	0.0003798	99.503
	0.0003451	92.12	0.0002774	110.453	0.0008092	98.988	0.002036	93.756
	0.244	-88.002						
377	0.989	-33.065	0.008225	8.538	0.008411	7.11	0.007258	2.456
	0.007279	3.358	0.008333	7.921	0.008397	13.743	0.008201	7.887
	0.23	-89.532	0.002388	94.606	0.0008693	100.004	0.0003193	101.191
	0.0003666	99.224	0.0004266	98.746	0.00842	6.635	0.002407	94.368
	0.238	-88.645	0.002945	97.047	0.0004217	101.663	0.0004192	102.866
	0.0003607	94.437	0.007246	1.941	0.0008908	100.52	0.002962	96.938
	0.238	-89.005	0.000798	101.539	0.0004204	98.294	0.0003276	112.486
	0.007249	2.751	0.0002689	107.245	0.0004442	104.008	0.0007749	103.216
	0.236	-89.539	0.002869	98.027	0.0008336	100.836	0.008381	7.389
	0.0003389	98.737	0.0004036	102.534	0.0004554	96.416	0.002898	98.35
	0.236	-89.34	0.002136	94.295	0.008385	13.334	0.0003954	95.614
	0.0003297	97.031	0.0003092	112.647	0.0008438	100.25	0.002125	94.471
	0.234	-88.898						
394.35	0.989	-34.553	0.008219	7.623	0.00843	6.051	0.007222	1.181
	0.007271	2.016	0.008353	6.867	0.008349	13.24	0.008143	7.433
	0.221	-90.409	0.00251	93.532	0.0008988	99.368	0.0003325	100.612
	0.000377	98.02	0.0004616	101.101	0.00836	5.837	0.0025	93.97
	0.229	-89.467	0.00314	96.774	0.0005026	102.861	0.0004117	103.353
	0.0003904	95.837	0.007219	0.681	0.000924	98.097	0.003157	96.694
	0.229	-89.83	0.0008181	101.479	0.0004512	99.61	0.0003306	106.072
	0.00718	1.506	0.0003077	102.171	0.0004869	102.903	0.0008253	102.747
	0.228	-90.378	0.003036	97.355	0.0008998	100.488	0.008312	6.668
	0.0003832	99.683	0.0004337	99.531	0.0004713	99.262	0.003037	98.067
	0.227	-90.276	0.002298	94.697	0.008316	13.187	0.0004047	99.257
	0.0003563	97.443	0.0003177	102.937	0.0008807	99.855	0.002306	94.749
	0.225	-89.722						
411.7	0.989	-36.062	0.00818	6.765	0.008405	5.154	0.007183	-0.108
	0.007229	0.648	0.008352	5.972	0.008308	12.737	0.008104	6.924
	0.213	-91.242	0.002657	93.645	0.0009572	98.928	0.0003444	96.44
	0.000385	97.148	0.000494	101.386	0.008327	5.253	0.00265	94.239
	0.221	-90.181	0.003314	96.308	0.0005619	103.071	0.0004246	100.273
	0.0004225	96.601	0.007143	-0.036	0.0009512	97.207	0.003329	96.419
	0.22	-90.554	0.0008578	102.088	0.0004932	100.262	0.0003459	100.883
	0.007141	0.537	0.0003553	100.907	0.0005243	100.917	0.0008798	101.041
	0.219	-91.116	0.003233	97.279	0.0009772	100.607	0.008265	6.082
	0.0004126	100.784	0.000471	96.916	0.00048	101.435	0.003209	97.594
	0.218	-91.135	0.002419	94.471	0.008284	12.948	0.000443	99.192
	0.000377	98.886	0.000327	95.382	0.000965	100	0.002447	94.477
	0.216	-90.486						
429.05	0.989	-37.569	0.008139	5.888	0.008372	4.297	0.007164	-1.648
	0.007177	-0.548	0.008323	5.185	0.008239	12.198	0.008099	6.212
