!Hittite Microwave Corporation								
!12 Elizabeth Drive								
!Chelmsford, MA 01824								
!Tel: 978-250-3343								
!Fax: 978-250-3373								
!Device: HMC283, 17-40 GHz Medium Power GaAs MMIC Amplifier								
!Misc: Vdd=+3.5V, Data includes (two) K connectors, Room								
!
# MHZ S MA R 50

10 0.32 159.772 0.04 86.747 0.019 12.447 0.984 -2.028
209.95 0.278 172.904 4.229e-3 -83.796 456.1e-6 -61.223 0.985 -11.873
409.9 0.284 166.402 8.687e-3 -120.171 284e-6 161.682 0.986 -23.021
609.85 0.288 159.029 0.013 -149.697 89.37e-6 139.226 0.983 -34.568
809.8 0.293 151.054 0.016 -173.121 263.6e-6 105.394 0.984 -45.621
1009.75 0.295 143.298 0.019 166.003 60.9e-6 80.919 0.98 -57.214
1209.7 0.298 135.862 0.023 144.594 249.1e-6 26.317 0.975 -68.483
1409.65 0.3 128.28 0.027 123.258 200.2e-6 56.322 0.967 -80.214
1609.6 0.301 120.715 0.031 102.033 50.41e-6 -49.955 0.963 -91.6
1809.55 0.302 113.416 0.035 80.107 342.3e-6 -83.447 0.952 -103.349
2009.5 0.302 106.04 0.039 56.622 65.39e-6 137.56 0.945 -114.964
2209.45 0.302 98.973 0.043 33.765 491e-6 170.887 0.93 -126.133
2409.4 0.303 91.649 0.045 10.884 260.3e-6 71.708 0.918 -137.314
2609.35 0.302 84.808 0.049 -9.418 568e-6 139.21 0.904 -147.987
2809.3 0.302 77.971 0.053 -32.003 658.9e-6 114.816 0.893 -158.805
3009.25 0.301 71.081 0.057 -54.734 822.1e-6 95.763 0.885 -169.092
3209.2 0.301 64.407 0.061 -75.779 868.4e-6 59.938 0.873 -179.581
3409.15 0.299 57.809 0.065 -96.057 585.2e-6 62.081 0.864 170.4
3609.1 0.296 51.201 0.069 -116.149 1.049e-3 47.593 0.849 160.284
3809.05 0.292 44.293 0.073 -134.613 860e-6 33.743 0.842 150.452
4009 0.286 37.548 0.078 -152.752 1.003e-3 36.048 0.837 140.579
4208.95 0.282 30.356 0.083 -169.497 1.079e-3 17.296 0.827 131.481
4408.9 0.278 23.274 0.089 174.613 932.8e-6 -0.651 0.816 122.364
4608.85 0.274 16.037 0.096 159.705 1.405e-3 -10.033 0.81 113.582
4808.8 0.268 8.742 0.103 145.684 1.458e-3 -10.786 0.798 104.557
5008.75 0.261 1.445 0.111 132.515 1.396e-3 -20.188 0.792 96.008
5208.7 0.254 -6.003 0.122 119.939 1.49e-3 -27.065 0.784 87.249
5408.65 0.247 -13.664 0.133 107.901 1.651e-3 -38.961 0.779 78.565
5608.6 0.24 -21.464 0.146 96.453 1.704e-3 -46.037 0.768 70.18
5808.55 0.233 -29.451 0.161 85.371 1.78e-3 -60.13 0.757 61.436
6008.5 0.225 -37.584 0.179 74.394 1.704e-3 -67.685 0.747 52.608
6208.45 0.218 -46.156 0.2 63.876 1.922e-3 -71.317 0.735 44.157
6408.4 0.211 -54.598 0.225 53.236 2.107e-3 -83.678 0.724 35.629
6608.35 0.206 -63.232 0.255 42.911 2.117e-3 -96.08 0.712 26.969
6808.3 0.2 -72.056 0.289 32.445 1.948e-3 -100.485 0.698 18.205
7008.25 0.197 -80.974 0.329 21.801 1.804e-3 -109.177 0.685 9.07
7208.2 0.193 -89.622 0.376 10.95 2.017e-3 -116.751 0.671 0.217
7408.15 0.19 -98.386 0.429 -0.116 2.153e-3 -128.772 0.659 -8.974
7608.1 0.188 -107.263 0.492 -11.325 2.051e-3 -138.192 0.644 -18.152
7808.05 0.187 -115.585 0.561 -22.763 2.031e-3 -138.525 0.633 -27.39
8008 0.185 -124.372 0.639 -34.294 2.027e-3 -149.656 0.62 -36.853
8207.95 0.186 -132.494 0.728 -46.32 2.116e-3 -163.527 0.604 -46.344
8407.9 0.186 -140.237 0.831 -58.539 1.812e-3 -172.982 0.593 -55.93
8607.85 0.189 -147.628 0.942 -70.725 1.83e-3 -165.695 0.582 -65.058
8807.8 0.19 -154.858 1.069 -83.182 1.824e-3 -173.319 0.568 -74.78
9007.75 0.193 -161.811 1.201 -95.64 1.712e-3 173.813 0.558 -84.368
9207.7 0.195 -168.19 1.349 -108.447 1.796e-3 172.449 0.549 -93.629
9407.65 0.197 -174.045 1.505 -121.169 1.861e-3 171.584 0.541 -102.906
9607.6 0.2 179.663 1.679 -134.268 1.862e-3 162.577 0.531 -112.143
9807.55 0.204 174.248 1.86 -147.702 1.959e-3 153.315 0.526 -121.72
10007.5 0.206 168.623 2.057 -160.555 1.811e-3 146.875 0.521 -129.91
10207.45 0.21 163.713 2.269 -173.803 1.814e-3 136.197 0.515 -138.328
10407.4 0.21 158.471 2.49 173.064 1.647e-3 126.081 0.513 -146.579
10607.35 0.214 153.574 2.721 159.948 1.764e-3 128.435 0.508 -154.151
10807.3 0.214 148.526 2.974 146.844 1.977e-3 125.135 0.502 -161.812
11007.25 0.215 144.001 3.236 133.641 1.992e-3 123.116 0.495 -169.675
11207.2 0.215 139.452 3.516 120.358 1.76e-3 120.824 0.492 -177.19
11407.15 0.214 135.15 3.806 107.044 1.872e-3 111.147 0.49 175.821
11607.1 0.212 130.576 4.117 93.803 1.942e-3 103.521 0.485 169.302
11807.05 0.211 126.17 4.445 80.505 2.219e-3 97.247 0.48 162.785
12007 0.208 121.488 4.791 67.191 2.037e-3 91.845 0.473 156.678
12206.95 0.207 117.008 5.153 54.092 2.027e-3 85.519 0.467 150.635
12406.9 0.203 112.253 5.513 40.684 1.955e-3 82.439 0.459 144.74
12606.85 0.201 108.024 5.917 27.177 1.742e-3 80.614 0.452 139.315
12806.8 0.196 103.643 6.361 13.85 1.893e-3 73.434 0.444 133.883
13006.75 0.191 99.17 6.801 0.346 2.083e-3 68.017 0.437 128.693
13206.7 0.184 94.514 7.263 -13.378 2.085e-3 64.521 0.428 123.664
13406.65 0.178 89.516 7.72 -27.133 1.886e-3 53.278 0.42 118.67
13606.6 0.171 84.569 8.195 -40.8 1.983e-3 49.616 0.412 113.515
13806.55 0.165 79.534 8.666 -54.572 2.209e-3 46.472 0.405 108.393
14006.5 0.158 74.494 9.144 -68.626 2.176e-3 40.53 0.398 103.245
14206.45 0.15 68.957 9.601 -82.817 2.19e-3 34.428 0.391 98.071
14406.4 0.139 62.73 10.075 -97.086 2.186e-3 26.69 0.383 92.964
14606.35 0.13 56.412 10.505 -111.378 2.224e-3 18.106 0.375 87.24
14806.3 0.119 49.015 10.91 -125.578 2.169e-3 13.114 0.367 81.065
15006.25 0.11 39.223 11.289 -139.903 2.229e-3 6.743 0.36 74.421
15206.2 0.104 29.307 11.602 -154.342 2.344e-3 -0.906 0.355 67.904
15406.15 0.096 19.233 11.898 -168.674 2.366e-3 -6.564 0.346 60.739
15606.1 0.088 6.852 12.183 177.086 2.375e-3 -15.853 0.338 52.964
15806.05 0.085 -7.541 12.379 162.828 2.381e-3 -23.427 0.329 45.046
16006 0.081 -22.92 12.541 148.72 2.339e-3 -26.028 0.318 36.288
16205.95 0.082 -42.058 12.632 134.882 2.3e-3 -29.889 0.31 26.724
16405.9 0.091 -59.168 12.636 121.069 2.273e-3 -37.809 0.302 17.126
16605.85 0.102 -72.53 12.648 107.389 2.223e-3 -43.409 0.293 7.174
16805.8 0.113 -83.511 12.635 93.989 2.327e-3 -49.74 0.285 -3.332
17005.75 0.127 -93.832 12.625 80.681 2.437e-3 -55.982 0.28 -14.137
17205.7 0.139 -102.723 12.56 67.753 2.276e-3 -61.272 0.275 -24.849
17405.65 0.151 -111.233 12.477 55.024 2.245e-3 -67.459 0.271 -35.681
17605.6 0.163 -120.222 12.379 42.354 2.198e-3 -75.827 0.267 -46.662
17805.55 0.178 -127.89 12.263 29.685 2.189e-3 -85.54 0.266 -58.202
18005.5 0.192 -135.381 12.153 17.462 2.165e-3 -89.414 0.27 -69.448
18205.45 0.205 -142.393 12.04 5.504 2.09e-3 -91.433 0.276 -79.761
18405.4 0.221 -148.479 11.9 -6.456 2.054e-3 -97.906 0.282 -89.601
18605.35 0.235 -154.078 11.756 -18.238 2.053e-3 -104.575 0.291 -99.323
18805.3 0.246 -159.075 11.634 -29.856 2.048e-3 -109.886 0.3 -107.61
19005.25 0.252 -164.434 11.527 -41.323 1.863e-3 -113.561 0.307 -115.691
19205.2 0.26 -170.349 11.446 -52.607 1.93e-3 -119.784 0.313 -123.368
19405.15 0.269 -175.374 11.355 -63.733 2.046e-3 -127.475 0.32 -131.244
19605.1 0.274 179.42 11.294 -74.928 1.93e-3 -128.012 0.327 -137.91
19805.05 0.282 173.827 11.249 -85.972 1.854e-3 -135.392 0.33 -146.196
20005 0.292 170.623 11.133 -96.954 1.885e-3 -146.424 0.348 -153.174
20204.95 0.283 167.213 11.111 -107.882 1.704e-3 -158.689 0.354 -156.736
20404.9 0.275 160.046 11.123 -118.705 1.48e-3 -160.276 0.35 -162.606
20604.85 0.284 152.844 11.055 -129.657 1.616e-3 -153.259 0.349 -168.62
20804.8 0.297 148.799 10.99 -140.534 1.641e-3 -149.384 0.354 -175.143
21004.75 0.3 146.928 10.989 -151.124 1.685e-3 -150.786 0.36 -179.607
21204.7 0.291 143.209 10.986 -162.008 2.023e-3 -163.147 0.354 175.091
21404.65 0.282 138.99 11.022 -172.86 1.913e-3 -167.549 0.356 169.245
21604.6 0.275 133.198 11.146 176.44 1.9e-3 178.646 0.356 164.498
21804.55 0.27 127.636 11.235 165.845 2.087e-3 176.41 0.356 159.673
22004.5 0.266 122.19 11.284 155.185 1.801e-3 175.428 0.351 155.239
22204.45 0.261 116.224 11.308 144.281 1.706e-3 166.323 0.348 149.873
22404.4 0.258 111.019 11.337 133.485 1.972e-3 153.956 0.348 145.138
22604.35 0.257 106.877 11.399 122.737 2.054e-3 144.034 0.345 140.671
22804.3 0.248 103.333 11.521 112.208 2.003e-3 138.604 0.342 136.339
23004.25 0.238 98.416 11.574 101.214 1.965e-3 139.846 0.337 131.533
23204.2 0.229 93.067 11.669 90.096 1.939e-3 141.245 0.333 126.307
23404.15 0.218 87.601 11.833 78.876 1.984e-3 143.931 0.33 120.968
23604.1 0.211 82.105 11.914 67.648 2.139e-3 134.403 0.328 115.986
23804.05 0.201 76.084 12.019 56.566 1.977e-3 122.73 0.327 110.37
24004 0.192 70.634 12.037 45.435 2.026e-3 118.595 0.326 105.354
24203.95 0.185 63.093 12.03 34.54 1.745e-3 116.256 0.323 99.813
24403.9 0.178 58.138 12.002 23.411 1.754e-3 109.802 0.322 94.121
24603.85 0.174 52.106 11.953 12.276 2.391e-3 105.791 0.321 87.903
24803.8 0.163 46.415 11.917 1.19 2.136e-3 105.758 0.322 81.952
25003.75 0.161 42.461 11.831 -9.56 1.843e-3 98.66 0.321 75.568
25203.7 0.153 36.604 11.754 -20.523 1.895e-3 95.245 0.326 68.836
25403.65 0.148 33.824 11.769 -30.204 1.849e-3 83.178 0.329 62.26
25603.6 0.153 28.027 11.863 -40.005 2.082e-3 70.029 0.332 55.175
25803.55 0.152 24.881 12.04 -49.564 2.189e-3 61.872 0.339 48.326
26003.5 0.173 19.4 12.523 -59.214 2.337e-3 59.959 0.348 41.475
26203.45 0.176 13.8 12.881 -69.888 2.397e-3 56.853 0.351 35.638
26403.4 0.201 6.919 13.584 -81.983 2.681e-3 53.247 0.355 27.749
26603.35 0.209 -1.254 13.762 -94.554 2.198e-3 42.144 0.364 19.938
26803.3 0.225 -6.483 14.159 -107.203 2.38e-3 28.41 0.372 12.226
27003.25 0.237 -15.236 14.17 -120.798 2.489e-3 31.168 0.381 4.924
27203.2 0.237 -20.497 14.083 -133.398 2.096e-3 31.729 0.392 -2.855
27403.15 0.25 -28.961 13.887 -146.806 2.092e-3 23.274 0.406 -9.596
27603.1 0.255 -34.351 13.611 -158.548 2.035e-3 18.496 0.416 -15.71
27803.05 0.261 -40.174 13.281 -170.83 1.86e-3 10.463 0.423 -22.956
28003 0.27 -46.329 12.919 177.89 1.948e-3 -6.078 0.435 -29.795
28202.95 0.275 -49.864 12.636 166.86 2.057e-3 -2.56 0.445 -37.406
28402.9 0.287 -54.739 12.326 155.289 2.127e-3 -11.316 0.459 -44.443
28602.85 0.293 -58.517 12.055 144.553 1.992e-3 -22.347 0.472 -50.766
28802.8 0.301 -63.638 11.851 133.403 1.707e-3 -23.029 0.482 -57.955
29002.75 0.313 -69.49 11.624 122.265 1.861e-3 -40.236 0.496 -64.129
29202.7 0.331 -74.264 11.422 111.111 2.176e-3 -42.36 0.503 -69.994
29402.65 0.345 -77.807 11.227 99.982 1.953e-3 -49.316 0.515 -76.458
29602.6 0.346 -82.226 11.079 89.352 2.052e-3 -54.117 0.525 -82.214
29802.55 0.357 -87.391 10.784 78.731 2.012e-3 -49.506 0.532 -88.267
30002.5 0.368 -92.476 10.641 68.219 1.841e-3 -58.516 0.544 -93.322
30202.45 0.379 -97.108 10.403 57.627 1.389e-3 -63.557 0.548 -99.259
30402.4 0.386 -101.282 10.232 47.45 1.235e-3 -68.973 0.554 -104.816
30602.35 0.395 -106.175 10.148 36.604 1.605e-3 -79.368 0.559 -109.727
30802.3 0.399 -111.038 9.931 26.331 1.507e-3 -89.674 0.553 -115.282
31002.25 0.409 -115.528 9.857 16.004 1.288e-3 -103.735 0.554 -120.331
31202.2 0.404 -119.281 9.736 6.262 1.422e-3 -101.815 0.552 -125.664
31402.15 0.408 -124.531 9.626 -4.029 1.283e-3 -120.307 0.554 -131.345
31602.1 0.409 -128.504 9.535 -14.191 1.02e-3 -125.596 0.55 -136.344
31802.05 0.402 -133.673 9.411 -24.37 1.353e-3 -132.46 0.544 -141.97
32002 0.402 -139.774 9.324 -34.477 1.175e-3 -122.267 0.536 -147.775
32201.95 0.404 -144.044 9.229 -44.804 1.26e-3 -125.381 0.533 -153.836
32401.9 0.397 -149.885 9.163 -54.901 1.186e-3 -148.89 0.527 -159.71
32601.85 0.408 -154.231 9.027 -65.238 1.118e-3 -149.466 0.525 -166.105
32801.8 0.392 -157.378 8.984 -75.441 931e-6 -160.884 0.523 -171.444
33001.75 0.382 -163.826 8.925 -85.981 1.063e-3 -149.81 0.509 -177.696
33201.7 0.379 -169.543 8.872 -96.486 1.025e-3 171.106 0.511 176.077
33401.65 0.381 -174.114 8.81 -107.261 957.5e-6 162.851 0.502 170.456
33601.6 0.362 -178.442 8.749 -117.119 1.222e-3 165.467 0.493 163.404
33801.55 0.363 175.268 8.673 -127.547 1.315e-3 151.545 0.499 157.159
34001.5 0.348 171.012 8.609 -138.107 816.2e-6 143.934 0.489 151.908
34201.45 0.349 163.794 8.615 -148.141 1.009e-3 133.941 0.489 145.143
34401.4 0.337 160.664 8.593 -158.821 1.362e-3 115.005 0.488 140.838
34601.35 0.325 153.188 8.537 -169.243 803.5e-6 123.74 0.462 135.126
34801.3 0.322 148.854 8.485 -179.278 595.4e-6 68.338 0.46 127.162
35001.25 0.315 143.168 8.443 170.001 1.065e-3 45.505 0.456 121.685
35201.2 0.298 138.32 8.368 159.603 597.9e-6 66.322 0.445 115.244
35401.15 0.298 131.191 8.427 149.329 396.6e-6 47.841 0.434 108.125
35601.1 0.286 126.632 8.323 138.499 742.2e-6 33.501 0.428 100.673
35801.05 0.276 118.312 8.335 128.153 758.6e-6 30.208 0.422 94.214
36001 0.272 112.796 8.269 117.351 788.8e-6 3.602 0.413 86.292
36200.95 0.268 105.455 8.223 106.934 1.435e-3 -5.019 0.408 79.505
36400.9 0.26 98.582 8.19 96.219 972.2e-6 -6.551 0.398 72.06
36600.85 0.268 90.92 8.223 85.446 1.095e-3 -19.758 0.395 63.612
36800.8 0.258 85.829 8.142 74.719 1.72e-3 -23.68 0.395 55.501
37000.75 0.267 75.093 8.163 64.146 1.434e-3 -46.917 0.396 47.926
37200.7 0.282 71.588 8.071 53.059 1.639e-3 -50.767 0.401 40.47
37400.65 0.276 66.069 8.036 42.477 1.615e-3 -56.917 0.397 34.559
37600.6 0.272 59.281 8.055 31.566 1.784e-3 -70.403 0.397 27.164
37800.55 0.281 50.829 7.988 20.562 1.825e-3 -85.652 0.396 23.397
38000.5 0.279 44.312 7.961 9.203 1.982e-3 -86.712 0.373 14.175
38200.45 0.296 35.769 7.905 -1.541 2.46e-3 -92.804 0.391 7.484
38400.4 0.3 32.684 7.928 -12.525 2.252e-3 -109.317 0.377 4.113
38600.35 0.3 24.787 7.886 -24.038 2.575e-3 -113.975 0.361 -4.083
38800.3 0.31 18.808 7.802 -34.974 2.698e-3 -122.501 0.359 -9.273
39000.25 0.311 14.56 7.767 -46.539 3.054e-3 -131.532 0.337 -13.757
39200.2 0.313 7.733 7.702 -57.134 3.055e-3 -139.536 0.312 -24.753
39400.15 0.331 3.954 7.674 -68.798 2.819e-3 -142.323 0.317 -30.687
39600.1 0.288 -4.494 7.536 -80.326 3.084e-3 -149.865 0.284 -36.3
39800.05 0.345 -16.681 7.543 -92.56 3.08e-3 -159.742 0.283 -47.144
40000 0.403 -28.719 7.546 -104.737 3.07e-3 -169.577 0.282 -57.683
