!Hittite Microwave Corporation								
!12 Elizabeth Drive								
!Chelmsford, MA 01824								
!Tel: 978-250-3343								
!Fax: 978-250-3373								
!Device: HMC284MS8G, DC-3.5 GHz SPDT Non-Reflective Switch in 8-lead Grounded Base MSOP Package								
!Misc: Room Temp, Port1=RFC, Port2=RF1, Port3=RF2, RF1 ON, Vdc=+5V 								
!	
# MHZ S MA R 50

30 0.02 14.269 0.955 -0.77 1.789e-3 33.916
          0.955 -0.781 0.029 6.896 1.635e-3 32.847
          1.769e-3 34.823 1.621e-3 32.478 0.97 -11.446
49.85 0.044 -53.58 0.939 1.676 2.455e-3 40.357
          0.94 1.666 0.05 -46.06 2.168e-3 44.064
          2.444e-3 40.757 2.136e-3 43.649 0.934 -18.328
69.7 0.023 -18.772 0.95 0.042 3.081e-3 44.708
          0.951 0.036 0.031 -15.156 2.787e-3 49.038
          3.07e-3 44.839 2.759e-3 48.119 0.894 -24.783
89.55 0.021 13.162 0.95 -0.61 3.664e-3 44.13
          0.951 -0.629 0.029 8.658 3.504e-3 47.729
          3.642e-3 43.911 3.506e-3 46.158 0.849 -30.77
109.4 0.021 4.777 0.949 -0.35 4.199e-3 44.745
          0.95 -0.339 0.029 3.291 3.979e-3 48.276
          4.236e-3 44.569 3.976e-3 47.88 0.799 -35.906
129.25 0.022 13.214 0.949 -0.466 4.699e-3 44.01
          0.95 -0.441 0.029 9.877 4.432e-3 47.755
          4.755e-3 43.933 4.423e-3 48.024 0.751 -40.63
149.1 0.023 19.134 0.949 -0.521 5.16e-3 41.366
          0.95 -0.51 0.03 14.406 4.873e-3 45.728
          5.178e-3 41.304 4.859e-3 46.017 0.703 -44.881
168.95 0.023 18.191 0.95 -0.459 5.579e-3 39.915
          0.951 -0.43 0.03 14.341 5.268e-3 43.921
          5.602e-3 39.57 5.266e-3 44.078 0.659 -48.449
188.8 0.024 20.297 0.95 -0.499 5.937e-3 37.757
          0.951 -0.486 0.031 16.701 5.597e-3 42.354
          5.962e-3 37.507 5.598e-3 42.631 0.616 -51.712
208.65 0.025 21.055 0.951 -0.535 6.212e-3 34.363
          0.951 -0.587 0.031 18.053 5.829e-3 41.096
          6.226e-3 34.827 5.819e-3 41.899 0.578 -54.6
228.5 0.026 20.777 0.949 -0.546 6.374e-3 32.779
          0.949 -0.589 0.032 17.981 6.057e-3 39.765
          6.395e-3 33.124 6.067e-3 40.518 0.543 -57.101
248.35 0.026 21.981 0.948 -0.564 6.515e-3 31.279
          0.949 -0.603 0.033 19.147 6.229e-3 38.274
          6.553e-3 31.491 6.261e-3 38.796 0.51 -59.414
268.2 0.027 22.971 0.948 -0.516 6.647e-3 29.506
          0.949 -0.582 0.033 20.395 6.301e-3 36.489
          6.714e-3 29.769 6.354e-3 36.597 0.48 -61.48
288.05 0.028 22.803 0.948 -0.459 6.73e-3 28.688
          0.948 -0.546 0.034 20.798 6.341e-3 36.34
          6.802e-3 28.467 6.378e-3 35.937 0.453 -63.247
307.9 0.029 23.159 0.949 -0.448 6.818e-3 27.872
          0.948 -0.548 0.035 21.63 6.403e-3 36.423
          6.869e-3 27.391 6.405e-3 35.758 0.428 -64.882
327.75 0.03 23.27 0.95 -0.485 6.937e-3 26.681
          0.95 -0.585 0.036 22.259 6.525e-3 36.34
          6.921e-3 26.627 6.468e-3 35.987 0.405 -66.348
347.6 0.031 22.961 0.95 -0.572 6.968e-3 25.328
          0.95 -0.629 0.037 22.266 6.565e-3 35.815
          6.982e-3 25.74 6.551e-3 35.661 0.385 -67.672
367.45 0.032 22.867 0.95 -0.643 6.964e-3 24.235
          0.95 -0.672 0.037 22.5 6.573e-3 35.468
          7.019e-3 24.845 6.621e-3 35.422 0.365 -68.911
387.3 0.033 22.463 0.948 -0.611 6.922e-3 23.915
          0.948 -0.673 0.038 22.763 6.55e-3 35.858
          6.992e-3 24.017 6.644e-3 35.76 0.347 -70.014
407.15 0.034 22.006 0.948 -0.557 6.927e-3 23.866
          0.948 -0.627 0.039 22.881 6.587e-3 36.272
          7.021e-3 23.653 6.681e-3 35.899 0.331 -70.955
427 0.035 21.714 0.948 -0.525 6.971e-3 23.771
          0.948 -0.594 0.039 23.108 6.641e-3 36.592
          7.061e-3 23.32 6.706e-3 35.985 0.315 -71.833
446.85 0.036 21.253 0.949 -0.557 7.088e-3 23.291
          0.949 -0.618 0.04 23.189 6.69e-3 36.607
          7.081e-3 22.644 6.68e-3 36.099 0.301 -72.676
466.7 0.037 20.883 0.949 -0.584 7.119e-3 22.497
          0.949 -0.639 0.041 23.283 6.711e-3 36.707
          7.072e-3 22.291 6.687e-3 36.285 0.288 -73.401
486.55 0.038 20.627 0.95 -0.62 7.101e-3 21.747
          0.95 -0.666 0.042 23.451 6.716e-3 36.831
          7.053e-3 22.003 6.704e-3 36.538 0.275 -74.066
506.4 0.039 20.022 0.949 -0.673 7.018e-3 21.63
          0.949 -0.699 0.043 23.33 6.694e-3 36.925
          7.042e-3 21.503 6.716e-3 36.941 0.264 -74.66
526.25 0.04 19.496 0.948 -0.647 6.987e-3 21.345
          0.948 -0.708 0.043 23.433 6.71e-3 37.571
          7.033e-3 21.103 6.709e-3 37.207 0.253 -75.208
546.1 0.041 19.052 0.948 -0.594 6.978e-3 21.051
          0.948 -0.706 0.044 23.649 6.733e-3 38.343
          7.01e-3 20.734 6.697e-3 37.459 0.242 -75.716
565.95 0.042 18.292 0.948 -0.571 6.95e-3 21.098
          0.949 -0.696 0.045 23.495 6.707e-3 38.514
          6.916e-3 20.302 6.699e-3 37.956 0.233 -76.107
585.8 0.043 17.618 0.949 -0.599 6.952e-3 21.015
          0.949 -0.695 0.046 23.392 6.693e-3 39.034
          6.909e-3 20.339 6.717e-3 38.774 0.223 -76.451
605.65 0.043 17.061 0.949 -0.655 6.961e-3 20.855
          0.948 -0.706 0.046 23.349 6.688e-3 39.747
          6.936e-3 20.564 6.734e-3 39.701 0.214 -76.768
625.5 0.044 16.455 0.949 -0.7 6.911e-3 20.643
          0.948 -0.764 0.047 23.138 6.701e-3 40.503
          6.881e-3 20.36 6.68e-3 40.205 0.206 -77.082
645.35 0.045 15.793 0.948 -0.71 6.861e-3 20.459
          0.948 -0.784 0.048 23.051 6.674e-3 41.335
          6.858e-3 20.182 6.665e-3 41.113 0.199 -77.358
665.2 0.046 15.121 0.949 -0.7 6.811e-3 20.325
          0.949 -0.779 0.049 23.034 6.628e-3 42.197
          6.847e-3 20.026 6.669e-3 42.204 0.191 -77.599
685.05 0.047 14.314 0.949 -0.695 6.753e-3 20.52
          0.949 -0.768 0.049 22.668 6.65e-3 42.911
          6.758e-3 19.914 6.636e-3 42.586 0.184 -77.772
704.9 0.048 13.473 0.948 -0.706 6.71e-3 20.639
          0.949 -0.741 0.05 22.498 6.632e-3 43.622
          6.713e-3 20.181 6.638e-3 43.381 0.177 -77.867
724.75 0.049 12.657 0.947 -0.725 6.679e-3 20.691
          0.949 -0.712 0.051 22.483 6.589e-3 44.331
          6.699e-3 20.699 6.662e-3 44.44 0.17 -77.907
744.6 0.049 12.118 0.948 -0.687 6.656e-3 20.517
          0.949 -0.799 0.051 22.463 6.623e-3 45.079
          6.637e-3 20.745 6.623e-3 44.807 0.164 -77.977
764.45 0.05 11.453 0.949 -0.711 6.602e-3 20.485
          0.95 -0.867 0.052 22.498 6.618e-3 45.818
          6.589e-3 20.771 6.613e-3 45.622 0.158 -78.005
784.3 0.051 10.705 0.949 -0.79 6.521e-3 20.574
          0.95 -0.92 0.053 22.593 6.581e-3 46.552
          6.552e-3 20.776 6.627e-3 46.811 0.152 -77.992
804.15 0.052 9.885 0.948 -0.846 6.446e-3 20.407
          0.949 -0.97 0.053 22.296 6.525e-3 47.481
          6.491e-3 20.603 6.6e-3 47.232 0.146 -77.944
824 0.053 9.102 0.947 -0.849 6.37e-3 20.631
          0.947 -0.943 0.054 21.97 6.477e-3 48.672
          6.405e-3 20.587 6.549e-3 48.158 0.141 -77.833
843.85 0.054 8.343 0.945 -0.798 6.292e-3 21.248
          0.945 -0.84 0.055 21.607 6.436e-3 50.125
          6.292e-3 20.731 6.474e-3 49.591 0.136 -77.653
863.7 0.055 7.574 0.947 -0.666 6.298e-3 21.573
          0.947 -0.797 0.055 21.214 6.52e-3 51.009
          6.233e-3 21.135 6.451e-3 50.518 0.131 -77.451
883.55 0.055 6.977 0.949 -0.659 6.273e-3 21.541
          0.949 -0.797 0.056 21.023 6.541e-3 51.651
          6.182e-3 21.377 6.453e-3 51.512 0.127 -77.206
903.4 0.056 6.574 0.951 -0.8 6.211e-3 21.101
          0.952 -0.845 0.056 21.076 6.486e-3 52.025
          6.138e-3 21.425 6.481e-3 52.595 0.122 -76.92
923.25 0.057 5.677 0.95 -0.929 6.071e-3 21.217
          0.951 -0.969 0.057 20.736 6.363e-3 53.126
          6.082e-3 21.231 6.413e-3 53.431 0.118 -76.465
943.1 0.058 4.89 0.948 -0.988 5.97e-3 21.636
          0.949 -1.05 0.058 20.535 6.313e-3 54.694
          6.005e-3 21.209 6.365e-3 54.687 0.113 -76.03
962.95 0.058 4.261 0.945 -0.949 5.928e-3 22.424
          0.945 -1.064 0.058 20.521 6.365e-3 56.838
          5.9e-3 21.44 6.35e-3 56.535 0.109 -75.637
982.8 0.059 3.368 0.946 -0.792 5.862e-3 22.576
          0.946 -0.972 0.059 19.954 6.387e-3 57.986
          5.869e-3 21.817 6.339e-3 57.477 0.104 -75.133
1002.65 0.06 2.565 0.947 -0.698 5.792e-3 22.502
          0.947 -0.85 0.059 19.451 6.404e-3 58.95
          5.807e-3 22.313 6.326e-3 58.553 0.1 -74.57
1022.5 0.06 1.921 0.949 -0.723 5.72e-3 22.175
          0.949 -0.697 0.059 19.125 6.418e-3 59.79
          5.682e-3 22.971 6.311e-3 59.995 0.097 -73.944
1042.35 0.06 1.379 0.95 -0.817 5.643e-3 22.699
          0.95 -0.796 0.06 18.837 6.386e-3 61.311
          5.594e-3 23.22 6.364e-3 61.445 0.093 -73.181
1062.2 0.061 0.815 0.95 -0.923 5.551e-3 23.38
          0.95 -0.921 0.061 18.556 6.355e-3 62.683
          5.514e-3 23.583 6.408e-3 62.804 0.09 -72.337
1082.05 0.062 0.136 0.948 -1.03 5.432e-3 24.111
          0.949 -1.021 0.061 18.237 6.34e-3 63.576
          5.442e-3 24.282 6.417e-3 63.99 0.087 -71.4
1101.9 0.062 -0.522 0.947 -1.024 5.364e-3 24.625
          0.948 -1.057 0.062 17.957 6.337e-3 65.048
          5.358e-3 24.23 6.395e-3 65.195 0.083 -70.292
1121.75 0.063 -1.191 0.947 -0.98 5.302e-3 25
          0.947 -1.038 0.062 17.588 6.35e-3 66.704
          5.28e-3 24.393 6.366e-3 66.537 0.08 -69.166
1141.6 0.064 -1.901 0.948 -0.905 5.232e-3 25.167
          0.946 -0.923 0.063 16.991 6.389e-3 68.508
          5.219e-3 25.379 6.337e-3 68.177 0.076 -68.106
1161.45 0.064 -2.717 0.947 -0.883 5.151e-3 25.628
          0.947 -0.893 0.063 16.515 6.413e-3 69.712
          5.134e-3 25.769 6.346e-3 69.612 0.073 -67.007
1181.3 0.064 -3.501 0.948 -0.873 5.053e-3 25.923
          0.949 -0.881 0.063 16.169 6.417e-3 70.836
          5.038e-3 25.956 6.37e-3 70.949 0.071 -65.791
1201.15 0.064 -4.161 0.95 -0.854 4.919e-3 25.561
          0.95 -0.855 0.063 16.051 6.379e-3 72.166
          4.929e-3 26.025 6.405e-3 72.17 0.068 -64.349
1221 0.065 -4.585 0.952 -0.954 4.799e-3 26.026
          0.952 -0.92 0.064 15.853 6.399e-3 73.437
          4.84e-3 26.614 6.428e-3 73.582 0.065 -62.66
1240.85 0.065 -5.083 0.952 -1.082 4.685e-3 26.772
          0.953 -1.056 0.064 15.582 6.425e-3 74.825
          4.745e-3 27.316 6.436e-3 75.009 0.063 -60.817
1260.7 0.066 -6.111 0.949 -1.169 4.582e-3 27.551
          0.95 -1.335 0.064 15.133 6.407e-3 76.66
          4.611e-3 27.827 6.402e-3 76.281 0.06 -58.78
1280.55 0.066 -6.862 0.947 -1.149 4.522e-3 28.648
          0.948 -1.294 0.064 14.751 6.419e-3 78.099
          4.503e-3 28.28 6.422e-3 77.829 0.058 -56.685
1300.4 0.066 -7.568 0.945 -1.058 4.459e-3 29.705
          0.946 -1.118 0.065 14.343 6.449e-3 79.357
          4.402e-3 28.856 6.453e-3 79.445 0.056 -54.519
1320.25 0.066 -8.592 0.948 -0.851 4.315e-3 30.077
          0.946 -0.911 0.064 13.696 6.504e-3 80.515
          4.284e-3 30.036 6.448e-3 80.887 0.054 -52.263
1340.1 0.066 -8.925 0.951 -0.908 4.233e-3 30.605
          0.95 -0.897 0.064 13.488 6.519e-3 82.158
          4.203e-3 30.538 6.465e-3 82.652 0.052 -49.853
1359.95 0.066 -9.092 0.954 -1.103 4.166e-3 31.137
          0.954 -1.012 0.064 13.372 6.525e-3 84.002
          4.139e-3 30.77 6.498e-3 84.461 0.05 -47.309
1379.8 0.066 -10.193 0.952 -1.357 4.023e-3 31.288
          0.954 -1.326 0.065 12.569 6.582e-3 85.679
          4.064e-3 31.299 6.563e-3 85.697 0.049 -44.484
1399.65 0.066 -10.961 0.949 -1.381 3.886e-3 32.595
          0.951 -1.447 0.065 12.109 6.622e-3 87.244
          3.887e-3 32.048 6.62e-3 87.195 0.047 -41.342
1419.5 0.066 -11.57 0.946 -1.265 3.758e-3 34.463
          0.947 -1.434 0.065 11.832 6.652e-3 88.768
          3.674e-3 33.055 6.664e-3 88.868 0.046 -38.016
1439.35 0.066 -12.489 0.947 -1.074 3.679e-3 35.669
          0.947 -1.236 0.064 11.389 6.684e-3 90.452
          3.619e-3 35.104 6.654e-3 90.735 0.045 -34.559
1459.2 0.065 -13.149 0.949 -1.022 3.567e-3 36.731
          0.95 -1.174 0.064 11.181 6.752e-3 91.985
          3.543e-3 36.565 6.721e-3 92.122 0.044 -31.089
1479.05 0.065 -13.645 0.951 -1.073 3.439e-3 37.731
          0.953 -1.215 0.064 11.113 6.845e-3 93.416
          3.456e-3 37.66 6.838e-3 93.219 0.043 -27.619
1498.9 0.064 -14.345 0.951 -1.238 3.362e-3 39.145
          0.952 -1.4 0.064 10.771 6.924e-3 94.804
          3.383e-3 39.033 6.933e-3 94.62 0.043 -23.941
1518.75 0.064 -15.033 0.95 -1.281 3.276e-3 40.546
          0.951 -1.474 0.064 10.251 6.98e-3 96.166
          3.265e-3 40.276 6.99e-3 96.136 0.043 -20.435
1538.6 0.064 -15.703 0.949 -1.234 3.184e-3 41.974
          0.949 -1.458 0.063 9.608 7.019e-3 97.515
          3.115e-3 41.468 7.022e-3 97.738 0.043 -17.058
1558.45 0.063 -16.313 0.949 -1.282 3.07e-3 44.141
          0.95 -1.375 0.063 9.237 7.078e-3 99.016
          3.065e-3 43.826 7.124e-3 99.304 0.043 -13.352
1578.3 0.062 -16.933 0.949 -1.327 2.932e-3 45.558
          0.95 -1.399 0.063 8.852 7.15e-3 100.592
          2.959e-3 45.502 7.202e-3 100.674 0.044 -9.667
1598.15 0.062 -17.558 0.948 -1.368 2.772e-3 46.305
          0.951 -1.518 0.062 8.469 7.234e-3 102.233
          2.804e-3 46.568 7.258e-3 101.869 0.044 -5.992
1618 0.061 -18.317 0.949 -1.345 2.694e-3 49.623
          0.949 -1.488 0.062 8.186 7.327e-3 103.404
          2.693e-3 50.021 7.313e-3 103.597 0.045 -2.501
1637.85 0.06 -18.889 0.951 -1.255 2.606e-3 53.038
          0.949 -1.494 0.061 8.005 7.43e-3 104.819
          2.611e-3 52.886 7.413e-3 105.267 0.046 0.629
1657.7 0.059 -19.278 0.953 -1.094 2.506e-3 56.553
          0.951 -1.538 0.06 7.928 7.543e-3 106.493
          2.559e-3 55.134 7.56e-3 106.875 0.047 3.395
1677.55 0.058 -19.899 0.953 -1.355 2.436e-3 58.408
          0.953 -1.651 0.06 7.744 7.62e-3 108.169
          2.462e-3 58.186 7.643e-3 108.191 0.048 5.502
1697.4 0.058 -20.545 0.951 -1.578 2.364e-3 60.821
          0.952 -1.773 0.059 7.409 7.686e-3 109.698
          2.377e-3 60.967 7.723e-3 109.705 0.05 7.513
1717.25 0.056 -21.212 0.946 -1.74 2.288e-3 63.991
          0.95 -1.903 0.059 6.889 7.738e-3 111.048
          2.31e-3 63.377 7.8e-3 111.47 0.051 9.44
1737.1 0.055 -22.171 0.946 -1.664 2.193e-3 66.072
          0.947 -1.713 0.058 6.495 7.916e-3 112.653
          2.183e-3 67.27 7.911e-3 112.695 0.052 11.587
1756.95 0.054 -22.97 0.947 -1.521 2.12e-3 69.37
          0.947 -1.575 0.057 6.201 8.075e-3 114.066
          2.092e-3 71.737 8.032e-3 114.003 0.054 13.788
1776.8 0.052 -23.505 0.95 -1.31 2.083e-3 74.548
          0.95 -1.541 0.056 6.05 8.197e-3 115.175
          2.059e-3 76.862 8.166e-3 115.488 0.055 16.038
1796.65 0.051 -23.564 0.954 -1.558 2.057e-3 79.776
          0.953 -1.761 0.056 6.196 8.355e-3 116.703
          2.063e-3 80.012 8.332e-3 116.387 0.056 18.031
1816.5 0.05 -23.84 0.955 -1.809 2.019e-3 84.601
          0.954 -1.969 0.055 6.235 8.491e-3 118.05
          2.045e-3 83.848 8.476e-3 117.464 0.058 19.929
1836.35 0.049 -24.582 0.949 -1.973 1.961e-3 88.72
          0.95 -2.107 0.054 6.016 8.582e-3 119.011
          1.986e-3 89.235 8.579e-3 118.955 0.059 21.716
1856.2 0.048 -25.173 0.948 -1.919 1.974e-3 92.947
          0.947 -1.942 0.053 5.815 8.706e-3 120.121
          1.975e-3 94.943 8.637e-3 120.278 0.06 23.198
1876.05 0.046 -25.768 0.948 -1.812 1.989e-3 97.552
          0.946 -1.783 0.052 5.647 8.838e-3 121.388
          1.979e-3 100.156 8.754e-3 121.645 0.062 24.599
1895.9 0.044 -26.444 0.951 -1.675 1.98e-3 102.873
          0.949 -1.738 0.05 5.523 8.972e-3 122.918
          1.994e-3 104.284 9.002e-3 123.158 0.064 25.933
1915.75 0.043 -26.494 0.952 -1.803 2.035e-3 108.635
          0.952 -1.926 0.049 5.536 9.181e-3 124.16
          2.062e-3 109.558 9.199e-3 124.102 0.066 27.279
1935.6 0.041 -26.499 0.953 -1.942 2.108e-3 114.163
          0.953 -2.122 0.048 5.525 9.383e-3 125.354
          2.124e-3 114.194 9.373e-3 125.03 0.068 28.616
1955.45 0.039 -26.827 0.951 -1.971 2.187e-3 118.912
          0.95 -2.216 0.047 5.317 9.524e-3 126.593
          2.144e-3 116.765 9.524e-3 126.226 0.07 29.92
1975.3 0.037 -27.272 0.95 -2.015 2.255e-3 122.501
          0.949 -2.162 0.046 5.325 9.686e-3 127.689
          2.237e-3 120.595 9.675e-3 127.33 0.071 31.166
1995.15 0.035 -27.65 0.95 -2.07 2.33e-3 125.748
          0.949 -2.097 0.045 5.46 9.852e-3 128.709
          2.34e-3 124.843 9.844e-3 128.355 0.073 32.282
2015 0.033 -27.877 0.951 -2.14 2.439e-3 128.953
          0.95 -2.114 0.043 5.687 0.01 129.63
          2.413e-3 129.303 0.01 129.232 0.075 33.068
2034.85 0.031 -27.926 0.95 -2.147 2.565e-3 132.105
          0.949 -2.166 0.041 5.768 0.01 130.753
          2.494e-3 132.852 0.01 130.384 0.077 33.807
2054.7 0.029 -27.866 0.949 -2.117 2.684e-3 135.184
          0.948 -2.2 0.04 5.816 0.01 131.898
          2.59e-3 135.985 0.01 131.597 0.079 34.541
2074.55 0.027 -27.993 0.95 -2.03 2.762e-3 138.077
          0.949 -2.126 0.038 5.657 0.011 132.881
          2.722e-3 138.78 0.011 132.691 0.081 35.324
2094.4 0.024 -27.016 0.952 -2.144 2.892e-3 141.577
          0.951 -2.184 0.036 6.291 0.011 133.872
          2.881e-3 142.234 0.011 133.841 0.083 36.128
2114.25 0.022 -25.373 0.954 -2.346 3.048e-3 144.959
          0.953 -2.316 0.035 7.245 0.011 134.821
          3.045e-3 145.594 0.011 134.874 0.084 36.924
2134.1 0.02 -24.3 0.953 -2.563 3.223e-3 146.747
          0.953 -2.533 0.034 7.482 0.011 135.577
          3.175e-3 147.355 0.011 135.29 0.086 37.649
2153.95 0.018 -22.952 0.95 -2.58 3.377e-3 148.612
          0.95 -2.668 0.032 8.053 0.011 136.215
          3.367e-3 149.339 0.011 136.13 0.088 38.309
2173.8 0.015 -20.893 0.946 -2.476 3.522e-3 150.547
          0.946 -2.714 0.03 8.967 0.012 136.878
          3.576e-3 151.397 0.011 137.198 0.09 38.916
2193.65 0.013 -19.52 0.947 -2.254 3.672e-3 152.687
          0.946 -2.479 0.028 9.56 0.012 138.032
          3.703e-3 153.19 0.012 138.364 0.092 39.415
2213.5 9.652e-3 -14.206 0.95 -2.32 3.879e-3 154.915
          0.948 -2.366 0.026 11.011 0.012 139.399
          3.906e-3 155.397 0.012 139.424 0.094 39.929
2233.35 6.699e-3 0.439 0.954 -2.557 4.117e-3 157.059
          0.952 -2.368 0.024 13.505 0.012 140.825
          4.15e-3 157.641 0.012 140.377 0.096 40.448
2253.2 5.862e-3 19.66 0.952 -2.798 4.321e-3 158.082
          0.953 -2.714 0.022 16.055 0.012 141.692
          4.349e-3 158.194 0.012 140.977 0.098 40.938
2273.05 5.247e-3 45.532 0.95 -2.869 4.526e-3 158.842
          0.951 -2.906 0.02 19.115 0.013 142.175
          4.513e-3 158.395 0.013 141.698 0.1 41.469
2292.9 5.717e-3 75.454 0.948 -2.816 4.727e-3 159.455
          0.946 -2.974 0.018 23.248 0.013 142.423
          4.657e-3 158.455 0.013 142.527 0.101 42.015
2312.75 7.262e-3 94.926 0.947 -2.684 4.861e-3 160.526
          0.946 -2.815 0.016 27.96 0.013 143.078
          4.857e-3 159.859 0.013 143.661 0.103 42.404
2332.6 9.83e-3 108.21 0.949 -2.713 5.009e-3 161.649
          0.947 -2.749 0.015 34.52 0.013 143.91
          5.041e-3 161.406 0.013 144.55 0.105 42.763
2352.45 0.013 115.838 0.953 -2.872 5.171e-3 162.811
          0.95 -2.764 0.013 45.007 0.014 144.883
          5.216e-3 163.06 0.013 145.246 0.106 43.097
2372.3 0.016 118.514 0.951 -2.987 5.411e-3 163.793
          0.951 -2.911 0.012 57.008 0.014 145.805
          5.478e-3 164.457 0.014 146.056 0.108 43.473
2392.15 0.02 120.613 0.95 -3.089 5.653e-3 164.67
          0.952 -3.07 0.012 70.13 0.014 146.594
          5.726e-3 165.16 0.014 146.736 0.11 43.86
2412 0.023 122.292 0.949 -3.179 5.897e-3 165.45
          0.952 -3.239 0.012 83.265 0.014 147.259
          5.957e-3 165.209 0.014 147.293 0.112 44.257
2431.85 0.027 123.419 0.95 -3.217 6.123e-3 166.202
          0.95 -3.283 0.013 94.537 0.015 148.087
          6.13e-3 166.28 0.015 147.857 0.114 44.643
2451.7 0.03 123.886 0.949 -3.258 6.35e-3 166.831
          0.948 -3.338 0.015 104.299 0.015 148.771
          6.321e-3 166.952 0.015 148.5 0.116 45
2471.55 0.033 123.952 0.947 -3.304 6.577e-3 167.326
          0.946 -3.404 0.017 112.028 0.015 149.297
          6.534e-3 167.187 0.015 149.23 0.117 45.328
2491.4 0.037 124.504 0.948 -3.242 6.756e-3 167.65
