! Hittite Microwave Corporation					
! 20 Alpha Road
! Chelmsford, MA 01824
! Tel: 978-250-3343
! Fax: 978-250-3373
! Device: HMC241LP3, DC-4 GHz, High Isolation SP4T Non-Reflective Switch in leadless QFN SMT package
! Misc: Port 1 = RFCom
!       Port 2 = RF1
!       Port 3 = RF2
!       Port 4 = RF3
!       Port 5 = RF4
!       Vdd    = + 5 V
!  
!  RF1 selected, Vctl= 0/+5 V
!
!  Data reformated to new Touchstone file format - Tue Jan 09 08:03:11 2007
!
# MHz S DB R 50
! 5 Port Network Data
! freq  dbS11  angS11  dbS12  angS12  dbS13  angS13  dbS14  angS14  
!       dbS15  angS15  
!       dbS21  angS21  dbS22  angS22  dbS23  angS23  
!       dbS24  angS24  dbS25  angS25  
!       dbS31  angS31  dbS32  angS32  
!       dbS33  angS33  dbS34  angS34  dbS35  angS35  
!       dbS41  angS41  
!       dbS42  angS42  dbS43  angS43  dbS44  angS44  dbS45  angS45  
!       dbS51  angS51  dbS52  angS52  dbS53  angS53  dbS54  angS54  
!       dbS55  angS55  
!     
             10        -11.734         -70.658       -0.705382          14.011        -55.1741          81.479        -55.2793           83.92
                   -54.0448          82.241
                  -0.752613           13.96         -12.076         -74.982        -51.9102          57.713        -52.6157          58.855
                    -50.894          57.873
                   -55.1392          81.805        -52.0134          57.557       -0.184346         -21.791        -85.8197           3.739
                   -89.0248         127.243
                   -55.4835          83.785        -52.1848          58.008        -93.9881          83.442       -0.175478         -21.832
                    -63.019           8.183
                   -54.2395          83.167        -51.2165          57.299        -87.7337           33.02        -63.1979           13.62
                  -0.184346         -21.433

          39.95       -12.7278         -69.325        -0.66778          10.813        -53.1318          71.175        -53.2949          73.256
                   -52.1215          73.106
                  -0.724243          10.782        -13.1122         -75.206        -51.0104          50.514        -51.5712          50.802
                   -50.0118          49.487
                   -53.1279          71.402        -51.0941          50.286        -1.02196         -29.875        -91.6805         -13.771
                   -89.3526         107.759
                   -53.4406          73.159        -51.3022          50.119        -91.6207          89.907         -1.0122         -29.905
                   -64.5683          11.275
                   -52.2558           73.74        -50.2431          48.984        -87.9349          44.147        -64.7225          15.179
                   -1.00245         -29.497

           69.9       -13.8074         -68.153       -0.630341           7.619        -51.4795          60.923        -51.6838          62.639
                   -50.5507          64.023
                  -0.686561           7.609        -14.2889         -75.526        -50.2121          43.332        -50.6567          42.767
                   -49.2285           41.12
                   -51.4958          61.048        -50.2827          43.032        -1.95994         -37.928        -120.568         -29.285
                   -89.7144           88.31
                   -51.7912          62.583        -50.5186          42.247        -89.7837          96.423        -1.94906         -37.948
                   -66.4753          14.426
                   -50.6478          64.363        -49.3883          40.688        -88.1609          55.296        -66.5932          16.796
                   -1.92735          -37.53

          99.85       -15.0405         -67.215       -0.602367           4.427        -50.1058          50.708        -50.3368          52.058
                    -49.231          54.981
                  -0.658405           4.437        -15.6503         -76.003        -49.4836          36.164        -49.8321          34.748
                   -48.5101          32.768
                   -50.1336          50.732        -49.5433          35.793        -2.99933         -45.948        -92.3705         131.155
                   -90.0891          68.882
                   -50.4171          52.047        -49.8025          34.389        -88.2818         103.003        -2.98708         -45.958
                   -68.9102          17.624
                   -49.3017          55.026        -48.6102          32.407        -88.3998          66.457         -68.971          18.461
                   -2.93821         -45.531

          129.8       -16.5363         -66.635       -0.574483           1.245        -48.9223          40.546        -49.1759          41.537
                   -48.0923          45.995
                  -0.630341           1.275        -17.2656         -76.724        -48.8162          29.029         -49.084          26.765
                   -47.8488          24.453
                   -48.9637          40.467        -48.8667          28.591        -4.18023         -53.909         -86.212         113.931
                   -90.4489          50.139
                   -49.2361           41.57        -49.1435          26.566        -87.0016         109.627        -4.16619         -53.909
                   -72.2665          21.142
                   -48.1431          45.748        -47.8982          24.163        -88.6689          77.366        -72.2167          20.422
                   -4.09631         -53.473

         159.75       -17.4579         -66.463       -0.565208          -1.172        -48.2391           32.45        -48.5124          33.776
                   -47.4016          39.223
                  -0.611682          -1.152        -18.3443         -77.337        -48.4548          23.473        -48.7019          20.665
                   -47.4445          18.142
                   -48.2998           32.14         -48.487          23.394        -5.27207         -60.072         -83.554         108.922
                   -88.6996          96.771
                   -48.5635           33.85        -48.7613          20.619        -84.9867          112.47        -5.25615         -60.041
                   -74.2934          53.203
                   -47.4732          39.099        -47.4938          18.003        -90.3941          60.212        -74.2038           48.68
                   -5.17697         -59.626

          189.7       -18.1316         -66.613       -0.565208          -3.186        -47.8788          25.869        -48.1055          27.488
                   -46.9783          34.154
                  -0.611682          -3.175        -19.0156         -77.849         -48.201          19.507        -48.4824          15.932
                   -47.2202           12.89
                   -47.9458          25.945        -48.2773          19.498        -6.28517         -64.921        -80.8154         107.084
                   -87.9827          72.323
                   -48.1654          27.597        -48.5519          15.736        -81.3242         113.439        -6.24942          -64.86
                   -71.7912          84.234
                   -47.0465          34.194        -47.2602          12.841        -87.7401          68.162        -72.3669           84.87
                    -6.1607         -64.467

         219.65       -18.5624         -66.953       -0.555943          -4.976         -47.616          20.892        -47.8252          22.524
                   -46.6884          30.539
                  -0.602367          -4.955        -19.4939         -78.192        -48.0835          16.266         -48.336          11.989
                   -47.0582           8.666
                   -47.6474          20.785        -48.1144          16.362        -7.17052         -68.746        -79.1328         107.913
                   -85.4981          68.475
                   -47.8853            22.5        -48.3952          11.967        -79.0389         105.769        -7.13095         -68.645
                   -68.4962          97.823
                   -46.7316          30.307        -47.0994           8.674        -88.4181          66.838        -68.3769          96.767
                    -7.0328         -68.273

          249.6        -18.786         -67.999       -0.555943          -6.635        -47.4855          16.302        -47.6978          18.276
                   -46.5101          27.535
                  -0.611682           -6.58        -19.7433         -78.861        -48.0351           13.67        -48.3066            8.77
                   -46.9958           4.916
                   -47.5433           16.39        -48.0747          13.742        -8.00234          -71.87         -77.146         103.608
                   -87.9306          70.626
                   -47.7655          18.301        -48.3656            8.92        -77.2973         102.572        -7.93711         -71.732
                   -65.7689         101.792
                   -46.5951          27.432        -47.0465            4.95        -85.9256          72.147        -65.6866         100.568
                    -7.8509         -71.371

         279.55       -18.9384         -69.043       -0.565208          -8.206        -47.3691          12.582        -47.5806           14.71
                   -46.3969          25.104
                  -0.602367           -8.09         -19.828         -79.488        -47.9849           11.48        -48.2593            6.15
                   -46.9648           1.826
                   -47.4098          12.842        -48.0154          11.486        -8.70668         -74.514        -76.4032         101.619
                   -85.2165            73.9
                   -47.6307          14.883        -48.2976           6.201        -75.4371          99.521        -8.65947         -74.357
                   -63.5527         101.172
                    -46.426          25.209         -47.023           1.927        -84.0991          84.093        -63.6421         101.226
                   -8.54257         -74.002

          309.5       -19.0156         -70.115       -0.574483          -9.653        -47.3064           9.417        -47.4896           11.72
                   -46.2959          23.359
                  -0.611682          -9.572        -19.9136         -80.162        -47.9871           9.753        -48.2391           3.734
                   -46.9396          -0.988
                   -47.3468           9.438        -48.0373           9.852        -9.39601         -76.643        -75.1741          99.566
                   -84.1718          74.123
                   -47.5412          11.801        -48.2525           3.724        -75.1046          100.42        -9.31948         -76.471
                   -61.9339         100.171
                   -46.3283          23.354          -46.99          -0.922        -83.9898          72.588        -61.9263         100.264
                   -9.21848         -76.138

         339.45       -18.9384         -71.771       -0.574483         -11.056        -47.2903           6.453        -47.4568           8.876
                   -46.2192           21.81
                  -0.621006         -10.966        -19.9136         -81.477        -48.0067           8.244        -48.2391            1.57
                   -46.9396          -3.715
                   -47.3367           6.548        -48.0571           8.281        -9.95146          -78.48        -73.9881          97.613
                   -83.8873          72.737
                   -47.5061           9.047        -48.2818            1.57        -74.0492          97.613         -9.8699         -78.317
                   -60.5042          98.657
                   -46.2762          21.767        -46.9977          -3.634        -83.5658          77.228        -60.5135          98.751
                   -9.76233         -77.999

          369.4       -18.9384         -73.368       -0.583768         -12.418        -47.3004           3.843        -47.4506           6.473
                   -46.1784          20.437
                  -0.630341         -12.327         -19.828         -82.321        -48.0395           6.957        -48.2638          -0.427
                   -46.9686          -6.087
                   -47.3327           3.999        -48.0769           7.059        -10.4866         -80.036        -73.2309          95.612
                   -83.2394          73.707
                   -47.4896           6.637        -48.3179          -0.328         -73.203          95.701        -10.3711         -79.862
                   -59.3396          97.707
                   -46.2192          20.586        -46.9997          -5.963        -83.0473          74.687        -59.3638          97.624
                   -10.2572         -79.567

         399.35       -18.8619          -74.73       -0.583768         -13.749        -47.3004           1.517        -47.4322           4.233
                   -46.1307          19.461
                  -0.621006         -13.649        -19.7433         -83.137        -48.0813           5.888        -48.2705          -2.167
                   -46.9783           -8.43
                   -47.3509            1.55        -48.1033            5.92        -10.9643         -81.337        -72.2273          93.757
                   -82.1126          75.766
                    -47.467           4.439         -48.293          -2.046        -72.1496          93.299        -10.8122         -81.119
                   -58.2586          96.014
                   -46.1801          19.541        -47.0172          -8.261        -81.9014          74.962        -58.3515          96.109
                   -10.7221         -80.843

          429.3        -18.786         -76.436       -0.593062         -15.047        -47.3428          -0.806        -47.4424            2.23
                   -46.1044          18.634
                  -0.639686         -14.947        -19.5762         -84.399        -48.1276           4.716        -48.3202           -3.82
                   -47.0269         -10.615
                   -47.3894          -0.743        -48.1587           4.871        -11.3727         -82.408        -71.4893          93.081
                   -81.7322          76.778
                   -47.4999            2.34        -48.3587           -3.75         -71.591          92.219        -11.2133         -82.143
                   -57.3869          94.306
                   -46.1589          18.763        -47.0602         -10.448          -81.71          77.442        -57.4385          94.708
                   -11.1191         -81.873

         459.25       -18.7108         -78.007       -0.611682         -16.325        -47.3772          -2.917        -47.4773           0.302
                   -46.1009          18.002
                   -0.64904         -16.223        -19.4123         -85.395        -48.1876           3.949        -48.3656          -5.249
                   -47.0641         -12.557
                   -47.4179          -2.751        -48.2144           4.068         -11.734         -83.326        -71.0321          90.382
                   -81.2386          76.797
                   -47.5267           0.395        -48.3883          -5.249        -70.8514           91.66        -11.6009          -83.04
                   -56.6477          92.991
                   -46.1325          18.075        -47.1053         -12.457        -80.9597           75.41        -56.6655          93.037
                   -11.5024         -82.774

          489.2       -18.6363         -79.316       -0.611682         -17.581        -47.4363          -4.882        -47.5082          -1.402
                   -46.0729          17.463
                   -0.64904         -17.473        -19.4123         -86.564        -48.2458           3.197        -48.3952          -6.777
                   -47.0975         -14.485
                   -47.4773           -4.74         -48.293           3.285        -12.1461         -84.152        -70.2941           89.21
                   -80.5476          73.706
                   -47.5495          -1.328        -48.4364          -6.676        -70.1364          89.952         -11.972         -83.892
                   -55.8905          91.727
                   -46.1219          17.528        -47.1388         -14.408        -80.1286          76.695        -55.9339          91.773
                   -11.8352         -83.621

         519.15       -18.5624         -81.081       -0.611682         -18.819        -47.4938          -6.699         -47.535          -3.044
                   -46.0537          17.014
                  -0.658405         -18.717        -19.2515         -87.543        -48.3134           2.638        -48.4548          -8.055
                   -47.1547         -16.329
                   -47.5371          -6.553        -48.3428           2.781         -12.432         -84.845        -69.5929          87.959
                    -79.905          74.712
                   -47.5827          -2.897        -48.4986          -7.953        -69.5799           88.61        -12.2522         -84.652
                   -55.2844          90.372
                   -46.1026          17.166        -47.2003         -16.282        -79.7264          76.412        -55.3046          90.459
                   -12.1461         -84.376

          549.1       -18.4164         -82.781       -0.621006         -20.049        -47.5454          -8.448        -47.5723          -4.686
                   -46.0467          16.638
                  -0.658405         -19.939        -19.0935         -88.868        -48.3815           1.915        -48.4986          -9.412
                   -47.2143         -18.249
                   -47.5931           -8.35        -48.4112           2.081        -12.7278         -85.426        -68.9881          86.561
                    -79.453          74.787
                   -47.6181          -4.589        -48.5472          -9.359        -69.0371          86.218         -12.505         -85.301
                   -54.6801          89.045
                   -46.0939          16.704        -47.2422          -18.18        -79.3557          73.878        -54.7084          89.045
                   -12.3958         -85.036

         579.05       -18.3443         -84.322       -0.621006         -21.273        -47.6077         -10.207        -47.6202          -6.289
                   -46.0362          16.319
                  -0.658405          -21.16        -19.0156         -89.889        -48.4364           1.342        -48.5588         -10.678
                   -47.2702         -20.035
                   -47.6474         -10.024        -48.4663           1.517         -12.995         -85.955        -68.4571          85.139
                   -78.7484          74.346
                   -47.6621          -6.139        -48.5961         -10.591        -68.5263          84.892        -12.7278         -85.859
                   -54.0975          87.718
                   -46.0764          16.394        -47.2964         -19.953        -78.7484          74.686        -54.1195          87.711
                   -12.6157         -85.595

            609       -18.3443         -86.143       -0.630341         -22.483        -47.6936         -11.819        -47.6705          -7.712
                    -46.031           16.14
