! Hittite Microwave Corporation
! 20 Alpha Road
! Chelmsford, MA 01824
! Tel: 978-250-3343
! Fax: 978-250-3373
! Device: HMC276QS24, 0.7-3.0 GHz, GaAS MMIC 4x2 Switch Matrix in 24-lead QSOP package
! Misc: Data was de-embedded to package pins.
!       Port 1 = OP1
!       Port 2 = VL
!       Port 3 = VH
!       Port 4 = HH
!       Port 5 = HL
!       Port 6 = OP2
!          Vdd = +5 V
!         Vctl = 0 V[Logic 0] / +5 V[Logic 1]
!
!  State 01,  VL to OP1,  VL to OP2
!  Control Lines (Logic)
!    HV 1 = 0, Tone 1 = 0
!    HV 2 = 0, Tone 2 = 0
!
!  Data reformated to new Touchstone file format - Wed Jan 10 10:45:23 2007
!
# MHz S DB R 50
! 6 Port Network Data
! freq  dbS11  angS11  dbS12  angS12  dbS13  angS13  dbS14  angS14  
!       dbS15  angS15  dbS16  angS16  
!       dbS21  angS21  dbS22  angS22  
!       dbS23  angS23  dbS24  angS24  dbS25  angS25  dbS26  angS26  
!       dbS31  angS31  dbS32  angS32  dbS33  angS33  dbS34  angS34  
!       dbS35  angS35  dbS36  angS36  
!       dbS41  angS41  dbS42  angS42  
!       dbS43  angS43  dbS44  angS44  dbS45  angS45  dbS46  angS46  
!       dbS51  angS51  dbS52  angS52  dbS53  angS53  dbS54  angS54  
!       dbS55  angS55  dbS56  angS56  
!       dbS61  angS61  dbS62  angS62  
!       dbS63  angS63  dbS64  angS64  dbS65  angS65  dbS66  angS66  
!     
                10       -17.5229672            -27.962        -5.66324553              2.258        -43.7190456             52.121        -51.3888246             25.231
                       -53.551479           -138.776        -8.29078541              3.444
                      -5.71340481              4.149         -24.013189           -106.855        -43.0732578           -137.137        -55.8473127             -1.593
                      -38.4163751              57.07        -5.76385542              3.112
                      -58.1807385            -34.383        -64.8338764           -117.628      -0.0348132315             -4.024        -51.5777974           -124.405
                       -47.479355            -31.643        -45.4069866             18.978
                      -45.0486567           -138.721        -42.3905881           -145.703        -43.6486926             97.816      -0.0697665569             -3.955
                      -51.0568394            177.994        -44.3663283           -110.979
                      -47.5040484            115.229        -45.7858087            -76.842        -45.1690897             29.484        -47.0738864            174.413
                 -9.64327467e-016             -4.277        -40.0034751             -1.683
                      -8.04609628              2.852        -5.86564435              3.907        -51.8794211            -24.577        -53.9015768            -28.839
                      -49.5824724             53.009        -18.3442926            -27.687

             29.95               -20            -25.931        -5.76385542              1.447        -54.6989242             78.475        -66.8111844            111.932
                      -69.9952705            -152.53        -8.15646485              0.619
                       -5.7976527              1.388        -24.5829598            -122.08        -53.1200186            158.452         -71.961655            -38.578
                      -66.7978756           -104.456        -5.84859648              1.252
                      -61.3282298             141.15        -58.8087316             15.073       -0.282492854            -12.549        -62.3290424              122.1
                      -59.9049769            118.175         -66.376985            -64.063
                      -64.8096648             27.904        -60.2959628            -73.739        -62.7002908             95.475       -0.282492854            -12.725
                      -58.0479134            100.884        -55.9502337           -124.058
                      -60.4867693            -88.124        -66.6360103           -117.896         -60.922874             171.49        -63.8020751            -83.597
                     -0.273524459            -12.692        -61.2757591             59.206
                      -8.15646485               0.67        -5.84859648              1.272        -61.6635543            111.424        -60.5716995            103.351
                      -53.7395378            105.528        -20.1754785            -27.237

              49.9       -21.9382003            -20.031         -5.5637877             -0.726        -65.5588446            -30.591        -67.4506346            178.774
                       -65.067316             40.663        -7.98054209              -1.47
                      -5.59681393             -0.567        -25.3521248           -151.681        -75.6503211           -174.791        -58.4091399             95.733
                      -63.2267955            123.341        -5.64658994             -0.823
                      -64.2791758            107.582        -78.4671911           -174.031       -0.667780266            -20.179        -75.4576983             74.388
                      -68.9588093             28.889        -71.4340637             55.011
                      -59.7685911             63.954        -70.6537587             149.88         -66.480769           -143.388       -0.649040476            -20.505
                      -64.8369076             66.825        -65.8827258             21.073
                      -63.9431577            134.304        -67.4220087             109.01         -62.549882            -58.031        -70.9214082            -76.535
                     -0.649040476            -20.343        -62.9430836             62.122
                      -8.00233856             -1.428        -5.67993313             -0.772        -61.2346103             59.697         -66.107896            -59.645
                      -65.0099115            169.901        -22.1581079            -18.988

             69.85       -21.6184382             -21.59        -5.62996622             -1.288        -64.3735109             71.132         -76.542106             90.306
                      -75.7562479            130.477        -8.04609628             -2.212
                      -5.64658994             -1.184        -25.1927462            -148.63        -65.1848535             56.775        -68.2502707             -88.43
                      -66.4899323             15.832        -5.69665284             -1.388
                       -66.331854            -25.415        -69.3780891            150.754        -1.11034656            -27.196        -71.6671899            114.954
                      -90.3168515             -0.845        -72.0238454             43.562
                       -73.076854             95.759        -70.4113733            135.554        -75.2491252            -85.559        -1.10048183            -27.575
                      -67.7126032            -25.616        -62.4941435             92.556
                      -66.7542897             29.407        -66.8493222             79.429        -63.9335895            113.372        -68.2952987             84.328
                      -1.10048183            -27.402        -67.8960547             68.103
                      -8.06805809             -2.079        -5.73018914             -1.254        -67.8659252             63.009        -70.2318062             12.082
                      -67.7697823            101.584        -21.9382003            -21.049

              89.8       -21.6184382            -23.525        -5.62996622             -1.955         -70.128051             11.854        -68.2975563              97.03
                      -67.4383548             76.748        -8.06805809             -3.002
                      -5.66324553             -1.834        -25.0362395           -149.081        -61.9675647            110.881         -73.752221              53.44
                       -68.549538             30.186        -5.71340481             -2.087
                      -66.2512045             23.655        -67.4834657             95.207        -1.62890939             -33.36        -68.8282283            102.783
                      -74.5724626              0.574        -64.7015403             69.142
                      -70.7042496              87.91        -68.8018675             66.804        -83.9541058           -125.029        -1.62890939            -33.813
                      -71.0816917             81.493        -72.4465912             60.623
                      -66.4314536             75.104        -67.2883147             10.862        -87.1092588            -50.662        -71.1786719             82.822
                      -1.61843815            -33.555        -67.9392789             80.559
                      -8.06805809             -2.898        -5.73018914             -1.976        -65.9651874             65.344        -69.1161578             71.773
                      -64.7404302             44.268        -21.9382003            -22.399

            109.75       -21.5144143            -25.258        -5.64658994              -2.51        -72.8298818             57.082        -72.0725254             77.321
                      -64.8460075             60.381        -8.09007556             -3.751
                      -5.67993313             -2.467        -24.7314401            -148.68        -65.9255768             87.181        -68.5914764             38.103
                      -71.4827971             33.332        -5.73018914             -2.629
                      -67.7400869             51.475        -65.4719768             82.984        -2.22518079            -38.758        -72.8641908             71.893
                      -78.4963629            123.532        -69.2663065             60.145
                       -67.069965             63.331        -75.9720575               5.17        -78.9461212             -9.688        -2.21396595            -39.282
                      -66.7505099             12.656        -65.9859257             81.615
                      -67.3914425             68.063        -68.6830436             30.972        -73.2588055           -140.892        -71.1975679             27.698
                      -2.20276557            -38.993        -65.6899611             90.689
                      -8.09007556             -3.675        -5.74700597             -2.625        -67.0055163             60.498        -67.5536468             73.294
                      -67.4363098             99.579        -22.0474582            -23.699

             129.7       -21.5144143            -26.849        -5.64658994             -3.132        -64.2905559             77.513         -73.914499             69.324
                       -68.112149             47.402        -8.09007556             -4.502
                      -5.67993313             -3.061        -24.5829598           -149.045        -65.2896188             87.167        -70.2628929             57.267
                      -76.2270541             74.851        -5.73018914             -3.302
                      -66.6360103             31.103        -67.9089993             74.679        -2.82925605            -43.508        -86.4223517              110.6
                      -73.9750582                -97        -68.0439032             49.644
                      -72.3776984            -21.102        -85.1706648             80.887        -76.6713977           -177.465        -2.81723405            -44.059
                      -69.0518908             96.662        -68.2727555             79.795
                      -69.0716147             57.591        -71.5745042              23.38        -82.8545565            -12.884        -79.2914052             73.164
                      -2.79323987            -43.718        -65.1627921             64.372
                      -8.11214899             -4.397        -5.74700597             -3.232        -67.3326511             18.192        -65.8129045             42.695
                      -66.7184482            100.797        -21.9382003            -24.335

            149.65       -21.4116215            -27.951        -5.66324553             -3.737        -68.0285667              55.28        -66.9261041             32.773
                      -66.0693776             63.653        -8.09007556             -5.279
                      -5.67993313             -3.694        -24.2934033            -149.19        -66.3914766             88.911        -69.2915856             69.378
                      -67.6578954             58.171        -5.71340481             -3.873
                       -67.044519              18.65        -62.9981081              82.62        -3.43969872            -47.581        -88.4777821              0.576
                      -81.5496428            135.374        -68.0132573              30.73
                      -66.6118027             53.163        -67.5474315             57.558        -78.7183313            101.046        -3.40106608            -48.121
                      -66.0397299            111.803         -67.056254             66.337
                      -66.9318902             35.323        -66.1925339             42.868        -79.2754091           -139.753        -69.6640059             89.386
                      -3.37540612            -47.739        -64.5198854             67.814
                      -8.11214899              -5.24        -5.74700597              -3.86        -66.1554033             33.036        -68.7208907             35.326
                      -64.3577171             89.733        -21.9382003            -25.269

             169.6       -21.2096149            -28.836        -5.66324553             -4.331        -65.0595365             37.496        -65.7587972             49.203
                      -65.4102246             38.531        -8.09007556             -6.039
                      -5.67993313             -4.239        -24.2934033            -148.83        -61.9392861             80.713        -72.7127329             56.963
                      -67.1033534             41.179        -5.71340481             -4.519
                      -65.9410551             30.357        -61.7736512             82.261        -4.02698709            -51.136        -81.8830035             37.167
                      -78.8542871            108.231        -64.5023647             39.351
                      -67.8337591             27.385        -66.3589045             45.037        -72.4977063            155.994        -3.98565843            -51.656
                      -70.5011133            131.311        -66.4114421             62.671
                      -66.0781168             34.149        -67.7719072             21.482        -82.8859834            120.374        -67.4526829            113.583
                      -3.95821484            -51.265        -66.4259913             63.203
                      -8.11214899              -5.97        -5.74700597             -4.456        -64.3419519              32.43        -67.1863969             43.322
                      -63.2899934             69.362        -21.8302996            -26.355

            189.55       -21.0121999            -30.115        -5.67993313             -4.902        -68.6759656             47.299        -66.0833645             45.318
                      -69.9815552             51.199        -8.09007556             -6.807
                      -5.69665284               -4.8         -24.013189           -147.766        -62.1659065             86.659        -66.4862658             53.067
                      -68.7803589             -1.771        -5.73018914             -5.121
                      -68.2502707              44.12        -61.7396263             83.788        -4.61245348            -54.173        -72.9370691             175.21
                      -77.7814752            111.181        -70.0035101             22.712
                      -65.1564991             30.939        -67.0152506             42.808        -76.2948247           -176.758        -4.55356587            -54.678
                      -65.7773586            122.133        -70.6241948             47.522
                      -65.9651874             46.469        -67.0230458             25.446        -70.9827062             152.93        -67.9198014            128.607
                      -4.50966069            -54.263        -62.3188271             63.678
                      -8.13427866             -6.668        -5.74700597             -5.019        -64.9636442             41.775        -68.1011053             70.183
                      -62.4675617             73.914        -21.6184382            -27.367

             209.5       -20.8191722            -31.261        -5.67993313             -5.461        -65.1753918             35.291        -65.6415995             64.827
                      -68.1099391             35.588        -8.11214899              -7.51
                      -5.69665284             -5.349         -24.013189           -146.987        -59.7095892             83.219        -73.1003717             30.081
                      -67.8594824             -0.393        -5.73018914             -5.692
                      -65.7285092             51.937         -60.199442              87.08        -5.17696802            -56.741        -72.8527394            126.106
                      -77.1584708            162.326        -66.2369449             34.169
                      -65.0548721             39.195         -69.231039             61.868        -69.9541894            131.393        -5.09850417            -57.253
                       -63.395928              126.8        -67.8680738             61.618
                      -64.1788251             47.896        -69.7090449             22.456         -71.238651            138.833        -65.6332884            113.832
                      -5.06731602             -56.77        -63.7457427             74.716
                      -8.13427866             -7.377        -5.76385542             -5.583        -68.2188894             39.967        -64.9452061             47.793
                       -61.122199              80.26        -21.5144143            -28.236

            229.45        -20.630341             -32.17        -5.67993313             -6.012        -63.1328524             33.802          -66.36794             53.487
                      -64.7584383             32.396        -8.11214899             -8.211
                      -5.71340481             -5.884        -23.7417329           -146.368        -59.8963897             86.477        -72.9834145             73.895
                       -68.563495              14.19        -5.73018914             -6.256
                      -65.2912159             39.169        -60.7195241             91.679        -5.71340481            -58.967        -74.2933554            137.509
                      -72.2986045           -159.708        -63.7390607             11.796
                      -66.8321395             60.738        -69.5772383             37.439        -68.3860612            123.382        -5.62996622            -59.497
                      -62.5324253            134.858        -64.8338764              62.75
                      -67.9957939             52.077        -67.0954858             22.517        -81.8883994           -127.095        -63.1878424             96.868
                       -5.5637877            -58.953        -62.6224111             64.772
