!Hittite Microwave Corporation								
!12 Elizabeth Drive								
!Chelmsford, MA 01824								
!Tel: 978-250-3343								
!Fax: 978-250-3373
!Device: HMC244G16, DC - 4 GHz GaAs MMIC SP4T Non-Reflective Switch in 16 lead hermetic package
!Misc: Port 1 = RFC, Port 2 = RF1, Port 3 = RF2, Port 4 = RF3, Port 5 = RF4, RF2 Selected, Bias: +5VDC								
!
# MHZ S MA R 50

30	0.582	-50.851	0.001096	71.145	0.762	35.721	0.0009419	72.638
	0.0009823	72.777	0.00106	69.241	0.94	-19.606	0.0009312	72.349
	0.0008882	2.532	0.0009327	-0.417	0.762	35.654	0.0008871	69.57
	0.593	-52.235	0.000924	71.613	0.001021	65.49	0.0009891	74.029
	0.0009215	2.794	0.0009396	69.127	0.94	-19.42	0.0008737	14.602
	0.0009936	75.112	0.0009557	0.03	0.0009798	65.915	0.0008911	6.17
	0.939	-19.55						
59.85	0.344	-62.336	0.001884	66.352	0.885	18.421	0.001762	73.084
	0.001826	74.636	0.001864	65.72	0.828	-35.718	0.001833	74.373
	0.0001306	-158.843	0.0001522	-165.161	0.886	18.39	0.001816	73.473
	0.347	-66.641	0.001641	69.723	0.001679	66.164	0.001763	71.916
	0.0001698	-143.182	0.001658	68.125	0.831	-35.536	0.0001938	175.842
	0.001788	74.285	0.0001632	164.178	0.00165	64.704	0.0001788	-177.469
	0.829	-35.622						
89.7	0.246	-64.524	0.002627	52.441	0.916	11.057	0.002496	58.005
	0.002532	62.422	0.002657	53.066	0.71	-48.247	0.002573	62.623
	0.0001593	102.527	0.0001848	86.881	0.916	11.056	0.002539	62.418
	0.241	-71.31	0.002328	56.194	0.002325	51.705	0.002519	58.065
	0.0001622	108.927	0.002315	56.731	0.713	-48.004	0.0004871	140.937
	0.002627	62.361	0.0002298	88.028	0.002361	50.623	0.0004811	135.958
	0.711	-48.077						
119.55	0.197	-64.421	0.00308	40.119	0.927	6.822	0.002967	48.457
	0.003096	54.074	0.003096	41.121	0.606	-57.699	0.003082	54.189
	0.000217	80.67	0.0002102	95.895	0.927	6.822	0.003049	54.185
	0.185	-72.555	0.002812	45.902	0.002807	39.114	0.002977	47.664
	0.000209	84.905	0.002755	45.685	0.61	-57.539	0.0007801	132.432
	0.003156	53.637	0.0002062	77.882	0.002792	39.014	0.0008086	135.142
	0.608	-57.539						
149.4	0.169	-63.972	0.003356	32.193	0.931	3.884	0.003201	42.083
	0.003428	48.737	0.003345	32.298	0.523	-65.105	0.003307	49.224
	0.0002956	74.407	0.0003309	80.734	0.931	3.884	0.003302	48.935
	0.151	-72.619	0.003046	38.742	0.002994	29.842	0.003192	40.596
	0.0002746	73.891	0.003003	39.607	0.527	-64.969	0.00117	124.996
	0.003386	47.912	0.0003233	74.194	0.002997	30.778	0.001255	124.302
	0.525	-64.906						
179.25	0.152	-63.519	0.003538	25.883	0.934	1.685	0.003388	36.644
	0.003567	44.747	0.003439	25.717	0.456	-70.877	0.003501	46.041
	0.0003356	80.937	0.0003469	72.886	0.934	1.675	0.003462	45.881
	0.13	-71.947	0.003116	33.561	0.003185	23.959	0.003357	36.979
	0.0003224	71.169	0.003139	34.068	0.459	-70.812	0.001597	118.957
	0.003589	44.658	0.0003816	80.036	0.003135	23.676	0.001615	117.464
	0.458	-70.686						
209.1	0.14	-63.516	0.003582	20.559	0.933	-0.135	0.003484	32.41
	0.003724	41.812	0.003607	20.118	0.402	-75.586	0.003648	44.004
	0.0003804	80.976	0.0004271	76.827	0.932	-0.145	0.003691	43.23
	0.115	-71.072	0.003221	30.63	0.003228	18.508	0.003527	31.995
	0.0003817	79.981	0.003236	30.379	0.405	-75.594	0.002016	114.036
	0.003745	41.647	0.0004047	74.551	0.003214	18.556	0.002001	113.403
	0.405	-75.386						
238.95	0.132	-63.73	0.003584	15.262	0.933	-1.647	0.003529	29.433
	0.00382	40.139	0.003583	15.78	0.359	-79.58	0.00371	42.554
	0.0004275	77.91	0.0004597	76.847	0.933	-1.721	0.003742	42.022
	0.105	-70.069	0.003301	26.848	0.003294	14.074	0.003533	29.788
	0.0004186	76.398	0.003302	26.95	0.362	-79.551	0.002402	111.546
	0.003839	39.916	0.0004743	78.762	0.003288	13.058	0.002429	110.763
	0.362	-79.318						
268.8	0.126	-64.427	0.003576	12.582	0.933	-3.02	0.003594	27.379
	0.003917	39.19	0.003618	12.134	0.323	-82.867	0.003838	42.51
	0.0005057	78.999	0.0005288	80.312	0.933	-3.082	0.003859	41.414
	0.097	-69.229	0.003316	24.854	0.003288	9.855	0.003567	26.999
	0.0005225	81.428	0.003338	24.659	0.326	-82.902	0.002803	108.294
	0.003906	39.697	0.0005434	75.407	0.003349	10.141	0.002809	107.192
	0.327	-82.6						
298.65	0.121	-65.466	0.003587	9.338	0.935	-4.252	0.003671	25.258
	0.004001	39.126	0.003608	9.03	0.294	-85.773	0.003919	42.383
	0.0005681	82.056	0.0005909	78.055	0.935	-4.402	0.003991	42.05
	0.091	-68.446	0.003358	23.081	0.003352	6.228	0.003627	25.65
	0.0006154	80.503	0.003307	22.884	0.297	-85.784	0.003181	105.058
	0.003991	39.142	0.000558	80.427	0.003344	6.231	0.003238	105.058
	0.298	-85.513						
328.5	0.117	-66.652	0.003588	5.775	0.935	-5.545	0.00364	24.004
	0.004084	38.383	0.003567	6.375	0.269	-88.185	0.004025	41.954
	0.0006165	77.277	0.0006451	80.232	0.934	-5.598	0.003984	41.856
	0.087	-67.651	0.00337	21.877	0.003329	2.737	0.003654	23.744
	0.0006174	80.928	0.003356	21.498	0.272	-88.353	0.003557	103.265
	0.00407	38.473	0.0006073	78.49	0.003303	3.199	0.003601	102.419
	0.274	-87.981						
358.35	0.113	-68.084	0.00352	3.082	0.934	-6.681	0.003633	23.07
	0.00418	38.824	0.003543	3.14	0.248	-90.36	0.004085	42.368
	0.0006748	77.441	0.0006713	78.001	0.933	-6.81	0.004066	42.486
	0.084	-66.996	0.003319	20.228	0.003313	-0.701	0.003643	23.012
	0.0006632	81.815	0.003328	20.393	0.25	-90.612	0.003943	101.543
	0.004169	38.893	0.0006822	73.83	0.00331	0.213	0.003931	100.406
	0.253	-90.178						
388.2	0.11	-69.68	0.003457	0.676	0.932	-7.781	0.003618	22.714
	0.004193	39.151	0.00346	0.036	0.23	-92.268	0.004139	43.559
	0.0007175	82.427	0.0007978	77.305	0.932	-7.833	0.004145	43.456
	0.081	-66.396	0.00335	19.712	0.003299	-2.352	0.003637	22.434
	0.0007269	78.885	0.003324	19.908	0.232	-92.518	0.004274	99.182
	0.004178	39.045	0.0007402	78.232	0.003282	-2.174	0.004302	98.94
	0.235	-92.158						
418.05	0.107	-71.34	0.003407	-1.443	0.931	-8.769	0.003592	21.893
	0.004212	39.95	0.003376	-1.475	0.214	-93.978	0.004201	44.427
	0.0007763	78.312	0.0008502	76.838	0.932	-8.844	0.004178	45.075
	0.079	-66.019	0.00331	18.881	0.003263	-4.793	0.003609	22.012
	0.0008084	79.034	0.003328	18.717	0.216	-94.289	0.004641	97.223
	0.004223	40.043	0.0008308	76.644	0.00327	-4.912	0.00465	97.744
	0.219	-93.911						
447.9	0.104	-73.109	0.003333	-3.298	0.93	-9.625	0.003588	21.611
	0.004304	40.282	0.003334	-3	0.2	-95.447	0.004245	46.01
	0.0008276	78.053	0.0008846	78.672	0.931	-9.722	0.004233	45.959
	0.077	-65.743	0.003307	18.962	0.003231	-6.498	0.003616	21.468
	0.0008311	80.794	0.003337	18.835	0.201	-95.915	0.005037	96.754
	0.004294	40.565	0.000869	78.328	0.003239	-7.08	0.005008	96.409
	0.206	-95.454						
477.75	0.101	-74.882	0.003274	-6.424	0.932	-10.564	0.003572	21.248
	0.004368	41.212	0.003246	-5.666	0.187	-96.713	0.004329	47.812
	0.0009098	76.276	0.0009496	78.435	0.931	-10.664	0.004336	47.127
	0.075	-65.445	0.003322	18.527	0.003223	-9.002	0.003556	20.908
	0.0009482	77.332	0.003323	18.243	0.189	-97.434	0.005371	95.036
	0.004366	40.821	0.0009223	76.722	0.003209	-8.731	0.005397	95.109
	0.194	-96.911						
507.6	0.098	-76.497	0.003176	-8.485	0.932	-11.568	0.003581	21.211
	0.004405	41.9	0.003172	-8.066	0.176	-97.916	0.004383	49.024
	0.001011	78.144	0.001006	76.204	0.931	-11.635	0.004435	48.562
	0.074	-65.111	0.003278	18.517	0.00322	-11.398	0.003549	21.372
	0.0009796	75.717	0.003303	18.718	0.177	-98.679	0.005694	93.928
	0.004426	41.987	0.001024	76.153	0.003175	-10.975	0.005767	93.874
	0.183	-98.169						
537.45	0.095	-78.279	0.003121	-10.495	0.932	-12.604	0.003526	21.297
	0.004532	42.77	0.003086	-10.69	0.166	-98.751	0.004511	50.08
	0.001049	78.119	0.001096	76.555	0.93	-12.705	0.004535	49.876
	0.073	-64.836	0.003299	18.964	0.003141	-13.706	0.003531	21.656
	0.001007	75.969	0.003269	18.713	0.167	-99.756	0.006087	92.565
	0.004494	42.969	0.001065	75.889	0.003185	-13.349	0.006101	92.654
	0.174	-99.328						
567.3	0.092	-79.881	0.003003	-12.616	0.931	-13.551	0.00349	21.181
	0.004584	43.578	0.003041	-12.755	0.157	-99.595	0.004607	51.516
	0.001099	78.259	0.001142	77.015	0.929	-13.661	0.004592	51.48
	0.072	-64.606	0.003239	18.917	0.003074	-15.301	0.003512	21.84
	0.001096	76.821	0.003307	18.599	0.158	-100.793	0.006432	91.562
	0.004554	43.548	0.001125	76.958	0.00314	-15.651	0.006426	91.448
	0.165	-100.447						
597.15	0.088	-81.292	0.002891	-14.295	0.929	-14.442	0.003462	21.307
	0.004614	44.503	0.002916	-14.52	0.149	-100.248	0.004688	52.87
	0.001172	77.356	0.001172	74.46	0.928	-14.544	0.004679	52.812
	0.071	-64.361	0.003234	19.046	0.003072	-17.017	0.003487	21.839
	0.001166	76.68	0.003225	19.297	0.15	-101.67	0.006728	90.621
	0.004627	44.422	0.00118	75.732	0.003085	-17.981	0.006732	90.604
	0.158	-101.331						
627	0.085	-82.665	0.002798	-16.165	0.928	-15.344	0.003415	21.744
	0.004693	45.318	0.002791	-16.633	0.141	-100.776	0.004782	54.582
	0.001189	76.176	0.0012	76.635	0.927	-15.357	0.004794	54.318
	0.07	-64.101	0.003186	19.598	0.003026	-18.944	0.003407	21.87
	0.00123	76.364	0.003211	19.641	0.143	-102.334	0.007091	89.416
	0.004703	45.584	0.001235	73.837	0.003065	-19.956	0.007066	89.936
	0.151	-102.046						
656.85	0.081	-83.803	0.002681	-18.371	0.927	-16.151	0.003396	22.828
	0.00477	46.991	0.002658	-18.89	0.134	-101.018	0.004917	56.434
	0.001269	75.402	0.001301	75.411	0.927	-16.204	0.004894	55.999
	0.069	-63.529	0.003188	20.379	0.002988	-21.603	0.003373	22.689
	0.001271	76.275	0.003203	20.971	0.136	-102.775	0.007415	88.899
	0.004797	46.912	0.00129	73.594	0.002965	-21.894	0.007448	89.133
	0.144	-102.668						
686.7	0.077	-84.762	0.002562	-20.809	0.927	-16.989	0.003347	24.13
	0.004842	47.76	0.002543	-20.878	0.128	-101.049	0.005006	57.77
	0.001362	75.803	0.001319	74.624	0.927	-17.075	0.005043	56.793
	0.069	-62.779	0.003208	21.412	0.002935	-24.027	0.003356	23.039
	0.001339	74.807	0.003196	21.395	0.13	-102.971	0.007798	88.306
	0.004849	47.785	0.001364	73.167	0.002918	-22.908	0.007795	88.186
	0.139	-102.98						
716.55	0.073	-85.396	0.002441	-23.337	0.924	-17.768	0.003298	23.982
	0.004946	49.149	0.002424	-23.654	0.122	-100.932	0.005134	59.003
	0.00138	73.944	0.001378	74.789	0.927	-17.866	0.005144	58.529
	0.068	-61.889	0.003173	22.913	0.002893	-25.877	0.003356	23.887
	0.001383	74.131	0.003165	21.721	0.123	-103.141	0.008116	87.743
	0.004941	48.894	0.001458	73.75	0.002864	-25.643	0.008134	87.469
	0.133	-103.258						
746.4	0.068	-85.741	0.002342	-26.717	0.925	-18.587	0.003283	24.513
	0.00506	50.173	0.0023	-26.592	0.116	-100.702	0.005295	59.946
	0.001421	72.841	0.00144	73.602	0.927	-18.725	0.005299	60.104
	0.067	-60.819	0.003156	23.069	0.00281	-26.918	0.003318	24.633
	0.001462	73.548	0.003149	22.574	0.118	-103.085	0.008455	86.878
	0.004981	49.944	0.001499	73.179	0.00284	-27.525	0.00847	86.729
	0.128	-103.453						
776.25	0.063	-85.551	0.002216	-30.429	0.928	-19.508	0.003227	25.58
	0.005137	51.029	0.002214	-29.943	0.111	-100.34	0.005424	61.552
	0.001459	72.401	0.001542	73.355	0.926	-19.636	0.005468	61.305
	0.067	-59.472	0.003146	24.236	0.002737	-29.641	0.003239	26.219
	0.001504	72.445	0.003156	23.783	0.113	-103	0.008805	86.079
	0.005106	50.994	0.001522	73.041	0.002765	-29.147	0.008815	85.986
	0.123	-103.645						
806.1	0.059	-84.913	0.002085	-33.447	0.928	-20.437	0.003218	26.233
	0.005215	52.158	0.002043	-34.845	0.106	-99.822	0.005564	62.397
	0.001538	71.81	0.001582	72.16	0.926	-20.535	0.005575	62.401
	0.066	-57.805	0.003195	24.543	0.002716	-31.583	0.003237	26.873
	0.001529	72.997	0.003156	24.524	0.108	-102.648	0.009125	85.225
	0.005209	52.025	0.001574	72.793	0.0027	-30.967	0.009143	85.09
	0.119	-103.614						
835.95	0.054	-83.662	0.001927	-37.493	0.926	-21.387	0.003186	27.651
	0.005299	53.117	0.001923	-38.224	0.101	-98.949	0.005721	63.394
	0.001639	71.854	0.001661	71.959	0.924	-21.434	0.00571	63.503
	0.066	-56.423	0.003182	24.956	0.002646	-33.736	0.00316	27.857
	0.001565	71.947	0.00314	25.6	0.103	-102.361	0.009435	84.505
	0.005306	52.949	0.00164	73.302	0.00264	-33.803	0.009433	84.471
	0.114	-103.568						
865.8	0.05	-81.44	0.001795	-40.59	0.924	-22.221	0.003144	28.808
	0.005405	54.046	0.001782	-42.194	0.097	-98.087	0.00585	64.797
	0.001694	71.543	0.0017	71.236	0.922	-22.294	0.005866	64.566
	0.065	-54.992	0.003134	26.653	0.002559	-36.448	0.003116	28.698
	0.001624	71.505	0.003139	27.124	0.099	-101.81	0.009746	83.94
	0.005382	54.067	0.001693	72.267	0.002582	-36.154	0.009759	83.95
	0.111	-103.458						
895.65	0.046	-78.181	0.001658	-45.732	0.921	-22.921	0.003072	30.522
	0.005477	55.169	0.001648	-46.311	0.093	-97.124	0.005999	65.838
	0.001731	72.827	0.001784	71.442	0.921	-22.941	0.006007	66.054
	0.065	-53.278	0.003174	28.238	0.002481	-38.715	0.003065	30.2
	0.001707	70.509	0.003152	28.52	0.095	-101.08	0.01	83.186
	0.005471	54.632	0.001764	71.707	0.002502	-38.241	0.01	83.111
	0.107	-103.183						
925.5	0.042	-73.426	0.001531	-52.279	0.918	-23.678	0.003047	31.936
	0.005596	55.857	0.001505	-52.063	0.089	-95.783	0.006207	67.249
	0.001785	72.01	0.001836	70.055	0.921	-23.654	0.006202	67.414
	0.065	-51.436	0.003154	29.084	0.002448	-40.755	0.003032	31.879
	0.001777	71.029	0.003135	29.355	0.092	-100.051	0.01	82.52
	0.005598	55.769	0.001825	70.569	0.002447	-39.954	0.01	82.507
	0.104	-102.88						
955.35	0.039	-66.803	0.001436	-58.132	0.919	-24.329	0.003041	33.884
	0.00572	57.087	0.001412	-59.642	0.086	-94.238	0.006406	68.274
	0.001815	70.306	0.001889	70.221	0.921	-24.484	0.006394	68.09
	0.065	-49.588	0.003167	30.926	0.002391	-43.303	0.003039	33.489
	0.001849	69.777	0.003146	30.709	0.088	-98.948	0.011	82.245
	0.005724	56.92	0.001894	69.417	0.002357	-42.822	0.011	81.974
	0.101	-102.207						
985.2	0.037	-58.428	0.00134	-66.517	0.922	-25.16	0.003019	35.251
	0.005828	57.909	0.001337	-66.093	0.083	-92.483	0.006607	69.063
	0.001899	69.002	0.001975	70.915	0.923	-25.319	0.006576	68.852
	0.065	-47.382	0.003225	31.968	0.002306	-44.942	0.003028	35.424
	0.001894	69.499	0.003181	31.623	0.085	-97.493	0.011	81.551
	0.005853	57.758	0.001948	68.69	0.002292	-45.657	0.011	81.303
	0.098	-101.419						
1015.05	0.037	-49.017	0.001248	-76.448	0.922	-26.104	0.002996	36.509
	0.005929	58.547	0.001246	-77.113	0.08	-90.293	0.006755	69.919
	0.001991	67.572	0.002024	68.717	0.923	-26.17	0.006763	69.717
	0.066	-44.799	0.00322	33.018	0.002241	-47.944	0.003001	37.044
	0.001969	68.52	0.003219	32.261	0.082	-95.751	0.012	80.687
	0.005954	58.528	0.002012	68.767	0.002236	-49.661	0.012	80.497
	0.096	-100.553						
1044.9	0.038	-39.361	0.001183	-86.035	0.922	-27.035	0.002949	38.559
	0.006057	59.539	0.001208	-87.481	0.077	-88.057	0.006923	70.578
	0.002008	67.017	0.002065	68.471	0.923	-27.114	0.00694	70.513
	0.068	-42.357	0.003259	34.838	0.002181	-51.007	0.002919	38.907
	0.002058	67.55	0.003242	33.747	0.08	-93.843	0.012	80.124
	0.006059	59.364	0.00207	67.168	0.002144	-51.85	0.012	79.957
	0.093	-99.391						
1074.75	0.04	-30.66	0.001175	-97.293	0.92	-27.798	0.002911	40.544
	0.006146	60.318	0.00118	-97.36	0.075	-85.641	0.007126	71.242
	0.00206	66.486	0.002095	68.163	0.922	-27.936	0.007108	71.335
	0.069	-40.021	0.003292	36.198	0.002086	-53.35	0.002869	40.656
	0.0021	67.13	0.003257	35.692	0.077	-91.768	0.012	79.6
	0.006161	60.068	0.002098	66.504	0.00208	-54.803	0.012	79.418
	0.091	-98.228						
1104.6	0.044	-23.375	0.001209	-108.97	0.919	-28.595	0.002936	42.879
	0.006262	60.96	0.00121	-110.063	0.073	-82.993	0.007294	72.164
	0.002129	66.904	0.002178	67.686	0.92	-28.717	0.00732	71.866
	0.071	-37.761	0.003313	37.425	0.002008	-56.45	0.002887	42.058
	0.002155	66.866	0.003277	37.283	0.075	-89.522	0.012	78.946
	0.006305	60.674	0.002174	66.136	0.002044	-57.676	0.013	78.841
	0.088	-96.973						
1134.45	0.049	-17.73	0.001244	-118.676	0.917	-29.429	0.00291	45.497
	0.006392	61.568	0.001293	-120.544	0.071	-80.101	0.007475	72.754
	0.002202	65.75	0.002248	66.589	0.918	-29.522	0.007498	72.739
	0.073	-35.489	0.003314	39.127	0.001899	-60.67	0.002898	44.536
	0.002202	67.012	0.003324	38.722	0.073	-87.049	0.013	78.476
	0.00644	61.655	0.002256	66.757	0.001959	-60.461	0.013	78.388
	0.086	-95.599						
1164.3	0.055	-13.519	0.001347	-129.726	0.915	-30.238	0.002884	47.644
	0.006552	62.45	0.00139	-130.139	0.07	-76.958	0.007674	73.57
	0.002247	65.686	0.002257	66.001	0.917	-30.34	0.00768	73.602
	0.076	-33.348	0.003345	40.791	0.001833	-65.299	0.002909	47.762
	0.002289	66.183	0.003369	40.261	0.072	-84.391	0.013	77.894
	0.006524	62.62	0.002323	66.684	0.001859	-63.888	0.013	77.791
	0.084	-94.019						
1194.15	0.062	-10.441	0.001514	-138.525	0.914	-30.988	0.002903	49.856
	0.00665	63.407	0.001526	-139.072	0.069	-73.748	0.007859	74.281
	0.002342	65.002	0.002371	65.703	0.916	-31.141	0.007896	74.347
	0.079	-31.422	0.003428	42.062	0.001762	-69.056	0.002921	50.358
	0.002365	64.782	0.003412	42.102	0.07	-81.527	0.013	77.351
	0.006635	63.29	0.002399	65.794	0.001785	-67.524	0.014	77.16
	0.082	-92.291						
1224	0.069	-8.47	0.001702	-146.417	0.914	-31.764	0.002907	51.621
	0.006768	64.166	0.001689	-146.733	0.069	-70.358	0.008049	74.864
	0.00243	63.851	0.002454	65.029	0.915	-31.825	0.008077	74.914
	0.082	-29.576	0.003465	43.394	0.001683	-73.014	0.002926	52.451
	0.002408	64.221	0.003463	43.7	0.07	-78.632	0.014	76.712
	0.006797	64.079	0.002428	65.122	0.001723	-72.022	0.014	76.61
	0.081	-90.532						
1253.85	0.076	-7.244	0.001894	-153.16	0.915	-32.474	0.002914	54.513
	0.006915	64.716	0.001895	-153.482	0.068	-66.86	0.008257	75.708
	0.002486	63.356	0.002479	64.688	0.915	-32.559	0.008272	75.499
	0.086	-27.872	0.003519	44.85	0.001609	-77.804	0.002907	54.9
	0.002462	63.79	0.003566	44.775	0.069	-75.716	0.014	76.123
	0.006923	65.043	0.00249	64.694	0.00164	-77.078	0.014	76
	0.08	-88.769						
1283.7	0.084	-6.524	0.002098	-158.384	0.916	-33.225	0.002951	57.544
	0.007082	65.379	0.002094	-159.098	0.069	-63.38	0.008474	76.372
	0.002521	63.031	0.00255	63.942	0.916	-33.334	0.008511	76.239
	0.09	-26.252	0.003625	46.205	0.001563	-81.693	0.002924	58.017
	0.002531	62.82	0.003648	46.335	0.069	-72.565	0.015	75.645
	0.00705	65.771	0.00258	64.419	0.00158	-80.948	0.015	75.447
	0.079	-86.748						
1313.55	0.092	-6.278	0.002321	-163.016	0.918	-34.139	0.00301	60.086
	0.007234	65.925	0.002296	-163.396	0.069	-59.892	0.008681	76.826
	0.002605	61.733	0.002647	63.277	0.918	-34.209	0.008743	76.693
	0.095	-24.71	0.003714	47.212	0.00154	-87.236	0.003	61.054
	0.002613	62.044	0.003734	47.652	0.07	-69.269	0.015	74.925
	0.007231	66.18	0.002628	63.91	0.001515	-86.938	0.015	74.774
	0.078	-84.505						
1343.4	0.101	-6.37	0.002582	-166.559	0.919	-35.201	0.003095	62.638
	0.007343	66.51	0.002545	-167.421	0.07	-56.364	0.008926	77.124
	0.002682	60.317	0.002721	62.844	0.918	-35.171	0.008934	77.136
	0.1	-23.576	0.00378	47.885	0.001477	-92.828	0.003104	63.488
	0.00268	60.582	0.003821	48.648	0.07	-65.82	0.015	74.085
	0.007385	66.599	0.002678	62.347	0.001455	-94.463	0.015	74.064
	0.078	-82.123						
1373.25	0.109	-6.773	0.002816	-170.424	0.915	-36.18	0.003167	64.929
	0.007438	67.114	0.002811	-171.102	0.072	-52.978	0.009162	77.544
	0.002696	58.794	0.002764	62.277	0.913	-36.135	0.009102	77.532
	0.104	-22.647	0.0039	48.84	0.001401	-97.495	0.003155	64.542
	0.00273	59.119	0.003906	49.295	0.071	-62.468	0.016	73.468
	0.007479	66.999	0.002752	61.778	0.00139	-100	0.016	73.343
	0.077	-79.595						
1403.1	0.117	-7.379	0.003059	-174.691	0.909	-36.976	0.003219	66.95
	0.007573	67.897	0.003074	-174.532	0.073	-49.786	0.009315	78.003
	0.002763	57.568	0.002792	62.074	0.908	-37.003	0.009304	78.029
	0.109	-21.687	0.004011	49.49	0.001382	-104.406	0.003195	66.571
	0.002769	57.811	0.003996	49.886	0.072	-59.274	0.016	73.072
	0.007584	67.315	0.002795	61.242	0.001348	-105.535	0.016	72.803
	0.076	-77.069						
1432.95	0.125	-8.089	0.003349	-177.558	0.905	-37.607	0.003291	69.502
	0.007713	68.64	0.003325	-177.47	0.075	-46.705	0.009473	78.727
	0.002823	56.234	0.002839	61.253	0.905	-37.59	0.009511	78.832
	0.115	-20.941	0.004121	50.965	0.001376	-111.986	0.003298	69.688
	0.002815	55.93	0.004112	51.149	0.074	-56.063	0.016	72.651
	0.00771	67.969	0.002857	60.265	0.001345	-111.708	0.016	72.439
