!Hittite Microwave Corporation								
!12 Elizabeth Drive								
!Chelmsford, MA 01824								
!Tel: 978-250-3343								
!Fax: 978-250-3373								
!Device: HMC252QS24, DC-3 GHz GaAS MMIC SP6T Non-Reflective Switch in 24-lead QSOP package								
!Misc: Port 1 = RFCom, Port 2 = RF1, Port 3 = RF2, Port 4 = RF3, Port 5 = RF4, Port 6 = RF5, Port 7 = RF6, RF3 selected, Vdd=+5V							
!
# MHZ S MA R 50

30	0.705	40.343	0.001117	83.31	0.001147	84.472	0.668	-46.707
	0.0008958	87.521	0.001114	86.05	0.001197	85.236	0.001105	83.197
	0.914	-20.495	0.0002538	47.312	0.001023	86.893	0.00004216	105.087
	0.00003138	51.132	0.00004155	20.267	0.00118	84.626	0.0002996	65.888
	0.918	-20.286	0.001226	87.185	0.00003359	25.025	0.00006255	-162.862
	0.00001125	-101.582	0.668	-46.738	0.001012	86.473	0.001193	88.021
	0.704	40.414	0.0009197	88.763	0.00104	88.282	0.001083	85.946
	0.000914	88.177	0.00006505	-159.178	0.00003241	37.519	0.0009434	91.148
	0.917	-20.584	0.0005073	52.81	0.0000309	115.047	0.001121	85.314
	0.00006091	-70.194	0.00006544	76.354	0.00104	88.277	0.0005023	52.653
	0.918	-20.178	0.0002698	71.942	0.001217	86.427	0.00007706	106.826
	0.00002395	152.297	0.001087	86.244	0.00002528	114.224	0.0002405	62.491
	0.917	-20.554						
47.35	0.531	50.498	0.001863	75.12	0.001872	74.69	0.797	-34.692
	0.001527	77.588	0.001826	77.69	0.002022	77.12	0.001862	75.288
	0.85	-30.466	0.0003353	55	0.001638	77.052	0.00003411	-5.365
	0.00002249	12.667	0.0000545	1.785	0.001902	74.89	0.0003888	59.451
	0.855	-30.197	0.001986	78.117	0.00003179	148.727	0.0000398	73.438
	0.00001994	136.975	0.797	-34.711	0.001618	77.123	0.001965	79.266
	0.53	50.611	0.001487	80.375	0.001709	77.628	0.001725	74.859
	0.001488	77.235	0.00004483	-110.475	0.00002822	39.091	0.001521	80.898
	0.853	-30.65	0.0006522	42.498	0.00004063	50.856	0.001829	76.797
	0.00003619	36.261	0.00004792	85.827	0.001708	77.967	0.000646	43.117
	0.855	-30.071	0.0003227	56.634	0.002011	78.004	0.00006118	109.627
	0.00001476	132.393	0.001724	75.602	0.00002457	81.138	0.0003027	55.754
	0.852	-30.565						
64.7	0.414	55.46	0.002545	65.67	0.002509	64.123	0.854	-27.813
	0.002047	65.854	0.002479	67.569	0.00276	69.07	0.002527	65.724
	0.779	-39.034	0.0003919	53.846	0.002161	67.051	0.00003916	-35.828
	0.00002668	-4.6	0.00004016	26.5	0.002499	64.477	0.0004109	60.127
	0.785	-38.737	0.002648	69.842	0.00002641	-117.695	0.00002986	32.481
	0.00004223	38.033	0.854	-27.87	0.002158	67.373	0.002667	70.352
	0.414	55.615	0.001981	69.08	0.002286	66.637	0.00227	63.279
	0.002009	66.673	0.00005575	13.521	0.00005651	104.199	0.002045	68.995
	0.781	-39.275	0.0006651	34.124	0.00005844	-75.291	0.002453	66.493
	0.00003205	119.507	0.00006288	113.59	0.002253	66.183	0.0006753	35.346
	0.784	-38.587	0.0003353	56.183	0.00274	69.347	0.00004356	-159.379
	0.00002755	91.868	0.002304	64.258	0.00004856	110.457	0.0003576	58.743
	0.78	-39.143						
82.05	0.335	57.665	0.003059	58.019	0.003053	54.588	0.884	-23.664
	0.002455	56.609	0.002964	59.578	0.003337	62.486	0.003037	58.08
	0.71	-46.346	0.0004294	62.792	0.002569	57.299	0.00007341	78.048
	0.00003568	39.333	0.00005832	53.262	0.003018	54.867	0.0004051	62.826
	0.715	-46.033	0.003161	61.994	0.00004735	-171.865	0.00006139	150.33
	0.00005305	105.79	0.883	-23.675	0.002576	58.34	0.003211	62.452
	0.335	57.811	0.002436	59.944	0.002684	58.546	0.002715	53.413
	0.002501	57.573	0.00000992	78.776	0.00007104	135.754	0.002505	59.7
	0.711	-46.669	0.0005864	33.845	0.0001231	162.278	0.002998	59.289
	0.0000235	63.213	0.0000524	140.089	0.002699	57.192	0.0005791	33.718
	0.715	-45.892	0.0003888	57.759	0.003327	63.055	0.00003805	-49.845
	0.00003753	135.71	0.002687	53.034	0.00009454	113.676	0.0003828	58.369
	0.71	-46.475						
99.4	0.279	58.274	0.003444	51.976	0.003438	47.228	0.9	-20.966
	0.002814	49.243	0.003412	52.92	0.003763	57.191	0.003487	51.49
	0.646	-52.472	0.0004463	72.345	0.002953	50.079	0.0000053	-70.517
	0.00007922	162.693	0.00005121	84.742	0.003418	47.158	0.0004678	72.055
	0.652	-52.164	0.003636	56.402	0.0001013	136.985	0.00006897	175.662
	0.000102	107.577	0.9	-20.995	0.002913	50.406	0.003629	55.353
	0.279	58.469	0.002792	53.494	0.003039	49.993	0.003028	44.573
	0.002791	49.299	0.00001426	-146.356	0.00004472	159.924	0.002779	53.199
	0.647	-52.795	0.0005365	42.048	0.0001174	125.049	0.003372	52.538
	0.00005403	110.449	0.00002604	112.653	0.003042	49.787	0.0004954	37.38
	0.651	-51.919	0.0004172	66.472	0.003796	56.998	0.00005148	77.184
	0.0000569	63.848	0.002994	45.083	0.0001127	144.9	0.0004358	64.172
	0.646	-52.571						
116.75	0.237	57.859	0.003779	46.845	0.003722	40.459	0.91	-19.206
	0.003051	42.689	0.003674	47.253	0.004118	52.702	0.003788	46.423
	0.588	-57.566	0.0005063	83.355	0.003164	43.546	0.00003104	-148.073
	0.0000768	145.952	0.00005535	125.61	0.003668	41.337	0.0005026	82.684
	0.595	-57.248	0.003891	51.48	0.00006852	175.326	0.00008635	142.367
	0.00009068	142.254	0.91	-19.252	0.003161	43.427	0.003908	51.543
	0.238	58.058	0.003005	47.031	0.003307	43.532	0.003324	37.262
	0.003033	42.951	0.00008553	168.149	0.00004335	132.7	0.002964	47.556
	0.59	-57.889	0.0004649	53.678	0.0001511	135.207	0.003693	47.778
	0.00006327	103.686	0.00007296	132.483	0.003278	43.625	0.0004359	54.018
	0.594	-57.017	0.000473	82.035	0.004118	52.913	0.00008083	111.092
	0.00006727	127.7	0.003291	37.904	0.00017	134.559	0.0005015	78.503
	0.59	-57.707						
134.1	0.205	56.725	0.004009	42.124	0.003926	35.373	0.917	-18.049
	0.003235	37.431	0.003909	42.425	0.004404	49.233	0.003996	42.152
	0.538	-61.969	0.0005638	85.594	0.003316	37.585	0.00005891	163.907
	0.00007587	115.686	0.0001093	116.412	0.003899	35.664	0.0005774	88.805
	0.545	-61.576	0.004128	47.656	0.0001392	137.896	0.0001202	134.3
	0.000113	126.084	0.916	-18.059	0.003325	37.858	0.004145	47.386
	0.206	56.946	0.003221	41.91	0.003487	38.056	0.003501	30.381
	0.003217	37.84	0.00008261	132.446	0.0001244	130.119	0.003151	42.859
	0.54	-62.295	0.0004615	69.997	0.0002328	130.462	0.003913	43.497
	0.0001029	112.379	0.0001153	130.656	0.0035	37.714	0.000486	71.125
	0.543	-61.419	0.0005489	84.909	0.004393	49.863	0.0001173	116.024
	0.000116	135.93	0.003481	31.371	0.0002001	120.765	0.0005481	83.563
	0.539	-62.059						
151.45	0.179	55.046	0.004166	38.422	0.004059	30.995	0.921	-17.289
	0.003387	32.919	0.004087	38.805	0.00462	46.729	0.004158	38.653
	0.494	-65.761	0.0006675	88.841	0.003449	32.816	0.00009306	140.355
	0.00008435	115.665	0.0001367	110.476	0.004073	30.663	0.0006768	91.466
	0.501	-65.39	0.0043	44.443	0.0001602	120.379	0.0001594	122.207
	0.0001306	128.296	0.921	-17.295	0.003472	33.142	0.004341	44.02
	0.181	55.231	0.003357	37.354	0.003645	33.633	0.003604	25.103
	0.003376	32.994	0.000108	120.598	0.0001706	138.393	0.003308	38.437
	0.497	-66.112	0.0005616	82.948	0.000293	125.19	0.004093	39.391
	0.0001173	125.86	0.0001485	132.869	0.003668	33.143	0.000606	86.504
	0.499	-65.226	0.0006356	90.985	0.004635	47.091	0.0001207	122.704
	0.0001192	121.588	0.00361	25.514	0.0002479	120.609	0.0006401	88.389
	0.496	-65.849						
168.8	0.158	52.933	0.004281	35.308	0.00417	26.831	0.924	-16.8
	0.003506	29.158	0.004212	35.618	0.004799	44.82	0.004294	35.382
	0.455	-69.062	0.0008164	93.529	0.003565	28.849	0.0001313	124.637
	0.000123	130.452	0.0001539	121.908	0.004194	26.724	0.0007951	94.362
	0.463	-68.727	0.004445	41.787	0.0001657	126.105	0.0001783	114.038
	0.000129	126.646	0.924	-16.804	0.003604	29.106	0.004487	41.615
	0.161	53.055	0.003423	33.9	0.003762	29.498	0.003684	20.923
	0.003504	28.761	0.0001274	112.601	0.0001598	138.559	0.003416	34.677
	0.459	-69.417	0.0007125	92.347	0.0003346	120.452	0.00423	35.791
	0.0001436	122.186	0.0001659	133.566	0.003779	29.21	0.000755	95.933
	0.461	-68.537	0.0007418	96.395	0.004824	44.794	0.0001183	121.134
	0.000108	111.885	0.003717	20.644	0.0003379	121.753	0.0007632	93.669
	0.458	-69.142						
186.15	0.14	50.424	0.004381	32.55	0.004285	22.947	0.926	-16.516
	0.003588	25.748	0.004315	32.581	0.004966	43.197	0.004405	32.408
	0.422	-71.964	0.0009661	97.234	0.003659	25.277	0.0001571	110.752
	0.0001661	132.171	0.0001836	132.368	0.004287	23.357	0.0009411	97.921
	0.429	-71.595	0.004585	39.933	0.0002075	124.646	0.0001746	118.745
	0.0001354	106.686	0.927	-16.499	0.003685	25.447	0.004595	39.674
	0.145	50.527	0.003476	31.591	0.003832	25.55	0.003768	16.925
	0.003582	25.35	0.0001224	105.703	0.000143	129.063	0.003495	31.876
	0.426	-72.279	0.0008807	99.05	0.0003716	113.87	0.00433	32.807
	0.0001831	109.809	0.0001824	122.942	0.00385	25.477	0.000921	99.837
	0.427	-71.445	0.0008549	96.098	0.004966	43.081	0.0001507	107.376
	0.0001362	113.076	0.003804	16.626	0.0004121	117.755	0.0008831	96.421
	0.424	-72.002						
203.5	0.125	47.533	0.004477	30.586	0.004379	19.564	0.927	-16.402
	0.003633	21.979	0.004413	30.388	0.005105	41.824	0.004484	30.478
	0.392	-74.509	0.001075	99.864	0.003729	22.272	0.0001564	105.709
	0.0001554	119.494	0.0002059	123.382	0.004361	19.669	0.001112	98.634
	0.4	-74.105	0.004681	38.78	0.00024	117.895	0.0001778	118.902
	0.0001819	111.601	0.928	-16.392	0.003709	21.856	0.004693	37.887
	0.131	47.631	0.003543	29.131	0.003902	22.643	0.003854	12.947
	0.003617	22.14	0.0001503	116.999	0.000177	120.011	0.003574	29.543
	0.397	-74.782	0.001082	101.311	0.0003998	110.746	0.004437	30.203
	0.0001788	119.289	0.0002214	113.645	0.003891	22.661	0.001105	103.692
	0.397	-74.028	0.0009463	96.357	0.005103	41.559	0.0002176	103.022
	0.0001881	118.622	0.003856	12.727	0.000398	120.452	0.0009983	96.526
	0.395	-74.56						
220.85	0.112	44.274	0.004517	28.826	0.004438	16.563	0.927	-16.377
	0.003646	19.161	0.00448	28.677	0.005154	40.886	0.004516	28.615
	0.367	-76.807	0.001192	97.231	0.003745	19.697	0.0001623	130.327
	0.0001639	131.22	0.0002329	129.815	0.004399	16.525	0.001223	98.545
	0.374	-76.389	0.004761	36.814	0.0002318	114.588	0.0001997	106.845
	0.0002058	115.121	0.927	-16.367	0.003761	19.788	0.00474	36.43
	0.119	44.347	0.003612	26.52	0.003945	19.329	0.003954	9.039
	0.003671	19.135	0.0001373	116.735	0.0002445	112.203	0.003597	27.464
	0.371	-77.087	0.001246	102.879	0.0004715	115.886	0.004499	28.445
	0.0002519	114.615	0.0002223	120.504	0.003955	20.421	0.001248	102.574
	0.372	-76.319	0.001071	97.878	0.005223	40.583	0.0002566	108.016
	0.0001581	126.417	0.003966	8.774	0.0004956	115.034	0.001134	96.97
	0.37	-76.754						
238.2	0.101	40.752	0.004544	27.429	0.004436	14.399	0.929	-16.397
	0.003708	16.565	0.00453	27.13	0.005252	39.96	0.00457	27.148
	0.344	-78.82	0.001345	98.411	0.003783	17.221	0.000211	118.043
	0.0002103	113.483	0.0002365	111.927	0.004433	13.699	0.001347	97.097
	0.352	-78.372	0.004822	35.74	0.000252	117.501	0.0002393	108.599
	0.0002144	111.964	0.929	-16.438	0.003748	17.209	0.004836	35.959
	0.11	40.883	0.00364	25.096	0.00401	17.681	0.004003	5.75
	0.003695	16.335	0.0001787	110.864	0.0002836	111.679	0.003657	25.515
	0.349	-79.059	0.001431	102.783	0.0005126	109.834	0.004564	26.97
	0.0002493	117.325	0.0002365	119.008	0.00402	17.799	0.001463	103.247
	0.35	-78.381	0.001229	97.744	0.005242	39.467	0.000247	112.456
	0.0001981	111.539	0.003969	5.17	0.0005286	113.051	0.001265	97.508
	0.347	-78.814						
255.55	0.092	36.712	0.004598	26.074	0.004501	12.24	0.929	-16.511
	0.003754	13.985	0.004576	26.046	0.005346	39.485	0.004598	25.942
	0.324	-80.641	0.001474	98.311	0.003809	14.889	0.0002137	112.174
	0.0002041	108.711	0.0002731	110.194	0.004471	11.612	0.001491	96.578
	0.332	-80.121	0.00488	35.125	0.0002729	113.314	0.0002664	102.281
	0.0002656	112.802	0.929	-16.568	0.003782	15.412	0.004906	35.408
	0.101	37.044	0.003667	23.26	0.004044	15.384	0.00405	3.318
	0.00374	14.09	0.000169	110.411	0.0003094	108.646	0.003684	23.326
	0.33	-80.853	0.001641	102.052	0.0005543	108.46	0.004551	25.658
	0.0002538	109.723	0.0002995	111.573	0.004025	15.433	0.001668	102.369
	0.33	-80.186	0.001354	96.892	0.005341	39.325	0.0002893	112.367
	0.0002309	107.892	0.004023	2.336	0.0005516	109.668	0.001344	96.092
	0.328	-80.56						
272.9	0.083	32.261	0.004632	25.015	0.004521	9.882	0.93	-16.703
	0.003778	12.115	0.004626	24.485	0.00544	39.049	0.004623	24.916
	0.307	-82.299	0.001604	97.593	0.003834	12.961	0.0002217	106.561
	0.0002466	108.571	0.0003152	108.959	0.004493	9.343	0.001615	96.304
	0.315	-81.737	0.004924	34.426	0.0002906	107.59	0.000302	102.186
	0.0002554	109.421	0.93	-16.758	0.003849	13.3	0.004949	34.661
	0.094	32.999	0.003693	21.494	0.004097	13.201	0.004077	0.379
	0.003757	12.009	0.0001707	111.354	0.0003085	104.985	0.0037	21.525
	0.312	-82.448	0.001832	102.45	0.0006001	108.43	0.004604	24.059
	0.0002768	108.732	0.0003065	108.905	0.004042	13.387	0.001827	101.96
	0.312	-81.841	0.001492	96.153	0.005449	39.084	0.0003146	112.144
	0.0002561	106.445	0.004059	-0.287	0.0006018	105.799	0.001474	96.316
	0.31	-82.149						
290.25	0.076	27.363	0.00465	24.095	0.004543	7.58	0.931	-16.956
	0.003799	10.136	0.004664	22.868	0.00552	38.687	0.004654	23.921
	0.291	-83.782	0.001737	96.329	0.00386	10.84	0.0002182	108.73
	0.0002842	108.09	0.0003381	111.763	0.004508	7.358	0.001741	96.393
	0.299	-83.198	0.004972	33.899	0.0003034	103.551	0.0003011	103.735
	0.0002354	104.566	0.93	-17.002	0.003869	10.933	0.004992	33.896
	0.089	28.821	0.00372	19.957	0.004118	11.223	0.004104	-2.988
	0.003749	9.903	0.0002025	107.671	0.0002951	108.195	0.003719	20.117
	0.296	-83.93	0.002012	101.604	0.0006518	108.302	0.004655	22.747
	0.0003075	109.693	0.0003023	103.808	0.004063	11.516	0.001984	101.547
	0.296	-83.401	0.001619	96.35	0.005516	38.858	0.0003226	108.595
	0.0002708	103.745	0.004091	-2.707	0.0006533	106.066	0.001613	97.18
	0.294	-83.6						
307.6	0.069	21.944	0.004654	23.057	0.00457	5.514	0.931	-17.27
	0.003821	7.835	0.004681	21.572	0.005576	38.52	0.00466	22.92
	0.276	-85.129	0.001891	95.36	0.00389	8.525	0.0002162	111.416
	0.0002919	106.262	0.000359	111.14	0.004524	5.381	0.001888	96.665
	0.284	-84.5	0.004999	33.486	0.0003192	103.727	0.0003058	103.02
	0.0002534	103.164	0.931	-17.325	0.003856	8.669	0.005024	33.261
	0.084	24.421	0.003735	18.862	0.004083	9.375	0.004144	-6.112
	0.003755	7.901	0.0002505	105.187	0.000314	111.94	0.003731	18.831
	0.282	-85.288	0.002178	99.79	0.0006868	106.753	0.004681	21.774
	0.0003346	107.388	0.0003097	97.317	0.00408	9.674	0.002172	100.705
	0.281	-84.836	0.001731	96.616	0.005573	38.715	0.0003274	100.958
	0.0002914	100.751	0.004129	-5.274	0.0007033	107.559	0.001728	96.725
	0.279	-84.9						
324.95	0.064	16.028	0.004643	21.911	0.00455	3.581	0.93	-17.645
	0.003829	5.858	0.004692	20.44	0.005626	38.405	0.004632	22.104
	0.263	-86.391	0.002068	95.392	0.003915	6.546	0.0002402	102.995
	0.0003093	103.191	0.0004023	97.915	0.004534	2.882	0.002037	96.523
	0.271	-85.687	0.004984	33.047	0.0003536	107.657	0.0003761	102.245
	0.000294	105.45	0.93	-17.729	0.003872	6.785	0.005024	32.916
	0.08	19.792	0.003727	18.116	0.004056	7.59	0.004184	-8.52
	0.00379	6.098	0.0002877	110.146	0.0003826	105.049	0.003724	17.649
	0.269	-86.46	0.002331	99.76	0.0006972	103.507	0.004718	20.707
	0.0003514	103.056	0.0003159	98.308	0.004107	7.737	0.002372	99.614
	0.268	-86.106	0.001848	95.767	0.005665	38.466	0.0003388	95.877
	0.0003324	99.142	0.004163	-8.437	0.0007575	104.671	0.001832	95.073
	0.267	-86.069						
342.3	0.06	9.745	0.004676	21.247	0.004523	1.574	0.93	-18.043
	0.003833	4.267	0.004722	19.301	0.005737	37.783	0.00468	21.882
	0.251	-87.502	0.002169	94.461	0.003887	4.599	0.0002211	107.569
	0.0003407	96.384	0.0004159	100.665	0.004519	1.545	0.002146	95.811
	0.259	-86.785	0.005036	33.579	0.0004146	107.022	0.0003623	100.971
	0.0003219	104.237	0.931	-18.092	0.003829	5.522	0.005061	33.25
	0.077	15.408	0.00373	16.537	0.004156	5.623	0.004172	-10.477
	0.003787	3.943	0.0002943	101.124	0.0004006	101.683	0.003729	17.231
	0.257	-87.576	0.002548	100.523	0.0007638	102.353	0.004689	19.958
	0.0003476	97.289	0.0003883	100.399	0.004136	5.568	0.002516	97.87
	0.256	-87.296	0.001927	95.752	0.005699	38.381	0.0003766	105.056
	0.0003547	97.264	0.004203	-11.493	0.0007441	105.619	0.00192	95.73
	0.254	-87.157						
359.65	0.056	2.933	0.004653	20.999	0.004471	-0.092	0.93	-18.451
	0.003812	2.342	0.0047	19.281	0.005757	38.113	0.00465	21.371
	0.24	-88.47	0.002293	94.189	0.003849	3.619	0.0002307	112.736
	0.0003584	107.195	0.0004649	100.615	0.004507	0.032	0.002267	95.876
	0.248	-87.724	0.005101	32.849	0.0004317	102.584	0.0003799	102.697
	0.0003625	101.889	0.93	-18.465	0.003797	3.957	0.005046	32.528
	0.074	11.134	0.003693	15.691	0.004112	4.238	0.004143	-13.006
	0.003802	1.942	0.0002851	99.54	0.0004209	101.607	0.003743	15.576
	0.246	-88.492	0.002691	98.459	0.0007729	101.304	0.004743	19.199
	0.0003103	99.262	0.0003983	98.255	0.004119	4.261	0.002752	99.032
	0.246	-88.345	0.002075	93.659	0.005782	38.661	0.0003751	105.411
	0.0003143	99.42	0.004136	-13.014	0.0007866	100.862	0.002049	94.82
	0.244	-88.097						
377	0.053	-4.143	0.004631	20.755	0.004521	-1.246	0.929	-18.835
	0.003779	0.433	0.004716	18.75	0.005789	38.494	0.004628	20.581
	0.23	-89.494	0.002385	94.565	0.003814	2.901	0.0002888	97.58
	0.0003931	105.558	0.0004144	96.776	0.004494	-1.609	0.002366	94.741
	0.238	-88.613	0.005074	33.292	0.0003977	101.443	0.0004056	104.711
	0.0003658	100.503	0.929	-18.868	0.003822	2.3	0.005058	33.003
	0.072	6.825	0.003714	14.855	0.0041	3.071	0.004203	-15.302
	0.003794	0.412	0.0002915	97.718	0.0004295	103.455	0.003754	15.044
	0.236	-89.508	0.002869	98.014	0.0008225	101.744	0.004724	17.901
	0.0003152	100.897	0.000428	103.893	0.004093	2.762	0.002877	98.405
	0.236	-89.308	0.002157	95.744	0.005807	38.548	0.0003996	100.456
	0.000334	100.277	0.004212	-14.842	0.000816	100.828	0.002152	95.953
	0.234	-88.977						
394.35	0.051	-11.376	0.004631	20.192	0.004514	-2.963	0.928	-19.245
	0.003791	-0.844	0.00471	18.1	0.005854	38.712	0.004614	20.46
	0.221	-90.419	0.002478	94.869	0.0038	1.698	0.0003208	103.163
	0.0004122	103.488	0.0004286	100.178	0.004482	-3.211	0.0025	95.027
	0.229	-89.382	0.005108	33.013	0.000446	104.874	0.0004038	98.954
	0.000391	99.705	0.929	-19.242	0.003787	1.107	0.005101	33.047
	0.071	2.623	0.00369	14.614	0.004096	1.624	0.004229	-17.16
	0.003776	-0.861	0.0003056	97.867	0.0004539	105.598	0.003728	14.183
	0.227	-90.351	0.003038	97.827	0.0008641	102.037	0.004717	17.068
	0.0003425	100.778	0.000424	105.215	0.004094	1.022	0.003039	97.663
	0.227	-90.28	0.002297	95.955	0.005827	38.714	0.0004484	104.024
	0.0003695	100.182	0.004232	-17.168	0.0008771	101.494	0.002288	95.379
	0.225	-89.799						
411.7	0.05	-18.727	0.004645	19.881	0.004482	-4.36	0.928	-19.624
	0.003779	-1.944	0.004723	17.651	0.005898	39.034	0.004629	20.188
	0.213	-91.232	0.00263	94.441	0.003788	0.194	0.0003375	109.099
	0.0004042	97.794	0.0004927	99.556	0.004452	-4.798	0.002654	94.871
	0.221	-90.115	0.005136	32.944	0.0004822	105.144	0.0004381	98.489
	0.0004147	102.814	0.929	-19.613	0.003767	-0.16	0.005116	33.187
	0.069	-1.388	0.003682	13.615	0.004067	0.427	0.004242	-18.919
	0.003742	-2.352	0.0003438	99.576	0.0004925	103.777	0.003687	13.247
	0.219	-91.087	0.003219	97.586	0.0009305	101.414	0.004725	16.843
	0.0003868	101.262	0.0004539	104.834	0.004096	0.136	0.003222	97.35
	0.218	-91.164	0.002449	95.146	0.005878	39.135	0.0004946	104.371
	0.0004024	100.538	0.004234	-19.543	0.0009593	101.479	0.002427	94.498
	0.216	-90.522						
429.05	0.049	-26.046	0.004644	20.051	0.00444	-5.51	0.928	-20.027
	0.003734	-3.166	0.004729	17.187	0.005926	39.606	0.004645	19.742
	0.205	-91.957	0.002788	93.652	0.00378	-1.425	0.0003662	105.905
	0.0004006	95.717	0.0005395	97.149	0.004433	-6.288	0.00279	94.117
	0.213	-90.827	0.005132	33.385	0.0005221	102.307	0.000479	103.517
	0.0004264	103.765	0.928	-20.058	0.003764	-1.565	0.005122	33.476
	0.068	-5.251	0.003694	12.409	0.004059	-0.588	0.004274	-21.14
	0.003721	-3.542	0.0003742	103.199	0.0005517	101.122	0.00366	12.563
	0.211	-91.801	0.003412	97.053	0.001013	100.554	0.004721	16.674
	0.0004365	103.677	0.0004736	102.839	0.004104	-0.634	0.003411	97.2
