! Hittite Microwave Corporation
! 20 Alpha Road
! Chelmsford, MA 01824
! Tel: 978-250-3343
! Fax: 978-250-3373
! Device: HMC276QS24, 0.7-3.0 GHz, GaAS MMIC 4x2 Switch Matrix in 24-lead QSOP package
! Misc: Data was de-embedded to package pins.
!       Port 1 = OP1
!       Port 2 = VL
!       Port 3 = VH
!       Port 4 = HH
!       Port 5 = HL
!       Port 6 = OP2
!          Vdd = +5 V
!         Vctl = 0 V[Logic 0] / +5 V[Logic 1]
!
!  State 11,  HL to OP1,  HL to OP2
!  Control Lines (Logic)
!    HV 1 = 1, Tone 1 = 0
!    HV 2 = 1, Tone 2 = 0
!
!  Data reformated to new Touchstone file format - Wed Jan 10 15:54:05 2007
!
# MHz S DB R 50
! 6 Port Network Data
! freq  dbS11  angS11  dbS12  angS12  dbS13  angS13  dbS14  angS14  
!       dbS15  angS15  dbS16  angS16  
!       dbS21  angS21  dbS22  angS22  
!       dbS23  angS23  dbS24  angS24  dbS25  angS25  dbS26  angS26  
!       dbS31  angS31  dbS32  angS32  dbS33  angS33  dbS34  angS34  
!       dbS35  angS35  dbS36  angS36  
!       dbS41  angS41  dbS42  angS42  
!       dbS43  angS43  dbS44  angS44  dbS45  angS45  dbS46  angS46  
!       dbS51  angS51  dbS52  angS52  dbS53  angS53  dbS54  angS54  
!       dbS55  angS55  dbS56  angS56  
!       dbS61  angS61  dbS62  angS62  
!       dbS63  angS63  dbS64  angS64  dbS65  angS65  dbS66  angS66  
!     
                10       -17.3292218            -27.181        -46.6808794            160.508        -44.6732305           -151.677        -52.1355177            129.615
                      -5.78073762              2.542        -7.82947933              3.878
                      -39.1721463           -179.958      -0.0173891743             -3.922        -51.8999067              4.003        -49.3347297            -10.412
                      -47.4260923            -35.439        -50.7490454           -162.836
                      -52.1954328             14.351        -55.4938144           -147.613      -0.0785269103             -3.788        -45.6849457             68.905
                      -48.9102168            -91.344        -53.0729405             77.945
                      -49.3296428              -43.2        -57.2213212            -85.323        -46.3354559              127.8      -0.0348132315             -4.054
                      -63.1365907            104.727        -46.8799536               9.59
                       -5.7976527              4.039        -47.7168258             60.138        -48.8258286            -58.259        -49.8726057            -79.201
                      -25.0362395           -114.991        -5.67993313              2.033
                       -7.8723727              2.655         -48.735126              7.821        -47.9979749           -134.502        -58.5036712           -154.873
                      -5.71340481              3.461        -19.9135725            -24.243

             29.95       -19.9135725            -25.288        -70.3654161               23.7        -59.3637546            -34.697        -59.5267216             56.757
                       -5.7976527              1.447        -8.04609628              0.793
                      -57.1522107            113.647       -0.273524459            -12.514        -66.5322084             54.962        -55.3961324           -152.972
                      -57.4449497           -131.291        -64.6866289             -9.083
                      -57.7144541             53.355        -67.0249957             21.228       -0.273524459            -12.554        -57.9307676            -13.445
                      -60.0697666             10.751        -66.1184308           -174.886
                      -61.3039732             115.94        -60.7422003           -119.518        -62.1670211            -81.523       -0.273524459            -12.795
                      -57.3420046             25.277        -61.8496231            108.143
                       -5.7976527              1.492        -57.1835564              7.422        -58.6140398            -60.966        -71.6306596            -57.253
                       -24.013189           -127.685        -5.71340481              1.319
                      -8.02418986              0.757        -63.0337539            -179.05        -70.6212439             -7.952        -57.0650397             163.81
                      -5.71340481              1.205         -20.630341             -28.48

              49.9        -21.310031            -18.099        -65.6449261           -152.848        -76.3346031             88.199        -65.2848293            111.716
                      -5.59681393             -0.799         -7.8723727             -1.372
                      -67.2822863             98.477       -0.649040476            -20.308        -68.4340939             74.164        -67.2342093             10.768
                      -72.2025088            -85.055        -67.6516051             56.678
                      -65.9066963             26.304        -67.0074623             41.941       -0.649040476            -20.187        -68.9174884            -39.747
                      -72.3129317            110.524        -71.5154386            126.585
                      -69.4551377            125.845        -62.0948649            -47.323        -66.1536391            179.116       -0.649040476            -20.546
                      -66.7240976             78.589        -73.4610001             -15.37
                      -5.61337426             -0.658        -65.1188367             72.874         -71.059942             92.218        -71.7072171             60.803
                       -24.436975           -155.051        -5.51448261             -0.752
                       -7.8723727             -1.281        -70.6271466             -120.5         -69.396006            128.545        -72.6566102             22.791
                      -5.53088656             -0.581        -22.4987747            -20.549

             69.85       -21.2096149            -20.439        -73.1082251             62.882        -68.0878713            -59.717        -63.8357805             84.434
                      -5.66324553             -1.422        -7.91547894             -2.135
                      -80.4858507               7.86         -1.0906283            -27.327        -78.3013285           -148.134        -63.2646591             14.108
                      -77.0836457            155.094        -84.8855511             76.149
                      -68.4043281             69.839        -71.0941446            141.948        -1.10048183            -27.207        -67.7252772             -75.72
                      -79.3718307            -53.806        -68.8787768             31.818
                      -65.7486894             55.215        -71.6207234             -5.761        -81.5693917             98.553         -1.0906283             -27.65
                      -69.5094813              10.49        -70.9305753            143.438
                      -5.66324553             -1.294        -63.3792503             78.357        -64.3190717            103.084        -67.4875784             27.877
                      -24.2934033           -152.278         -5.5637877             -1.258
                      -7.93711255             -2.034        -77.9102578             89.343        -73.5804665             62.209         -70.128051             24.318
                       -5.5637877             -1.119        -22.2701855            -23.358

              89.8       -21.2096149            -21.842        -68.4777821             82.944         -75.676682            126.075        -66.4478609             62.413
                      -5.66324553             -2.148        -7.93711255             -3.042
                      -59.5844902             52.018        -1.60797952            -33.514        -70.3083094            115.703        -71.2640298            157.131
                       -64.284864             52.254        -67.6537013             91.151
                      -74.8752693             27.898        -69.7170173            107.372        -1.61843815            -33.418        -74.2753629             68.178
                      -76.5654709           -116.424        -67.0386574             126.29
                      -68.7803589             85.661        -76.2101937             57.614        -70.5244233            -10.683        -1.61843815             -33.87
                      -67.6641903             77.093         -65.011458             59.501
                      -5.66324553             -2.117        -66.4606437             87.396        -67.0133028             53.269        -65.4589398             90.803
                       -24.013189           -152.323         -5.5637877             -1.931
                      -7.93711255             -2.945        -78.5697239            139.657        -69.1062396             148.45        -72.9989181             97.754
                      -5.58028512               -1.8        -22.2701855            -25.291

            109.75       -21.1103466             -23.34        -66.8550574             103.26        -79.8706792             26.222        -67.9133185             60.273
                      -5.67993313              -2.76        -7.95880017             -3.817
                      -66.2155993             86.571        -2.18040806            -38.974        -66.3192593             88.608        -70.0724789            133.108
                      -65.1832759             22.567        -67.9479496             79.353
                      -69.3500083             43.997        -68.9320498             67.409        -2.20276557            -38.909        -67.7719072            101.304
                      -66.0084482             41.967        -68.3701092             51.532
                      -68.6453607             64.839        -73.6889893            -57.067        -81.0827535             17.573        -2.18040806             -39.41
                      -68.2885296             50.548        -68.3473712             81.138
                      -5.67993313              -2.73        -79.1879532            116.804        -68.0900756             56.959        -69.9187423             50.168
                      -23.8764005             -151.9        -5.58028512             -2.453
                      -7.98054209             -3.717        -64.5888505             52.726        -77.5753709             22.722        -67.1526884             65.258
                      -5.58028512             -2.374        -22.2701855            -27.316

             129.7       -21.1103466            -24.958        -65.4442965             70.348        -68.2975563             53.452        -65.1141403             30.295
                      -5.67993313              -3.43        -7.95880017             -4.602
                      -60.8029609             77.465        -2.76931178            -43.747        -66.1907621            135.546        -86.5230005              55.44
                      -67.2642262             31.536        -66.7997756             44.835
                      -65.7790479             49.484        -67.1368707            144.154        -2.79323987            -43.653        -72.9447762            123.621
                      -69.8320993              78.79        -74.8176831             50.538
                      -72.2878745             21.856        -81.0317407            132.494        -77.0588466            111.788        -2.78126759            -44.204
                      -63.7966943             77.801        -67.7549219             38.921
                      -5.69665284             -3.349        -65.3505165             14.265         -68.052679             66.406        -64.2834416             82.163
                      -23.7417329           -152.249        -5.58028512             -3.042
                      -7.98054209             -4.584        -67.4855218             40.922        -65.1785446             32.767        -62.3814427             43.118
                      -5.59681393             -2.992        -22.1581079            -28.883

            149.65       -21.0121999            -26.102        -63.7711811             88.204        -64.2366326             71.712        -67.0719255             56.344
                      -5.69665284              -4.11        -7.95880017             -5.411
                       -63.277317             81.454        -3.34982175            -47.837        -70.8787555            153.115        -80.0820335            135.541
                      -72.2700207             13.433        -64.1311773             53.462
                      -70.0393055             75.496        -69.8186391            101.898        -3.38822663            -47.769        -82.0650677            -80.435
                      -73.3917245             37.861        -68.8956919             52.791
                      -69.4577178             28.478        -79.5102866            123.314        -71.3630791            156.983        -3.36260451            -48.336
                      -62.7394941             66.172        -65.8502998             60.702
                      -5.69665284             -4.049        -70.6537587             14.374        -66.0956216             60.024        -63.3268601             69.502
                      -23.6091213           -152.603        -5.58028512             -3.605
                      -7.98054209              -5.38        -65.6916335             61.447        -78.9154018             54.153        -68.7970832             74.535
                      -5.59681393             -3.603        -22.0474582             -30.17

             169.6       -20.8191722            -27.075         -62.140309              66.92        -67.4383548             68.441        -66.8684542             51.412
                      -5.69665284             -4.756        -7.98054209             -6.202
                      -63.6025436             79.843        -3.91721135            -51.365        -65.9376131            113.586        -76.3917473             38.513
                      -66.5119637              2.081        -67.8017118             44.472
                      -66.1659958             51.317        -69.2612595             98.565        -3.99941282            -51.419        -87.6453193           -151.177
                      -71.1912647              25.29        -67.7422046             54.324
                      -65.4377963               2.66        -75.8796825            -26.943        -71.7912043            127.851        -3.94452549            -51.923
                      -63.9774162             82.412        -66.1730647             44.906
                      -5.69665284             -4.673        -67.9761893             38.843        -67.3914425             66.519        -64.1130279             89.217
                      -23.4785039           -151.857        -5.58028512             -4.222
                      -8.00233856             -6.142        -68.6101809             35.867        -67.8252016             44.165        -67.4056933             64.136
                      -5.59681393              -4.16        -21.9382003            -31.786

            189.55        -20.630341            -28.216        -61.4392559             73.806        -68.9029513             58.383        -66.0833645             26.191
                      -5.69665284             -5.378        -7.98054209             -6.971
                      -61.0532865             72.896        -4.46597632            -54.396        -65.5868929            135.217        -75.0503548            124.231
                      -71.1410026             32.885        -65.9807364             68.752
                      -65.1360784             74.149          -69.60869            137.973        -4.56825038             -54.48        -88.4386823           -166.335
                       -70.047587              42.04        -65.7067001             19.132
                      -64.8006028             23.421          -79.62599             141.51         -74.093057            134.883        -4.49507481            -55.007
                       -62.083817             87.418        -67.3751844             30.256
                      -5.71340481             -5.248        -65.0642034             12.614        -69.7676796             38.157        -62.0441604             85.077
                      -23.3498217           -150.948        -5.58028512             -4.767
                      -8.00233856             -6.885         -67.300384             41.219        -67.5598665             41.579        -66.6155225              43.47
                      -5.61337426             -4.677         -21.723723            -33.146

             209.5       -20.4455279            -29.249        -61.7864449              78.56         -64.959031             67.199         -64.649462             17.076
                      -5.71340481             -5.971        -8.00233856              -7.69
                      -61.5787622             77.289        -5.00527369            -56.942        -65.4948387            122.777        -81.4105997            108.698
                      -68.1943119             -3.195        -68.7208907             59.195
                      -66.4862658             53.658        -63.8981424            121.713        -5.11414034            -57.118        -71.4762835            127.482
                       -68.563495             45.342        -66.8207031             46.071
                      -65.4981096             35.964        -69.9760752            139.832        -70.9857824            136.938        -5.03623946            -57.653
                      -61.0955537             93.106        -62.5405674              37.01
                      -5.71340481             -5.869        -65.8179944             12.686        -66.2547731              42.32        -60.7006725             82.014
                      -23.2230182           -150.333        -5.59681393               -5.3
                      -8.02418986             -7.631        -63.7510919             42.076        -65.7150818             23.774         -69.195914             44.427
                      -5.59681393             -5.241        -21.5144143            -34.451

            229.45       -20.2645653            -30.244        -62.8787209             86.176        -66.7335213             59.663        -65.9238587             24.241
                      -5.71340481               -6.6        -8.00233856             -8.458
                      -61.2989282              74.96        -5.48176735            -59.177        -62.4953011            116.172         -73.773401            116.795
                      -65.4442965             -4.022        -65.7453228             39.834
                      -65.0145518              60.57        -61.1390178            120.687        -5.62996622            -59.392        -72.2166783            117.325
                      -68.8908557             27.361        -65.4883006             40.327
                      -67.3914425             33.495        -80.3175583            136.413        -68.7493846            145.884        -5.54732155            -59.938
                      -61.5683512             89.554        -66.0606472             29.027
                      -5.71340481             -6.481        -66.7052806             37.145        -66.5728399             47.636        -60.4008421             85.431
                      -23.2230182            -149.66        -5.58028512             -5.817
