!Hittite Microwave Corporation								
!12 Elizabeth Drive								
!Chelmsford, MA 01824								
!Tel: 978-250-3343								
!Fax: 978-250-3373							
!Device: HMC234C8, DC-8 GHz GaAs MMIC HIGH ISOLATION SPDT SWITCH in 8-lead ceramic package,							
!Misc: Port1 = RFC, Port2 = RF1, Port3 = RF2, RF2 ON, Vctl=-5V, Room							
!
# MHZ S MA R 50

200 0.092 -9.286 299.3e-6 -77.313 0.89 -8.49
          226.2e-6 -61.571 0.191 170.275 502.5e-6 56.782
          0.888 -8.459 324.8e-6 59.934 0.077 -9.874
241.058 0.093 -11.774 403.5e-6 -90.464 0.885 -9.96
          256.1e-6 -59.106 0.188 169.064 614.1e-6 55.49
          0.884 -9.916 489.9e-6 47.584 0.08 -12.808
282.116 0.094 -13.447 297.7e-6 -59.046 0.884 -11.539
          368.3e-6 -95.316 0.186 167.485 538.9e-6 60.672
          0.883 -11.532 671e-6 60.989 0.081 -15.05
323.175 0.094 -14.6 450.3e-6 -72.975 0.883 -13.037
          389e-6 -88.757 0.185 165.749 553.3e-6 63.674
          0.882 -12.976 626.9e-6 68.408 0.081 -16.474
364.233 0.095 -15.949 435.8e-6 -93.317 0.881 -14.622
          450.6e-6 -105.724 0.184 163.861 611.8e-6 68.521
          0.881 -14.579 618.1e-6 64.827 0.082 -17.674
405.291 0.095 -17.413 479.7e-6 -91.488 0.881 -16.172
          440.6e-6 -97.086 0.183 162.042 829.8e-6 72.114
          0.88 -16.095 867.4e-6 75.367 0.082 -19.437
446.349 0.095 -18.865 575.6e-6 -103.142 0.88 -17.709
          578.3e-6 -99.362 0.182 160.175 707.1e-6 75.403
          0.879 -17.648 880.8e-6 78.995 0.082 -21.128
487.407 0.096 -20.477 489.1e-6 -109.47 0.879 -19.304
          624.9e-6 -112.056 0.181 158.366 1.005e-3 76.736
          0.878 -19.264 969.1e-6 75.576 0.083 -23.358
528.466 0.096 -21.967 602.3e-6 -112.432 0.879 -20.812
          578.3e-6 -112.391 0.179 156.696 1.072e-3 79.664
          0.878 -20.763 960.9e-6 76.921 0.084 -25.465
569.524 0.097 -23.642 683.6e-6 -114.425 0.878 -22.414
          606.1e-6 -114.935 0.178 154.87 1.168e-3 79.879
          0.877 -22.384 1.178e-3 74.687 0.084 -27.266
610.582 0.098 -24.98 724e-6 -127.63 0.877 -23.944
          697.2e-6 -118.626 0.175 152.989 1.22e-3 76.248
          0.876 -23.919 1.249e-3 73.721 0.085 -28.909
651.64 0.099 -25.803 805.5e-6 -118.147 0.875 -25.448
          772.6e-6 -121.981 0.173 150.93 1.372e-3 77.144
          0.874 -25.458 1.358e-3 75.591 0.086 -29.795
692.698 0.1 -26.517 846.7e-6 -130.435 0.875 -27.056
          804.7e-6 -129.002 0.171 148.67 1.449e-3 78.464
          0.873 -27.008 1.435e-3 78.836 0.086 -30.439
733.757 0.101 -26.913 846.2e-6 -133.205 0.874 -28.538
          791.3e-6 -133.402 0.169 146.3 1.644e-3 78.819
          0.873 -28.502 1.548e-3 77.523 0.087 -30.518
774.815 0.102 -27.192 851.5e-6 -135.968 0.873 -30.096
          936.8e-6 -138.02 0.168 143.752 1.659e-3 76.058
          0.873 -30.066 1.602e-3 76.225 0.087 -30.426
815.873 0.102 -27.657 923.5e-6 -141.965 0.873 -31.627
          963.4e-6 -139.482 0.167 141.336 1.713e-3 75.603
          0.872 -31.567 1.747e-3 76.176 0.088 -30.498
856.931 0.102 -28.133 948.9e-6 -141.771 0.872 -33.165
          964.7e-6 -137.893 0.166 138.896 1.867e-3 75.017
          0.871 -33.129 1.92e-3 75.559 0.088 -30.405
897.989 0.103 -28.461 1.052e-3 -143.312 0.871 -34.716
          1.068e-3 -145.552 0.165 136.582 1.942e-3 74.391
          0.87 -34.726 1.939e-3 74.648 0.087 -30.218
939.048 0.103 -28.868 1.175e-3 -147.456 0.871 -36.224
          1.156e-3 -146.54 0.164 134.248 2.038e-3 73.445
          0.869 -36.21 2.024e-3 73.828 0.087 -30.531
980.106 0.104 -29.025 1.201e-3 -148.99 0.871 -37.781
          1.17e-3 -147.267 0.163 131.635 2.136e-3 72.763
          0.87 -37.749 2.127e-3 72.097 0.088 -30.384
1021.164 0.106 -29.115 1.243e-3 -151.417 0.871 -39.305
          1.237e-3 -151.141 0.162 129.022 2.226e-3 71.299
          0.87 -39.25 2.201e-3 71.483 0.089 -30.255
1062.222 0.107 -29.062 1.288e-3 -157.752 0.87 -40.849
          1.294e-3 -158.709 0.161 126.262 2.342e-3 71.159
          0.868 -40.771 2.314e-3 70.935 0.089 -29.682
1103.28 0.109 -28.705 1.323e-3 -161.94 0.87 -42.377
          1.319e-3 -162.291 0.161 123.355 2.391e-3 70.162
          0.868 -42.282 2.372e-3 69.707 0.09 -28.402
1144.339 0.111 -28.2 1.365e-3 -164.062 0.868 -43.895
          1.375e-3 -164.351 0.161 120.415 2.432e-3 69.182
          0.867 -43.799 2.433e-3 69.369 0.091 -27.132
1185.397 0.112 -27.585 1.367e-3 -167.109 0.867 -45.451
          1.36e-3 -165.505 0.162 117.49 2.557e-3 68.34
          0.866 -45.357 2.574e-3 68.566 0.091 -25.766
1226.455 0.114 -26.945 1.533e-3 -169.505 0.867 -46.96
          1.501e-3 -167.582 0.162 114.687 2.637e-3 67.114
          0.865 -46.876 2.654e-3 67.632 0.093 -24.523
1267.513 0.116 -26.332 1.532e-3 -173.984 0.866 -48.502
          1.579e-3 -174.16 0.163 111.985 2.689e-3 66.909
          0.865 -48.403 2.68e-3 67.187 0.094 -23.373
1308.571 0.118 -25.922 1.527e-3 -175.019 0.865 -50.007
          1.534e-3 -173.619 0.164 109.43 2.775e-3 66.575
          0.864 -49.917 2.777e-3 67.423 0.095 -22.53
1349.63 0.12 -25.338 1.636e-3 -176.184 0.864 -51.541
          1.586e-3 -174.992 0.165 106.692 2.838e-3 65.872
          0.863 -51.482 2.877e-3 66.426 0.097 -21.544
1390.688 0.123 -24.968 1.639e-3 -179.778 0.863 -53.094
          1.646e-3 -179.495 0.166 103.957 2.91e-3 66.321
          0.863 -53.015 2.921e-3 66.307 0.099 -20.731
1431.746 0.126 -24.509 1.735e-3 179.87 0.863 -54.602
          1.742e-3 179.819 0.167 101.079 3.044e-3 67.08
          0.862 -54.512 3.074e-3 67.108 0.101 -19.751
1472.804 0.129 -23.986 1.853e-3 176.687 0.862 -56.136
          1.826e-3 178.637 0.168 98.08 3.173e-3 64.642
          0.861 -56.054 3.157e-3 64.603 0.104 -18.662
1513.862 0.133 -23.298 1.926e-3 176.193 0.862 -57.614
          1.888e-3 176.003 0.17 95.205 3.303e-3 63.044
          0.861 -57.525 3.32e-3 63.171 0.108 -17.457
1554.921 0.137 -22.481 2.02e-3 174.703 0.86 -59.127
          2.013e-3 172.907 0.173 92.326 3.304e-3 61.805
          0.86 -59.055 3.344e-3 61.065 0.112 -15.825
1595.979 0.141 -21.838 2.116e-3 168.916 0.859 -60.613
          2.09e-3 169.126 0.176 89.623 3.38e-3 61.086
          0.859 -60.561 3.398e-3 60.548 0.116 -14.596
1637.037 0.145 -21.337 2.246e-3 166.364 0.858 -62.122
          2.193e-3 165.237 0.179 87.095 3.354e-3 59.28
          0.857 -62.072 3.354e-3 59.879 0.119 -13.797
1678.095 0.149 -21.009 2.294e-3 162.174 0.857 -63.67
          2.302e-3 160.916 0.183 84.64 3.434e-3 58.643
          0.856 -63.63 3.37e-3 60.462 0.122 -13.118
1719.153 0.153 -20.797 2.307e-3 156.626 0.857 -65.101
          2.305e-3 156.414 0.185 82.39 3.439e-3 59.815
          0.855 -65.061 3.407e-3 59.894 0.126 -12.876
1760.212 0.157 -20.659 2.285e-3 154.64 0.856 -66.64
          2.315e-3 154.735 0.189 80.089 3.504e-3 60.506
          0.854 -66.591 3.395e-3 61.663 0.13 -12.368
1801.27 0.162 -20.63 2.3e-3 152.799 0.855 -68.125
          2.298e-3 151.665 0.192 77.799 3.514e-3 59.658
          0.854 -68.092 3.487e-3 58.716 0.134 -12.011
1842.328 0.167 -20.713 2.417e-3 153.584 0.854 -69.633
          2.317e-3 151.998 0.196 75.491 3.493e-3 59.945
          0.853 -69.56 3.49e-3 59.823 0.139 -11.812
1883.386 0.172 -20.778 2.366e-3 148.942 0.853 -71.147
          2.446e-3 151.47 0.2 73.235 3.644e-3 61.788
          0.852 -71.137 3.607e-3 61.491 0.144 -11.677
1924.444 0.177 -20.848 2.492e-3 146.883 0.852 -72.622
          2.435e-3 148.454 0.204 71.026 3.796e-3 61.912
          0.85 -72.537 3.769e-3 61.691 0.148 -11.396
1965.503 0.182 -21.017 2.485e-3 144.677 0.851 -74.159
          2.521e-3 143.902 0.209 69.053 3.862e-3 62.651
          0.85 -74.067 3.819e-3 62.056 0.153 -11.204
2006.561 0.187 -21.19 2.591e-3 143.114 0.851 -75.621
          2.578e-3 143.067 0.214 67.144 4.03e-3 61.916
          0.85 -75.576 4.023e-3 61.942 0.157 -11.059
2047.619 0.192 -21.557 2.652e-3 142.172 0.85 -77.111
          2.563e-3 141.319 0.219 65.34 4.296e-3 61.868
          0.849 -76.991 4.278e-3 61.616 0.162 -11.182
2088.677 0.196 -22.066 2.666e-3 140.575 0.849 -78.605
          2.615e-3 140.154 0.224 63.657 4.486e-3 59.702
          0.848 -78.532 4.467e-3 59.165 0.167 -11.522
2129.735 0.201 -22.521 2.759e-3 139.648 0.849 -80.041
          2.748e-3 139.501 0.229 61.956 4.601e-3 57.43
          0.847 -80.011 4.532e-3 57.808 0.171 -11.787
2170.794 0.206 -23.197 2.912e-3 137.313 0.847 -81.554
          2.894e-3 138.954 0.233 60.19 4.664e-3 55.608
          0.846 -81.521 4.626e-3 55.856 0.175 -12.299
2211.852 0.21 -23.892 3.047e-3 135.583 0.847 -83.016
          3.057e-3 136.356 0.237 58.452 4.721e-3 53.353
          0.845 -82.987 4.616e-3 53.399 0.179 -12.743
2252.91 0.215 -24.652 3.204e-3 131.07 0.846 -84.481
          3.211e-3 131.361 0.242 56.885 4.615e-3 53.371
          0.844 -84.471 4.562e-3 53.035 0.183 -13.187
2293.968 0.219 -25.466 3.195e-3 126.691 0.844 -85.937
          3.174e-3 127.124 0.247 55.477 4.609e-3 53.369
          0.842 -85.936 4.54e-3 53.145 0.187 -13.649
2335.026 0.223 -26.295 3.159e-3 123.693 0.843 -87.383
          3.098e-3 124.438 0.252 54.108 4.697e-3 53.151
          0.842 -87.379 4.652e-3 53.57 0.19 -14.028
2376.085 0.227 -27.139 3.122e-3 122.298 0.842 -88.842
          3.079e-3 122.405 0.257 52.797 4.742e-3 53.292
          0.841 -88.822 4.784e-3 53.945 0.194 -14.37
2417.143 0.23 -28.076 3.128e-3 122.004 0.842 -90.299
          3.164e-3 121.926 0.263 51.511 4.826e-3 52.247
          0.841 -90.24 4.882e-3 52.487 0.197 -14.839
2458.201 0.234 -29.099 3.163e-3 121.153 0.843 -91.793
          3.235e-3 121.635 0.268 50.238 4.902e-3 51.606
          0.841 -91.703 4.933e-3 52.357 0.2 -15.477
2499.259 0.237 -30.119 3.23e-3 120.121 0.843 -93.216
          3.269e-3 119.955 0.273 49.081 5.017e-3 52.198
          0.842 -93.126 5.011e-3 52.864 0.203 -16.057
2540.317 0.239 -31.216 3.317e-3 118.063 0.842 -94.656
          3.38e-3 118.188 0.279 47.95 5.159e-3 52.156
          0.841 -94.553 5.12e-3 52.277 0.205 -16.67
2581.376 0.242 -32.388 3.456e-3 117.202 0.842 -96.106
          3.474e-3 117.48 0.284 46.755 5.22e-3 52.611
          0.841 -95.996 5.252e-3 51.593 0.208 -17.257
2622.434 0.244 -33.527 3.623e-3 115.754 0.841 -97.515
          3.518e-3 114.54 0.289 45.608 5.379e-3 52.721
          0.84 -97.434 5.39e-3 52.936 0.21 -17.876
2663.492 0.246 -34.661 3.621e-3 112.749 0.842 -98.963
          3.602e-3 112.59 0.294 44.551 5.649e-3 51.197
          0.84 -98.893 5.647e-3 51.852 0.211 -18.496
2704.55 0.248 -35.91 3.637e-3 110.776 0.841 -100.358
          3.644e-3 111.14 0.299 43.51 5.724e-3 50.33
          0.84 -100.32 5.71e-3 50.695 0.213 -19.311
2745.608 0.249 -37.145 3.724e-3 109.002 0.84 -101.844
          3.678e-3 110.146 0.303 42.524 5.919e-3 48.555
          0.839 -101.798 5.83e-3 48.405 0.213 -19.974
2786.667 0.249 -38.406 3.923e-3 108.375 0.84 -103.289
          3.853e-3 108.359 0.308 41.636 6.021e-3 48.702
          0.839 -103.265 6.023e-3 48.362 0.213 -20.581
2827.725 0.25 -39.721 3.928e-3 106.367 0.84 -104.702
          3.958e-3 106.239 0.312 40.782 6.075e-3 47.131
          0.839 -104.673 6.047e-3 47.32 0.213 -21.294
2868.783 0.25 -41.18 4.015e-3 104.162 0.84 -106.171
          3.985e-3 103.705 0.317 39.892 6.258e-3 45.929
          0.839 -106.122 6.217e-3 46.724 0.213 -22.079
2909.841 0.249 -42.514 3.988e-3 102.651 0.841 -107.549
          3.996e-3 103.055 0.321 39.058 6.321e-3 45.444
          0.84 -107.556 6.354e-3 45.581 0.212 -22.865
2950.899 0.249 -44.078 4.2e-3 101.093 0.84 -109.057
          4.217e-3 99.877 0.324 38.16 6.571e-3 44.073
          0.84 -109.028 6.635e-3 44.399 0.211 -23.66
2991.958 0.247 -45.509 4.3e-3 99.041 0.841 -110.505
          4.294e-3 98.407 0.329 37.376 6.419e-3 42.278
          0.841 -110.455 6.41e-3 42.253 0.209 -24.46
3033.016 0.245 -46.933 4.31e-3 97.77 0.842 -111.946
          4.315e-3 97.82 0.333 36.648 6.638e-3 41.796
          0.841 -111.896 6.646e-3 41.651 0.207 -25.054
3074.074 0.243 -48.63 4.394e-3 95.695 0.841 -113.452
          4.483e-3 95.756 0.336 35.848 6.635e-3 39.635
          0.841 -113.395 6.666e-3 39.383 0.205 -26.016
3115.132 0.24 -50.221 4.583e-3 93.217 0.842 -114.855
          4.582e-3 93.847 0.34 35.131 6.619e-3 38.334
          0.841 -114.824 6.609e-3 38.158 0.202 -26.798
3156.19 0.237 -51.849 4.663e-3 92.521 0.843 -116.365
          4.637e-3 92.151 0.343 34.437 6.617e-3 38.184
          0.842 -116.319 6.579e-3 38.378 0.198 -27.333
3197.249 0.234 -53.556 4.784e-3 90.215 0.843 -117.835
          4.769e-3 90.172 0.346 33.762 6.611e-3 37.786
          0.842 -117.764 6.609e-3 37.908 0.195 -28.196
3238.307 0.229 -55.294 4.878e-3 88.101 0.844 -119.301
          4.824e-3 88.408 0.349 33.154 6.617e-3 38.34
          0.843 -119.267 6.604e-3 37.918 0.19 -28.918
3279.365 0.225 -57.146 4.952e-3 85.949 0.845 -120.828
          4.917e-3 85.887 0.352 32.513 6.719e-3 37.732
          0.844 -120.778 6.674e-3 37.099 0.185 -29.797
3320.423 0.221 -59.005 5.048e-3 84.176 0.847 -122.284
          5.012e-3 83.844 0.355 31.832 6.819e-3 37.427
          0.846 -122.225 6.733e-3 37.876 0.181 -30.657
3361.481 0.216 -60.916 5.116e-3 82.214 0.849 -123.832
          5.135e-3 81.399 0.357 31.124 6.866e-3 38.082
          0.848 -123.759 6.891e-3 38.703 0.175 -31.425
3402.54 0.21 -62.812 5.222e-3 80.297 0.849 -125.322
          5.22e-3 79.365 0.36 30.55 7.068e-3 37.727
          0.848 -125.269 7.059e-3 38.042 0.169 -31.856
3443.598 0.204 -64.899 5.291e-3 78.386 0.85 -126.848
          5.3e-3 77.476 0.362 29.992 7.182e-3 37.864
          0.849 -126.808 7.16e-3 37.924 0.163 -32.438
3484.656 0.197 -67.162 5.373e-3 76.315 0.851 -128.38
          5.376e-3 75.786 0.364 29.421 7.415e-3 38.079
          0.851 -128.34 7.405e-3 37.885 0.156 -32.929
3525.714 0.19 -69.524 5.453e-3 74.248 0.852 -129.891
          5.411e-3 74.453 0.365 28.857 7.724e-3 37.189
          0.851 -129.833 7.722e-3 37.014 0.148 -33.514
3566.772 0.184 -72.1 5.543e-3 72.107 0.853 -131.461
          5.514e-3 72.599 0.366 28.212 7.964e-3 36.016
          0.852 -131.376 7.923e-3 36.009 0.141 -34.194
3607.831 0.177 -74.626 5.645e-3 70.474 0.854 -133.011
          5.641e-3 70.219 0.367 27.608 8.194e-3 34.718
          0.853 -132.916 8.127e-3 35.159 0.133 -34.629
3648.889 0.17 -77.286 5.735e-3 68.644 0.854 -134.617
          5.705e-3 68.816 0.368 27.01 8.437e-3 33.063
          0.853 -134.506 8.408e-3 33.359 0.126 -35.009
3689.947 0.163 -80.058 5.815e-3 66.403 0.855 -136.191
          5.783e-3 67.239 0.369 26.447 8.516e-3 31.247
          0.854 -136.089 8.595e-3 31.367 0.118 -35.232
3731.005 0.155 -82.867 5.923e-3 64.804 0.855 -137.724
          5.899e-3 65.158 0.37 25.869 8.658e-3 29.854
          0.854 -137.682 8.703e-3 29.797 0.109 -35.168
3772.063 0.147 -85.877 6.025e-3 62.498 0.856 -139.291
          5.985e-3 62.756 0.371 25.288 8.829e-3 28.374
          0.855 -139.275 8.818e-3 28.051 0.101 -34.958
3813.122 0.139 -89.273 6.074e-3 60.635 0.856 -140.864
          6.071e-3 60.202 0.371 24.76 8.906e-3 27.047
          0.856 -140.851 8.91e-3 27.088 0.092 -34.208
3854.18 0.13 -93.263 6.129e-3 58.891 0.857 -142.524
          6.185e-3 58.509 0.371 24.145 9.005e-3 25.963
          0.857 -142.479 8.998e-3 26.189 0.082 -33.127
3895.238 0.123 -97.616 6.237e-3 56.902 0.857 -144.158
          6.236e-3 56.805 0.371 23.504 9.109e-3 25.007
          0.857 -144.038 9.115e-3 24.981 0.072 -31.812
3936.296 0.116 -102.685 6.288e-3 54.865 0.858 -145.798
          6.248e-3 54.325 0.37 22.809 9.253e-3 23.568
          0.857 -145.673 9.258e-3 23.712 0.063 -30.163
3977.354 0.11 -108.019 6.377e-3 53.339 0.859 -147.438
          6.353e-3 52.567 0.37 22.156 9.387e-3 22.03
          0.858 -147.318 9.365e-3 21.967 0.055 -26.996
4018.413 0.104 -113.47 6.472e-3 50.854 0.86 -149.029
          6.436e-3 50.972 0.369 21.493 9.471e-3 20.528
          0.859 -148.951 9.467e-3 20.535 0.046 -20.766
4059.471 0.099 -119.184 6.563e-3 49.086 0.86 -150.691
          6.519e-3 48.946 0.369 20.731 9.596e-3 19.027
          0.859 -150.681 9.588e-3 19.19 0.04 -13.176
4100.529 0.094 -125.011 6.638e-3 47.022 0.859 -152.256
          6.598e-3 47.121 0.368 19.988 9.738e-3 18.264
          0.859 -152.274 9.748e-3 18.228 0.035 -2.404
4141.587 0.09 -131.441 6.619e-3 45.775 0.859 -153.928
          6.641e-3 45.54 0.367 19.239 9.814e-3 16.585
          0.858 -153.911 9.773e-3 16.592 0.031 11.92
4182.646 0.086 -138.428 6.755e-3 43.364 0.859 -155.611
          6.734e-3 43.218 0.365 18.559 9.878e-3 15.477
          0.858 -155.581 9.825e-3 15.518 0.03 28.989
4223.704 0.082 -146.211 6.747e-3 41.033 0.858 -157.221
          6.776e-3 41.421 0.364 17.843 0.01 13.769
          0.858 -157.141 0.01 13.606 0.033 46.348
4264.762 0.081 -154.552 6.804e-3 39.024 0.858 -158.909
          6.817e-3 39.449 0.362 17.084 0.01 12.245
          0.857 -158.848 0.01 12.404 0.038 59.673
4305.82 0.081 -162.57 6.843e-3 36.851 0.858 -160.502
          6.915e-3 37.56 0.36 16.317 0.01 10.629
          0.857 -160.394 0.01 11.158 0.045 69.277
4346.878 0.082 -170.311 6.908e-3 35.362 0.857 -162.162
          6.934e-3 35.22 0.357 15.401 0.01 9.871
          0.856 -162.078 0.01 9.822 0.052 74.71
4387.937 0.085 -177.662 6.942e-3 33.239 0.856 -163.844
          6.956e-3 33.433 0.355 14.583 0.01 8.482
          0.855 -163.733 0.01 8.227 0.061 78.855
4428.995 0.088 176.045 7.044e-3 31.86 0.855 -165.439
          7.033e-3 31.828 0.352 13.687 0.01 6.915
          0.854 -165.381 0.01 6.872 0.068 80.538
4470.053 0.091 170.336 7.106e-3 30.014 0.854 -167.125
          7.062e-3 30.681 0.35 12.7 0.01 5.214
          0.853 -167.029 0.01 5.582 0.075 81.53
4511.111 0.095 164.965 7.154e-3 28.669 0.854 -168.696
          7.157e-3 29.012 0.347 11.756 0.011 3.905
          0.853 -168.628 0.011 4.162 0.082 82.456
4552.169 0.098 159.741 7.169e-3 27.025 0.854 -170.382
          7.189e-3 27.189 0.344 10.705 0.011 2.183
          0.851 -170.352 0.011 2.388 0.089 83.069
4593.228 0.102 154.913 7.297e-3 25.298 0.853 -172.022
          7.268e-3 24.879 0.341 9.672 0.011 0.373
          0.85 -171.995 0.011 0.614 0.097 83.412
4634.286 0.107 150.403 7.367e-3 23.394 0.851 -173.645
          7.324e-3 23.204 0.338 8.651 0.011 -1.077
          0.849 -173.619 0.011 -0.888 0.104 83.536
4675.344 0.113 146.251 7.41e-3 21.462 0.85 -175.274
          7.389e-3 21.518 0.335 7.58 0.011 -2.216
          0.848 -175.23 0.011 -1.89 0.111 83.441
4716.402 0.118 142.582 7.435e-3 19.989 0.848 -176.889
          7.439e-3 19.729 0.331 6.454 0.011 -3.471
          0.847 -176.839 0.011 -3.435 0.117 83.024
4757.46 0.124 139.456 7.521e-3 18.119 0.847 -178.563
          7.466e-3 17.869 0.327 5.2 0.011 -4.631
          0.845 -178.517 0.011 -4.881 0.124 82.252
4798.519 0.13 136.896 7.604e-3 16.22 0.845 179.814
          7.537e-3 16.237 0.323 3.959 0.011 -5.79
          0.844 179.859 0.011 -5.681 0.129 81.353
4839.577 0.135 134.699 7.656e-3 14.356 0.843 178.2
          7.636e-3 14.46 0.319 2.642 0.011 -7.23
          0.843 178.245 0.011 -7.019 0.134 80.516
4880.635 0.139 132.671 7.688e-3 12.619 0.842 176.598
          7.662e-3 12.626 0.315 1.279 0.011 -8.639
          0.842 176.638 0.011 -8.758 0.138 79.634
4921.693 0.143 130.671 7.751e-3 10.646 0.841 174.992
          7.713e-3 10.849 0.312 -0.134 0.011 -9.662
          0.84 175.043 0.011 -9.965 0.141 78.438
4962.751 0.147 128.665 7.782e-3 9.158 0.839 173.37
          7.756e-3 9.307 0.308 -1.623 0.011 -11
          0.838 173.424 0.011 -10.738 0.145 77.092
5003.81 0.15 126.853 7.88e-3 7.719 0.839 171.787
          7.834e-3 7.863 0.304 -3.237 0.011 -12.388
          0.838 171.831 0.011 -11.956 0.148 75.883
5044.868 0.154 125.123 7.964e-3 5.767 0.839 170.17
          7.924e-3 5.967 0.301 -4.941 0.011 -13.523
          0.838 170.197 0.011 -13.542 0.15 74.712
5085.926 0.158 123.571 8.013e-3 3.695 0.837 168.583
          7.965e-3 3.63 0.296 -6.603 0.011 -14.264
