!Hittite Microwave Corporation								
!12 Elizabeth Drive								
!Chelmsford, MA 01824								
!Tel: 978-250-3343								
!Fax: 978-250-3373								
!Device: HMC252QS24, DC-3 GHz GaAS MMIC SP6T Non-Reflective Switch in 24-lead QSOP package								
!Misc: Port 1 = RFCom, Port 2 = RF1, Port 3 = RF2, Port 4 = RF3, Port 5 = RF4, Port 6 = RF5, Port 7 = RF6, RF5 selected, Vdd=+5V							
!
# MHZ S MA R 50

30	0.705	40.068	0.001137	84.806	0.001089	84.608	0.0009412	88.772
	0.001043	88.782	0.668	-46.499	0.001303	84.683	0.001148	84.159
	0.916	-20.495	0.0002901	58.718	0.00003504	114.618	0.00006167	112.397
	0.0009909	87.426	0.00004447	15.536	0.001098	85.918	0.0003168	55.85
	0.917	-20.282	0.0005201	57.481	0.00003084	109.666	0.001052	88.294
	0.00004694	56.482	0.0009209	86.34	0.0000418	48.767	0.000496	52.994
	0.916	-20.69	0.00004847	-0.282	0.0009081	88.976	0.00004032	-153.129
	0.0009767	86.148	0.00005321	-95.042	0.00003336	103.986	0.00003482	70.112
	0.917	-20.585	0.00101	90.003	0.00003991	125.624	0.668	-46.489
	0.001008	85.968	0.001032	86.227	0.0008827	89.936	0.0009716	89.89
	0.706	40.52	0.001192	85.073	0.001317	82.949	0.00004137	157.563
	0.00001815	70.591	0.00006247	-156.606	0.00003815	29.157	0.001226	84.575
	0.917	-20.526						
47.35	0.53	50.032	0.001853	75.608	0.001807	74.857	0.001537	77.476
	0.001634	76.57	0.797	-34.481	0.002124	76.692	0.001867	75.507
	0.851	-30.463	0.0003356	55.773	0.00004283	62.188	0.00006155	50.978
	0.001622	76.587	0.00003597	66.74	0.001843	76.999	0.0004045	54.318
	0.854	-30.18	0.000671	45.886	0.00004466	152.821	0.001714	78.601
	0.00006764	-34.566	0.001543	77.381	0.0000569	117.282	0.0006603	43.515
	0.851	-30.778	0.00001811	54.318	0.001448	80.334	0.00003834	178.387
	0.001641	76.539	0.00003558	-111.605	0.00002997	86.604	0.00002033	97.957
	0.853	-30.656	0.001684	80.459	0.00003214	126.341	0.797	-34.479
	0.001611	76.277	0.001734	78.126	0.001467	79.646	0.001659	81.065
	0.532	50.76	0.001916	76.255	0.002134	75.164	0.00003801	114.691
	0.00002117	106.697	0.00004859	96.01	0.00005344	93.313	0.001947	74.743
	0.852	-30.482						
64.7	0.413	54.809	0.002517	67.096	0.00245	66.102	0.002089	66.642
	0.002151	64.51	0.855	-27.579	0.002895	68.101	0.002508	65.759
	0.78	-39.022	0.0003668	57.748	0.00003787	45.752	0.00002422	22.6
	0.002128	66.837	0.00003082	147.351	0.0025	65.881	0.000442	59.355
	0.784	-38.696	0.0007297	37.469	0.00005032	102.465	0.002282	67.609
	0.00004875	-94.911	0.002129	65.675	0.00007573	102.61	0.0006934	37.875
	0.78	-39.453	0.00002979	147.773	0.00197	68.946	0.00004277	166.583
	0.002206	63.768	0.00002654	153.308	0.00003754	-167.926	0.00001007	123.156
	0.781	-39.3	0.002274	70.27	0.00006365	116.46	0.854	-27.6
	0.002172	67.361	0.002313	68.367	0.001991	69.156	0.002277	70.863
	0.415	55.834	0.002555	65.995	0.002856	67.238	0.00005257	98.181
	0.00003911	133.892	0.0000331	48.241	0.00006203	118.028	0.002559	64.801
	0.781	-39.049						
82.05	0.334	56.827	0.003088	58.416	0.003008	58.261	0.002546	57.585
	0.002642	55.221	0.885	-23.392	0.003478	60.8	0.003078	58.151
	0.711	-46.363	0.0004305	57.834	0.00007608	95.861	0.0000286	100.592
	0.002539	58.021	0.0000605	79.76	0.003001	57.671	0.0004673	58.086
	0.715	-45.969	0.0006554	34.235	0.00003275	91.345	0.002783	57.91
	0.00001927	46.284	0.002548	56.73	0.000122	122.994	0.0006523	30.092
	0.711	-46.793	0.00007101	134.064	0.002391	58.73	0.00003356	120.426
	0.002657	54.697	0.00004078	136.389	0.0000599	164.522	0.00003016	80.653
	0.711	-46.644	0.002744	61.635	0.0001215	152.514	0.884	-23.38
	0.002591	58.312	0.002765	58.573	0.002377	59.848	0.002724	62.302
	0.337	58.193	0.003038	56.449	0.003461	60.813	0.00001922	47.426
	0.00006735	133.837	0.00004761	70.76	0.00008413	122.466	0.003023	56.693
	0.711	-46.433						
99.4	0.278	57.248	0.003524	51.508	0.003384	51.237	0.002914	49.498
	0.002981	47.78	0.9	-20.68	0.003976	55.246	0.003485	51.932
	0.647	-52.528	0.0004442	72.529	0.0001056	125.222	0.00001909	131.589
	0.00287	50.014	0.0001131	82.221	0.003404	50.906	0.0005031	73.117
	0.652	-52.111	0.0006069	38.018	0.00008364	142.535	0.003118	51.279
	0.0000729	81.902	0.002871	49.069	0.0001321	152.55	0.0005643	33.26
	0.647	-52.972	0.0001099	158.47	0.002735	52.149	0.00002121	-166.501
	0.002941	46.207	0.00006177	172.243	0.00006978	172.164	0.0001191	130.537
	0.647	-52.781	0.003089	56.664	0.0001629	148.287	0.9	-20.651
	0.002914	49.616	0.003062	51.485	0.002722	51.435	0.003101	57.255
	0.281	58.955	0.003437	49.449	0.003892	55.164	0.00003532	110.341
	0.00007447	139.164	0.00009415	140.705	0.0001254	140.052	0.003425	49.698
	0.647	-52.569						
116.75	0.236	56.598	0.003782	46.037	0.003683	45.306	0.003136	42.325
	0.003221	40.784	0.911	-18.878	0.004247	50.29	0.003755	46.693
	0.588	-57.588	0.0004993	80.115	0.0001366	133.17	0.0000422	112.845
	0.003155	43.119	0.0001044	122.176	0.003671	45.197	0.0005299	81.621
	0.594	-57.193	0.000556	55.005	0.0001064	145.227	0.003366	45.191
	0.000104	118.392	0.003129	42.726	0.0001511	143.532	0.000526	51.921
	0.591	-58.082	0.0001014	148.923	0.002931	46.041	0.00006847	139.498
	0.003208	39.365	0.00006758	129.655	0.0001121	135.225	0.0001572	141.287
	0.59	-57.907	0.003395	52.679	0.0001856	139.47	0.91	-18.872
	0.003074	43.12	0.003364	44.927	0.002941	45.662	0.003354	52.05
	0.24	58.75	0.003704	43.272	0.004221	50.33	0.00009623	131.001
	0.00005575	128.726	0.00007483	149.783	0.0001901	131.998	0.003664	43.445
	0.59	-57.677						
134.1	0.203	55.237	0.003989	41.688	0.003874	39.999	0.003293	37.9
	0.003417	34.229	0.917	-17.676	0.004491	46.798	0.003957	41.913
	0.537	-61.977	0.0006092	90.468	0.0001943	122.082	0.00008926	119.061
	0.003253	37.619	0.0001171	114.456	0.003883	39.805	0.0005983	87.953
	0.544	-61.613	0.000566	70.316	0.00014	127.197	0.003533	39.609
	0.0001289	134.642	0.003305	37.311	0.0002118	134.574	0.0005501	67.052
	0.541	-62.489	0.0001869	134.289	0.00312	40.775	0.00008755	121.64
	0.003399	34.378	0.00008409	141.946	0.0001364	127.46	0.0001976	138.035
	0.54	-62.295	0.003595	48.748	0.0002335	125.456	0.917	-17.629
	0.003281	36.978	0.003585	40.126	0.003109	40.871	0.003581	47.883
	0.209	57.876	0.003892	38.253	0.004485	46.82	0.0001081	123.448
	0.0000879	126.373	0.00007039	140.003	0.0002067	125.791	0.003856	38.48
	0.539	-62.063						
151.45	0.177	53.319	0.004151	38.359	0.004041	35.884	0.003455	33.219
	0.003586	28.806	0.921	-16.844	0.004703	43.47	0.004139	38.064
	0.493	-65.777	0.0007518	93.269	0.0002682	120.856	0.00009512	134.139
	0.003387	32.578	0.0001617	110.896	0.004045	35.854	0.0006881	91.439
	0.5	-65.413	0.0006353	80.601	0.0001747	133.345	0.003682	34.976
	0.0001415	136.186	0.003451	32.688	0.0002571	129.981	0.000642	80.143
	0.498	-66.293	0.0002537	123.646	0.003243	36.199	0.0001267	118.156
	0.003544	29.332	0.000116	144.354	0.0001536	131.93	0.0002089	136.858
	0.497	-66.099	0.003747	45.268	0.0002728	122.976	0.921	-16.811
	0.003425	32.313	0.003724	35.636	0.003221	36.421	0.003747	44.987
	0.184	56.483	0.004044	33.742	0.004717	43.684	0.0001148	112.396
	0.000116	122.444	0.00008043	128.659	0.0002801	120.088	0.004019	34.042
	0.496	-65.835						
168.8	0.156	50.875	0.004295	35.462	0.004186	32.855	0.00357	28.713
	0.003683	24.508	0.924	-16.3	0.004864	40.646	0.004291	35.187
	0.455	-69.062	0.0008747	94.647	0.0003331	123.35	0.0001072	128.553
	0.003538	28.243	0.0001633	115.338	0.004168	32.681	0.0008088	94.711
	0.462	-68.727	0.0007582	89.998	0.0001936	132.576	0.003805	31.607
	0.0001474	120.294	0.003566	28.636	0.0003179	122.778	0.0007716	88.968
	0.46	-69.581	0.000278	119.068	0.003348	32.236	0.000146	124.65
	0.003658	24.813	0.0001294	131.056	0.0001683	132.835	0.0002314	132.67
	0.459	-69.419	0.003873	42.14	0.0002995	122.327	0.925	-16.308
	0.003527	28.436	0.003837	31.385	0.003324	32.506	0.003866	42.337
	0.163	54.661	0.004122	30.113	0.004906	40.739	0.0001479	112.95
	0.0001333	116.53	0.0001015	117.598	0.000366	115.384	0.004133	30.286
	0.458	-69.127						
186.15	0.138	48.008	0.004405	32.67	0.004294	30.072	0.003623	25.313
	0.003719	20.844	0.926	-15.99	0.004986	38.776	0.004407	32.785
	0.422	-71.946	0.0009711	98.199	0.0003649	118.889	0.0001465	114.821
	0.003627	24.657	0.0001443	113.9	0.004266	29.605	0.0009553	97.874
	0.429	-71.621	0.0009305	98.117	0.0002157	111.696	0.003897	29.016
	0.0001618	99.83	0.003651	25.076	0.0003905	115.068	0.0009251	93.93
	0.427	-72.438	0.0003008	118.306	0.003451	28.831	0.0001331	130.778
	0.003737	21.144	0.0001312	121.873	0.0001911	129.075	0.0003003	123.942
	0.426	-72.304	0.003976	39.682	0.0003356	115.988	0.927	-16.007
	0.003624	24.792	0.003933	27.844	0.003433	29.248	0.003968	39.84
	0.147	52.501	0.004153	27.458	0.005028	38.451	0.0001996	117.419
	0.0001596	111.897	0.0001301	109.919	0.0004202	114.357	0.004201	27.232
	0.424	-72.009						
203.5	0.123	44.904	0.004442	30.335	0.004373	26.901	0.003701	22.35
	0.003789	17.384	0.927	-15.826	0.005092	37.362	0.004503	30.301
	0.392	-74.533	0.001085	96.779	0.0003733	114.478	0.0001571	132.907
	0.003674	21.256	0.0002207	108.743	0.004349	26.862	0.001098	97.5
	0.4	-74.081	0.00114	98.85	0.0002674	113.107	0.003988	26.201
	0.0001927	102.903	0.003729	22.164	0.0004128	118.105	0.001114	99.451
	0.398	-74.938	0.0003586	118.465	0.003486	25.804	0.0001448	114.586
	0.00378	17.291	0.0001686	117.633	0.0002323	127.642	0.0003828	121.027
	0.397	-74.805	0.004052	38.57	0.0004016	114.658	0.928	-15.833
	0.00368	21.886	0.003968	24.962	0.0035	26.181	0.004054	38.548
	0.132	50.074	0.004243	24.96	0.005085	37.184	0.000232	109.067
	0.0002031	107.472	0.0001605	111.668	0.0004728	117.586	0.004256	24.317
	0.394	-74.502						
220.85	0.11	41.302	0.004537	28.698	0.004424	24.88	0.003795	19.297
	0.003855	13.993	0.927	-15.787	0.005118	36.505	0.004506	28.935
	0.366	-76.744	0.001176	98.055	0.0004721	116.375	0.0001784	113.293
	0.003698	18.514	0.0002328	103.796	0.004409	23.847	0.001262	97.884
	0.374	-76.388	0.00134	101.901	0.0002282	116.004	0.00401	23.399
	0.0002031	114.364	0.003773	19.343	0.0004759	114.218	0.001287	99.202
	0.373	-77.161	0.0004103	124.742	0.003541	23.638	0.0001556	118.742
	0.003823	14.965	0.0001606	106.975	0.0002436	117.301	0.0003832	113.136
	0.371	-77.1	0.0041	37.109	0.0004709	121.309	0.93	-15.767
	0.003685	19.124	0.004022	22.393	0.003529	23.485	0.004123	36.958
	0.12	47.261	0.004259	21.915	0.005162	35.902	0.0002207	115.346
	0.0002313	106.757	0.0001846	99.324	0.0004692	114.343	0.004287	21.906
	0.37	-76.824						
238.2	0.099	37.273	0.004518	27.378	0.004482	23.118	0.003788	16.407
	0.003833	11.471	0.928	-15.759	0.005227	35.158	0.004552	27.56
	0.344	-78.828	0.001324	98.257	0.0005349	108.32	0.0001878	115.176
	0.003766	15.811	0.0002254	110.031	0.004451	22.793	0.001328	98.848
	0.352	-78.362	0.001521	100.941	0.0003001	113.339	0.00406	20.574
	0.0002359	118.223	0.003827	17.231	0.0005071	113.253	0.001505	99.628
	0.351	-79.127	0.0004601	115.274	0.00356	21.445	0.0001857	122.565
	0.003882	10.737	0.0001789	113.712	0.0002838	119.01	0.0004197	112.492
	0.35	-79.124	0.004132	36.589	0.0005355	109.762	0.929	-15.772
	0.003756	16.503	0.004076	20.915	0.00356	21.038	0.004164	36.083
	0.11	44.298	0.004284	19.485	0.005251	34.954	0.00025	96.064
	0.0002392	113.781	0.0001707	111.548	0.0004843	111.85	0.004312	19.205
	0.348	-78.788						
255.55	0.089	32.691	0.004581	26.329	0.004506	21.255	0.003821	14.629
	0.003906	9.113	0.93	-15.845	0.005292	34.562	0.004573	26.454
	0.324	-80.622	0.001478	98.006	0.0005608	109.745	0.0001942	111.302
	0.003776	13.665	0.0002904	110.565	0.004489	21.293	0.001494	97.817
	0.332	-80.141	0.001704	100.739	0.0002812	116.773	0.004109	18.766
	0.000267	112.088	0.003815	14.749	0.0005494	112.109	0.001692	100.249
	0.332	-80.88	0.0004668	113.424	0.003606	19.361	0.0002268	123.635
	0.003938	8.291	0.0002004	114.342	0.0003061	116.858	0.0005143	114.325
	0.33	-80.919	0.004226	35.468	0.0005799	110.082	0.93	-15.843
	0.003752	13.989	0.004127	18.905	0.003582	19.125	0.004217	35.273
	0.101	41.012	0.004343	17.761	0.005276	34.199	0.0002824	105.432
	0.0002605	110.651	0.000221	115.403	0.000554	107.655	0.004338	17.357
	0.328	-80.531						
272.9	0.081	27.681	0.004663	25.274	0.004554	19.858	0.003869	12.772
	0.003947	6.384	0.93	-15.995	0.005359	33.966	0.004601	25.379
	0.307	-82.243	0.001604	96.765	0.0005957	108.362	0.0002045	103.465
	0.003772	11.789	0.0003338	106.197	0.004515	19.502	0.00164	97.423
	0.314	-81.765	0.001917	100.529	0.0003	111.699	0.004144	17.083
	0.0002878	104.124	0.003819	12.34	0.0006153	109.62	0.001883	100.81
	0.314	-82.45	0.0005003	110.435	0.003613	17.269	0.0002174	106.983
	0.003941	6.303	0.0001976	110.631	0.0003266	112.748	0.000554	109.947
	0.312	-82.521	0.004289	34.854	0.0006175	109.827	0.931	-16.003
	0.003777	11.807	0.004151	17.054	0.003618	17.57	0.004261	34.51
	0.093	37.42	0.00437	15.756	0.005341	33.623	0.0003012	108.051
	0.0002849	103.409	0.0002204	108.459	0.0006098	107.602	0.004348	15.733
	0.31	-82.126						
290.25	0.074	22.196	0.0047	24.394	0.004565	18.148	0.003901	10.776
	0.003951	3.663	0.931	-16.18	0.005415	33.421	0.004635	24.282
	0.291	-83.758	0.001745	95.813	0.000647	106.46	0.0002203	96.207
	0.003807	9.966	0.0003546	105.217	0.004528	18.069	0.001766	97.091
	0.299	-83.206	0.002111	100.215	0.000354	103.691	0.004184	15.481
	0.0002948	102.927	0.003851	10.426	0.000664	106.955	0.002095	100.465
	0.298	-83.864	0.0005535	109.236	0.003629	15.433	0.0002089	95.922
	0.00396	3.951	0.0002222	106.484	0.0003339	107.928	0.0005763	106.255
	0.296	-83.986	0.004275	34.306	0.0006586	106.936	0.931	-16.213
	0.003801	9.852	0.004167	14.955	0.003631	15.612	0.004312	34.024
	0.086	33.548	0.004362	13.749	0.005404	33.082	0.0003272	104.12
	0.0002944	100.635	0.000218	106.365	0.0006415	107.097	0.004362	14.107
	0.294	-83.578						
307.6	0.068	16.154	0.004692	23.469	0.004547	16.459	0.003898	8.747
	0.003958	1.365	0.932	-16.418	0.005449	32.899	0.004654	23.394
	0.276	-85.179	0.0019	95.676	0.0006985	105.202	0.0002614	95.677
	0.00386	8.022	0.0003593	107.723	0.004545	16.98	0.001891	95.969
	0.284	-84.513	0.002288	99.737	0.0003885	102.808	0.004212	13.857
	0.0003053	104.413	0.003865	8.907	0.0006913	104.661	0.002296	99.235
	0.284	-85.131	0.0006095	109.255	0.003653	14.095	0.0002323	97.115
	0.00399	1.552	0.0002624	104.873	0.0003352	105.939	0.0006147	105.827
	0.282	-85.315	0.004258	33.705	0.0006935	104.097	0.931	-16.481
	0.003803	7.832	0.004186	12.745	0.003635	13.773	0.004347	33.682
	0.081	29.43	0.004339	12.203	0.00545	32.652	0.0003694	101.746
	0.0002893	102.864	0.000236	111.099	0.0006706	104.345	0.004363	12.494
	0.28	-84.888						
324.95	0.063	9.553	0.004688	22.18	0.004561	15.635	0.003867	6.841
	0.003975	-0.524	0.932	-16.737	0.005485	32.32	0.004657	22.762
	0.263	-86.463	0.002019	95.872	0.0007347	102.622	0.0003217	103.118
	0.003872	5.811	0.0003522	105.039	0.004575	15.782	0.002018	94.783
	0.271	-85.753	0.00248	99.001	0.0003831	108.549	0.0042	12.065
	0.0003347	99.972	0.003836	7.291	0.0007314	103.157	0.00246	98.229
	0.271	-86.261	0.000668	105.467	0.00364	13.005	0.0002516	98.417
	0.003971	-0.193	0.0002606	104.398	0.0003581	107.394	0.0006463	104.308
	0.269	-86.484	0.004322	33.566	0.000712	103.046	0.932	-16.825
	0.003813	5.58	0.004205	11.166	0.003664	12.952	0.004331	33.249
	0.076	25.073	0.004317	11.004	0.005512	32.539	0.0003983	101.088
	0.0002868	104.939	0.000244	107.97	0.0007205	102.443	0.004329	10.893
	0.267	-86.071						
342.3	0.059	2.406	0.004692	21.319	0.004535	14.009	0.003828	5.874
	0.003936	-2.412	0.931	-17.084	0.005555	32.288	0.004709	21.505
	0.251	-87.516	0.002108	96.609	0.0007685	103.859	0.0002896	105.656
	0.003832	3.31	0.0003899	93.418	0.004582	14.837	0.002168	95.884
	0.259	-86.83	0.002623	98.33	0.0004111	101.547	0.00419	10.716
	0.0003505	100.092	0.003858	5.318	0.0007855	105.531	0.002658	98.566
	0.26	-87.287	0.0007268	100.579	0.003653	11.172	0.0002135	111.365
	0.003977	-1.82	0.0002604	97.177	0.0004096	100.221	0.0006473	103.328
	0.257	-87.543	0.00436	33.804	0.000745	101.145	0.931	-17.164
	0.003838	3.408	0.004231	10.256	0.003644	11.427	0.004312	33.278
	0.071	20.435	0.004305	9.294	0.005528	32.55	0.0003553	95.045
	0.000296	108.165	0.000277	90.334	0.0007908	101.22	0.004312	9.159
	0.255	-87.112						
359.65	0.056	-5.073	0.004701	21.236	0.004564	13.396	0.003844	4.219
	0.003925	-4.153	0.93	-17.441	0.005478	32.151	0.004712	21.1
	0.24	-88.554	0.002253	95.294	0.0008447	102.37	0.000295	105.995
	0.003829	2.306	0.000395	97.679	0.004545	13.638	0.002286	94.698
	0.249	-87.709	0.002785	97.052	0.000409	101.047	0.004186	9.274
	0.0003705	105.277	0.003854	3.858	0.0008371	103.906	0.002855	97.496
	0.249	-88.102	0.0007289	102.325	0.003681	9.623	0.0002925	112.279
	0.003952	-4.925	0.0002993	94.504	0.0004352	103.329	0.0007443	101.23
	0.246	-88.53	0.004335	33.571	0.0008075	100.613	0.93	-17.495
	0.003861	2.263	0.004237	8.746	0.003663	9.473	0.004331	33.224
	0.068	15.793	0.004306	7.983	0.005547	31.952	0.0003972	96.372
	0.0003367	103.556	0.0002809	109.086	0.000801	100.437	0.004279	7.686
	0.244	-88.061						
377	0.053	-12.677	0.004693	20.94	0.00453	12.636	0.003805	2.899
	0.003964	-6.475	0.929	-17.782	0.005509	32.201	0.004689	20.836
	0.23	-89.499	0.002351	95.034	0.000868	102.901	0.0002797	101.532
	0.003852	0.67	0.0004252	98.791	0.004567	12.102	0.002391	94.228
	0.238	-88.634	0.002989	96.842	0.0004248	101.496	0.004194	8.002
	0.0003648	103.803	0.003816	1.975	0.0008408	101.571	0.003012	96.927
	0.238	-88.956	0.0007769	104.654	0.0036	8.588	0.0002812	107.712
	0.003951	-6.876	0.000291	101.003	0.0004572	102.429	0.0007733	99.657
	0.236	-89.475	0.00437	33.081	0.0008393	101.699	0.929	-17.855
	0.003804	1.076	0.004171	8.397	0.003644	8.695	0.004345	32.9
	0.064	10.975	0.004208	6.64	0.005534	32.235	0.0004236	103.114
	0.000365	100.126	0.0002881	102.541	0.000848	101.481	0.004185	6.446
	0.234	-88.933						
394.35	0.052	-20.369	0.004669	20.792	0.004492	11.784	0.003837	1.57
	0.003926	-8.286	0.929	-18.143	0.005565	32.306	0.004648	20.393
	0.221	-90.367	0.002501	94.686	0.0009099	100.619	0.0003074	102.308
	0.003809	-0.726	0.0004595	104.58	0.004567	11.574	0.002509	94.072
	0.229	-89.467	0.003143	96.805	0.0004618	106.27	0.004187	6.964
	0.0003809	100.414	0.00378	1.096	0.0008896	101.052	0.003171	96.586
	0.229	-89.803	0.0008133	102.02	0.003601	8.046	0.0002953	100.667
	0.003948	-8.35	0.000326	105.64	0.0004846	104.103	0.0008035	100.423
	0.227	-90.244	0.004367	32.969	0.0009072	101.748	0.929	-18.223
	0.003793	-0.487	0.004161	7.534	0.003599	7.441	0.004375	33.02
	0.062	6.043	0.004172	5.813	0.005536	32.36	0.0004317	103.235
	0.0003626	102.243	0.0003242	104.185	0.0009227	103.125	0.004152	5.866
	0.225	-89.71						
411.7	0.051	-27.999	0.00465	20.395	0.004488	10.962	0.003827	0.305
	0.003925	-10.357	0.929	-18.519	0.005582	32.185	0.004639	20.104
	0.213	-91.184	0.002649	94.479	0.0009779	98.473	0.0003341	106.346
	0.003792	-2.248	0.0004907	104.393	0.004544	10.945	0.002628	94.087
	0.221	-90.192	0.003324	96.273	0.0005117	105.093	0.004166	6.127
	0.0004108	99.035	0.003766	-0.031	0.0009315	101.981	0.003359	96.029
	0.22	-90.542	0.0008406	101.426	0.003619	7.149	0.0003296	99.257
	0.003943	-10.171	0.0003537	102.718	0.0005213	103.908	0.0008482	100.329
	0.219	-91.01	0.004331	33.19	0.0009688	99.329	0.929	-18.599
	0.003804	-1.787	0.004194	6.346	0.003589	6.398	0.004364	33.244
	0.06	1.125	0.004138	5.083	0.005529	32.383	0.0004591	100.923
	0.0003684	102.691	0.0003585	105.037	0.0009796	101.513	0.004156	5.123
	0.216	-90.457						
429.05	0.051	-35.449	0.00465	19.951	0.004504	10.404	0.003797	-0.745
	0.003967	-11.983	0.929	-18.912	0.005588	32.34	0.004639	20.07
	0.205	-91.992	0.002798	94.112	0.001034	97.678	0.0003609	105.42
	0.003803	-3.557	0.0005034	98.13	0.004524	10.175	0.002775	93.971
	0.213	-90.834	0.003519	95.635	0.0005362	102.271	0.00415	5.129
	0.0004314	99.317	0.003775	-1.283	0.0009761	101.62	0.003549	95.509
	0.212	-91.181	0.0009023	102.444	0.003606	5.775	0.0003525	101.431
	0.003946	-12.024	0.0003742	100.726	0.0005576	98.863	0.0009042	99.324
	0.211	-91.774	0.004326	33.635	0.001007	97.983	0.929	-19.026
