!Hittite Microwave Corporation								
!12 Elizabeth Drive								
!Chelmsford, MA 01824								
!Tel: 978-250-3343								
!Fax: 978-250-3373								
!Device: HMC252QS24, DC-3 GHz GaAS MMIC SP6T Non-Reflective Switch in 24-lead QSOP package								
!Misc: Port 1 = RFCom, Port 2 = RF1, Port 3 = RF2, Port 4 = RF3, Port 5 = RF4, Port 6 = RF5, Port 7 = RF6, All Off CtlA High, Vdd=+5V							
!
# MHZ S MA R 50

30	0.992	-2.953	0.002152	85.198	0.002123	85.234	0.001778	87.324
	0.001791	88.589	0.002125	85.623	0.002286	83.719	0.002154	85.678
	0.914	-20.495	0.0002796	72.431	0.00003721	52.021	0.0000145	-179.91
	0.00002808	61.689	0.00005	54.792	0.002099	86.492	0.0002962	70.916
	0.917	-20.234	0.000535	57.69	0.0000334	-96.983	0.00002151	-23.232
	0.00004045	-15.134	0.00176	87.946	0.000032	-174.196	0.0005037	56.386
	0.916	-20.697	0.00002791	-162.55	0.00004138	-17.486	0.00004135	-150.995
	0.001804	87.374	0.00003644	-41.098	0.00003674	134.641	0.00006018	165.571
	0.917	-20.61	0.0005131	57.722	0.0000515	-43.214	0.002107	86.151
	0.00004822	-116.217	0.00002768	81.735	0.00005309	8.763	0.0004701	52.569
	0.918	-20.154	0.0002653	68.204	0.002285	84.641	0.00006283	115.987
	0.0000828	-2.385	0.00006478	47.363	0.00002968	-50.183	0.0002819	62.898
	0.916	-20.516						
47.35	0.99	-4.492	0.003496	75.4	0.003462	76.073	0.002942	77.807
	0.002955	78.595	0.003493	76.341	0.003666	75.28	0.003506	75.669
	0.851	-30.458	0.000363	59.772	0.00003719	-3.991	0.00001047	-108.838
	0.00003886	107.719	0.00005068	76.078	0.003443	76.296	0.0003881	61.486
	0.854	-30.108	0.0006899	46.259	0.00002114	-160.271	0.00003398	-138.339
	0.00002951	-148.68	0.002941	77.46	0.00004648	116.8	0.0006615	42.269
	0.851	-30.787	0.00002886	-135.654	0.00002093	56.62	0.0000621	168.165
	0.002948	78.102	0.00004814	-113.964	0.00001691	95.92	0.00004768	53.96
	0.851	-30.634	0.0006271	44.937	0.00002723	10.322	0.003465	75.859
	0.00004318	164.339	0.00002637	102.295	0.0000347	-37.368	0.0006636	42.173
	0.854	-30.047	0.0003579	60.343	0.003736	75.162	0.00005301	94.261
	0.00005484	79.37	0.00007078	100.632	0.00004507	-148.826	0.0003468	61.321
	0.851	-30.483						
64.7	0.988	-6.008	0.0047	65.783	0.004623	66.33	0.003978	67.247
	0.003991	67.468	0.004703	66.484	0.004915	65.985	0.004719	65.529
	0.78	-39.007	0.0003872	60.982	0.00005174	74.805	0.00001001	-69.009
	0.00004329	150.937	0.00005605	88.826	0.004664	65.972	0.0004076	57.002
	0.784	-38.666	0.0007202	35.484	0.00004131	156.662	0.00005324	159.709
	0.00004309	114.591	0.004009	66.956	0.0000703	103.982	0.0007286	33.406
	0.78	-39.464	0.00002431	-155.648	0.00001469	141.856	0.00005004	105.243
	0.00397	67.327	0.00004844	-77.574	0.00001892	133.483	0.00002797	-64.92
	0.78	-39.26	0.0006403	35.246	0.00003554	83.085	0.004646	66.09
	0.0000332	153.01	0.00004175	86.894	0.00002851	-1.114	0.0006586	37.258
	0.785	-38.598	0.000375	56.858	0.004987	66.179	0.00004683	61.994
	0.0000458	113.904	0.00005748	170.01	0.00005845	126.771	0.0003945	56.432
	0.781	-39.083						
82.05	0.988	-7.543	0.005635	56.734	0.005566	57.826	0.004862	57.292
	0.004882	58.156	0.005638	57.724	0.005961	57.156	0.005644	56.786
	0.71	-46.384	0.0004273	58.955	0.0001035	108.585	0.00002967	-165.768
	0.00002758	160.315	0.00005514	118.015	0.005624	57.542	0.0003669	66.097
	0.715	-46.016	0.0006792	35.392	0.00002839	113.954	0.0000533	137.143
	0.00004616	170.243	0.004836	57.613	0.00009187	115.401	0.0006349	33.115
	0.711	-46.843	0.00007411	130.322	0.00001862	154.73	0.00003199	144.78
	0.004835	58.297	0.00005983	66.686	0.00005323	170.119	0.00008122	172.938
	0.711	-46.629	0.0006076	33.213	0.00007777	119.691	0.005614	57.337
	0.00004045	-172.267	0.00003766	9.915	0.00007191	96.808	0.0005818	35.305
	0.715	-45.869	0.0003471	61.749	0.005981	57.512	0.00005348	74.222
	0.00005462	146.922	0.00003145	117.207	0.00009778	126.465	0.0004232	62.991
	0.711	-46.445						
99.4	0.987	-9.012	0.006359	49.606	0.006314	50.147	0.005491	49.467
	0.005509	49.866	0.006351	50.119	0.0067	50.448	0.006332	49.572
	0.646	-52.487	0.0004994	73.295	0.0001146	118.282	0.00004822	151.29
	0.00008881	83.588	0.00002132	148.017	0.006311	50.157	0.0004071	64.369
	0.652	-52.102	0.0005701	41.627	0.00007647	159.968	0.00006266	76.608
	0.000118	127.199	0.005484	49.798	0.0001084	123.852	0.0005996	36.342
	0.647	-53	0.0001173	159.863	0.0000561	149.254	0.00002675	80.71
	0.005488	50.439	0.00006832	103.773	0.0001003	119.412	0.0000949	164.508
	0.647	-52.744	0.0005507	33.95	0.0001277	134.582	0.006343	50.403
	0.0000712	138.931	0.00007447	102.518	0.00009937	167.76	0.0005108	39.387
	0.651	-51.93	0.0004395	73.431	0.006716	50.432	0.00006988	102.235
	0.00005475	125.463	0.00002462	146.971	0.0001169	119.276	0.0003823	71.821
	0.647	-52.57						
116.75	0.987	-10.522	0.006905	43.467	0.006847	44.07	0.005992	43.105
	0.005966	43.412	0.006904	44.272	0.007261	44.794	0.006867	43.468
	0.588	-57.585	0.0004972	77.558	0.0001519	126.912	0.00006997	137.147
	0.00007032	122.756	0.00005072	116.191	0.006852	43.962	0.0004851	76.737
	0.594	-57.18	0.0004954	55.159	0.00008464	133.471	0.0001205	141.487
	0.00009028	129.919	0.005934	43.138	0.0001614	131.547	0.0005416	53.408
	0.59	-58.113	0.0001171	134.695	0.00004908	127.59	0.00005653	106.567
	0.00594	43.753	0.00008227	149.266	0.0001256	123.776	0.0001842	144.845
	0.59	-57.889	0.0004663	51.559	0.0002027	132.998	0.00689	43.964
	0.0001069	135.009	0.0001119	117.859	0.00008674	129.161	0.0004686	53.893
	0.594	-57.009	0.0004534	80.055	0.007243	44.625	0.00009284	127.197
	0.00004562	129.396	0.00007353	140.772	0.0001544	132.191	0.0004557	79.356
	0.59	-57.677						
134.1	0.986	-12.007	0.00728	38.133	0.007232	38.74	0.006307	37.68
	0.006335	38.084	0.007286	38.832	0.007651	39.907	0.007307	38.706
	0.538	-61.975	0.0005944	88.47	0.000226	123.339	0.00009913	133.745
	0.0001065	130.81	0.0001177	112.78	0.007229	38.895	0.0005804	86.907
	0.544	-61.617	0.0005259	68.603	0.0001193	137.924	0.0001115	122.665
	0.00009648	120.094	0.00629	37.466	0.0002169	125.389	0.0005821	66.243
	0.54	-62.534	0.0001737	130.03	0.0001197	136.831	0.00007938	112.758
	0.006291	38.23	0.0000998	141.592	0.0001293	127.842	0.0002032	129.609
	0.54	-62.3	0.0004927	68.806	0.0002133	121.153	0.007304	38.874
	0.0001146	125.315	0.0001312	124.398	0.0001156	123.289	0.0004956	71.249
	0.543	-61.462	0.0005538	85.998	0.007661	39.673	0.0001349	117.831
	0.00008945	131.718	0.00007116	121.704	0.0002086	130.386	0.0005531	84.586
	0.539	-62.052						
151.45	0.986	-13.527	0.007574	33.786	0.007538	34.157	0.006547	32.704
	0.006589	33.439	0.007593	34.356	0.007915	35.872	0.007611	34.337
	0.494	-65.748	0.0007048	94.236	0.0002671	123.967	0.0001292	124.471
	0.0001284	129.344	0.000165	117.613	0.007572	34.404	0.0006908	92.376
	0.501	-65.461	0.0006247	81.631	0.0001221	138.503	0.0001408	109.989
	0.0001195	120.964	0.006571	32.74	0.0002945	118.724	0.000648	80.026
	0.497	-66.369	0.0002137	127.037	0.000141	144.055	0.000118	122.692
	0.00659	33.391	0.0001128	119.999	0.0001452	119.217	0.0001991	129.695
	0.497	-66.105	0.000586	84.602	0.0002712	128.003	0.007619	34.603
	0.0001019	115.173	0.0001556	120.596	0.0001356	119.513	0.0005911	84.111
	0.499	-65.272	0.000673	91.408	0.007967	35.447	0.000164	107.553
	0.0001276	121.77	0.0001122	116.299	0.000267	123.319	0.0006611	87.931
	0.495	-65.813						
168.8	0.987	-15.036	0.007802	30.481	0.007759	30.323	0.006731	28.495
	0.006761	29.216	0.007838	30.581	0.008119	32.47	0.007817	30.41
	0.455	-69.077	0.0008171	96.305	0.0003006	121.91	0.000131	125.145
	0.0001515	124.497	0.000189	114.057	0.007824	30.436	0.0008273	94.753
	0.463	-68.777	0.0007661	90.143	0.0001502	131.551	0.0002	115.896
	0.0001526	120.681	0.006757	28.832	0.0003508	116.592	0.0007499	90.553
	0.46	-69.675	0.0002591	124.881	0.0001442	140.493	0.0001463	131.166
	0.006817	29.199	0.0001274	109.581	0.000169	111.645	0.0002368	128.135
	0.459	-69.429	0.0007372	95.925	0.000327	129.334	0.007835	30.661
	0.0001269	116.358	0.0001651	116.254	0.000167	116.928	0.0007366	94.03
	0.461	-68.578	0.00078	95.729	0.008183	32.069	0.0001758	109.394
	0.0001706	110.292	0.0001303	121.176	0.000325	121.036	0.0007587	91.023
	0.458	-69.117						
186.15	0.988	-16.512	0.007967	27.669	0.007916	27.025	0.006865	25.223
	0.006902	25.487	0.008003	27.221	0.008289	29.47	0.007972	27.16
	0.422	-72.027	0.0009499	97.818	0.0003682	113.557	0.000127	137.003
	0.0001727	118.689	0.0002069	109.667	0.007966	27.06	0.0009843	96.028
	0.429	-71.634	0.0009386	93.589	0.0002157	127.613	0.0002293	111.628
	0.0001838	108.86	0.006884	25.346	0.0003766	116.38	0.0009023	95.569
	0.427	-72.527	0.0003044	124.95	0.0001753	131.874	0.0001448	125.785
	0.006951	25.594	0.000148	108.52	0.0001869	112.431	0.000314	118.33
	0.425	-72.337	0.0009127	100.972	0.0003592	112.806	0.007988	27.171
	0.0001793	119.41	0.0001594	115.992	0.0001947	117.695	0.0009157	101.596
	0.427	-71.494	0.0008898	96.888	0.008342	29.226	0.0001803	114.783
	0.0002017	107.642	0.0001135	119.422	0.0003818	121.871	0.0008669	94.565
	0.424	-72.038						
203.5	0.987	-18.02	0.008089	24.594	0.008077	24.036	0.006987	22.324
	0.007038	22.484	0.008106	24.463	0.008404	26.878	0.008084	24.41
	0.392	-74.549	0.00109	96.253	0.0004537	111.346	0.000176	132.724
	0.0001435	116.152	0.0002259	119.684	0.008109	24.174	0.001127	96.737
	0.4	-74.111	0.001131	96.806	0.0002344	124.272	0.0002102	94.724
	0.0001883	101.741	0.007031	21.908	0.0004189	114.407	0.001085	99.978
	0.398	-75.034	0.0003043	118.541	0.0002015	116.894	0.0001359	115.539
	0.007019	22.329	0.0001637	101.964	0.0002069	111.586	0.0003702	117.534
	0.396	-74.858	0.00106	101.824	0.0004376	108.479	0.008139	24.573
	0.0001794	101.294	0.0001785	111.787	0.0001658	107.254	0.001118	102.95
	0.397	-74.035	0.001025	93.882	0.00846	26.347	0.0001925	110.168
	0.0001711	106.323	0.0001638	113.062	0.0004371	115.848	0.001023	96.997
	0.394	-74.565						
220.85	0.987	-19.58	0.008131	22.308	0.008208	22.006	0.007092	19.073
	0.007116	19.872	0.008254	22.148	0.008515	24.87	0.00815	22.177
	0.367	-76.891	0.001174	96.954	0.000474	113.243	0.000177	121.964
	0.0001636	95.388	0.0002474	108.535	0.008199	21.773	0.001207	97.222
	0.374	-76.377	0.001311	97.512	0.0002385	115.765	0.0002313	109.596
	0.000171	108.46	0.007109	19.391	0.0004297	112.351	0.001345	99.731
	0.373	-77.243	0.0004386	116.126	0.0002085	112.295	0.0001583	120.707
	0.007076	19.741	0.0001514	104.002	0.0002742	118.684	0.0004441	118.028
	0.371	-77.122	0.00128	101.697	0.0004658	113.094	0.008189	21.972
	0.0002071	108.478	0.0002172	109.012	0.0002294	109.335	0.00131	102.792
	0.372	-76.376	0.001148	96.867	0.008487	24.615	0.0002521	107.071
	0.0002109	120.381	0.0001632	120.885	0.0004933	110.961	0.001098	94.905
	0.369	-76.811						
238.2	0.988	-21.095	0.008234	19.85	0.008248	19.77	0.007148	16.617
	0.007151	17.544	0.008336	20.169	0.008573	22.975	0.008197	19.771
	0.344	-78.822	0.001348	97.137	0.0005177	108.916	0.0001884	91.221
	0.0002044	101.555	0.0002835	106.843	0.008247	19.641	0.001343	97.958
	0.352	-78.362	0.001531	99.89	0.0002632	113.73	0.0002781	113.136
	0.000239	113.361	0.007109	16.896	0.0004974	108.076	0.001518	100.962
	0.351	-79.203	0.0004422	113.847	0.0002402	115.649	0.0001759	121.392
	0.00713	17.397	0.000196	99.777	0.0002968	107.643	0.000445	113.329
	0.349	-79.113	0.001499	103.391	0.0005264	111.863	0.008277	19.963
	0.0002324	114.006	0.0002756	102.567	0.0002521	110.685	0.001472	102.457
	0.349	-78.4	0.00125	95.465	0.008527	23.082	0.0002748	103.553
	0.0002385	112.134	0.0002303	108.38	0.0005071	108.322	0.001236	96.886
	0.347	-78.792						
255.55	0.987	-22.563	0.008254	18.276	0.008325	17.778	0.007218	14.584
	0.007217	15.296	0.008379	18.145	0.008592	21.715	0.008221	18.163
	0.324	-80.629	0.001469	96.743	0.000563	106.79	0.0002012	100.709
	0.0002379	106.296	0.0002963	99.866	0.008291	17.931	0.001524	97.331
	0.332	-80.125	0.001734	100.801	0.0002944	116.211	0.0002638	105.791
	0.0002684	110.882	0.007163	14.605	0.0005528	108.255	0.00171	101.101
	0.332	-80.944	0.0004938	111.443	0.0002761	106.064	0.000213	110.989
	0.007165	15.616	0.000221	106.362	0.0003188	104.938	0.0004933	112.848
	0.329	-80.938	0.001655	101.929	0.0005621	107.58	0.008328	18.092
	0.0002485	107.732	0.000265	104.414	0.0003038	110.397	0.001659	101.597
	0.33	-80.207	0.001378	96.433	0.008564	21.529	0.0002958	104.573
	0.0002346	108.286	0.0001895	103.085	0.0005572	109.545	0.001374	96.373
	0.327	-80.566						
272.9	0.987	-24.068	0.008282	16.571	0.008391	15.979	0.007266	12.497
	0.00726	13.171	0.008412	16.227	0.008607	20.143	0.008286	16.723
	0.306	-82.245	0.001619	97.311	0.000599	107.017	0.0001975	110.363
	0.0002622	108.126	0.0002775	104.736	0.008337	16.279	0.001655	97.004
	0.314	-81.734	0.001914	100.583	0.0003269	108.673	0.0002782	108.693
	0.0002601	107.506	0.007232	12.67	0.0006042	107.131	0.001896	100.325
	0.314	-82.524	0.000538	110.428	0.0003028	104.862	0.0002154	110.707
	0.007247	13.687	0.0002256	108.959	0.0003519	102.933	0.00053	109.142
	0.312	-82.556	0.00184	101.383	0.0006247	106.17	0.008397	16.571
	0.0002452	103.309	0.0002771	112.181	0.0003287	108.23	0.001848	101.345
	0.312	-81.891	0.001507	96.719	0.008598	20.233	0.0003152	104.831
	0.0002563	101.412	0.000227	104.918	0.0006072	106.951	0.001481	96.76
	0.31	-82.201						
290.25	0.987	-25.585	0.008323	14.852	0.008432	14.178	0.007291	10.425
	0.007304	11.119	0.008437	14.467	0.008611	18.647	0.008339	15.194
	0.29	-83.744	0.001783	96.933	0.0006524	105.357	0.0002242	109.98
	0.0002706	106.945	0.0003025	105.055	0.008417	14.407	0.001789	95.753
	0.299	-83.207	0.002078	99.529	0.0003457	106.644	0.0003086	110.59
	0.0002647	102.523	0.007285	10.828	0.0006686	104.993	0.002081	99.424
	0.298	-83.915	0.0005683	108.646	0.0003295	106.128	0.0002205	114.589
	0.007322	11.573	0.0002351	108.999	0.0003891	106.005	0.0005724	106.139
	0.296	-84.027	0.002031	101.181	0.0006867	105.117	0.008464	15.03
	0.0002596	105.344	0.0003151	108.621	0.0003396	106.445	0.002028	101.216
	0.296	-83.43	0.001621	96.806	0.008637	19.016	0.0003367	102.849
	0.0002821	98.486	0.0002379	103.824	0.0006447	104.631	0.001589	96.657
	0.294	-83.631						
307.6	0.988	-27.08	0.008334	13.379	0.008457	12.347	0.007317	8.536
	0.007333	9.337	0.008459	12.918	0.008616	17.426	0.008361	13.548
	0.276	-85.155	0.001926	95.534	0.000706	102.048	0.0002614	108.123
	0.000281	103.854	0.0003633	96.905	0.008505	12.49	0.001925	94.309
	0.284	-84.535	0.002244	98.685	0.0003588	109.489	0.000331	106.126
	0.0002941	99.525	0.007323	8.845	0.0007399	102.526	0.00227	98.813
	0.284	-85.171	0.0006076	106.081	0.0003455	106.003	0.0002512	111.035
	0.007354	9.489	0.0002587	106.041	0.0003998	106.306	0.0006103	106.337
	0.282	-85.384	0.002214	100.711	0.0007209	103.252	0.008508	13.31
	0.0002799	107.886	0.0003481	99.134	0.0003501	103.18	0.0022	100.678
	0.281	-84.841	0.001733	96.645	0.008658	17.569	0.0003471	99.947
	0.0002922	100.186	0.0002144	96.814	0.000675	104.004	0.001716	95.616
	0.28	-84.91						
324.95	0.988	-28.549	0.008298	12.06	0.008466	10.681	0.007339	6.805
	0.007308	7.899	0.008484	11.587	0.008619	16.209	0.008375	11.852
	0.263	-86.427	0.00204	94.985	0.0007227	100.746	0.0002503	110.051
	0.0003124	100.588	0.0003845	95.541	0.008536	10.87	0.002014	94.731
	0.271	-85.708	0.002438	98.711	0.0003921	104.043	0.0003532	102.408
	0.0003167	102	0.00735	6.788	0.0007879	99.75	0.002464	98.392
	0.271	-86.364	0.000664	104.472	0.0003401	107.025	0.000279	99.282
	0.007355	7.58	0.0002837	99.369	0.0003788	95.255	0.0006212	106.438
	0.269	-86.594	0.002394	100.458	0.0007353	102.353	0.008525	11.579
	0.0002845	104.411	0.0003582	101.398	0.0003617	98.451	0.00237	99.816
	0.268	-86.159	0.00185	95.517	0.008629	15.928	0.0003421	99.407
	0.000305	98.882	0.0002556	91.116	0.0007064	101.511	0.001842	95.006
	0.267	-86.13						
342.3	0.988	-30.018	0.008301	10.573	0.008429	9.386	0.007257	4.957
	0.007293	5.938	0.008494	10.239	0.008515	15.163	0.00833	10.222
	0.251	-87.538	0.002134	94.717	0.0007531	99.513	0.0002444	96.167
	0.0003229	98.243	0.0003889	104.956	0.008507	9.308	0.002149	95.264
	0.259	-86.741	0.002672	97.542	0.000449	108.882	0.0003996	96.469
	0.0003245	97.09	0.007324	5.056	0.0007891	99.292	0.002687	98.115
	0.259	-87.379	0.0006864	101.876	0.0003681	100.228	0.0002588	96.683
	0.007316	5.783	0.0003027	104.929	0.0004182	100.868	0.0006788	102.299
	0.258	-87.615	0.00253	99.708	0.0007591	101.265	0.008497	9.862
	0.0003703	104.004	0.0003662	97.373	0.0003967	107.613	0.002523	99.023
	0.256	-87.261	0.001922	95.257	0.008573	14.908	0.0003804	105.232
	0.0003609	94.226	0.0002608	93.516	0.0007339	97.794	0.001938	94.389
	0.255	-87.112						
359.65	0.988	-31.536	0.00825	9.359	0.008402	8.189	0.007219	3.416
	0.007327	4.214	0.008383	8.438	0.008445	14.64	0.008279	8.973
	0.24	-88.535	0.002285	94.416	0.0008554	100.488	0.000276	102.782
	0.0003099	96.87	0.0004232	100.831	0.008471	7.86	0.002311	95.479
	0.248	-87.761	0.002882	97.693	0.0004052	104.448	0.0003449	97.235
	0.0003617	94.043	0.007279	3.463	0.0008612	102.723	0.002796	97.438
	0.248	-88.183	0.0007335	100.97	0.0004039	101	0.0002587	120.304
	0.0073	4.224	0.0003001	97.643	0.0004078	98.181	0.0007549	103.7
	0.247	-88.611	0.00271	97.305	0.0007772	100.214	0.008487	8.786
	0.000325	93.311	0.0003904	95.299	0.0003993	102.679	0.00274	98.906
	0.245	-88.309	0.002012	93.681	0.008487	13.91	0.0004231	99.05
	0.0003418	94.408	0.0002945	96.711	0.0007697	101.205	0.002027	94.345
	0.244	-88.05						
377	0.988	-33.037	0.008236	8.578	0.008413	7.342	0.007227	2.096
	0.0073	3.324	0.008376	7.74	0.008392	13.893	0.008215	7.886
	0.23	-89.502	0.002398	94.803	0.0008737	98.361	0.0003031	102.952
	0.0003843	96.672	0.0004537	97.622	0.008429	6.71	0.002389	94.252
	0.238	-88.625	0.003033	96.51	0.0004461	102.312	0.0003938	98.641
	0.0003426	101.883	0.007241	1.902	0.0008644	99.771	0.002948	96.264
	0.238	-89.045	0.0007611	101.324	0.0004109	102.557	0.0003109	110.883
	0.007222	2.63	0.0003381	100.095	0.0004047	96.177	0.0007793	101.289
	0.237	-89.469	0.002888	97.413	0.0008158	99.166	0.008354	7.418
	0.000337	92.932	0.0004179	98.16	0.000442	98.687	0.002874	98.043
	0.236	-89.316	0.002162	94.491	0.008424	13.164	0.0004252	97.358
	0.0003406	100.242	0.0003102	106.151	0.0008334	99.443	0.002141	93.617
	0.234	-88.94						
394.35	0.988	-34.526	0.008182	7.854	0.0084	6.225	0.007221	0.66
	0.007248	2.159	0.008372	6.82	0.008372	13.109	0.008127	7.181
	0.221	-90.35	0.002512	94.352	0.0009361	97.954	0.0003097	103.444
	0.000392	99.827	0.000476	97.464	0.008382	5.808	0.002496	93.704
	0.229	-89.389	0.00316	96.116	0.0004439	104.559	0.0004091	97.869
	0.0003496	102.457	0.0072	0.791	0.0009148	99.698	0.003109	95.733
	0.229	-89.888	0.0008052	102.062	0.0004362	101.367	0.0003352	105.091
	0.007172	1.748	0.0003557	99.736	0.0004676	102.546	0.000816	99.653
	0.227	-90.294	0.003037	97.186	0.0008974	100.58	0.008305	6.466
	0.0003792	98.807	0.0004383	99.858	0.0004312	98.426	0.003045	97.252
	0.227	-90.225	0.002293	94.347	0.008318	13.041	0.0004587	98.952
	0.000362	98.627	0.000333	107.255	0.0009037	100.503	0.002287	94.217
	0.225	-89.736						
411.7	0.988	-36.016	0.008141	6.926	0.00838	4.956	0.007191	-0.513
	0.007203	0.895	0.008351	5.858	0.008323	12.591	0.008089	6.797
	0.213	-91.15	0.002632	94.011	0.0009761	97.83	0.0003457	100.359
	0.0003898	97.97	0.0004727	99.405	0.008323	5.053	0.002641	93.242
	0.221	-90.099	0.003316	96.441	0.0004808	101.919	0.0004366	96.088
	0.0003826	97.118	0.007174	-0.114	0.000949	98.491	0.003329	96.148
	0.22	-90.623	0.0008358	101.518	0.0004743	100.153	0.000353	103.385
	0.007161	0.833	0.0003687	98.609	0.0005117	103.097	0.0008613	99.773
	0.219	-91.107	0.003221	97.11	0.0009623	100.88	0.008293	5.979
	0.0004182	101.435	0.0004371	97.721	0.0004704	99.691	0.003211	96.927
	0.218	-91.132	0.002409	94.317	0.008237	12.936	0.0004953	97.733
	0.000374	96.529	0.0003432	105.558	0.0009584	100.476	0.00243	94.391
	0.216	-90.47						
429.05	0.988	-37.508	0.008117	5.96	0.008355	3.998	0.007172	-1.527
	0.00718	-0.25	0.008333	4.99	0.008252	12.125	0.008095	6.364
	0.205	-91.942	0.002772	94.009	0.001006	97.527	0.0003893	98.728
