!Hittite Microwave Corporation								
!12 Elizabeth Drive								
!Chelmsford, MA 01824								
!Tel: 978-250-3343								
!Fax: 978-250-3373							
!Device: HMC241QS16, DC-3.5 GHz GaAs MMIC SP4T Non-Reflective Switch in 16 lead QSOP package								
!Misc: Port 1 = RFC, Port 2 = RF1, Port 3 = RF2. Port 4 = RF3, Port 5 = RF 4, RF4 Selected, Bias: +5VDC, DEEMBEDDED TO THE PINS OF THE DEVICE							
!
# MHZ S MA R 50

0.01	0.999	-0.177	0.000016	34.699	0.00003458	176.497	0.00003586	132.759
	0.001869	120.809	0.00001006	179.601	0.997	-0.224	0.00008131	140.136
	0.00004633	111.288	0.00001262	69.168	0.00003075	37.029	0.00001158	175.695
	0.998	-0.234	0.00002796	120.511	0.00004089	150.348	0.00003819	19.724
	0.00003639	126.97	0.00007629	95.903	0.998	-0.204	0.000009829	64.521
	0.001829	119.768	0.00003073	152.571	0.00002229	-133.586	0.0000293	121.046
	0.998	-0.158						
19.105	0.448	-58.159	0.0006748	85.588	0.0005496	96.389	0.0006628	88.816
	0.815	29.118	0.0006966	94.95	0.965	-12.339	0.0004118	51.524
	0.0003166	39.511	0.0006049	83.847	0.0005564	88.374	0.0003868	49.434
	0.966	-12.301	0.0003092	45.865	0.0005284	88.096	0.0006806	84.901
	0.000279	34.169	0.0002512	48.142	0.966	-12.319	0.0006006	85.32
	0.814	29.055	0.0006373	87.687	0.0005677	91.617	0.0005927	89.347
	0.447	-57.007						
38.201	0.246	-68.405	0.001326	74.284	0.001183	73.9	0.001257	76.679
	0.913	13.549	0.001375	75.628	0.909	-23.334	0.0005982	-49.563
	0.0004059	-89.684	0.001127	72.104	0.001142	75.495	0.0005902	-54.779
	0.91	-23.294	0.0006117	-70.655	0.0009649	70.766	0.001304	80.21
	0.0004309	-87.209	0.0005901	-69.749	0.909	-23.305	0.001165	75.231
	0.912	13.557	0.001099	70.612	0.0009434	71.36	0.001122	74.689
	0.247	-66.119						
57.296	0.165	-69.608	0.002005	73.511	0.001748	72.882	0.001903	69.905
	0.93	8.683	0.002009	74.074	0.838	-32.873	0.0002073	59.565
	0.0001223	-99.699	0.001778	67.619	0.001743	72.113	0.000243	61.068
	0.838	-32.816	0.0001675	-170.972	0.001549	69.753	0.001922	70.252
	0.0001165	-73.237	0.0001508	-159.251	0.838	-32.843	0.001784	74.073
	0.93	8.702	0.001795	66.959	0.001572	69.943	0.001772	73.834
	0.168	-66.38						
76.392	0.126	-68.437	0.002576	66.739	0.002258	64.432	0.002432	60.697
	0.935	6.207	0.002563	66.099	0.763	-41.016	0.0001791	108.137
	0.00005653	-128.657	0.002251	59.549	0.002218	63.697	0.0002052	108.843
	0.764	-40.956	0.00003086	-84.077	0.002028	62.503	0.002463	61.644
	0.00008883	-114.663	0.00006732	-136.511	0.764	-40.93	0.002301	67.413
	0.934	6.195	0.002293	59.377	0.002025	62.284	0.002309	67.07
	0.129	-64.445						
95.487	0.102	-66.075	0.003009	59.825	0.002656	56.764	0.002849	52.457
	0.937	4.669	0.002992	60	0.692	-47.852	0.0003381	118.268
	0.00006362	178.724	0.002625	52.158	0.002662	56.671	0.0003296	115.884
	0.692	-47.807	0.00008986	175.279	0.00237	54.544	0.002835	53.507
	0.00006331	167.174	0.0001095	159.963	0.693	-47.767	0.002708	60.801
	0.937	4.679	0.002653	51.701	0.002335	55.023	0.002673	60.869
	0.107	-61.7						
114.583	0.087	-63.216	0.00334	54.155	0.00298	50.366	0.003166	45.903
	0.938	3.565	0.003343	54.834	0.626	-53.616	0.0004837	124.733
	0.00009851	149.983	0.00293	45.756	0.002973	50.508	0.0004644	126.572
	0.628	-53.548	0.0001363	119.142	0.002631	48.181	0.003126	46.451
	0.0001067	134.921	0.0001414	134.884	0.628	-53.515	0.003018	56.027
	0.938	3.599	0.002969	45.056	0.002661	48.564	0.00301	56.185
	0.092	-58.729						
133.678	0.076	-60.17	0.003563	49.952	0.003158	45.151	0.003381	40.487
	0.939	2.79	0.00357	50.639	0.569	-58.512	0.0006997	128.953
	0.0001458	139.644	0.003114	39.416	0.003143	45.716	0.0007165	128.518
	0.57	-58.406	0.0002042	127.601	0.002792	42.367	0.003348	40.887
	0.0001631	132.399	0.0002098	130.566	0.571	-58.35	0.003206	52.161
	0.939	2.784	0.003116	39.471	0.002818	42.791	0.003217	51.999
	0.082	-55.65						
152.773	0.068	-57.133	0.003731	46.563	0.003284	41.445	0.003519	35.297
	0.938	2.171	0.003733	47.264	0.519	-62.667	0.0009387	126.974
	0.0001505	132.327	0.003273	34.573	0.003288	41.409	0.0009583	125.364
	0.52	-62.553	0.0002566	126.888	0.002918	37.716	0.00353	35.902
	0.0002017	137.624	0.0002415	118.562	0.521	-62.44	0.003353	49.546
	0.939	2.135	0.00326	35.279	0.002952	37.514	0.003378	49.374
	0.074	-52.527						
171.869	0.062	-53.947	0.003889	44.232	0.003428	38.081	0.003638	31.817
	0.939	1.663	0.003874	44.074	0.474	-66.277	0.00117	124.219
	0.0001723	127.99	0.003402	31.567	0.003437	37.773	0.001174	124.866
	0.476	-66.15	0.0002858	121.272	0.00303	34.05	0.003636	32.256
	0.0002223	131.894	0.0002724	120.185	0.478	-65.982	0.003491	47.665
	0.939	1.629	0.003383	31.634	0.003073	34.05	0.003496	47.463
	0.068	-49.462						
190.964	0.057	-50.897	0.004016	42.573	0.003534	34.553	0.003733	29.028
	0.939	1.226	0.004	41.82	0.436	-69.43	0.001401	123.129
	0.0002272	123.473	0.003489	28.399	0.003506	35.217	0.001417	123.032
	0.437	-69.304	0.0003554	119.436	0.0031	30.856	0.003699	29.132
	0.0002245	123.479	0.0003432	119.293	0.439	-69.062	0.003599	45.969
	0.939	1.186	0.003481	27.824	0.003105	31.262	0.003558	45.995
	0.064	-46.354						
210.06	0.054	-48.242	0.004112	40.865	0.003585	32.366	0.003806	25.95
	0.939	0.833	0.004088	40.529	0.402	-72.176	0.001631	121.613
	0.0002762	116.29	0.003546	25.451	0.003552	33.023	0.001662	120.603
	0.404	-72.073	0.0004194	115.493	0.003168	28.11	0.003746	26.069
	0.0002331	117.307	0.0004106	113.993	0.406	-71.749	0.003679	44.712
	0.939	0.783	0.003555	25.241	0.003155	28.559	0.003616	44.524
	0.061	-43.322						
229.155	0.051	-45.794	0.004182	39.536	0.003624	31.043	0.003835	23.419
	0.939	0.508	0.004146	39.557	0.373	-74.639	0.001865	119.795
	0.0003024	113.07	0.003561	23.346	0.003632	31.15	0.001882	119.849
	0.374	-74.524	0.0004397	114.461	0.003226	25.779	0.0038	23.789
	0.0002609	115.085	0.0004812	117.484	0.376	-74.131	0.003745	44.032
	0.938	0.466	0.003583	23.576	0.003235	26.29	0.003701	43.484
	0.059	-40.399						
248.251	0.048	-43.486	0.004227	38.809	0.003658	29.383	0.003831	21.619
	0.939	0.218	0.004221	38.846	0.347	-76.878	0.0021	118.587
	0.000322	115.475	0.003573	20.971	0.003681	29.659	0.002094	118.265
	0.348	-76.73	0.0004922	114.528	0.003244	24.035	0.003867	21.535
	0.0003033	117.452	0.0005452	118.021	0.35	-76.282	0.003791	43.605
	0.938	0.188	0.003616	21.308	0.003265	23.98	0.003791	43.833
	0.057	-37.449						
267.346	0.046	-41.414	0.004274	38.059	0.003684	28.27	0.003876	20.126
	0.939	-0.069	0.004283	38.094	0.324	-78.884	0.002322	117.276
	0.0003654	117.251	0.003631	18.73	0.00371	27.573	0.002327	117.161
	0.325	-78.738	0.0005771	110.007	0.003274	22.43	0.00388	19.082
	0.0003479	111.454	0.0005506	116.169	0.328	-78.261	0.003827	43.353
	0.938	-0.09	0.003638	19.287	0.003277	21.882	0.00384	44.065
	0.055	-34.68						
286.441	0.044	-39.698	0.004326	37.422	0.003711	26.807	0.003893	18.135
	0.938	-0.316	0.00432	37.602	0.303	-80.711	0.002538	115.496
	0.0003973	117.492	0.003663	16.699	0.003727	25.796	0.002568	116.191
	0.305	-80.588	0.0006358	110.35	0.003272	20.351	0.003893	17.532
	0.0003657	109.631	0.0005881	112.685	0.307	-80.049	0.003876	43.552
	0.939	-0.336	0.003634	17.269	0.00326	19.926	0.003873	43.945
	0.054	-32.123						
305.537	0.043	-38.523	0.00435	37.169	0.00372	26.147	0.003893	16.581
	0.938	-0.512	0.004367	37.582	0.285	-82.407	0.002771	114.396
	0.0004053	114.882	0.003653	15.263	0.0037	25.66	0.002783	114.387
	0.287	-82.369	0.0006771	114.604	0.003291	19.754	0.003887	16.086
	0.0004079	105.639	0.0006658	110.763	0.289	-81.714	0.003897	43.71
	0.939	-0.596	0.003664	15.764	0.003327	19.563	0.003932	43.708
	0.054	-29.864						
324.632	0.042	-37.465	0.004386	37.465	0.003729	25.58	0.003882	14.894
	0.938	-0.728	0.004388	37.124	0.268	-83.978	0.002995	113.984
	0.0004466	111.993	0.003681	13.933	0.003718	24.65	0.003032	113.346
	0.27	-83.917	0.0007291	112.862	0.003333	18.259	0.003906	14.993
	0.0004593	109.105	0.0007272	111.206	0.272	-83.259	0.003963	43.839
	0.938	-0.819	0.003664	14.494	0.003314	18.279	0.003976	43.88
	0.053	-27.814						
343.728	0.041	-36.615	0.004418	37.073	0.003755	24.543	0.003896	13.493
	0.938	-0.972	0.004408	37.306	0.253	-85.422	0.003187	112.735
	0.0005113	109.335	0.003647	12.845	0.003667	24.057	0.003235	113.363
	0.255	-85.375	0.0007756	109.231	0.003294	17.653	0.003925	12.958
	0.0004821	109.641	0.0007779	110.009	0.257	-84.712	0.003956	44.367
	0.938	-1.014	0.0037	13.001	0.003336	16.63	0.003969	44.235
	0.053	-25.961						
362.823	0.04	-36.078	0.004426	37.412	0.003779	23.788	0.00384	12.149
	0.938	-1.172	0.00441	37.762	0.24	-86.779	0.003412	111.818
	0.0005332	109.238	0.00366	11.539	0.003744	23.893	0.003428	112.922
	0.242	-86.715	0.0007938	108.694	0.003312	16.292	0.003888	11.97
	0.0005292	114.071	0.0008483	109.716	0.243	-86.094	0.003947	45.142
	0.939	-1.236	0.00372	11.689	0.003289	15.786	0.004	44.835
	0.053	-24.381						
381.919	0.039	-35.578	0.004433	37.639	0.00376	22.986	0.003844	11.05
	0.938	-1.364	0.004412	37.301	0.227	-88.041	0.003608	111.37
	0.0005468	104.45	0.003681	10.359	0.003721	22.881	0.003629	111.401
	0.23	-88.034	0.0008459	107.932	0.003324	14.833	0.003792	10.884
	0.0005832	108.01	0.0008786	110.54	0.23	-87.373	0.003974	45.13
	0.938	-1.504	0.003668	10.582	0.003286	15.078	0.004002	45.519
	0.053	-22.958						
401.014	0.039	-35.277	0.004425	38.045	0.003692	22.518	0.003803	9.929
	0.938	-1.584	0.004448	37.818	0.216	-89.251	0.003858	110.657
	0.0005652	109.985	0.003606	9.446	0.003667	22.703	0.00385	110.535
	0.218	-89.184	0.0009074	109.145	0.003307	13.905	0.003808	9.53
	0.0005347	106.2	0.0009002	110.464	0.219	-88.638	0.004016	46.311
	0.937	-1.648	0.003669	9.031	0.003277	14.51	0.004008	45.803
	0.053	-21.829						
420.109	0.039	-35.11	0.004463	38.267	0.003709	21.969	0.003723	8.971
	0.937	-1.813	0.00448	38.518	0.205	-90.274	0.004065	110.654
	0.0006052	110.057	0.003599	8.923	0.003715	22.51	0.004039	110.533
	0.208	-90.21	0.0009624	107.906	0.0033	13.13	0.003758	8.855
	0.0005911	104.799	0.0009475	108.967	0.208	-89.817	0.004011	47.252
	0.937	-1.837	0.00359	7.889	0.003247	13.887	0.003998	46.98
	0.053	-20.771						
439.205	0.038	-34.696	0.00447	39.247	0.00371	21.611	0.003678	8.489
	0.937	-1.992	0.004472	38.818	0.195	-91.303	0.004263	110.174
	0.0006556	108.757	0.003602	7.306	0.003675	22.475	0.004247	110.207
	0.198	-91.322	0.001061	107.521	0.003278	12.789	0.003713	7.934
	0.0006328	106.112	0.001015	106.71	0.199	-91.149	0.004043	47.305
	0.938	-2.063	0.003603	7.36	0.003263	12.111	0.004073	47.827
	0.054	-19.918						
458.3	0.038	-34.419	0.004476	39.178	0.003667	21.762	0.003668	7.684
	0.937	-2.133	0.004484	39.054	0.186	-92.359	0.004482	109.888
	0.0006832	105.071	0.00358	6.097	0.003672	21.958	0.004492	109.517
	0.189	-92.416	0.001103	107.75	0.003245	12.017	0.003709	7.886
	0.0006982	106.291	0.001106	108.288	0.19	-92.359	0.004073	48.271
	0.938	-2.181	0.003587	6.771	0.003286	11.472	0.004036	48.783
	0.054	-19.147						
477.396	0.038	-34.027	0.00451	40.037	0.003664	21.63	0.003664	6.704
	0.937	-2.313	0.004486	39.983	0.177	-93.381	0.004685	109.412
	0.0007352	106.494	0.003574	5.728	0.003687	21.569	0.004657	109.531
	0.18	-93.448	0.001158	107.841	0.003233	10.965	0.003681	6.508
	0.0007119	107.02	0.001177	107.609	0.181	-93.596	0.004073	49.524
	0.937	-2.345	0.003549	5.891	0.003235	11.593	0.004056	49.957
	0.054	-18.595						
496.491	0.038	-33.596	0.004537	40.544	0.003653	21.425	0.003669	5.674
	0.937	-2.435	0.004501	40.707	0.169	-94.404	0.004886	109.256
	0.0007652	106.772	0.003537	4.521	0.003629	21.423	0.004877	109.506
	0.172	-94.429	0.001186	107.052	0.003214	10.521	0.003657	5.654
	0.0007362	106.44	0.001191	106.813	0.173	-94.863	0.004089	50.583
	0.937	-2.528	0.003541	5.132	0.003184	11.236	0.004085	50.688
	0.054	-18.203						
515.587	0.038	-33.051	0.004538	41.019	0.003638	21.491	0.003627	5.03
	0.937	-2.551	0.004522	40.828	0.161	-95.398	0.005094	108.875
	0.0007736	106.842	0.003501	4.065	0.003611	21.124	0.005088	109.147
	0.164	-95.414	0.001212	105.035	0.003179	9.614	0.003645	4.568
	0.0007581	104.415	0.001247	106.14	0.166	-96.065	0.004077	51.387
	0.937	-2.626	0.003542	4.107	0.003178	10.407	0.004096	51.842
	0.054	-17.944						
534.682	0.037	-32.372	0.004565	41.784	0.003606	21.299	0.003603	3.733
	0.937	-2.719	0.004544	41.674	0.153	-96.418	0.005296	108.835
	0.0007913	106.257	0.003502	3.298	0.00362	21.289	0.005302	108.619
	0.157	-96.436	0.001285	103.328	0.003197	9.471	0.003606	3.478
	0.0007926	103.293	0.001318	104.265	0.16	-97.269	0.004106	52.435
	0.936	-2.805	0.003533	3.245	0.003165	9.462	0.004083	53.08
	0.055	-17.828						
553.777	0.037	-31.623	0.004568	42.63	0.003583	21.125	0.003557	2.215
	0.936	-2.911	0.004557	42.582	0.146	-97.437	0.005511	108.681
	0.0008289	105.919	0.003503	2.43	0.003576	21.481	0.005513	108.335
	0.15	-97.587	0.001332	103.874	0.003194	8.628	0.003504	2.28
	0.0008054	103.69	0.001349	104.603	0.153	-98.492	0.004139	53.863
	0.936	-2.988	0.003461	2.49	0.003127	8.982	0.004083	54.144
	0.055	-17.867						
572.873	0.037	-30.892	0.00456	43.609	0.003554	21.25	0.0035	1.675
	0.936	-3.093	0.004582	43.421	0.14	-98.456	0.005712	108.412
	0.0008602	105.074	0.003474	1.533	0.003529	21.525	0.005699	108.237
	0.144	-98.672	0.001371	104.968	0.003141	8.209	0.003432	1.485
	0.000842	105.345	0.001378	105.069	0.148	-99.717	0.004135	55.176
	0.937	-3.168	0.003412	1.55	0.003087	8.305	0.004095	55.599
	0.056	-18.277						
591.968	0.036	-30.089	0.004586	44.621	0.003523	21.827	0.00344	1.363
	0.936	-3.254	0.004588	44.196	0.134	-99.479	0.005897	108.162
	0.0008733	104.463	0.003429	0.38	0.003498	21.378	0.005868	108.094
	0.138	-99.78	0.001422	105.647	0.003087	8.316	0.003405	1.304
	0.000903	106.105	0.001414	104.146	0.143	-100.967	0.004141	56.267
	0.937	-3.349	0.003422	0.803	0.003083	7.506	0.004122	56.713
	0.056	-18.766						
611.064	0.036	-29.129	0.004617	45.381	0.003488	21.87	0.003381	0.593
	0.936	-3.423	0.004581	44.916	0.128	-100.53	0.006091	108.154
	0.0008965	104.684	0.003395	-0.314	0.003459	21.13	0.006073	107.949
	0.132	-101.042	0.001458	105.88	0.003043	7.856	0.003357	0.826
	0.0009472	104.981	0.001461	104.266	0.138	-102.221	0.004157	57.323
	0.937	-3.509	0.003418	0.109	0.003053	6.759	0.004172	57.86
	0.057	-19.144						
630.159	0.035	-28.041	0.004624	45.867	0.003438	21.46	0.003343	-0.186
	0.936	-3.611	0.004614	45.8	0.122	-101.638	0.006293	108.321
	0.0009382	104.924	0.003363	-0.596	0.00344	21.652	0.006311	107.767
	0.127	-102.242	0.001512	105.736	0.003012	7.545	0.003298	-0.115
	0.0009747	103.52	0.001535	104.775	0.134	-103.459	0.004152	58.69
	0.936	-3.691	0.003387	-0.675	0.00298	6.166	0.004183	59.459
	0.058	-19.805						
649.255	0.034	-26.697	0.00462	46.353	0.003412	22.12	0.003281	-0.841
	0.936	-3.748	0.004633	46.425	0.117	-102.696	0.006499	107.929
	0.000976	104.891	0.003324	-1.424	0.003426	22.308	0.006501	107.708
	0.122	-103.408	0.00159	105.972	0.00299	6.824	0.003246	-0.965
	0.0009719	103.187	0.001581	104.647	0.13	-104.708	0.004165	60.47
	0.936	-3.843	0.003332	-1.118	0.002973	6.535	0.004152	60.099
	0.059	-20.789						
668.35	0.034	-25.223	0.004634	47.261	0.0034	22.225	0.003209	-1
	0.936	-3.848	0.004629	47.532	0.111	-103.501	0.006687	107.836
	0.00101	102.82	0.0033	-2.486	0.003372	21.675	0.006708	108.017
	0.117	-104.534	0.001643	104.83	0.002952	6.032	0.003197	-1.743
	0.0009895	104.548	0.001626	104.715	0.126	-105.873	0.004201	61.652
	0.935	-3.965	0.003282	-1.84	0.002965	6.307	0.004185	61.53
	0.06	-22.226						
687.445	0.034	-24.638	0.004665	48.263	0.003381	22.601	0.003151	-1.701
	0.936	-3.982	0.004659	48.748	0.106	-103.872	0.006885	107.857
	0.001041	104.316	0.003232	-2.792	0.003333	22.277	0.006936	107.759
	0.112	-105.31	0.001693	104.67	0.002925	5.376	0.003095	-2.241
	0.00103	103.617	0.0017	104.586	0.122	-106.912	0.004221	62.708
	0.934	-4.05	0.003243	-2.195	0.002935	5.347	0.004222	63.264
	0.061	-24.494						
706.541	0.034	-26.267	0.004672	49.019	0.003323	22.699	0.00308	-2.417
	0.936	-4.038	0.004674	49.638	0.103	-104.041	0.007099	107.657
	0.001102	103.938	0.00322	-3.153	0.003305	23.759	0.007095	107.54
	0.108	-105.618	0.001748	104.583	0.002901	4.651	0.00306	-3.126
	0.00109	105.665	0.001775	104.766	0.119	-107.975	0.004209	64.258
	0.934	-4.052	0.003199	-2.742	0.002906	4.713	0.004222	64.435
	0.061	-27.139						
725.636	0.033	-28.776	0.004663	50.445	0.003266	23.451	0.003022	-3.046
	0.936	-4.108	0.004703	50.384	0.1	-104.877	0.007273	107.669
	0.001104	104.68	0.003198	-4.282	0.003274	23.701	0.00725	107.682
	0.105	-106.099	0.00178	104.717	0.002883	4.346	0.002992	-3.836
	0.001131	104.555	0.001863	105.898	0.116	-109.078	0.00424	65.699
	0.935	-4.101	0.003202	-3.349	0.002858	3.968	0.00422	65.541
	0.06	-28.69						
744.732	0.031	-30.597	0.004698	51.049	0.003226	23.131	0.002956	-3.028
	0.936	-4.167	0.004716	51.13	0.097	-106.064	0.00746	107.612
	0.001135	104.193	0.003168	-5.188	0.00324	22.652	0.007453	108.069
	0.103	-107.034	0.001877	104.767	0.002835	4.773	0.002955	-3.713
	0.001167	103.332	0.001907	104.489	0.113	-110.05	0.004223	66.998
	0.936	-4.277	0.003168	-4.92	0.002825	4.737	0.004246	66.639
	0.06	-29.962						
763.827	0.03	-31.801	0.004718	52.038	0.003141	23.727	0.002899	-4.045
	0.936	-4.333	0.004784	52.189	0.094	-107.053	0.007667	107.854
	0.001196	103.76	0.003102	-5.407	0.003217	23.563	0.007694	107.674
	0.101	-108.04	0.001982	103.602	0.002786	4.349	0.002895	-4.826
	0.001181	101.912	0.002005	102.973	0.111	-110.966	0.004233	69.492
	0.939	-4.453	0.003106	-5.546	0.002837	3.95	0.004306	69.04
	0.06	-30.994						
782.923	0.029	-33.053	0.004734	53.161	0.003176	24.037	0.00285	-5.216
	0.936	-4.453	0.004742	53.414	0.091	-107.882	0.007881	108.077
	0.001237	101.753	0.003018	-6.124	0.003149	24.177	0.007925	108.04
	0.098	-108.913	0.001991	102.239	0.002741	3.121	0.002814	-4.906
	0.001203	103.158	0.001992	102.653	0.108	-111.716	0.00427	69.841
	0.939	-4.544	0.003055	-5.948	0.002741	3.457	0.004363	69.987
	0.061	-32.635						
802.018	0.028	-34.396	0.004778	54.561	0.003152	23.428	0.002772	-7.218
	0.936	-4.581	0.00479	54.314	0.087	-108.719	0.008092	107.969
	0.001219	104.079	0.003064	-6.634	0.003133	24.472	0.008079	108.047
	0.094	-109.792	0.002065	102.674	0.002712	3.25	0.002715	-6.781
	0.001206	103.258	0.002019	102.263	0.105	-112.238	0.004329	71.436
	0.939	-4.725	0.003042	-7.492	0.002698	3.604	0.004343	71.671
	0.061	-34.075						
821.113	0.027	-36.166	0.004797	55.096	0.003072	24.691	0.002682	-8.767
	0.936	-4.778	0.004762	55.093	0.083	-109.565	0.008299	107.825
	0.001252	102.666	0.003016	-7.739	0.003088	24.928	0.008264	107.737
	0.091	-110.453	0.002098	101.071	0.00267	2.227	0.002587	-8.215
	0.001238	102.689	0.002105	100.052	0.103	-113.058	0.004343	73.706
	0.938	-4.996	0.002959	-7.863	0.002655	2.381	0.004353	72.802
	0.061	-35.297						
840.209	0.026	-37.802	0.004821	56.082	0.003029	25.208	0.002534	-9.104
	0.935	-4.967	0.004756	56.076	0.08	-109.935	0.008504	107.816
	0.001302	104.482	0.002938	-8.144	0.00305	24.921	0.008441	107.648
	0.088	-111.237	0.002072	100.518	0.002625	2.349	0.002519	-8.61
	0.001272	105.038	0.002097	99.464	0.101	-113.68	0.00436	75.031
	0.938	-5.213	0.002919	-8.862	0.002615	2.341	0.00437	74.576
	0.061	-36.273						
859.304	0.025	-39.55	0.004818	57.003	0.002946	25.923	0.002493	-9.381
	0.935	-5.235	0.004816	57.236	0.077	-110.799	0.008689	107.772
	0.001321	103.812	0.002879	-9.564	0.002991	25.917	0.008649	107.607
	0.085	-111.978	0.002059	101.529	0.002556	1.943	0.002449	-8.404
	0.001338	104.167	0.002089	101.935	0.099	-114.422	0.004375	76.615
	0.937	-5.388	0.002885	-9.734	0.002584	1.687	0.004427	76.253
	0.062	-37.304						
878.4	0.025	-41.359	0.004821	58.216	0.002916	26.303	0.002414	-10.161
	0.935	-5.484	0.004844	58.337	0.073	-111.697	0.008887	107.559
	0.001341	104.045	0.002849	-10.552	0.002955	26.738	0.008842	107.553
	0.082	-112.807	0.002117	102.257	0.002503	2.089	0.002408	-9.082
	0.00135	103.801	0.002106	103.147	0.096	-115.245	0.004399	77.876
	0.937	-5.527	0.002849	-11.19	0.002515	1.49	0.00444	77.87
	0.062	-38.124						
897.495	0.024	-43.243	0.004846	58.893	0.0029	27.668	0.002333	-10.499
