!Hittite Microwave Corporation								
!12 Elizabeth Drive								
!Chelmsford, MA 01824								
!Tel: 978-250-3343								
!Fax: 978-250-3373								
!Device: HMC287MS8, 2.3-2.5 GHz LNA with AGC in 8-lead Grounded Base surface Mount Plastic Package								
!Misc: Vdd = +3V Idd = 9.6 mA Vctl = 1.8V , DEEMBEDDED TO THE PINS OF THE DEVICE								
!
# MHZ S MA R 50

1000 0.94 83.819 0.704 150.49 4.671e-3 159.03 0.123 152.894
1020 0.938 85.14 0.721 150.142 4.651e-3 160.346 0.13 152.145
1040 0.934 86.567 0.735 149.854 4.613e-3 161.962 0.139 151.242
1060 0.934 88.012 0.751 149.535 4.569e-3 163.271 0.148 150.876
1080 0.933 89.464 0.765 149.211 4.5e-3 164.441 0.159 151.326
1100 0.932 91.076 0.779 148.825 4.444e-3 166.215 0.168 152.102
1120 0.932 92.325 0.794 148.386 4.423e-3 167.128 0.174 152.613
1140 0.928 93.719 0.809 147.778 4.365e-3 168.514 0.182 152.761
1160 0.924 95.103 0.824 147.125 4.29e-3 170.181 0.19 152.709
1180 0.925 96.454 0.84 146.499 4.235e-3 171.971 0.199 152.825
1200 0.924 97.893 0.849 145.695 4.207e-3 173.535 0.208 153.311
1220 0.915 99.311 0.862 144.739 4.097e-3 175.371 0.216 153.983
1240 0.913 100.789 0.873 143.925 4.01e-3 177.325 0.224 154.736
1260 0.911 102.229 0.88 143.027 3.933e-3 179.451 0.231 155.272
1280 0.909 103.613 0.887 142.078 3.867e-3 -178.342 0.237 155.645
1300 0.904 104.78 0.892 141.137 3.791e-3 -176.523 0.245 156.01
1320 0.902 105.951 0.897 140.197 3.752e-3 -174.103 0.254 156.653
1340 0.897 107.311 0.899 139.081 3.671e-3 -171.625 0.261 157.446
1360 0.894 108.676 0.9 138.065 3.619e-3 -169.065 0.268 158.327
1380 0.89 109.914 0.898 137.114 3.58e-3 -166.728 0.273 159.11
1400 0.885 111.127 0.898 136.083 3.484e-3 -165.047 0.279 159.763
1420 0.88 112.618 0.89 135.175 3.445e-3 -162.347 0.285 160.364
1440 0.874 113.855 0.882 134.358 3.402e-3 -159.736 0.292 161.145
1460 0.871 115.15 0.873 133.559 3.349e-3 -157.047 0.299 162.064
1480 0.866 116.487 0.863 132.718 3.284e-3 -154.32 0.304 162.979
1500 0.86 117.819 0.855 131.99 3.233e-3 -151.6 0.31 163.98
1520 0.856 119.05 0.84 131.534 3.166e-3 -148.472 0.314 164.825
1540 0.852 120.389 0.827 131.122 3.13e-3 -145.642 0.319 165.683
1560 0.845 121.643 0.812 130.702 3.088e-3 -142.786 0.324 166.534
1580 0.838 122.887 0.796 130.337 3.038e-3 -139.735 0.329 167.399
1600 0.833 124.225 0.78 130.159 2.998e-3 -136.521 0.335 168.409
1620 0.825 125.509 0.766 130.283 2.966e-3 -133.549 0.34 169.535
1640 0.819 126.788 0.751 130.358 2.922e-3 -130.902 0.344 170.557
1660 0.815 128.038 0.737 130.65 2.894e-3 -127.766 0.349 171.594
1680 0.81 129.257 0.722 131.119 2.867e-3 -124.191 0.352 172.512
1700 0.803 130.56 0.707 131.618 2.797e-3 -120.892 0.356 173.377
1720 0.799 131.832 0.695 132.236 2.741e-3 -116.978 0.362 174.372
1740 0.792 133.108 0.681 132.909 2.742e-3 -113.261 0.366 175.488
1760 0.785 134.411 0.667 133.696 2.736e-3 -109.702 0.37 176.657
1780 0.779 135.682 0.657 134.604 2.717e-3 -106.134 0.373 177.663
1800 0.771 136.861 0.648 135.66 2.707e-3 -102.19 0.375 178.533
1820 0.766 138.07 0.636 136.979 2.686e-3 -98.335 0.378 179.495
1840 0.759 139.37 0.628 138.187 2.663e-3 -94.195 0.383 -179.653
1860 0.751 140.63 0.62 139.464 2.65e-3 -90.09 0.387 -178.667
1880 0.745 141.786 0.614 140.875 2.655e-3 -85.951 0.389 -177.539
1900 0.741 142.875 0.608 142.383 2.659e-3 -81.307 0.392 -176.243
1920 0.734 144.037 0.606 143.9 2.665e-3 -76.654 0.393 -175.311
1940 0.726 145.411 0.603 145.538 2.687e-3 -71.946 0.394 -174.508
1960 0.718 146.631 0.6 147.18 2.717e-3 -67.308 0.396 -173.72
1980 0.711 147.682 0.599 148.817 2.767e-3 -62.735 0.4 -172.884
2000 0.703 148.851 0.599 150.542 2.839e-3 -58.098 0.403 -171.754
2020 0.695 150.023 0.602 152.179 2.93e-3 -53.149 0.404 -170.563
2040 0.686 151.165 0.606 153.763 3.028e-3 -48.457 0.404 -169.484
2060 0.678 152.311 0.611 155.36 3.148e-3 -43.952 0.403 -168.668
2080 0.671 153.445 0.616 156.99 3.278e-3 -39.59 0.403 -167.96
2100 0.663 154.618 0.624 158.627 3.403e-3 -35.353 0.406 -167.386
2120 0.654 155.826 0.632 160.237 3.589e-3 -31.543 0.409 -166.406
2140 0.645 156.949 0.641 161.752 3.757e-3 -27.648 0.41 -165.239
2160 0.636 158.017 0.651 163.195 3.946e-3 -23.929 0.409 -164.111
2180 0.625 159.053 0.662 164.535 4.165e-3 -20.491 0.408 -163.178
2200 0.614 160.194 0.676 165.719 4.385e-3 -17.251 0.406 -162.699
2220 0.606 161.34 0.688 167.114 4.64e-3 -14.128 0.405 -162.203
2240 0.596 162.375 0.703 168.336 4.911e-3 -11.25 0.408 -161.562
2260 0.585 163.42 0.717 169.413 5.185e-3 -8.589 0.41 -160.587
2280 0.574 164.472 0.731 170.377 5.468e-3 -6.149 0.409 -159.399
2300 0.564 165.543 0.75 171.28 5.739e-3 -3.95 0.405 -158.376
2320 0.552 166.729 0.767 172.137 6.056e-3 -1.557 0.401 -157.888
2340 0.54 167.793 0.785 172.947 6.374e-3 0.825 0.398 -157.678
2360 0.527 168.85 0.802 173.73 6.715e-3 3.028 0.398 -157.373
2380 0.514 169.921 0.82 174.472 7.078e-3 4.978 0.4 -156.753
2400 0.502 171.021 0.839 175.174 7.425e-3 6.744 0.401 -155.737
2420 0.491 171.988 0.858 175.725 7.835e-3 8.623 0.398 -154.569
2440 0.477 173.203 0.88 176.235 8.248e-3 10.275 0.391 -154.067
2460 0.464 174.285 0.901 176.697 8.664e-3 11.889 0.387 -153.878
2480 0.451 175.228 0.921 177.093 9.093e-3 13.533 0.384 -153.895
2500 0.436 176.461 0.943 177.465 9.524e-3 15.225 0.384 -153.896
2520 0.421 177.48 0.961 177.803 0.01 16.715 0.385 -153.033
2540 0.405 178.386 0.981 178.188 0.011 18.252 0.383 -152.069
2560 0.389 179.46 1.003 178.486 0.011 19.518 0.377 -151.308
2580 0.373 -179.344 1.029 178.637 0.012 20.387 0.369 -151.25
2600 0.356 -178.11 1.052 178.805 0.013 21.075 0.363 -151.63
2620 0.341 -176.453 1.074 179.114 0.013 21.32 0.363 -151.995
2640 0.324 -174.957 1.093 179.24 0.014 21.79 0.362 -151.736
2660 0.308 -173.412 1.115 179.323 0.014 22.285 0.361 -150.935
2680 0.292 -171.877 1.141 179.342 0.015 22.734 0.357 -150.315
2700 0.276 -170.441 1.167 179.242 0.015 23.322 0.349 -150.355
2720 0.259 -168.85 1.191 179.219 0.016 24.163 0.342 -151.136
2740 0.237 -168.321 1.215 179.196 0.016 25.088 0.338 -151.924
2760 0.227 -166.655 1.233 179.194 0.017 25.882 0.338 -152.353
2780 0.208 -163.535 1.249 179.162 0.017 26.486 0.339 -152.098
2800 0.19 -160.96 1.269 179.14 0.018 27.16 0.336 -151.409
2820 0.173 -158.606 1.292 178.881 0.018 27.741 0.329 -151.41
2840 0.157 -155.783 1.313 178.642 0.019 28.27 0.32 -152.348
2860 0.14 -152.511 1.334 178.514 0.019 28.794 0.315 -153.618
2880 0.124 -148.778 1.353 178.498 0.02 29.432 0.314 -154.827
2900 0.105 -143.762 1.366 178.389 0.02 30.259 0.315 -155.246
2920 0.09 -136.467 1.385 178.225 0.021 30.831 0.313 -155.056
2940 0.076 -128.034 1.401 178.015 0.022 31.351 0.309 -155.164
2960 0.063 -116.51 1.417 177.831 0.022 31.891 0.303 -156.046
2980 0.053 -101.065 1.429 177.674 0.023 32.472 0.297 -157.373
3000 0.049 -81.355 1.441 177.425 0.023 33.015 0.295 -159.169
