! Hittite Microwave Corporation
! 20 Alpha Road
! Chelmsford, MA 01824
! Tel: 978-250-3343
! Fax: 978-250-3373
! Device: HMC276QS24, 0.7-3.0 GHz, GaAS MMIC 4x2 Switch Matrix in 24-lead QSOP package
! Misc: Data was de-embedded to package pins.
!       Port 1 = OP1
!       Port 2 = VL
!       Port 3 = VH
!       Port 4 = HH
!       Port 5 = HL
!       Port 6 = OP2
!          Vdd = +5 V
!         Vctl = 0 V[Logic 0] / +5 V[Logic 1]
!
!  State 04,  VL to OP1,  HH to OP2
!  Control Lines (Logic)
!    HV 1 = 0, Tone 1 = 0
!    HV 2 = 1, Tone 2 = 1
!
!  Data reformated to new Touchstone file format - Wed Jan 10 14:32:42 2007
!
# MHz S DB R 50
! 6 Port Network Data
! freq  dbS11  angS11  dbS12  angS12  dbS13  angS13  dbS14  angS14  
!       dbS15  angS15  dbS16  angS16  
!       dbS21  angS21  dbS22  angS22  
!       dbS23  angS23  dbS24  angS24  dbS25  angS25  dbS26  angS26  
!       dbS31  angS31  dbS32  angS32  dbS33  angS33  dbS34  angS34  
!       dbS35  angS35  dbS36  angS36  
!       dbS41  angS41  dbS42  angS42  
!       dbS43  angS43  dbS44  angS44  dbS45  angS45  dbS46  angS46  
!       dbS51  angS51  dbS52  angS52  dbS53  angS53  dbS54  angS54  
!       dbS55  angS55  dbS56  angS56  
!       dbS61  angS61  dbS62  angS62  
!       dbS63  angS63  dbS64  angS64  dbS65  angS65  dbS66  angS66  
!     
                10       -11.0258736            -13.054        -2.62711123              2.811        -49.9623901             78.165        -58.0896392           -110.559
                      -40.3058541             42.867        -42.2780854            172.049
                      -2.65065024               3.76         -11.700533            -11.269        -47.3711246            133.329        -43.1478152            -170.95
                      -50.2997757             70.027        -48.0045212            -62.716
                      -54.0185748            175.643        -36.4781748             40.637      -0.0173891743             -4.049        -52.9563496            113.809
                      -40.3193604              2.056        -45.3762858            -14.827
                      -48.0351362            -85.897        -50.0117575             26.404        -45.0393421            -12.027        -11.1191041            -11.755
                      -42.8908284             84.175        -2.74544943              3.156
                      -46.6865044             48.529        -44.7464287           -133.696        -57.8084291            105.865         -49.218478            119.413
                    -0.0260968338             -4.065        -47.3306309            -40.988
                      -40.4647495             -4.785        -43.4139245            169.757        -46.7845871            111.232        -2.63887276              3.325
                       -51.958213           -163.316        -10.8423621             -9.784

             29.95       -11.7676059            -13.934        -2.61536561             -0.482        -57.8354669            -96.996        -67.5847902           -152.054
                      -54.8176831            109.724        -55.0454433             18.043
                      -2.65065024             -0.581        -11.7676059            -16.464        -63.9253966             67.905        -57.1647354            150.007
                      -66.5672881            -15.972        -62.0573591            -32.678
                      -66.9919066             18.391        -58.1035924           -116.832       -0.273524459            -12.511        -56.0543888             87.582
                      -55.9611387            105.384        -56.2834928           -141.809
                       -57.917089           -126.173        -57.8219374            103.812        -57.3804662           -115.844        -11.5023673             -15.91
                      -63.9458935              3.973        -2.69792051             -0.667
                      -63.8818309             15.103          -59.25147            168.113        -72.9255212            -53.725        -61.4782983             46.477
                     -0.273524459            -12.697        -59.9394106            -118.32
                        -59.25147            -58.482        -73.4528213            124.505        -60.1498133            -37.554         -2.7335428             -0.607
                       -63.918575            133.086        -11.3727247            -13.021

              49.9       -12.3957752            -14.683        -2.54522345             -3.699        -79.6593332            -29.997        -68.1276338            171.659
                      -66.6790052            158.372        -64.4485639              63.35
                      -2.55687455             -3.609        -12.5050331            -18.954        -77.1085158             -2.381        -67.5122952             36.945
                      -68.1698038             63.788        -74.0447898            145.625
                      -68.2188894             94.517        -66.9357497             57.638       -0.649040476             -20.24        -69.3525573             20.732
                      -82.7478327            102.511        -70.5215061            100.307
                      -65.1706648            178.764        -72.0169133              52.22        -73.5308327            -48.036        -11.9719892            -18.505
                      -68.7923015             10.694        -2.62711123             -3.936
                      -75.6819637             98.923         -91.103496             66.131        -63.4966726             79.432        -65.5358138            134.524
                     -0.649040476            -20.394        -64.5257335              105.1
                      -56.8267204             99.723        -73.6220457            -106.97        -62.9017396             44.367        -2.65065024             -3.836
                      -63.4358277             78.503        -11.8352007            -13.524

             69.85       -12.3957752            -18.841        -2.67425322             -5.334        -62.9345555             44.804        -68.2144156            -65.326
                      -70.7460518             51.047        -61.4947898            101.326
                       -2.6860788             -5.204        -12.5417599             -25.02         -74.972103             25.972        -64.6628238             69.316
                      -75.8959127            -56.687         -74.424928            -59.863
                      -68.9150638             34.076        -75.3502427            169.524        -1.10048183            -27.197         -73.076854             -6.431
                      -77.7546046             47.664        -70.6567207             77.787
                      -67.7719072             22.011        -63.9664388             67.822        -73.5061217             80.877        -12.1460609            -24.125
                      -68.5728121             98.155         -2.7335428             -5.795
                      -71.7038744            154.935        -68.6736076            -36.256        -67.7676578             33.812        -72.9409218           -141.004
                       -1.0906283            -27.392        -67.7126032            101.522
                      -59.5431878             89.837        -70.7012714             92.256        -69.1360283             63.773        -2.75737241             -5.665
                      -70.6241948             52.594        -11.9719892            -17.368

              89.8       -12.5786428            -22.372        -2.76931178             -6.954        -72.5417599             37.494        -66.0345085              -12.7
                      -62.9907513             75.907        -59.0467161            100.322
                      -2.78126759             -6.806        -12.6902403            -30.307        -66.7997756            135.967        -62.1203287             88.479
                      -75.6083095              67.51        -68.8667148             90.937
                      -72.9332181             39.757        -68.4066141             52.031        -1.60797952            -33.437        -66.2708498             98.923
                      -72.5233771             75.802        -65.5079297             77.845
                      -66.6453389            -17.708        -60.4382165             64.433        -67.9025246             39.282        -12.3596591            -29.318
                      -64.7960754             80.076        -2.84129471             -7.523
                       -67.499928             97.291        -67.7379697              60.52        -80.2207986           -176.826        -69.0889099             90.945
                      -1.61843815            -33.633        -63.7913169             61.216
                      -59.1800462             81.492        -71.3695083            -85.069        -65.2164674             39.648        -2.86542219             -7.423
                       -67.417927             71.471        -12.1812979            -20.533

            109.75       -12.7277604            -25.779        -2.88961689             -8.278        -71.6505661              5.725        -68.1143594             45.317
                      -67.0094087             77.824        -58.8695255             76.411
                      -2.91387916             -8.237        -12.8794829            -35.656        -67.7062732             42.038        -60.1878958             75.689
                      -81.6383443             51.023        -75.9884615            -29.662
                      -71.1253552             51.595        -73.8073967            101.352        -2.19157962            -38.887        -64.6970642             99.844
                      -85.6316272              73.15        -65.9204235             60.443
                      -85.6233256           -176.037        -60.8997219             59.057        -66.6341458            104.212        -12.5786428            -34.159
                      -65.1125755             40.863        -2.96260799             -9.045
                       -66.874202              48.19        -72.8336872            169.611        -88.3382927             68.067        -64.0977003             73.392
                      -2.18040806            -39.111        -75.2090056             62.132
                      -57.9581895             90.974        -76.4781748            -83.397         -71.184966             58.611         -2.9870753             -8.975
                      -66.2369449             46.133        -12.3957752            -23.541

             129.7       -12.9178312            -28.848        -3.01161172             -9.541        -69.5850906               8.77        -69.0716147            -47.495
                      -70.8696428             73.309        -55.4371278             90.283
                      -3.03621766             -9.472        -13.1515464            -40.285        -71.2133461            103.185        -60.1719339             63.837
                       -69.732984             27.205        -71.4665222             45.247
                      -65.8179944             48.539        -64.7344358             97.028        -2.79323987            -43.675        -68.6806837             74.834
                      -73.5473458            110.389        -73.5556141              45.63
                       -73.407975               26.8        -58.4744749             73.916        -71.5613437            106.386        -12.8794829            -38.618
                      -66.6883802             91.662        -3.08563964            -10.471
                      -67.7634104              59.23        -69.8213295             10.685        -79.6010664           -135.269         -72.255764             75.841
                      -2.76931178            -43.863        -67.7846681             75.107
                      -55.0848129             92.018        -76.0048965            -31.119        -72.7729995             71.243        -3.12289155            -10.383
                      -66.1483488             61.332        -12.6156829            -26.271

            149.65       -13.0729405            -31.488        -3.14781521            -10.617        -67.7422046             21.443        -70.2233473            -43.956
                      -69.0346691             43.386         -55.189015             94.537
                      -3.16030391            -10.587        -13.3917245            -44.775        -67.3650385             88.286        -59.4938827             59.751
                      -69.4448249              18.61        -70.4691638             55.984
                      -68.6594727             25.656        -67.5993621             75.516        -3.38822663            -47.809        -67.1883839              81.49
                      -75.3147175             68.114        -69.5615551             27.467
                      -76.9664754              8.454        -57.7814752             61.309        -69.6244586             83.588        -13.1515464            -42.779
                      -66.9802581            104.381        -3.22301819            -11.689
                      -68.8787768             94.917        -73.3471918             87.126        -80.6126138           -105.644        -68.8282283            106.143
                      -3.34982175            -47.964        -66.8455009             72.102
                      -55.0160329             80.834        -74.9575089              3.751         -71.958213             49.575        -3.23561556            -11.668
                      -64.0643518              35.14        -12.8413031            -28.588

             169.6       -13.2708053            -33.784        -3.27351769            -11.573        -72.3057651              45.42        -70.2713904             -9.606
                      -69.4345245             74.333         -53.672205             86.647
                      -3.28618857             -11.56        -13.5970743            -48.934        -65.2117179             83.227         -58.438117             71.353
                       -71.047538             54.405        -73.7649228             25.365
                      -73.1042975             -3.563         -64.441319            100.737        -3.98565843            -51.395        -70.3969855            106.462
                      -75.2090056             52.972          -65.63495             31.271
                      -71.3534442              -9.31        -58.7935994               62.4        -68.5309636             90.112        -13.4732828            -46.648
                      -65.9513893             95.533        -3.34982175            -12.813
                      -71.1566783             60.258        -71.9513331             17.492        -70.2205295            171.875        -64.2465407             85.646
                      -3.91721135            -51.522        -66.2708498             31.257
                      -54.2753629             86.363        -72.4575192            -25.209        -66.2529886             29.432        -3.36260451            -12.772
                      -66.8818716             31.905        -13.0729405            -30.742

            189.55       -13.4324079            -35.946        -3.40106608            -12.417        -73.7353142             -1.406        -66.3390592             -9.339
                      -69.9870387             44.945        -53.7015989             88.582
                      -3.42680207            -12.346        -13.8073967            -52.768        -64.1269856             83.873         -57.386893             64.429
                      -72.5454412             73.518        -79.3637546               5.18
                       -72.255764              7.086        -63.5644907             94.478        -4.55356587            -54.468        -70.7191559              48.31
                       -77.139704            141.129        -69.1934105             -8.567
                       -74.088658            -52.303        -58.1877858              58.36        -69.7730297             94.588        -13.7226556            -50.316
                      -63.1465673             87.867         -3.4655496            -13.778
                      -69.2915856             77.383         -68.811444              2.015        -73.4650924             95.724        -64.5389061             72.189
                      -4.46597632             -54.57        -67.9025246             32.312
                      -53.0886049             83.146        -76.1821657              17.11        -70.3368158             21.473        -3.50447075            -13.715
                      -65.0828961             58.144        -13.2708053            -32.646

             209.5       -13.5556141            -37.928        -3.53051542            -13.146        -73.1673533             50.834        -76.4262152            -50.856
                      -64.2267357             78.907        -51.8521819             84.674
                      -3.54356709            -13.046        -14.0666962             -56.17        -64.8081538            101.656        -56.8932793             60.492
                        -76.03786             44.372        -72.6268258             -24.27
                      -68.6688934              41.21        -62.4043244            108.038        -5.11414034            -57.127        -67.3144861              51.15
                      -74.6424916             93.823        -68.0329458             12.089
                      -70.3941108             -34.13        -56.2045809             56.775        -67.9349468              66.89        -14.0229385            -53.442
                      -63.1765661             90.635        -3.58284021            -14.637
                      -67.9068406              69.35        -69.7037341             39.165        -69.9705986            102.874         -62.533588              92.31
                      -5.00527369            -57.102        -68.4111881              59.66
                       -51.961655             88.577        -72.1989701             44.786        -71.7541498             19.751        -3.62229171            -14.528
                      -68.2323246             31.541        -13.4732828            -34.154

            229.45       -13.7226556            -39.463        -3.63548213            -13.749        -65.5819366             32.555        -69.9078646            -43.438
                      -65.2212194             74.364        -51.3182072             83.979
                      -3.66192321            -13.654        -14.2888538            -59.378        -63.3383333             90.188        -55.5508733             63.703
                      -70.4778657             68.631         -69.059282             -8.218
                      -68.5938123             18.157        -64.5697202             100.15        -5.62996622            -59.384        -65.9152733             76.862
                      -78.9615217            160.733        -67.1804389              7.967
                      -67.5723194            -15.069        -56.6654789             56.734        -66.4972699             71.917        -14.3339754            -56.398
                      -62.5103636             90.973        -3.70173637            -15.417
                      -65.0408939             75.777        -77.5425815             40.468        -85.9307332            171.899        -63.0844007             89.531
                      -5.49810958            -59.397        -66.6006526             24.111
