!Hittite Microwave Corporation								
!12 Elizabeth Drive								
!Chelmsford, MA 01824								
!Tel: 978-250-3343								
!Fax: 978-250-3373								
!Device: HMC287MS8, 2.3-2.5 GHz LNA with AGC in 8-lead Grounded Base surface Mount Plastic Package								
!Misc: Vdd = +3V Idd = 9.6 mA Vctl = 2.4V , DEEMBEDDED TO THE PINS OF THE DEVICE								
!
# MHZ S MA R 50

1000 0.941 83.564 0.712 138.571 4.757e-3 156.551 0.142 -173.494
1020 0.938 84.881 0.726 137.501 4.733e-3 157.753 0.145 -175.49
1040 0.934 86.339 0.739 136.556 4.648e-3 159.08 0.15 -178.053
1060 0.933 87.78 0.753 135.524 4.568e-3 160.468 0.156 179.787
1080 0.931 89.182 0.765 134.427 4.488e-3 161.981 0.164 178.035
1100 0.931 90.746 0.777 133.254 4.425e-3 163.544 0.171 177.036
1120 0.93 91.954 0.788 132.032 4.38e-3 164.898 0.176 176.395
1140 0.926 93.349 0.799 130.626 4.308e-3 166.608 0.182 175.396
1160 0.922 94.735 0.809 129.125 4.218e-3 168.439 0.187 174.312
1180 0.921 96.072 0.818 127.639 4.137e-3 170.347 0.193 173.27
1200 0.918 97.498 0.822 126.039 4.055e-3 172.219 0.2 172.509
1220 0.911 98.913 0.825 124.299 3.974e-3 174.567 0.207 172.416
1240 0.907 100.368 0.828 122.691 3.9e-3 176.795 0.214 172.368
1260 0.903 101.802 0.827 120.99 3.828e-3 179.23 0.218 172.257
1280 0.901 103.208 0.824 119.261 3.765e-3 -177.923 0.223 172.007
1300 0.895 104.41 0.817 117.639 3.691e-3 -174.801 0.229 171.677
1320 0.893 105.663 0.812 116.038 3.69e-3 -171.978 0.236 171.746
1340 0.888 107.033 0.803 114.324 3.628e-3 -169.328 0.243 172.037
1360 0.883 108.432 0.791 112.739 3.594e-3 -166.593 0.249 172.471
1380 0.878 109.738 0.777 111.265 3.58e-3 -163.911 0.253 172.917
1400 0.873 110.989 0.765 109.819 3.517e-3 -161.621 0.258 173.247
1420 0.869 112.542 0.747 108.536 3.528e-3 -158.864 0.264 173.485
1440 0.863 113.795 0.727 107.392 3.536e-3 -156.226 0.27 173.887
1460 0.858 115.162 0.709 106.273 3.527e-3 -153.857 0.277 174.45
1480 0.854 116.605 0.69 105.153 3.496e-3 -151.579 0.282 175.107
1500 0.847 117.945 0.671 104.287 3.467e-3 -148.693 0.288 175.869
1520 0.843 119.269 0.649 103.622 3.464e-3 -146.43 0.291 176.495
1540 0.84 120.673 0.629 103.058 3.447e-3 -143.778 0.297 177.073
1560 0.833 121.993 0.608 102.532 3.418e-3 -141.308 0.303 177.641
1580 0.827 123.296 0.586 102.078 3.392e-3 -139.046 0.308 178.244
1600 0.822 124.638 0.566 101.815 3.381e-3 -136.485 0.314 178.973
1620 0.815 125.989 0.546 101.976 3.35e-3 -134.276 0.319 179.896
1640 0.81 127.315 0.526 102.123 3.317e-3 -132.117 0.323 -179.292
1660 0.806 128.628 0.508 102.505 3.298e-3 -129.883 0.328 -178.507
1680 0.801 129.914 0.49 103.05 3.268e-3 -127.508 0.332 -177.829
1700 0.794 131.229 0.473 103.566 3.175e-3 -124.784 0.337 -177.236
1720 0.79 132.476 0.457 104.337 3.163e-3 -121.749 0.343 -176.473
1740 0.784 133.8 0.44 105.198 3.135e-3 -118.846 0.347 -175.584
1760 0.777 135.126 0.424 106.246 3.105e-3 -115.954 0.351 -174.637
1780 0.771 136.394 0.411 107.464 3.077e-3 -113.138 0.355 -173.809
1800 0.764 137.633 0.396 108.791 3.013e-3 -110.579 0.358 -173.115
1820 0.759 138.885 0.383 110.547 2.954e-3 -107.215 0.361 -172.405
1840 0.752 140.213 0.372 112.265 2.903e-3 -103.985 0.366 -171.76
1860 0.745 141.481 0.361 114.077 2.85e-3 -100.533 0.37 -170.979
1880 0.74 142.65 0.352 116.054 2.805e-3 -96.734 0.373 -170.041
1900 0.736 143.812 0.343 118.227 2.773e-3 -92.673 0.376 -168.932
1920 0.729 145.009 0.337 120.451 2.731e-3 -88.801 0.377 -168.125
1940 0.722 146.366 0.33 123.029 2.674e-3 -84.437 0.378 -167.494
1960 0.713 147.578 0.325 125.608 2.649e-3 -79.746 0.381 -166.892
1980 0.707 148.657 0.321 128.124 2.665e-3 -74.762 0.385 -166.233
2000 0.699 149.895 0.317 130.805 2.662e-3 -69.385 0.389 -165.301
2020 0.692 151.068 0.315 133.58 2.682e-3 -64.41 0.389 -164.251
2040 0.682 152.254 0.315 136.172 2.713e-3 -59.198 0.39 -163.285
2060 0.675 153.445 0.317 138.762 2.774e-3 -53.968 0.389 -162.577
2080 0.668 154.601 0.318 141.432 2.853e-3 -48.756 0.389 -162.012
2100 0.66 155.761 0.322 144.145 2.926e-3 -43.435 0.391 -161.597
2120 0.652 157.025 0.325 146.732 3.055e-3 -38.112 0.395 -160.799
2140 0.642 158.146 0.33 149.193 3.185e-3 -33.161 0.396 -159.784
2160 0.633 159.244 0.335 151.516 3.341e-3 -28.594 0.396 -158.752
2180 0.623 160.355 0.342 153.722 3.529e-3 -24.342 0.395 -157.879
2200 0.613 161.547 0.352 155.892 3.735e-3 -20.228 0.392 -157.471
2220 0.605 162.704 0.359 157.858 3.963e-3 -16.062 0.391 -157.131
2240 0.595 163.852 0.369 159.655 4.197e-3 -12.413 0.394 -156.649
2260 0.584 164.965 0.378 161.384 4.448e-3 -9.144 0.396 -155.81
2280 0.573 166.042 0.387 163.03 4.722e-3 -6.182 0.396 -154.716
2300 0.563 167.224 0.399 164.481 4.978e-3 -3.499 0.393 -153.749
2320 0.552 168.414 0.411 165.859 5.311e-3 -0.553 0.388 -153.304
2340 0.54 169.569 0.423 167.067 5.617e-3 2.037 0.385 -153.182
2360 0.528 170.729 0.435 168.228 5.95e-3 4.57 0.385 -153.008
2380 0.516 171.885 0.447 169.363 6.317e-3 7.035 0.387 -152.534
2400 0.503 173.061 0.46 170.422 6.657e-3 9.142 0.388 -151.632
2420 0.492 174.063 0.472 171.402 7.038e-3 10.978 0.385 -150.5
2440 0.479 175.328 0.486 172.148 7.442e-3 12.88 0.379 -150.02
2460 0.466 176.554 0.501 172.828 7.856e-3 14.748 0.374 -149.885
2480 0.454 177.695 0.514 173.481 8.289e-3 16.527 0.372 -149.998
2500 0.439 179.004 0.528 174.072 8.752e-3 18.262 0.372 -150.128
2520 0.425 -179.794 0.54 174.629 9.211e-3 20.075 0.373 -149.386
2540 0.41 -178.652 0.553 175.193 9.762e-3 21.637 0.371 -148.485
2560 0.396 -177.42 0.568 175.66 0.01 23.008 0.365 -147.747
2580 0.38 -176.079 0.584 176.003 0.011 24.037 0.357 -147.694
2600 0.363 -174.579 0.6 176.403 0.012 24.493 0.352 -148.144
2620 0.349 -172.927 0.613 176.87 0.012 24.68 0.351 -148.643
2640 0.333 -171.244 0.626 177.17 0.013 25.102 0.351 -148.513
2660 0.318 -169.493 0.641 177.455 0.013 25.643 0.35 -147.8
2680 0.303 -167.668 0.657 177.688 0.014 26.218 0.346 -147.216
2700 0.289 -165.768 0.674 177.761 0.014 26.891 0.339 -147.261
2720 0.273 -163.81 0.69 177.889 0.015 27.731 0.332 -148.074
2740 0.257 -161.479 0.705 177.891 0.015 28.607 0.328 -148.94
2760 0.243 -159.479 0.719 178.036 0.016 29.452 0.329 -149.477
2780 0.227 -157.569 0.729 178.279 0.016 30.181 0.33 -149.325
2800 0.211 -154.972 0.742 178.409 0.017 30.839 0.328 -148.706
2820 0.194 -152.199 0.758 178.218 0.018 31.512 0.321 -148.688
2840 0.179 -149.075 0.772 178.18 0.018 32.134 0.313 -149.652
2860 0.164 -145.563 0.786 178.222 0.019 32.756 0.308 -150.98
2880 0.15 -141.861 0.799 178.318 0.019 33.472 0.308 -152.274
2900 0.134 -136.955 0.808 178.338 0.02 34.268 0.309 -152.808
2920 0.122 -131.014 0.821 178.389 0.02 35.015 0.308 -152.673
2940 0.109 -124.837 0.831 178.34 0.021 35.59 0.305 -152.793
2960 0.096 -116.904 0.842 178.288 0.021 36.166 0.3 -153.691
2980 0.086 -107.412 0.851 178.267 0.022 36.837 0.294 -155.051
3000 0.078 -96.919 0.862 178.218 0.022 37.588 0.293 -156.858
