!Hittite Microwave Corporation								
!12 Elizabeth Drive								
!Chelmsford, MA 01824								
!Tel: 978-250-3343								
!Fax: 978-250-3373								
!Device: HMC287MS8, 2.3-2.5 GHz LNA with AGC in 8-lead Grounded Base surface Mount Plastic Package								
!Misc: Vdd = +3V Idd = 9.6 mA Vctl = 1.2V , DEEMBEDDED TO THE PINS OF THE DEVICE								
!
# MHZ S MA R 50

1000 0.942 84.242 0.662 177.393 4.382e-3 166.273 0.249 91.642
1020 0.94 85.574 0.682 178.521 4.372e-3 167.329 0.254 93.532
1040 0.935 87.075 0.701 179.652 4.349e-3 169.09 0.259 95.883
1060 0.936 88.558 0.723 -179.093 4.342e-3 170.817 0.264 98.366
1080 0.935 90.003 0.745 -177.789 4.328e-3 172.315 0.269 101.177
1100 0.935 91.642 0.768 -176.792 4.312e-3 173.848 0.272 103.621
1120 0.934 92.952 0.795 -175.637 4.311e-3 174.979 0.275 105.943
1140 0.931 94.416 0.823 -174.715 4.265e-3 176.741 0.28 107.97
1160 0.929 95.864 0.85 -173.825 4.232e-3 178.419 0.285 109.896
1180 0.93 97.26 0.881 -172.876 4.245e-3 179.876 0.291 112.101
1200 0.929 98.71 0.909 -172.077 4.265e-3 -178.637 0.295 114.512
1220 0.922 100.173 0.942 -171.528 4.191e-3 -176.784 0.299 116.48
1240 0.92 101.669 0.976 -170.884 4.143e-3 -175.214 0.304 118.687
1260 0.919 103.145 1.009 -170.36 4.106e-3 -173.682 0.307 120.613
1280 0.919 104.589 1.044 -169.903 4.073e-3 -171.921 0.312 122.446
1300 0.917 105.809 1.078 -169.446 4.001e-3 -169.896 0.317 124.435
1320 0.917 106.992 1.118 -169.111 3.998e-3 -168.209 0.324 126.617
1340 0.913 108.317 1.157 -168.981 3.94e-3 -166.349 0.329 128.666
1360 0.912 109.68 1.197 -168.835 3.901e-3 -164.643 0.334 130.704
1380 0.911 110.937 1.237 -168.736 3.872e-3 -163.314 0.337 132.553
1400 0.907 112.092 1.283 -168.802 3.799e-3 -162.252 0.343 134.262
1420 0.905 113.572 1.32 -168.87 3.736e-3 -160.2 0.347 136.018
1440 0.901 114.717 1.359 -168.991 3.686e-3 -158.621 0.353 137.898
1460 0.899 115.926 1.401 -169.181 3.608e-3 -156.963 0.359 139.831
1480 0.897 117.191 1.444 -169.518 3.5e-3 -155.132 0.363 141.588
1500 0.894 118.396 1.491 -169.879 3.424e-3 -153.229 0.368 143.319
1520 0.891 119.547 1.527 -170.251 3.346e-3 -151.473 0.372 144.939
1540 0.888 120.744 1.569 -170.588 3.242e-3 -148.848 0.377 146.567
1560 0.883 121.85 1.608 -171.049 3.134e-3 -146.621 0.382 148.17
1580 0.878 122.934 1.646 -171.607 3.044e-3 -144.681 0.387 149.745
1600 0.873 124.051 1.685 -172.153 2.977e-3 -141.643 0.392 151.388
1620 0.866 125.163 1.725 -172.642 2.869e-3 -138.66 0.397 153.02
1640 0.862 126.232 1.763 -173.154 2.758e-3 -135.796 0.401 154.514
1660 0.858 127.297 1.799 -173.607 2.658e-3 -132.433 0.406 156.078
1680 0.853 128.354 1.833 -174.097 2.561e-3 -128.579 0.41 157.522
1700 0.846 129.465 1.865 -174.685 2.45e-3 -124.655 0.414 158.898
1720 0.841 130.519 1.902 -175.246 2.365e-3 -119.744 0.42 160.316
1740 0.835 131.591 1.93 -175.792 2.307e-3 -114.854 0.423 161.812
1760 0.827 132.663 1.958 -176.347 2.265e-3 -109.937 0.426 163.333
1780 0.821 133.685 1.993 -176.929 2.238e-3 -104.751 0.43 164.639
1800 0.812 134.667 2.025 -177.484 2.208e-3 -98.794 0.432 165.807
1820 0.806 135.694 2.045 -177.832 2.185e-3 -93.342 0.435 167.18
1840 0.798 136.792 2.076 -178.378 2.166e-3 -86.972 0.44 168.372
1860 0.789 137.853 2.106 -178.914 2.17e-3 -80.94 0.444 169.665
1880 0.782 138.825 2.134 -179.368 2.213e-3 -75.368 0.445 171.067
1900 0.777 139.759 2.162 -179.787 2.296e-3 -69.227 0.448 172.613
1920 0.768 140.659 2.199 179.762 2.376e-3 -63.31 0.448 173.763
1940 0.759 141.789 2.227 179.402 2.475e-3 -58.046 0.449 174.814
1960 0.748 142.796 2.249 179.003 2.589e-3 -53.009 0.451 175.886
1980 0.74 143.649 2.275 178.582 2.729e-3 -48.062 0.455 177.003
2000 0.73 144.611 2.301 178.283 2.901e-3 -43.377 0.458 178.354
2020 0.721 145.544 2.335 177.92 3.069e-3 -38.892 0.457 179.728
2040 0.71 146.481 2.363 177.523 3.244e-3 -35.035 0.457 -179.026
2060 0.701 147.403 2.391 177.135 3.434e-3 -31.491 0.455 -178.029
2080 0.691 148.288 2.421 176.798 3.646e-3 -28.1 0.455 -177.098
2100 0.681 149.25 2.457 176.567 3.894e-3 -24.843 0.458 -176.273
2120 0.67 150.271 2.481 176.267 4.122e-3 -21.911 0.46 -175.028
2140 0.658 151.05 2.512 176.009 4.363e-3 -19.135 0.46 -173.672
2160 0.646 151.849 2.545 175.684 4.631e-3 -16.608 0.459 -172.418
2180 0.633 152.696 2.581 175.269 4.924e-3 -14.369 0.457 -171.397
2200 0.62 153.546 2.619 174.878 5.226e-3 -12.352 0.455 -170.817
2220 0.608 154.351 2.649 174.582 5.516e-3 -10.512 0.453 -170.042
2240 0.595 155.158 2.688 174.299 5.824e-3 -8.641 0.455 -169.127
2260 0.582 155.937 2.717 173.97 6.136e-3 -6.826 0.456 -167.941
2280 0.567 156.661 2.746 173.56 6.465e-3 -5.146 0.454 -166.629
2300 0.555 157.485 2.789 173.098 6.79e-3 -3.632 0.449 -165.542
2320 0.539 158.341 2.828 172.667 7.146e-3 -2.023 0.444 -164.951
2340 0.523 159.071 2.866 172.228 7.484e-3 -0.47 0.441 -164.557
2360 0.508 159.78 2.899 171.817 7.826e-3 1.071 0.44 -164.009
2380 0.492 160.468 2.931 171.42 8.185e-3 2.522 0.44 -163.141
2400 0.476 161.167 2.97 171.025 8.556e-3 3.735 0.44 -161.93
2420 0.46 161.88 3.001 170.556 8.979e-3 4.802 0.435 -160.666
2440 0.442 162.625 3.046 170.047 9.414e-3 5.889 0.428 -160.076
2460 0.424 163.335 3.084 169.56 9.83e-3 7.058 0.421 -159.729
2480 0.407 163.973 3.116 169.056 0.01 8.218 0.418 -159.502
2500 0.388 164.719 3.151 168.468 0.011 9.198 0.416 -159.215
2520 0.369 165.332 3.178 167.963 0.011 10.413 0.415 -158.08
2540 0.349 165.859 3.208 167.504 0.012 11.602 0.41 -156.929
2560 0.329 166.51 3.245 166.955 0.012 12.577 0.403 -155.999
2580 0.309 167.206 3.291 166.256 0.013 13.236 0.393 -155.731
2600 0.289 168.226 3.324 165.608 0.013 13.748 0.386 -155.799
2620 0.269 169.051 3.347 165.2 0.014 13.924 0.384 -155.801
2640 0.247 169.886 3.365 164.593 0.014 14.195 0.381 -155.246
2660 0.227 170.869 3.388 164.017 0.015 14.547 0.378 -154.196
2680 0.206 171.813 3.419 163.434 0.015 14.844 0.371 -153.342
2700 0.185 172.931 3.455 162.723 0.016 15.013 0.361 -153.133
2720 0.164 174.444 3.48 162.077 0.016 15.591 0.352 -153.596
2740 0.141 175.496 3.5 161.448 0.017 16.252 0.346 -153.995
2760 0.121 177.078 3.509 160.941 0.017 16.809 0.343 -154.022
2780 0.101 179.344 3.506 160.484 0.018 17.24 0.341 -153.394
2800 0.079 -176.777 3.519 159.922 0.018 17.782 0.335 -152.351
2820 0.057 -173.426 3.538 159.212 0.018 18.224 0.324 -151.944
2840 0.037 -163.889 3.551 158.554 0.019 18.532 0.313 -152.454
2860 0.02 -138.372 3.56 158.017 0.019 18.935 0.304 -153.278
2880 0.016 -71.916 3.562 157.598 0.02 19.532 0.3 -154.06
2900 0.032 -32 3.55 157.096 0.02 20.166 0.297 -154.1
2920 0.05 -21.578 3.554 156.674 0.02 20.752 0.292 -153.469
2940 0.068 -16.504 3.547 156.156 0.021 21.218 0.284 -153
2960 0.088 -12.238 3.541 155.669 0.021 21.675 0.274 -153.313
2980 0.107 -9.232 3.528 155.247 0.021 22.207 0.265 -154.163
3000 0.123 -7.281 3.514 154.791 0.022 22.831 0.259 -155.645
