! Hittite Microwave Corporation
! 20 Alpha Road
! Chelmsford, MA 01824
! Tel: 978-250-3343
! Fax: 978-250-3373
! Device: HMC276QS24, 0.7-3.0 GHz, GaAS MMIC 4x2 Switch Matrix in 24-lead QSOP package
! Misc: Data was de-embedded to package pins.
!       Port 1 = OP1
!       Port 2 = VL
!       Port 3 = VH
!       Port 4 = HH
!       Port 5 = HL
!       Port 6 = OP2
!          Vdd = +5 V
!         Vctl = 0 V[Logic 0] / +5 V[Logic 1]
!
!  State 02,  VL to OP1,  VH to OP2
!  Control Lines (Logic)
!    HV 1 = 0, Tone 1 = 0
!    HV 2 = 0, Tone 2 = 1
!
!  Data reformated to new Touchstone file format - Wed Jan 10 14:22:19 2007
!
# MHz S DB R 50
! 6 Port Network Data
! freq  dbS11  angS11  dbS12  angS12  dbS13  angS13  dbS14  angS14  
!       dbS15  angS15  dbS16  angS16  
!       dbS21  angS21  dbS22  angS22  
!       dbS23  angS23  dbS24  angS24  dbS25  angS25  dbS26  angS26  
!       dbS31  angS31  dbS32  angS32  dbS33  angS33  dbS34  angS34  
!       dbS35  angS35  dbS36  angS36  
!       dbS41  angS41  dbS42  angS42  
!       dbS43  angS43  dbS44  angS44  dbS45  angS45  dbS46  angS46  
!       dbS51  angS51  dbS52  angS52  dbS53  angS53  dbS54  angS54  
!       dbS55  angS55  dbS56  angS56  
!       dbS61  angS61  dbS62  angS62  
!       dbS63  angS63  dbS64  angS64  dbS65  angS65  dbS66  angS66  
!     
                10       -10.7820431            -10.358         -2.7335428              1.994        -42.4226733            -139.53        -45.7067001            -68.283
                      -54.8993767           -160.925        -45.6866172             53.079
                      -2.90173955              3.269        -11.0879159             -7.324        -44.5009062             71.517        -50.7850492             42.864
                      -45.9496661            178.704        -48.4962431             45.426
                      -51.2070314               65.8        -43.3997813             28.682        -11.0568394            -13.739        -47.1963362             -79.43
                      -44.1900745            112.069        -2.75737241              3.914
                       -50.863573            142.945        -39.1721463             69.015        -48.3860612             37.976      -0.0435383851             -4.172
                      -49.3908831           -131.926        -42.4733334            -58.756
                      -41.3749119             81.286        -51.5285296             47.699        -46.6733851            -61.829        -46.9183953           -144.214
                     -0.104861108             -3.921        -48.5286445            -75.435
                      -43.7110524            142.989        -39.1721463           -178.909        -2.84129471              4.385         -42.413494            118.591
                      -40.8325454              8.977        -10.4286701            -10.768

             29.95       -11.5679215            -13.331         -2.6860788             -0.586        -77.4773719             54.547        -59.8706792            140.003
                      -66.1624635            142.769         -73.310925            103.788
                      -2.72165246             -0.516        -11.6339742            -15.769        -58.6362828           -133.961        -68.5821393             -1.875
                      -61.6793478           -110.569        -65.6465899            -65.324
                      -59.5679457             92.819        -64.5359772            -20.964        -11.4373041            -15.209        -65.7571117           -100.498
                      -63.9076717             40.302         -2.7335428             -0.358
                      -57.0650397            -73.281        -69.6984265            -23.859        -64.2749121             86.711       -0.273524459            -12.714
                      -62.3120235             94.425        -62.0738859             56.062
                      -66.0658844             115.23         -58.322784            -65.869        -67.1151683            -85.835        -78.6884057            -25.482
                     -0.273524459            -12.584        -60.0234836              154.6
                      -60.6837409              1.185        -63.6500148             64.672        -2.76931178             -0.456        -56.7666518           -118.127
                      -63.6685461             88.926        -10.8423621            -11.562

              49.9       -12.1812979            -14.382        -2.61536561              -3.74        -67.4077311             27.693        -64.7975843            163.175
                      -65.7167591             53.876         -62.441061             98.033
                      -2.63887276              -3.64        -12.2878745            -18.541        -61.0356541             66.738        -75.4938144           -149.555
                      -70.4720635            165.959        -78.9230715           -124.044
                      -65.5440321            127.687        -66.7997756             26.568        -11.9375896            -17.829        -65.5736824             88.983
                      -69.1784046            177.768        -2.65065024             -3.751
                      -66.8130873             50.906        -71.2862972            146.062        -65.2561471            140.096       -0.667780266            -20.516
                      -67.6139585             -0.903        -73.6053901              4.069
                      -78.5476505           -138.877        -67.7974477            139.954        -70.1085603            127.277        -64.5535659             85.708
                      -0.63968572            -20.385        -80.4601691             10.826
                      -60.3672515            131.019         -64.120004            125.049        -2.65065024             -3.592        -64.4965323            -35.497
                      -69.3678674            -43.282        -11.2449887            -12.905

             69.85       -12.1812979             -18.08        -2.74544943             -5.372        -72.7541212             82.921        -70.2798963             126.36
                      -71.1755265             72.959        -60.8900934             93.711
                      -2.74544943             -5.301        -12.3596591            -24.281        -59.8963897             76.569        -69.9678616            116.659
                      -68.0614637             70.588        -73.7861338            104.997
                      -75.3706082           -130.192        -62.3335864             63.164        -12.1109664            -23.224        -72.4102637              1.494
                      -77.5951041           -124.907        -2.76931178             -5.633
                      -66.2905396             48.072        -67.7974477             60.548        -68.6783243              79.84        -1.11034656            -27.565
                      -70.1699647             61.665         -74.972103           -141.472
                      -66.5895168             48.629        -64.8006028            101.332        -70.1057795             95.653        -79.4693347            161.464
                      -1.10048183            -27.359        -67.1191101             76.985
                      -58.7634139             89.653        -64.9314032           -176.647        -2.78126759             -5.493        -79.4204459              94.77
                      -64.8081538             74.905        -11.3727247            -17.079

              89.8       -12.3596591            -21.763        -2.84129471             -7.002        -71.2101882            -69.591        -65.2196351             21.567
                      -71.8521819              58.69        -56.6123901             73.884
                      -2.86542219             -6.924        -12.5050331            -29.375        -57.9856983             86.447        -72.3560558              0.964
                       -67.870223             56.422        -69.9623901            -55.558
                      -79.8365163            -50.807        -62.1114632              65.92        -12.3596591              -28.1        -71.2862972             62.544
                      -69.1062396             66.717        -2.86542219             -7.357
                      -73.1950848             39.822        -75.7509208             85.975        -75.7829327              2.675        -1.62890939            -33.802
                      -69.0322116            112.548        -67.9349468             85.628
                      -69.0027762             92.883        -67.0660454             85.751        -75.6555869             86.173        -73.0261162             74.211
                      -1.62890939            -33.546        -63.9417902             90.709
                      -59.2994144             97.248        -79.1406185            176.244        -2.87751112             -7.238        -79.6760529            134.628
                       -72.971805             68.569        -11.5679215            -20.541

            109.75       -12.5417599            -25.069        -2.97483303             -8.366        -69.8970004            -90.924        -67.4752463             51.616
                      -65.1690897               90.2         -56.577177             73.164
                      -2.99933485             -8.345        -12.7277604            -34.704        -57.4968834              74.25        -68.4616609             23.648
                      -80.5856259              69.53        -86.0345085             56.504
                      -70.8605397             -18.37        -56.9971568             70.908        -12.6528816            -32.773        -73.6889893             18.316
                        -79.62599             65.983        -2.99933485             -8.872
                       -79.243505             84.188        -72.1530969             79.543        -69.4499798             63.832        -2.21396595            -39.282
                      -75.5926074           -152.243         -71.289483             47.879
                       -64.855117             53.314        -72.3885399             10.297        -73.1042975           -169.801        -68.1143594             91.564
                      -2.21396595            -39.004         -78.096613            144.614
                      -57.5688031             88.551        -76.2158102            127.057        -3.01161172              -8.81         -71.554771            153.313
                      -66.4606437             59.493        -11.7676059            -23.731

             129.7       -12.7277604            -27.995         -3.0980392             -9.637        -72.1707118            -80.726        -65.7167591             62.026
                      -74.8224674              22.96        -54.2171433              86.22
                      -3.12289155             -9.569        -12.9563496            -39.116        -57.1209777             87.215        -72.2415307             28.421
                      -70.7490454             70.564        -75.9284645           -108.687
                      -71.1253552            -68.199        -57.0898566             75.559        -12.9563496             -37.15        -68.3769422             84.655
                      -69.4913289             78.358        -3.11045649            -10.268
                      -66.2031718             65.617        -76.0930788             42.926        -68.8186333             85.004        -2.81723405            -44.048
                      -81.2807906            137.592         -75.411483             38.819
                      -67.1685349              7.192        -68.3974735             57.465        -70.9704119             46.692        -79.8535809            113.756
                      -2.79323987            -43.688        -64.2097959             79.784
                      -54.4157897              82.54        -74.1283297             -7.699        -3.13534444            -10.141        -67.9827193             81.482
                      -64.5623736             97.948        -12.0411998            -26.576

            149.65       -12.9178312            -30.579        -3.22301819            -10.728        -71.6273463            -60.962        -67.5122952             58.785
                       -66.171297             33.515         -54.088658             89.628
                      -3.24823124            -10.708        -13.2308701            -43.412        -56.6241596             79.513        -76.7427401              56.85
                      -69.9432672             68.687        -68.9636836             -43.04
                      -74.7938011            -65.318        -55.7190264             71.262        -13.2708053            -41.193        -72.7465814             62.611
                      -68.5193746             26.624        -3.23561556            -11.453
                      -73.6889893             29.457        -70.9489387             66.029        -72.7881317              84.08        -3.40106608              -48.1
                      -69.4293788            137.787        -71.3470268             63.733
                      -67.4485867             36.233        -68.1853919             74.928        -67.5061094             12.779        -70.7880562            126.781
                      -3.38822663             -47.76        -65.6699167             89.609
                      -54.3158986             81.707        -72.0342539            -106.88        -3.26086526            -11.433        -72.8527394             20.772
                      -63.0769705             50.136        -12.2522035            -29.062

             169.6       -13.1121545            -32.855        -3.34982175            -11.698        -66.7034012             -66.45        -70.8939646             31.531
                      -67.6999477             73.333        -51.9135907             78.736
                      -3.38822663            -11.665        -13.4732828            -47.461        -54.5307145             77.853        -68.5147434             26.831
                      -69.5432937             52.786        -72.2522035            -32.111
                       -64.779495            -75.404        -54.5307145             74.158        -13.5970743            -45.143        -71.6240342             58.875
                      -71.6805118             62.792        -3.36260451            -12.556
                      -68.6948531             53.169        -73.4773809             68.329        -69.7543187            105.568        -3.98565843            -51.636
                      -68.3610068            115.505        -77.7949417             30.381
                       -65.831582             38.299         -70.155971             63.661        -74.7462331              5.742        -68.3632815            134.978
                      -3.95821484            -51.245        -63.0794465             84.196
                      -52.3704782             79.936        -70.1475856            -55.136        -3.38822663            -12.534        -68.9758811             42.443
                      -63.2963386             80.748        -12.5050331            -31.381

            189.55       -13.2708053            -34.862        -3.47850395            -12.536        -67.6160457            -93.185        -75.9939363             14.098
                      -66.0153899             55.329         -51.408184             84.688
                      -3.51748332            -12.436        -13.7226556            -51.236        -53.8458015             74.248        -71.0879159             40.037
                      -71.0135181             50.514        -66.2654876            -69.575
                      -65.0021832            -65.137        -53.5267093             75.425        -13.9360789            -48.703        -75.7562479             93.164
                      -68.6148633            -13.388        -3.49147764            -13.525
                      -64.9867471             34.814        -67.8938991             53.285        -72.0969682             51.259        -4.55356587            -54.677
                       -66.331854            105.993        -70.9275185             68.413
                      -70.4749641              29.69        -72.1074647             24.077         -77.457904             55.213        -64.0601922            101.138
                       -4.5242711            -54.245        -66.6790052             87.825
                      -52.1601386              77.87        -68.5101146            -55.465        -3.51748332            -13.454        -68.1631318             53.068
                      -62.4617938             65.711        -12.7277604            -33.384

             209.5       -13.4324079            -36.762        -3.60912129            -13.249        -64.2991008            -85.539        -68.1586866             32.132
                      -67.2562116             54.267        -51.4340637             82.833
                      -3.63548213            -13.148        -13.9794001            -54.571        -53.8672112             76.817        -67.5806313             36.127
                      -68.1564649             62.787         -65.398897            -68.691
                      -65.4377963            -84.686        -53.6303855             73.582        -14.2888538            -51.883        -70.3396716             72.328
                      -75.4268608             19.608        -3.60912129            -14.367
                      -71.3759423             43.599        -67.1210817             56.761        -72.7578936             31.445        -5.11414034            -57.246
                      -63.8927019            109.481        -69.4370984             42.523
                      -66.6434724             54.603        -73.8159164               2.29        -69.4370984             27.918        -66.9628146            117.741
                      -5.06731602            -56.753        -63.5044708             69.463
                      -51.2323179             84.753        -65.1990655            -75.186        -3.63548213            -14.279        -68.1209941             45.831
                      -63.3562108             65.977        -12.9178312            -35.162

            229.45       -13.5556141            -38.223        -3.72838023             -13.87        -64.3105071             -78.85        -66.3751753             59.201
                      -64.4138434             55.632        -50.3969855             84.417
                      -3.74173287            -13.755        -14.1993078            -57.674         -53.290842             74.289        -71.7575119             80.036
                      -71.1378709             99.711        -65.0642034            -67.059
                       -63.880473            -84.998         -53.676398             73.207        -14.6097411            -54.758         -72.432042               84.6
                      -72.9640739             32.704        -3.71504809            -15.118
                      -65.7503732              46.21        -69.7650058             31.477        -68.4226334            106.013        -5.62996622            -59.488
                       -63.896782            100.578        -73.7058061             47.908
                      -67.5164215             58.578        -71.0848033             27.781        -72.7089801              2.924        -62.9479606            116.722
                       -5.5637877            -58.992        -63.6447274             69.188
