!Hittite Microwave Corporation								
!12 Elizabeth Drive								
!Chelmsford, MA 01824								
!Tel: 978-250-3343								
!Fax: 978-250-3373
!Device: HMC221, DC - 3 GHz GaAs MMIC SPDT Switch in 6-lead SOT26 plastic package
!Misc: Port 1 = RFC, Port 2 = RF1, Port 3 = RF2, RF1 Selected, Bias: +3VDC								
!	
# MHZ S MA R 50

90 6.203e-3 -17.699 0.981 -0.432 8.194e-3 81.732
          0.981 -0.522 5.497e-3 -10.356 7.689e-3 83.464
          7.424e-3 81.236 7.182e-3 83.247 0.975 -19.318
109.55 6.601e-3 -2.489 0.98 -0.536 0.011 86.955
          0.978 -0.529 5.721e-3 2.886 9.804e-3 88.015
          9.944e-3 87.556 9.285e-3 83.221 0.974 -23.252
129.1 5.958e-3 9.771 0.977 -0.621 0.013 88.619
          0.977 -0.515 5.574e-3 13.715 0.012 87.088
          0.013 88.276 0.012 85.918 0.972 -27.071
148.65 6.502e-3 9.268 0.977 -0.546 0.015 87.117
          0.977 -0.498 6.236e-3 12.542 0.015 85.131
          0.015 85.697 0.015 88.906 0.969 -30.836
168.2 7.605e-3 6.601 0.977 -0.527 0.016 81.543
          0.979 -0.515 7.742e-3 9.314 0.016 77.357
          0.016 80.24 0.016 80.411 0.97 -34.795
187.75 8.455e-3 5.443 0.977 -0.522 0.018 78.55
          0.979 -0.547 8.652e-3 8.153 0.017 73.14
          0.018 77.638 0.017 73.78 0.971 -38.693
207.3 8.715e-3 5.838 0.977 -0.515 0.02 79.071
          0.977 -0.566 8.902e-3 8.099 0.019 74.101
          0.02 78.365 0.02 73.276 0.97 -42.466
226.85 8.598e-3 5.871 0.978 -0.524 0.022 78.167
          0.975 -0.541 9.436e-3 6.977 0.022 73.131
          0.022 77.67 0.022 72.154 0.97 -46.256
246.4 9.398e-3 3.827 0.977 -0.561 0.025 75.684
          0.977 -0.496 9.789e-3 5.287 0.024 68.003
          0.025 75.973 0.023 68.524 0.971 -49.948
265.95 0.01 0.824 0.977 -0.585 0.026 73.094
          0.977 -0.538 0.011 2.869 0.024 66.058
          0.026 73.772 0.024 67.538 0.968 -53.599
285.5 0.011 -3.59 0.976 -0.584 0.027 71.415
          0.976 -0.578 0.011 1.156 0.026 64.674
          0.028 73.591 0.026 65.846 0.967 -57.204
305.05 0.011 -6.632 0.975 -0.578 0.029 70.791
          0.974 -0.586 0.012 -0.444 0.027 63.691
          0.03 73.473 0.028 63.516 0.966 -60.778
324.6 0.012 -6.334 0.974 -0.589 0.03 70.596
          0.974 -0.564 0.013 -2.75 0.028 63.326
          0.031 70.922 0.029 61.762 0.965 -64.31
344.15 0.012 -10.138 0.975 -0.59 0.032 68.569
          0.974 -0.533 0.014 -6.895 0.03 61.104
          0.032 69.116 0.03 60.519 0.962 -67.615
363.7 0.013 -14.038 0.974 -0.578 0.033 66.526
          0.973 -0.533 0.014 -10.448 0.031 58.486
          0.034 67.385 0.031 59.14 0.96 -70.971
383.25 0.014 -16.229 0.974 -0.574 0.034 65.066
          0.973 -0.529 0.015 -12.665 0.032 56.983
          0.035 66.075 0.032 56.757 0.958 -74.249
402.8 0.014 -18.16 0.973 -0.571 0.035 64.308
          0.973 -0.484 0.015 -14.582 0.033 55.714
          0.036 65.202 0.034 54.801 0.957 -77.498
422.35 0.015 -20.556 0.973 -0.549 0.037 63.87
          0.973 -0.426 0.016 -16.941 0.035 53.99
          0.037 64.364 0.035 53.676 0.956 -80.711
441.9 0.016 -23.384 0.973 -0.482 0.038 62.724
          0.974 -0.481 0.017 -19.402 0.036 52.035
          0.038 62.622 0.036 51.62 0.953 -83.756
461.45 0.016 -26.96 0.973 -0.42 0.039 61.672
          0.974 -0.469 0.018 -22.3 0.038 50.549
          0.039 61.704 0.038 50.674 0.952 -86.78
481 0.016 -29.5 0.973 -0.394 0.04 60.182
          0.973 -0.442 0.019 -21.876 0.038 48.881
          0.04 60.503 0.038 49.078 0.95 -89.757
500.55 0.017 -32.108 0.973 -0.416 0.041 58.859
          0.973 -0.438 0.02 -25.286 0.039 46.952
          0.041 59.345 0.038 47.361 0.948 -92.653
520.1 0.018 -35.645 0.974 -0.443 0.041 57.893
          0.973 -0.431 0.021 -30.993 0.04 45.113
          0.042 58.289 0.039 45.635 0.946 -95.484
539.65 0.019 -40.417 0.973 -0.423 0.042 57.141
          0.972 -0.373 0.022 -33.404 0.04 43.857
          0.042 57.225 0.04 43.839 0.944 -98.291
559.2 0.02 -44.51 0.972 -0.466 0.043 56.306
          0.972 -0.407 0.022 -36.285 0.04 42.656
          0.043 56.238 0.041 43.183 0.942 -101.023
578.75 0.02 -45.734 0.972 -0.464 0.043 55.61
          0.972 -0.397 0.023 -38.454 0.04 41.591
          0.044 55.825 0.041 42.205 0.941 -103.596
598.3 0.021 -48.203 0.972 -0.459 0.043 55.326
          0.972 -0.42 0.024 -40.637 0.041 41.15
          0.044 55.258 0.042 40.917 0.939 -106.154
617.85 0.022 -51.177 0.972 -0.446 0.044 55.159
          0.972 -0.446 0.025 -43.021 0.041 40.624
          0.045 54.621 0.042 39.657 0.937 -108.687
637.4 0.022 -53.68 0.971 -0.418 0.045 54.843
          0.972 -0.449 0.027 -45.519 0.042 39.36
          0.045 54.072 0.043 38.446 0.935 -111.179
656.95 0.023 -56.562 0.969 -0.405 0.046 54.596
          0.971 -0.501 0.028 -47.773 0.043 37.712
          0.046 53.408 0.043 36.217 0.933 -113.688
676.5 0.023 -57.271 0.969 -0.4 0.047 53.048
          0.97 -0.407 0.03 -51.229 0.044 35.8
          0.046 52.807 0.043 35.358 0.931 -116.016
696.05 0.025 -58.028 0.969 -0.331 0.047 51.267
          0.969 -0.334 0.031 -56.563 0.044 33.586
          0.046 52.27 0.043 34.532 0.929 -118.321
715.6 0.028 -59.616 0.969 -0.25 0.047 50.006
          0.969 -0.274 0.031 -60.682 0.044 31.59
          0.046 51.822 0.044 33.48 0.928 -120.592
735.15 0.03 -62.611 0.97 -0.213 0.046 49.626
          0.97 -0.251 0.032 -62.971 0.043 30.345
          0.046 51.277 0.044 32.105 0.927 -122.839
754.7 0.031 -67.469 0.97 -0.258 0.045 50.037
          0.972 -0.323 0.032 -65.269 0.042 30.272
          0.047 50.317 0.043 30.469 0.926 -125.09
774.25 0.032 -70.995 0.97 -0.242 0.045 50.988
          0.97 -0.16 0.033 -66.87 0.042 30.867
          0.047 50.575 0.044 29.928 0.925 -127.134
793.8 0.033 -74.695 0.969 -0.201 0.046 51.54
          0.971 -0.13 0.034 -68.838 0.043 30.854
          0.047 50.232 0.044 28.995 0.923 -129.184
813.35 0.034 -77.03 0.969 -0.158 0.047 51.294
          0.972 -0.141 0.035 -70.98 0.044 29.768
          0.047 49.97 0.044 28.035 0.921 -131.214
832.9 0.036 -79.374 0.97 -0.136 0.048 50.363
          0.973 -0.173 0.036 -72.734 0.045 27.906
          0.047 49.685 0.044 27.117 0.92 -133.24
852.45 0.037 -83.104 0.971 -0.15 0.048 49.139
          0.972 -0.223 0.036 -73.919 0.045 25.946
          0.047 49.132 0.044 26.144 0.92 -135.271
872 0.037 -84.257 0.971 -0.187 0.047 48.135
          0.97 -0.203 0.038 -76.653 0.044 24.64
          0.047 49.031 0.044 24.897 0.919 -137.163
891.55 0.039 -86.261 0.972 -0.193 0.047 48.232
          0.97 -0.094 0.039 -78.764 0.043 23.577
          0.047 48.76 0.044 24.605 0.916 -138.997
911.1 0.04 -88.398 0.971 -0.175 0.046 48.622
          0.971 -0.112 0.04 -80.571 0.043 23.28
          0.047 48.606 0.043 23.575 0.916 -140.854
930.65 0.042 -90.489 0.971 -0.147 0.047 49.122
          0.972 -0.165 0.041 -82.362 0.043 23.028
          0.047 48.549 0.043 22.374 0.916 -142.676
950.2 0.043 -92.509 0.97 -0.122 0.047 49.46
          0.971 -0.177 0.042 -84.318 0.043 22.302
          0.047 48.516 0.043 21.364 0.915 -144.451
969.75 0.045 -94.494 0.971 -0.102 0.048 49.083
          0.971 -0.182 0.043 -86.514 0.044 21.31
          0.047 48.427 0.043 19.913 0.915 -146.289
989.3 0.046 -96.212 0.971 -0.075 0.047 48.141
          0.971 -0.115 0.045 -88.115 0.043 19.607
          0.047 47.901 0.042 19.472 0.913 -147.976
1008.85 0.047 -98.117 0.972 -0.117 0.047 47.584
          0.972 -0.091 0.046 -89.965 0.043 18.024
          0.047 47.942 0.042 18.679 0.912 -149.676
1028.4 0.049 -99.86 0.972 -0.141 0.046 47.686
          0.971 -0.103 0.047 -91.885 0.042 17.079
          0.046 48.243 0.042 17.712 0.912 -151.371
1047.95 0.05 -101.498 0.971 -0.137 0.045 48.204
          0.971 -0.137 0.048 -93.656 0.041 16.751
          0.046 48.448 0.042 16.763 0.912 -153.011
1067.5 0.051 -103.368 0.97 -0.142 0.045 48.632
          0.97 -0.168 0.049 -95.134 0.041 16.605
          0.046 48.269 0.041 15.979 0.911 -154.563
1087.05 0.053 -104.923 0.97 -0.101 0.045 49.53
          0.97 -0.078 0.051 -96.695 0.041 16.197
          0.046 48.053 0.041 15.302 0.911 -156.251
1106.6 0.055 -106.742 0.97 -0.054 0.046 49.8
          0.972 -0.065 0.052 -98.545 0.041 15.547
          0.045 48.517 0.04 14.35 0.911 -157.867
1126.15 0.056 -108.394 0.971 -0.026 0.046 49.514
          0.972 -0.096 0.053 -100.228 0.041 14.32
          0.045 48.66 0.04 13.208 0.911 -159.435
1145.7 0.058 -109.835 0.972 -0.02 0.046 48.966
          0.972 -0.143 0.054 -101.721 0.041 12.617
          0.045 48.715 0.04 12.283 0.911 -160.988
1165.25 0.059 -111.138 0.973 -0.038 0.045 48.47
          0.971 -0.167 0.056 -103.143 0.04 10.727
          0.044 49.065 0.039 11.665 0.911 -162.542
1184.8 0.061 -112.438 0.973 -0.097 0.045 48.172
          0.97 -0.104 0.057 -104.683 0.039 9.062
          0.044 49.491 0.039 10.232 0.912 -164.039
1204.35 0.062 -113.675 0.973 -0.118 0.043 48.489
          0.971 -0.019 0.059 -106.277 0.038 8.3
          0.044 49.88 0.038 9.493 0.91 -165.477
1223.9 0.064 -115.119 0.972 -0.167 0.043 49.188
          0.973 -0.019 0.06 -107.711 0.037 7.691
          0.043 50.193 0.038 8.518 0.908 -166.899
1243.45 0.066 -116.668 0.972 -0.192 0.042 50.203
          0.974 -0.087 0.062 -109.036 0.037 7.38
          0.043 50.39 0.037 7.55 0.908 -168.375
1263 0.067 -118.08 0.971 -0.178 0.042 51.321
          0.974 -0.204 0.063 -110.438 0.036 7.185
          0.042 50.663 0.037 6.686 0.909 -169.889
1282.55 0.069 -119.014 0.971 -0.158 0.042 52.18
          0.973 -0.357 0.065 -112.177 0.036 6.511
          0.042 51.405 0.036 5.732 0.908 -171.322
1302.1 0.071 -120.425 0.972 -0.13 0.042 52.635
          0.971 -0.289 0.067 -113.893 0.036 5.511
          0.041 51.774 0.035 4.529 0.908 -172.702
1321.65 0.073 -121.622 0.973 -0.125 0.042 52.757
          0.97 -0.164 0.068 -115.606 0.035 4.003
          0.041 52.2 0.035 3.329 0.907 -174.045
1341.2 0.074 -122.876 0.974 -0.166 0.041 52.949
          0.971 -0.132 0.07 -117.382 0.035 2.538
          0.041 52.723 0.034 2.313 0.907 -175.454
1360.75 0.076 -124.212 0.974 -0.225 0.041 53.214
          0.975 -0.189 0.072 -119.197 0.034 1.106
          0.04 53.328 0.034 1.317 0.908 -176.896
1380.3 0.078 -125.573 0.975 -0.265 0.041 53.363
          0.976 -0.278 0.073 -120.966 0.033 -0.517
          0.04 53.971 0.033 0.134 0.908 -178.275
1399.85 0.08 -127.069 0.975 -0.341 0.04 53.238
          0.975 -0.469 0.075 -122.393 0.033 -2.259
          0.039 54.647 0.032 -0.795 0.906 -179.494
1419.4 0.081 -128.478 0.975 -0.455 0.039 53.355
          0.972 -0.602 0.076 -123.877 0.032 -3.869
          0.039 55.49 0.031 -2.096 0.906 179.125
1438.95 0.083 -129.697 0.974 -0.6 0.038 54.181
          0.969 -0.55 0.078 -125.259 0.03 -5.177
          0.038 56.589 0.031 -3.002 0.906 177.756
1458.5 0.085 -130.867 0.972 -0.713 0.037 55.9
          0.967 -0.418 0.08 -126.744 0.029 -5.666
          0.038 57.662 0.03 -3.899 0.905 176.475
1478.05 0.088 -132.113 0.968 -0.729 0.036 58.456
          0.968 -0.328 0.082 -128.463 0.028 -5.201
          0.037 58.551 0.029 -5.083 0.904 175.257
1497.6 0.089 -133.433 0.966 -0.6 0.036 61.488
          0.972 -0.337 0.083 -130.273 0.028 -4.429
          0.037 59.458 0.028 -6.313 0.904 173.924
1517.15 0.092 -134.698 0.966 -0.439 0.037 63.199
          0.973 -0.506 0.085 -132.042 0.028 -5.439
          0.036 60.494 0.028 -7.577 0.903 172.623
1536.7 0.094 -136.227 0.968 -0.329 0.038 63.134
          0.973 -0.779 0.087 -134.033 0.028 -8.106
          0.036 61.293 0.027 -9.493 0.901 171.429
1556.25 0.095 -137.913 0.971 -0.375 0.037 62.253
          0.969 -1.02 0.088 -136.143 0.028 -11.786
          0.035 62.39 0.026 -11.625 0.899 170.272
1575.8 0.096 -139.495 0.971 -0.579 0.036 61.583
          0.962 -1.055 0.089 -138.051 0.027 -15.428
          0.035 63.87 0.025 -13.45 0.898 169.096
1595.35 0.097 -140.707 0.97 -0.838 0.035 62.111
          0.956 -0.735 0.09 -139.435 0.025 -17.847
          0.034 65.476 0.025 -14.582 0.898 167.878
1614.9 0.098 -142.104 0.964 -0.882 0.033 65.054
          0.957 -0.289 0.091 -141.371 0.023 -18.754
          0.034 67.43 0.024 -15.974 0.896 166.767
1634.45 0.099 -143.353 0.96 -0.754 0.033 68.3
          0.962 -0.174 0.092 -143.263 0.022 -19.332
          0.034 69.518 0.023 -17.783 0.895 165.714
1654 0.099 -144.078 0.959 -0.538 0.033 71.062
          0.965 -0.372 0.092 -144.996 0.022 -20.197
          0.034 70.905 0.022 -20.116 0.895 164.656
1673.55 0.1 -144.445 0.961 -0.331 0.033 73.161
          0.964 -0.629 0.092 -146.417 0.022 -21.996
          0.033 72.299 0.022 -22.689 0.897 163.561
1693.1 0.101 -144.714 0.963 -0.229 0.034 74.603
          0.959 -0.665 0.092 -147.487 0.021 -25.05
          0.033 74.467 0.021 -25.154 0.898 162.432
1712.65 0.103 -144.813 0.965 -0.292 0.034 75.322
          0.955 -0.385 0.092 -148.543 0.02 -28.778
          0.033 76.837 0.02 -27.438 0.897 161.349
1732.2 0.105 -145.516 0.965 -0.44 0.033 76.75
          0.959 -0.176 0.092 -149.577 0.019 -31.615
          0.033 78.842 0.019 -30.054 0.898 160.275
1751.75 0.109 -146.787 0.963 -0.487 0.033 78.757
          0.961 -0.106 0.091 -150.208 0.018 -34.518
          0.033 80.551 0.019 -32.489 0.898 159.167
1771.3 0.111 -148.271 0.962 -0.45 0.033 80.979
          0.962 -0.176 0.091 -150.255 0.017 -36.964
          0.033 82.395 0.018 -35.374 0.899 158.013
1790.85 0.113 -149.761 0.962 -0.377 0.033 83.275
          0.962 -0.281 0.092 -149.9 0.017 -39.067
          0.033 84.33 0.017 -38.765 0.899 156.861
1810.4 0.114 -151.286 0.962 -0.33 0.033 85.808
          0.961 -0.208 0.094 -149.753 0.016 -41.798
          0.033 85.712 0.017 -41.879 0.899 155.821
1829.95 0.115 -152.325 0.963 -0.267 0.033 88.09
          0.963 -0.039 0.096 -150 0.016 -44.932
          0.034 87.7 0.016 -45.046 0.899 154.699
1849.5 0.116 -153.183 0.963 -0.147 0.034 90.547
          0.966 -0.026 0.099 -150.575 0.016 -48.232
          0.034 89.363 0.016 -49.543 0.899 153.622
1869.05 0.118 -153.914 0.966 -0.013 0.035 92.106
          0.968 -0.134 0.102 -151.496 0.016 -52.879
          0.034 90.948 0.016 -54.424 0.899 152.564
1888.6 0.119 -154.713 0.971 0.033 0.036 92.468
          0.969 -0.304 0.104 -152.626 0.016 -59.227
          0.034 92.714 0.016 -59.342 0.899 151.519
1908.15 0.121 -155.774 0.977 -0.128 0.036 91.981
          0.969 -0.461 0.106 -153.732 0.016 -66.904
          0.034 94.76 0.015 -64.318 0.899 150.485
1927.7 0.122 -156.84 0.98 -0.601 0.035 92.096
          0.966 -0.502 0.108 -154.487 0.015 -74.192
          0.035 96.256 0.015 -69.76 0.899 149.426
1947.25 0.123 -157.616 0.977 -1.131 0.033 94.161
          0.966 -0.406 0.11 -155.159 0.014 -79.68
          0.035 98.47 0.015 -75.544 0.899 148.377
1966.8 0.125 -158.391 0.97 -1.372 0.033 98.481
          0.968 -0.326 0.112 -156.009 0.014 -82.753
          0.035 100.77 0.015 -80.875 0.899 147.357
1986.35 0.127 -159.056 0.962 -1.251 0.033 103.628
          0.971 -0.392 0.114 -156.906 0.014 -84.73
          0.036 102.877 0.015 -85.74 0.898 146.346
2005.9 0.128 -159.595 0.959 -0.847 0.035 107.89
          0.974 -0.659 0.116 -157.735 0.015 -87.563
          0.036 104.666 0.016 -90.645 0.898 145.347
2025.45 0.131 -160.336 0.963 -0.42 0.038 109.823
          0.971 -1.047 0.118 -158.574 0.016 -93.623
          0.037 106.171 0.016 -96.822 0.898 144.421
2045 0.133 -161.446 0.972 -0.447 0.039 108.512
          0.966 -0.994 0.121 -159.643 0.017 -101.368
          0.038 108.158 0.016 -101.186 0.897 143.425
2064.55 0.135 -162.315 0.978 -0.868 0.039 107.75
          0.966 -0.739 0.123 -160.628 0.017 -107.903
          0.038 110.128 0.017 -105.537 0.897 142.483
2084.1 0.137 -163.354 0.977 -1.41 0.038 108.675
          0.971 -0.729 0.125 -161.701 0.017 -112.492
          0.039 111.953 0.017 -109.963 0.897 141.559
2103.65 0.138 -164.408 0.971 -1.801 0.038 111.542
          0.975 -1.092 0.127 -162.71 0.017 -115.054
          0.041 113.398 0.018 -114.044 0.897 140.624
2123.2 0.139 -164.928 0.964 -1.823 0.038 115.737
          0.971 -1.612 0.128 -163.312 0.018 -116.165
          0.041 114.277 0.019 -117.191 0.897 139.667
2142.75 0.143 -165.388 0.959 -1.491 0.04 118.905
          0.961 -1.418 0.131 -163.868 0.019 -118.275
          0.042 116.254 0.02 -120.884 0.897 138.755
2162.3 0.145 -166.159 0.962 -1.228 0.043 120.048
          0.961 -0.791 0.134 -164.793 0.021 -121.699
          0.043 118.412 0.02 -123.378 0.896 137.827
2181.85 0.148 -167.266 0.967 -1.236 0.045 120.231
          0.972 -0.631 0.137 -165.886 0.022 -125.792
          0.044 120.147 0.022 -125.766 0.896 136.96
2201.4 0.15 -168.534 0.97 -1.443 0.046 120.257
          0.983 -1.214 0.139 -167.038 0.023 -129.705
          0.046 120.96 0.023 -128.714 0.896 136.067
2220.95 0.151 -169.668 0.97 -1.695 0.046 120.798
          0.982 -2.32 0.14 -168.072 0.024 -132.654
          0.047 120.892 0.024 -132.258 0.896 135.077
2240.5 0.152 -170.181 0.968 -1.913 0.047 122.348
          0.964 -2.84 0.141 -168.48 0.025 -134.253
          0.048 121.636 0.025 -134.803 0.897 134.177
2260.05 0.155 -170.679 0.968 -2.067 0.048 123.546
          0.949 -2.205 0.143 -168.805 0.026 -136.343
          0.048 123.542 0.026 -136.224 0.897 133.274
2279.6 0.158 -171.36 0.969 -2.215 0.049 124.337
          0.949 -1.348 0.147 -169.455 0.027 -138.474
          0.049 125.694 0.027 -137.312 0.897 132.427
2299.15 0.161 -172.324 0.967 -2.435 0.05 125.223
          0.961 -0.86 0.15 -170.425 0.028 -140.206
          0.051 127.347 0.029 -138.407 0.896 131.608
2318.7 0.164 -173.478 0.963 -2.7 0.05 126.658
          0.975 -1.058 0.153 -171.572 0.029 -141.227
          0.053 128.144 0.03 -139.863 0.896 130.779
2338.25 0.165 -174.507 0.957 -2.839 0.051 128.901
          0.984 -1.903 0.154 -172.637 0.03 -141.432
          0.055 128.269 0.032 -142.065 0.896 129.908
2357.8 0.167 -174.963 0.953 -2.7 0.053 131.21
          0.978 -2.847 0.155 -173.05 0.032 -141.446
          0.056 128.169 0.033 -144.49 0.895 129.121
2377.35 0.169 -175.465 0.952 -2.515 0.055 132.299
          0.965 -3.439 0.157 -173.485 0.034 -142.435
          0.057 128.351 0.035 -146.445 0.897 128.245
2396.9 0.172 -176.108 0.953 -2.465 0.058 132.541
          0.95 -3.354 0.16 -173.972 0.035 -144.155
          0.058 129.242 0.035 -147.594 0.897 127.407
2416.45 0.175 -176.901 0.954 -2.584 0.059 132.682
          0.939 -2.564 0.163 -174.52 0.037 -145.841
          0.058 130.874 0.037 -147.833 0.897 126.62
2436 0.179 -177.818 0.952 -2.787 0.06 133.545
          0.943 -1.389 0.167 -175.16 0.038 -146.637
          0.06 132.898 0.038 -147.467 0.896 125.835
2455.55 0.182 -178.938 0.948 -2.746 0.062 135.267
          0.965 -1.178 0.169 -176.179 0.04 -146.839
          0.063 134.086 0.041 -148.449 0.897 125.027
2475.1 0.185 -179.677 0.947 -2.438 0.066 135.989
          0.981 -2.244 0.172 -176.76 0.043 -147.67
          0.066 133.514 0.043 -150.136 0.896 124.263
2494.65 0.188 179.411 0.953 -2.254 0.069 135.046
          0.979 -3.5 0.175 -177.417 0.046 -150.123
          0.067 132.757 0.045 -152.161 0.896 123.48
2514.2 0.19 178.416 0.962 -2.462 0.071 132.975
          0.964 -4.256 0.177 -178.156 0.048 -153.625
          0.068 132.569 0.046 -153.702 0.896 122.716
2533.75 0.191 177.594 0.969 -3.158 0.071 130.992
          0.945 -4.183 0.178 -178.769 0.048 -156.966
          0.068 133.251 0.047 -154.308 0.895 121.98
2553.3 0.194 177.259 0.965 -4.161 0.068 131.103
          0.936 -3.549 0.18 -178.826 0.047 -158.364
          0.069 134.511 0.048 -154.553 0.897 121.181
2572.85 0.198 176.697 0.95 -4.728 0.066 134.445
          0.937 -2.95 0.184 -179.162 0.046 -155.986
          0.071 135.726 0.05 -154.889 0.896 120.393
2592.4 0.201 175.724 0.934 -4.594 0.068 138.455
          0.945 -2.478 0.188 -179.904 0.048 -152.806
          0.074 136.597 0.052 -154.832 0.896 119.643
2611.95 0.204 174.822 0.926 -4.004 0.073 141.065
          0.958 -2.498 0.191 179.344 0.052 -151.05
