!Hittite Microwave Corporation								
!12 Elizabeth Drive								
!Chelmsford, MA 01824								
!Tel: 978-250-3343								
!Fax: 978-250-3373								
!Device: HMC224MS8, 5-6 GHz GaAs MMIC SPDT Switch in 8 lead plastic surface mount Mini Small Outline Package								
!Misc: Port 1 = RFC, Port 2 = RF1, Port 3 =RF2, RF1 Selected, Vdd=+5V							
!
# MHZ S MA R 50

2000 0.591 -148.536 0.469 59.06 0.683 20.385
          0.48 61.374 0.607 -129.218 0.601 29.744
          0.693 21.718 0.61 31.11 0.407 -127.596
2035.928 0.576 -152.162 0.464 62.259 0.673 20.55
          0.469 61.206 0.592 -132.278 0.595 30.117
          0.674 19.821 0.594 29.484 0.382 -129.531
2071.856 0.567 -155.827 0.494 63.186 0.695 19.464
          0.485 63.139 0.582 -135.488 0.615 29.162
          0.689 19.83 0.611 29.534 0.361 -131.98
2107.784 0.557 -160.048 0.504 60.485 0.699 16.146
          0.495 60.582 0.569 -139.235 0.622 26.015
          0.694 15.49 0.616 25.282 0.333 -135.072
2143.713 0.543 -163.903 0.487 60.179 0.68 14.139
          0.476 62.135 0.552 -142.446 0.609 24.079
          0.659 15.301 0.588 25.512 0.307 -136.336
2179.641 0.535 -167.601 0.489 62.496 0.675 13.484
          0.509 63.998 0.541 -145.778 0.606 23.477
          0.697 15.253 0.627 25.4 0.288 -138.607
2215.569 0.526 -171.849 0.508 62.635 0.68 11.983
          0.512 59.918 0.529 -149.552 0.612 22.263
          0.69 9.539 0.619 19.641 0.262 -141.402
2251.497 0.515 -175.72 0.514 61.797 0.677 10.082
          0.486 61.979 0.516 -153.113 0.614 20.426
          0.645 9.954 0.582 20.405 0.238 -142.117
2287.425 0.509 -179.608 0.521 61.782 0.675 8.375
          0.515 64.561 0.506 -156.69 0.614 18.674
          0.673 10.66 0.612 21.166 0.222 -143.845
2323.353 0.502 176.079 0.528 60.84 0.671 6.423
          0.534 62.039 0.496 -160.508 0.613 16.917
          0.684 6.491 0.624 16.966 0.2 -146.169
2359.281 0.494 171.851 0.52 60.36 0.661 4.526
          0.521 60.456 0.485 -164.601 0.606 15.079
          0.654 3.659 0.6 14.241 0.177 -146.778
2395.21 0.486 167.999 0.519 61.305 0.651 3.216
          0.508 62.709 0.474 -168.088 0.601 13.767
          0.629 4.228 0.58 14.986 0.159 -146.004
2431.138 0.482 164.191 0.526 61.533 0.646 1.728
          0.541 64.807 0.467 -171.837 0.597 12.276
          0.657 4.5 0.608 15.26 0.146 -146.906
2467.066 0.479 159.749 0.525 61.799 0.635 0.058
          0.56 60.816 0.46 -176.023 0.589 10.818
          0.663 -0.767 0.616 9.947 0.125 -147.575
2502.994 0.472 155.893 0.533 63.478 0.623 -0.896
          0.526 60.295 0.449 -179.718 0.581 10.046
          0.613 -2.571 0.572 8.174 0.11 -143.5
2538.922 0.47 152.36 0.562 62.981 0.621 -1.635
          0.531 63.688 0.444 176.751 0.583 9.247
          0.608 -0.883 0.569 10.009 0.101 -140.89
2574.85 0.47 148.592 0.562 59.957 0.623 -3.526
          0.56 63.595 0.44 172.808 0.586 7.256
          0.624 -2.54 0.586 8.499 0.089 -138.749
2610.778 0.469 144.468 0.538 59.996 0.613 -5.979
          0.571 61.504 0.435 168.71 0.577 4.974
          0.621 -5.903 0.587 5.198 0.077 -132.508
2646.707 0.466 140.661 0.541 62.304 0.594 -7.266
          0.548 60.054 0.428 164.794 0.563 3.985
          0.585 -8.452 0.556 2.707 0.072 -121.463
2682.635 0.464 137.401 0.559 62.238 0.586 -8.041
          0.541 63.98 0.424 161.45 0.559 3.116
          0.567 -6.266 0.542 5.196 0.075 -114.398
2718.563 0.467 134.103 0.555 61.45 0.582 -9.761
          0.589 63.813 0.422 157.865 0.554 1.452
          0.601 -7.973 0.575 3.174 0.073 -108.826
2754.491 0.466 130.379 0.551 62.762 0.566 -11.629
          0.575 59.959 0.418 153.877 0.543 -0.016
          0.573 -12.946 0.549 -1.354 0.078 -97.71
2790.419 0.464 127.481 0.568 63.825 0.55 -12.466
          0.555 62.236 0.414 150.477 0.532 -0.79
          0.542 -11.997 0.524 -0.357 0.089 -94.908
2826.347 0.466 124.635 0.582 63.092 0.543 -13.126
          0.575 63.391 0.412 147.301 0.528 -1.475
          0.546 -12.494 0.531 -0.875 0.096 -93.224
2862.275 0.466 121.837 0.587 62.399 0.536 -14.219
          0.585 63.271 0.411 143.954 0.524 -2.509
          0.54 -13.941 0.527 -2.192 0.105 -91.825
2898.204 0.467 119.107 0.588 61.242 0.532 -15.362
          0.597 62.173 0.41 140.744 0.522 -3.542
          0.536 -16.352 0.524 -4.493 0.115 -91.126
2934.132 0.468 116.064 0.569 60.827 0.531 -17.704
          0.581 61.475 0.41 137.064 0.523 -5.832
          0.508 -18.209 0.502 -5.807 0.127 -91.132
2970.06 0.465 113.327 0.558 63.818 0.51 -20.767
          0.587 63.901 0.404 134.035 0.505 -8.773
          0.5 -17.296 0.5 -5.349 0.14 -92.674
3005.988 0.464 111.096 0.589 66.337 0.479 -21.446
          0.605 62.982 0.403 131.304 0.477 -9.068
          0.501 -19.397 0.499 -7.645 0.153 -94.243
3041.916 0.464 109.089 0.622 64.474 0.469 -20.264
          0.603 62.959 0.403 128.792 0.471 -7.911
          0.485 -20.83 0.484 -8.654 0.167 -97.127
3077.844 0.466 106.804 0.614 62.347 0.473 -21.262
          0.61 62.379 0.404 125.897 0.478 -8.911
          0.476 -22.646 0.478 -10.192 0.177 -99.444
3113.772 0.465 104.4 0.604 63.147 0.464 -23.651
          0.596 62.899 0.402 122.879 0.471 -11.203
          0.451 -23.483 0.46 -10.689 0.192 -102.269
3149.701 0.463 102.469 0.612 63.579 0.45 -24.839
          0.622 64.906 0.401 120.398 0.459 -12.313
          0.455 -22.966 0.466 -10.775 0.203 -105.401
3185.629 0.464 100.496 0.608 63.554 0.442 -26.672
          0.633 61.896 0.401 117.883 0.454 -13.825
          0.448 -27.076 0.455 -14.362 0.217 -107.823
3221.557 0.461 98.428 0.612 65.6 0.42 -28.992
          0.605 63.035 0.397 115.142 0.435 -16.033
          0.415 -27.23 0.431 -14.056 0.235 -111.305
3257.485 0.459 97.069 0.646 65.924 0.396 -28.534
          0.63 64.953 0.394 113.221 0.414 -15.435
          0.416 -26.815 0.436 -14.37 0.248 -115.222
3293.413 0.46 95.51 0.656 63.349 0.396 -27.554
          0.641 63.575 0.394 111.156 0.416 -14.462
          0.407 -29.262 0.426 -16.216 0.261 -118.213
3329.341 0.46 93.766 0.636 62.96 0.398 -30.124
          0.644 63.406 0.394 108.677 0.42 -16.895
          0.394 -30.619 0.416 -17.421 0.275 -121.283
3365.269 0.457 92.073 0.638 64.854 0.376 -32.766
          0.635 63.172 0.391 106.36 0.402 -19.281
          0.374 -32.193 0.399 -18.259 0.291 -124.297
3401.198 0.453 90.833 0.659 64.912 0.358 -32.78
          0.646 65.771 0.388 104.444 0.386 -19.282
          0.365 -30.756 0.397 -17.518 0.305 -127.918
3437.126 0.452 89.754 0.661 64.262 0.351 -33.666
          0.684 63.359 0.386 102.683 0.381 -19.822
          0.369 -33.902 0.395 -21.124 0.319 -130.72
3473.054 0.45 88.318 0.666 65.048 0.335 -35.223
          0.64 62.041 0.385 100.461 0.369 -21.309
          0.333 -36.426 0.363 -21.387 0.336 -133.901
3508.982 0.445 87.431 0.686 64.776 0.318 -34.908
          0.659 66.815 0.38 98.684 0.354 -21.09
          0.326 -33.196 0.37 -19.488 0.349 -137.457
3544.91 0.443 86.714 0.69 63.743 0.312 -35.1
          0.706 63.38 0.377 97.094 0.351 -20.932
          0.333 -36.916 0.366 -23.866 0.362 -140.258
3580.838 0.441 85.692 0.693 63.855 0.302 -36.258
          0.662 62.225 0.376 95.059 0.343 -22.094
          0.3 -39.16 0.338 -23.716 0.378 -143.354
3616.766 0.437 84.809 0.705 62.833 0.293 -35.712
          0.673 65.687 0.372 93.271 0.336 -21.723
          0.29 -36.849 0.339 -22.312 0.39 -146.298
3652.695 0.434 83.812 0.685 61.603 0.298 -37.566
          0.707 64.872 0.369 91.378 0.344 -23.341
          0.288 -38.016 0.336 -24.644 0.404 -148.978
3688.623 0.429 82.969 0.666 64.462 0.282 -43.473
          0.715 63.104 0.364 89.428 0.33 -28.789
          0.278 -40.4 0.323 -26.538 0.416 -151.4
3724.551 0.423 82.015 0.71 67.775 0.24 -44.225
          0.692 62.341 0.357 87.572 0.287 -29.457
          0.257 -42.087 0.302 -26.577 0.433 -154.176
3760.479 0.417 82.452 0.772 65.124 0.223 -37.577
          0.694 65.755 0.351 87.101 0.271 -23.301
          0.243 -39.489 0.3 -24.461 0.444 -157.245
3796.407 0.417 81.673 0.764 60.466 0.237 -34.535
          0.752 64.418 0.351 85.317 0.29 -20.253
          0.249 -40.831 0.301 -27.656 0.455 -159.659
3832.335 0.416 81.184 0.722 59.868 0.245 -38.457
          0.722 61.249 0.351 83.579 0.304 -23.959
          0.228 -44.444 0.278 -28.601 0.467 -162.163
3868.263 0.409 79.952 0.71 61.67 0.232 -42.817
          0.719 64.331 0.343 80.839 0.293 -28.229
          0.213 -41.898 0.276 -26.896 0.478 -164.489
3904.192 0.403 79.857 0.715 63.432 0.214 -45.634
          0.75 63.119 0.335 79.657 0.274 -30.656
          0.211 -43.176 0.269 -29.142 0.489 -166.722
3940.12 0.397 79.304 0.743 64.835 0.19 -45.841
          0.734 63.134 0.328 77.932 0.248 -30.978
          0.195 -43.596 0.256 -28.408 0.5 -169.057
3976.048 0.392 79.647 0.783 63.321 0.176 -41.299
          0.764 63.505 0.322 77.01 0.235 -26.677
          0.191 -43.088 0.253 -29.352 0.51 -171.329
4011.976 0.391 79.434 0.777 60.246 0.181 -38.95
          0.756 61.217 0.32 75.599 0.246 -24.486
          0.179 -45.476 0.238 -29.933 0.519 -173.482
4047.904 0.387 78.552 0.749 60.722 0.18 -43.234
          0.748 63.129 0.315 72.92 0.248 -28.805
          0.166 -43.599 0.234 -28.469 0.527 -175.481
4083.832 0.378 78.881 0.768 62.563 0.159 -45.009
          0.781 62.832 0.305 71.816 0.225 -30.418
          0.163 -43.375 0.23 -30.042 0.535 -177.481
4119.76 0.375 79.011 0.797 60.84 0.15 -40.736
          0.783 61.782 0.3 70.537 0.217 -26.524
          0.154 -44.23 0.22 -30.213 0.544 -179.558
4155.689 0.371 78.907 0.776 59.011 0.154 -40.875
          0.791 60.961 0.296 68.658 0.227 -26.786
          0.146 -44.717 0.212 -30.752 0.551 178.488
4191.617 0.366 78.428 0.762 60.582 0.145 -45.264
          0.77 60.678 0.291 66.262 0.22 -31.233
          0.133 -44.822 0.203 -29.306 0.558 176.721
4227.545 0.356 78.808 0.787 61.294 0.129 -44.734
          0.793 63.101 0.278 64.6 0.2 -31.082
          0.127 -41.49 0.204 -29.159 0.565 174.899
4263.473 0.353 79.347 0.796 60.066 0.123 -42.638
          0.832 60.094 0.273 63.914 0.197 -29.097
          0.126 -43.79 0.194 -31.893 0.571 173.162
4299.401 0.35 79.011 0.793 60.117 0.117 -43.513
          0.789 58.859 0.27 61.463 0.192 -30.413
          0.112 -44.959 0.182 -29.469 0.577 171.433
4335.329 0.342 79.473 0.809 60.033 0.107 -42.392
          0.802 61.394 0.258 59.414 0.181 -29.768
          0.106 -41.225 0.184 -29.061 0.582 169.675
4371.257 0.338 80.014 0.811 58.641 0.104 -40.286
          0.829 59.726 0.252 58.248 0.181 -28.187
          0.103 -41.717 0.177 -30.678 0.586 167.981
4407.186 0.333 80.229 0.801 58.969 0.099 -42.292
          0.823 58.747 0.247 56.226 0.178 -30.608
          0.095 -41.602 0.169 -29.925 0.591 166.378
4443.114 0.326 80.782 0.823 59.63 0.087 -41.395
          0.822 58.337 0.239 54.41 0.162 -30.487
          0.088 -41.237 0.163 -29.328 0.596 164.755
4479.042 0.322 81.284 0.842 57.343 0.082 -35.414
          0.818 58.998 0.233 52.872 0.16 -25.749
          0.081 -38.966 0.16 -28.483 0.599 163.082
4514.97 0.317 81.109 0.81 55.703 0.086 -35.509
          0.847 58.535 0.226 50.343 0.173 -26.412
          0.078 -37.886 0.156 -29.945 0.603 161.51
4550.898 0.314 81.511 0.788 57.757 0.08 -41.661
          0.832 56.537 0.223 48.243 0.169 -33.172
          0.071 -38.584 0.147 -28.636 0.606 160.029
4586.826 0.304 81.852 0.815 59.319 0.067 -42.02
          0.827 58.32 0.21 44.852 0.148 -34.968
          0.065 -34.4 0.148 -27.697 0.609 158.466
4622.754 0.303 83.659 0.839 58.787 0.058 -37.608
          0.863 57.297 0.202 44.621 0.136 -32.13
          0.063 -33.698 0.141 -29.777 0.611 156.983
4658.683 0.301 83.789 0.857 58.061 0.052 -33.361
          0.839 55.368 0.197 42.195 0.129 -29.817
          0.056 -33.65 0.134 -27.567 0.615 155.385
4694.611 0.295 85.068 0.877 56.012 0.049 -25.816
          0.837 57.051 0.189 41.011 0.126 -24.784
          0.051 -28.791 0.135 -27.242 0.617 153.79
4730.539 0.292 85.001 0.854 53.219 0.051 -21.289
          0.861 56.043 0.186 38.827 0.137 -21.989
          0.048 -26.914 0.129 -28.368 0.619 152.257
4766.467 0.288 84.958 0.81 54.062 0.051 -25.453
          0.854 55.264 0.183 35.495 0.147 -28.114
          0.043 -24.245 0.125 -27.305 0.62 150.75
4802.395 0.282 85.953 0.819 56.815 0.042 -29.454
          0.859 54.918 0.173 32.496 0.131 -35.221
          0.04 -20.744 0.121 -27.407 0.622 149.241
4838.323 0.279 86.853 0.856 56.712 0.034 -21.665
          0.852 54.513 0.165 30.497 0.114 -32.066
          0.036 -17.325 0.118 -26.609 0.623 147.699
4874.251 0.277 87.844 0.861 55.166 0.032 -14.062
          0.862 54.754 0.16 28.673 0.113 -28.851
          0.033 -11.826 0.116 -27.022 0.625 146.156
4910.18 0.275 88.642 0.862 55.056 0.029 -9.713
          0.867 53.484 0.155 26.357 0.109 -29.752
          0.03 -7.19 0.111 -26.663 0.625 144.624
4946.108 0.271 89.538 0.879 54.331 0.026 -0.597
          0.859 53.692 0.148 24.001 0.103 -27.423
          0.027 -0.481 0.11 -26.351 0.627 143.059
4982.036 0.269 90.119 0.876 52.667 0.025 8.618
          0.876 53.001 0.144 22.316 0.104 -24.688
          0.026 6.287 0.105 -27.291 0.628 141.433
5017.964 0.265 90.567 0.861 52.366 0.024 14.321
          0.858 51.963 0.143 19.73 0.106 -26.446
          0.023 13.516 0.103 -25.447 0.628 139.802
5053.892 0.26 91.341 0.863 52.398 0.023 22.21
          0.861 53.122 0.136 16.262 0.102 -27.645
          0.022 24.742 0.102 -26.87 0.628 138.254
5089.82 0.259 92.161 0.857 51.874 0.022 31.641
          0.884 51.672 0.131 14.202 0.101 -27.778
          0.022 32.595 0.096 -27.287 0.629 136.601
5125.749 0.258 92.44 0.85 52.672 0.022 37.051
          0.861 50.66 0.13 9.937 0.098 -31.945
          0.022 42.375 0.095 -25.616 0.629 134.919
5161.677 0.253 93.896 0.873 53.284 0.021 45.149
          0.862 51.48 0.12 7.36 0.086 -33.152
          0.022 51.912 0.093 -27.098 0.629 133.269
5197.605 0.254 94.949 0.896 51.613 0.021 59.196
          0.871 50.787 0.116 6.392 0.081 -27.352
          0.023 59.021 0.09 -27.515 0.629 131.592
5233.533 0.252 95.353 0.881 49.76 0.024 68.708
          0.871 50.383 0.115 3.996 0.086 -25.313
          0.024 66.354 0.087 -27.831 0.63 129.867
5269.461 0.251 95.926 0.868 50.08 0.026 72.089
          0.871 49.531 0.112 0.95 0.086 -29.157
          0.026 72.271 0.085 -27.989 0.63 128.187
5305.389 0.248 96.901 0.878 50.037 0.026 77.449
          0.859 49.632 0.108 -1.901 0.08 -29.865
          0.027 77.808 0.084 -28.709 0.631 126.451
5341.317 0.248 97.903 0.877 48.948 0.028 84.293
          0.872 49.756 0.104 -4.124 0.079 -28.777
          0.029 83.382 0.081 -30.496 0.631 124.657
5377.246 0.247 98.363 0.864 48.86 0.031 87.097
          0.869 48.401 0.103 -6.478 0.079 -31.235
          0.031 87.2 0.078 -30.102 0.631 122.856
5413.174 0.244 98.987 0.869 48.992 0.032 90.072
          0.858 48.709 0.098 -10.348 0.075 -33.418
          0.033 91.506 0.077 -32.061 0.632 121.024
5449.102 0.246 99.591 0.872 48.353 0.034 94.939
          0.872 48.436 0.095 -12.728 0.072 -33.447
          0.036 95.522 0.073 -33.558 0.632 119.244
5485.03 0.245 99.801 0.867 48.367 0.037 96.497
          0.864 47.427 0.093 -15.812 0.071 -36.316
          0.038 98.34 0.072 -33.823 0.632 117.419
5520.958 0.244 100.672 0.881 48.417 0.037 99.599
          0.862 47.781 0.088 -18.768 0.065 -37.572
          0.04 101.339 0.07 -36.539 0.632 115.6
5556.886 0.245 100.729 0.892 46.799 0.039 106.303
          0.868 47.166 0.085 -20.792 0.063 -34.716
          0.042 103.616 0.067 -38.067 0.633 113.697
5592.814 0.244 100.987 0.873 45.391 0.044 110.02
          0.862 46.748 0.083 -22.871 0.066 -35.41
          0.044 105.892 0.066 -39.656 0.634 111.865
5628.743 0.243 101.44 0.856 45.883 0.048 109.017
          0.865 46.411 0.08 -27.113 0.066 -41.381
          0.046 108.166 0.064 -41.801 0.635 109.993
5664.671 0.243 101.949 0.863 46.218 0.048 109.784
          0.858 45.891 0.077 -30.899 0.062 -45.488
          0.048 110.191 0.062 -44.245 0.636 108.155
5700.599 0.242 102.393 0.865 45.586 0.05 112.719
          0.859 46.091 0.072 -34.832 0.06 -47.16
          0.051 112.59 0.061 -47.945 0.638 106.247
5736.527 0.243 102.534 0.862 45.38 0.053 113.871
          0.864 45.276 0.067 -38.474 0.058 -50.828
          0.053 114.25 0.059 -50.215 0.638 104.443
5772.455 0.244 102.713 0.869 45.077 0.053 116.026
          0.854 44.984 0.062 -42.505 0.056 -53.449
          0.056 115.605 0.058 -54 0.64 102.554
5808.383 0.246 102.911 0.87 43.956 0.057 120.14
          0.86 44.864 0.059 -46.475 0.056 -54.854
          0.058 117.822 0.056 -57.982 0.641 100.757
5844.311 0.246 103.202 0.857 43.432 0.062 120.98
          0.856 43.97 0.056 -51.268 0.057 -59.58
          0.06 118.915 0.056 -61.347 0.642 98.903
5880.24 0.245 103.487 0.854 43.631 0.063 120.268
          0.852 44.009 0.051 -58.764 0.056 -65.99
          0.063 120.589 0.056 -66.41 0.644 97.113
5916.168 0.246 103.564 0.86 43.131 0.064 122.642
          0.857 43.527 0.046 -64.889 0.054 -69.374
          0.066 121.582 0.055 -70.626 0.646 95.311
5952.096 0.247 103.345 0.855 42.346 0.068 124.914
          0.85 42.98 0.043 -71.612 0.056 -72.919
          0.068 122.586 0.055 -75.287 0.648 93.535
5988.024 0.25 103.349 0.849 42.162 0.072 125.22
          0.851 42.73 0.041 -82.929 0.057 -78.749
          0.071 124.23 0.055 -80.225 0.65 91.835
6023.952 0.253 103.434 0.849 41.741 0.073 126.682
          0.847 42.108 0.038 -94.76 0.057 -83.446
          0.073 125.619 0.056 -84.804 0.652 90.15
6059.88 0.256 103.559 0.844 41.168 0.077 128.341
          0.844 42.085 0.038 -108.415 0.059 -87.849
          0.075 127.158 0.058 -89.576 0.653 88.49
6095.808 0.258 103.803 0.839 41.039 0.081 127.781
          0.849 41.303 0.038 -123.076 0.061 -93.956
          0.079 127.786 0.059 -93.873 0.656 86.78
6131.737 0.261 103.901 0.842 40.782 0.081 128.246
          0.839 40.648 0.041 -135.624 0.061 -98.982
          0.081 128.457 0.062 -98.501 0.658 85.158
6167.665 0.264 104.004 0.842 39.925 0.083 130.943
          0.839 40.66 0.046 -146.898 0.063 -101.822
          0.084 129.772 0.064 -103.444 0.66 83.645
6203.593 0.266 103.761 0.834 39.354 0.088 132.107
          0.839 39.819 0.052 -158.391 0.068 -105.816
          0.087 130.459 0.067 -107.233 0.662 82.162
6239.521 0.269 103.726 0.83 39.098 0.091 131.967
          0.83 39.36 0.059 -166.743 0.071 -110.842
          0.089 131.366 0.07 -111.682 0.665 80.682
6275.449 0.273 103.649 0.828 38.451 0.093 133.492
          0.83 39.09 0.068 -173.62 0.075 -114.04
          0.093 132.721 0.074 -115.3 0.667 79.256
6311.377 0.277 103.4 0.82 37.885 0.098 134.774
          0.827 38.325 0.078 -179.156 0.08 -117.284
          0.095 133.214 0.078 -118.97 0.669 77.887
6347.305 0.281 103.114 0.814 37.759 0.103 133.812
          0.822 37.826 0.09 176.173 0.086 -122.653
          0.098 134.257 0.082 -122.34 0.67 76.548
6383.234 0.285 102.599 0.815 37.456 0.104 133.118
          0.817 37.308 0.102 171.622 0.088 -127.064
          0.101 134.887 0.087 -125.795 0.672 75.264
6419.162 0.291 102.046 0.814 36.801 0.104 134.339
          0.814 36.989 0.114 167.869 0.091 -129.575
          0.105 135.995 0.091 -128.693 0.674 74.036
6455.09 0.297 101.331 0.809 36.064 0.107 135.977
          0.813 36.208 0.128 164.656 0.096 -131.624
          0.108 136.309 0.097 -131.257 0.676 72.81
6491.018 0.303 100.726 0.803 35.354 0.11 137.659
          0.802 35.422 0.141 161.935 0.101 -133.376
          0.11 136.873 0.102 -134.447 0.678 71.687
6526.946 0.309 100.327 0.794 34.748 0.116 138.844
          0.797 35.28 0.157 159.426 0.109 -135.369
          0.114 138.078 0.107 -136.742 0.68 70.646
6562.874 0.315 99.75 0.786 34.431 0.122 138.467
          0.795 34.591 0.173 156.363 0.118 -138.729
          0.118 138.378 0.114 -138.863 0.681 69.655
6598.802 0.323 99.331 0.783 34.038 0.125 137.133
          0.786 33.751 0.189 154.108 0.123 -143.081
