!Hittite Microwave Corporation								
!12 Elizabeth Drive								
!Chelmsford, MA 01824								
!Tel: 978-250-3343								
!Fax: 978-250-3373								
!Device: HMC253QS24, DC-2.5 GHz GaAS MMIC SP8T Non-Reflective Switch in 24-lead QSOP package								
!Misc: Port 1 = RFCom, Port 2 = RF1, Port 3 = RF2, Port 4 = RF3, Port 5 = RF4, Port 6 = RF5, Port 7 = RF6, Port 8 = RF7, Port 9 = RF8, RF7 selected, Vdd=+5V							
!
# MHZ S MA R 50

30	0.675	41.225	0.005091	-168.808	0.0006075	24.416	0.001399	-131.658
	0.003302	-56.397	0.00237	17.059	0.002219	112.075	0.663	-44.305
	0.004979	46.03	0.0007004	-102.645	0.722	-49.42	0.002644	74.381
	0.003663	50.256	0.001541	40.941	0.002158	-90.39	0.001966	146.661
	0.001092	-52.649	0.0009969	114.495	0.003772	19.039	0.001976	-0.852
	0.719	-49.966	0.002231	-0.717	0.002464	-27.688	0.0005771	-63.044
	0.003761	34.905	0.00164	85.495	0.001524	63.39	0.002017	8.148
	0.0003018	128.213	0.006286	-23.852	0.709	-50.277	0.004955	40.701
	0.005694	-56.286	0.00003139	-45.889	0.001172	108.22	0.001042	-176.44
	0.002782	141.716	0.001014	14.988	0.0002636	165.88	0.0004319	23.464
	0.704	-50.112	0.00007381	60.811	0.002683	16.013	0.00323	69.323
	0.0007915	54.033	0.002366	20.073	0.001544	45.29	0.00004432	179.806
	0.0002179	66.93	0.004144	-69.415	0.702	-50.585	0.005683	-103.219
	0.002894	54.815	0.0009354	-65.259	0.004921	11.721	0.00377	-9.995
	0.001607	82.079	0.001131	-165.978	0.002659	29.283	0.003282	-84.853
	0.706	-51.113	0.00449	65.41	0.0003721	1.998	0.663	-44.033
	0.001589	-155.583	0.0008217	-23.106	0.002556	61.485	0.001141	-43.258
	0.004359	7.6	0.004445	57.631	0.674	41.152	0.004209	33.045
	0.001177	171.717	0.0007163	16.159	0.001518	-23.923	0.0007432	37.164
	0.0006374	-65.145	0.000782	156.775	0.0002812	-162.814	0.003299	17.647
	0.721	-49.201						
49.85	0.475	51.507	0.004357	-178.377	0.0005167	25.489	0.00145	-136.319
	0.002849	-33.527	0.002013	16.839	0.00175	108.353	0.793	-30.195
	0.00427	48.958	0.0003831	-101.709	0.721	-48.354	0.001998	127.042
	0.002584	5.262	0.001146	-0.233	0.001452	107.359	0.00138	-123.309
	0.0009187	-35.383	0.0007615	-158.024	0.003397	31.778	0.001511	13.147
	0.719	-49	0.001711	12.845	0.001738	-159.879	0.0004453	-27.839
	0.002632	3.548	0.0009836	112.792	0.001031	-155.955	0.001844	-6.216
	0.0002626	-133.052	0.004532	-4.954	0.712	-49.338	0.00365	53.451
	0.003836	-144.793	0.00004781	-13.707	0.000476	152.26	0.0006645	30.136
	0.001666	127.059	0.0006544	-52.689	0.0001307	-168.268	0.0005294	38.231
	0.708	-49.408	0.0001983	25.97	0.001755	-29.433	0.003201	97.36
	0.000519	-6.342	0.002363	23.565	0.00111	167.842	0.00005286	39.399
	0.00007476	105.258	0.002711	-61.104	0.707	-49.715	0.003707	-94.685
	0.002545	60.907	0.0007085	-23.287	0.004813	18.738	0.002549	129.514
	0.001082	-72.957	0.0008601	-170.656	0.001786	74.577	0.002528	-54.562
	0.71	-49.872	0.003721	73.388	0.0003023	-156.988	0.793	-29.952
	0.001329	-162.733	0.0005596	-32.191	0.002227	43.179	0.0007938	-39.434
	0.003983	18.327	0.004335	62.089	0.475	51.259	0.004041	37.621
	0.0009594	169.565	0.0005281	-18.8	0.001109	11.239	0.0004717	-145.634
	0.0004874	-30.119	0.0004618	134.741	0.0002498	-165.253	0.003398	35.174
	0.72	-48.224						
69.7	0.355	55.136	0.003797	165.243	0.0005202	27.12	0.001388	-155.484
	0.00246	-15.467	0.002003	16.403	0.001728	93.951	0.842	-22.766
	0.003909	46.647	0.00008292	-95.464	0.692	-50.607	0.001707	174.502
	0.00203	-45.1	0.0009559	-47.094	0.00106	-60.271	0.00108	-38.406
	0.0008556	-22.491	0.0006584	-75.653	0.002974	40.749	0.001312	22.017
	0.692	-51.384	0.001485	20.944	0.001351	63.11	0.0003824	2.465
	0.002042	-33.28	0.0007559	129.023	0.0007491	-20.176	0.001485	-20.099
	0.0002573	-40.465	0.003659	8.455	0.686	-51.757	0.003034	60.717
	0.002818	121.129	0.00007339	7.302	0.000362	-116.869	0.000455	-129.022
	0.0006122	53.118	0.0004522	-125.527	0.00004752	-148.3	0.0006451	47.254
	0.682	-51.987	0.0003116	-9.907	0.001226	-80.342	0.002726	113.972
	0.0003646	-71.157	0.002386	26.4	0.0009046	-75.817	0.00006506	-113.099
	0.00002447	-44.06	0.0019	-58.334	0.681	-52.208	0.002596	-91.809
	0.002408	60.501	0.0006074	13.058	0.004634	23.279	0.001916	-96.585
	0.000795	126.687	0.0007407	178.792	0.00131	114.307	0.002205	-29.966
	0.684	-52.14	0.0034	72.405	0.0002396	41.724	0.842	-22.553
	0.00112	-163.647	0.0003132	-46.665	0.001797	17.751	0.0007155	-32.893
	0.003709	24.823	0.004193	61.923	0.355	54.623	0.004037	41.569
	0.000688	134.314	0.0004376	-59.121	0.0009091	41.16	0.0003049	27.179
	0.0004188	-0.68	0.0002669	106.941	0.000251	-173.944	0.00349	44.206
	0.691	-50.52						
89.55	0.28	55.627	0.003358	146.307	0.0005564	31.377	0.001286	-179.97
	0.002106	0.602	0.002077	17.753	0.001916	79.299	0.864	-18.455
	0.003686	42.501	0.0002136	69.582	0.656	-53.783	0.001514	-139.47
	0.001617	-96.958	0.0008216	-95.444	0.0007573	130.468	0.0008562	44.96
	0.0008406	-10.97	0.000591	5.104	0.002549	48.107	0.001181	29.38
	0.657	-54.699	0.001338	27.528	0.00106	-75.919	0.0003415	31.333
	0.001602	-71.719	0.0006636	131.945	0.0005385	114.43	0.001008	-34.164
	0.0002623	50.927	0.003024	20.34	0.652	-55.114	0.002599	66.318
	0.00203	25.533	0.00009558	22.048	0.0005774	-70.804	0.0002906	70.778
	0.0008783	-46.552	0.0002926	159.996	0.00002296	53.216	0.0007663	54.736
	0.648	-55.485	0.0004183	-46.913	0.0008066	-132.878	0.001912	129.664
	0.0002379	-137.322	0.002394	28.65	0.0007476	38.919	0.00007824	94.742
	0.000112	-12.264	0.001262	-57.112	0.647	-55.641	0.001721	-90.54
	0.002358	57.83	0.0005397	47.804	0.004415	26.485	0.001417	35.546
	0.000573	-35.327	0.0006635	166.597	0.0009421	152.492	0.001998	-6.976
	0.651	-55.382	0.003273	68.07	0.0002137	-125.25	0.864	-18.272
	0.0008155	-161.108	0.00007978	-69.472	0.001352	-11.081	0.0006756	-21.502
	0.003482	29.6	0.004043	59.691	0.281	54.779	0.004049	45.254
	0.0008658	83.602	0.0003737	-100.853	0.0007657	69.529	0.0001758	-162.442
	0.0003748	27.286	0.0001084	77.962	0.000261	175.632	0.003592	49.586
	0.655	-53.73						
109.4	0.231	54.496	0.002994	126.509	0.0006152	36.65	0.001171	153.046
	0.001775	15.656	0.002172	20.259	0.002202	66.507	0.876	-15.764
	0.003534	37.559	0.0005085	69.273	0.618	-57.35	0.001361	-94.104
	0.001263	-149.477	0.0007114	-144.383	0.0004888	-39.389	0.000666	127.611
	0.0008516	0.111	0.0005388	85.212	0.00214	54.685	0.001081	36.066
	0.62	-58.409	0.001224	33.476	0.0008137	144.731	0.0003096	59.499
	0.001223	-110.764	0.0005944	122.607	0.0003523	-112.229	0.0004941	-47.997
	0.0002721	141.176	0.002489	31.595	0.615	-58.868	0.002239	71.324
	0.001338	-70.76	0.0001148	37.818	0.0006901	-42.884	0.0001413	-90.386
	0.001009	-98.166	0.0001509	85.128	0.00008758	70.926	0.0008893	61.52
	0.612	-59.373	0.0005212	-84.759	0.000436	173.81	0.00115	151.821
	0.0001251	155.269	0.002394	30.48	0.0006193	153.346	0.00009094	-59.201
	0.0001941	18.005	0.0006953	-56.537	0.611	-59.473	0.0009475	-89.93
	0.002353	54.173	0.0004865	81.785	0.004182	28.895	0.0009887	167.417
	0.0003797	162.137	0.0006032	153.896	0.0006204	-169.962	0.00184	15.372
	0.614	-59.035	0.003249	62.243	0.0001821	71.638	0.876	-15.612
	0.0004303	-154.199	0.0001415	109.941	0.0009089	-42.318	0.0006327	-7.705
	0.003279	33.485	0.003897	56.379	0.233	53.268	0.004059	48.739
	0.001393	56.423	0.0003207	-143.243	0.0006464	97.319	0.0000578	8.13
	0.0003398	54.578	0.0000348	-136.155	0.0002745	164.499	0.003705	53.056
	0.617	-57.326						
129.25	0.196	52.464	0.002666	106.763	0.0006933	41.844	0.00105	124.769
	0.001458	30.172	0.002274	23.369	0.002534	55.199	0.882	-14.005
	0.003423	32.215	0.0008015	67.162	0.579	-61.124	0.001229	-49.083
	0.0009413	157.697	0.0006138	166.386	0.0002422	150.475	0.000492	-150.125
	0.0008804	10.724	0.0004943	164.925	0.001747	60.755	0.0009957	42.441
	0.581	-62.328	0.001128	39.127	0.0005854	4.894	0.0002814	87.344
	0.0008761	-150.124	0.0005305	102.746	0.0001775	21.293	0.00003721	10.001
	0.0002819	-128.902	0.002007	42.531	0.577	-62.831	0.001919	76.022
	0.0006999	-167.394	0.0001342	53.94	0.0006934	-13.971	0.000004374	110.174
	0.0008089	-155.286	0.00001826	10.123	0.000149	89.166	0.001012	67.969
	0.574	-63.468	0.0006222	-123.075	0.00009213	119.988	0.0006123	179.321
	0.0000217	86.252	0.00239	32.022	0.0005043	-92.889	0.0001045	147.032
	0.0002729	47.925	0.0001679	-56.368	0.573	-63.515	0.0002272	-89.944
	0.002373	50.041	0.00044	115.367	0.003944	30.838	0.000593	-61.461
	0.0001999	-0.854	0.0005513	140.875	0.0003228	-132.765	0.001708	37.376
	0.576	-62.906	0.003287	55.727	0.0001591	-96.317	0.882	-13.883
	0.00008339	-64.462	0.0003497	89.418	0.0004748	-77.637	0.0005815	7.178
	0.003092	36.907	0.003757	52.441	0.2	50.84	0.004067	52.089
	0.002026	41.139	0.0002736	174.084	0.0005395	124.803	0.00005191	-2.337
	0.0003098	81.563	0.0001692	-164.418	0.0002897	153.012	0.003825	55.398
	0.578	-61.127						
149.1	0.171	49.92	0.002341	87.468	0.0007878	46.256	0.0009282	95.807
	0.001153	44.396	0.002376	26.843	0.002889	44.816	0.885	-12.827
	0.00334	26.648	0.001092	64.613	0.538	-65.026	0.001108	-4.216
	0.0006381	104.723	0.0005233	116.986	0.000005529	-20.141	0.0003272	-68.06
	0.0009218	20.855	0.0004533	-115.568	0.001367	66.362	0.0009197	48.643
	0.542	-66.375	0.001041	44.591	0.0003724	-135.049	0.0002564	115.075
	0.0005492	170.34	0.0004953	73.672	0.00001441	156.218	0.000418	83.766
	0.000293	-39.02	0.001557	53.293	0.538	-66.924	0.001624	80.524
	0.00009254	95.963	0.0001538	69.881	0.0006757	20.888	0.0001282	126.713
	0.0006732	134.634	0.0001083	114.229	0.0002085	107.309	0.001135	74.247
	0.536	-67.691	0.0007224	-161.612	0.0002361	-113.567	0.00009309	-149.643
	0.00007734	-159.883	0.002384	33.362	0.0003948	20.886	0.000117	-7.394
	0.0003498	77.717	0.0003357	123.925	0.535	-67.688	0.0004601	90.849
	0.002409	45.656	0.0003971	148.69	0.003704	32.466	0.0002161	70.022
	0.00003048	-163.912	0.0005044	127.665	0.00004016	-96.366	0.00159	59.184
	0.538	-66.91	0.003364	48.889	0.0001368	99.916	0.885	-12.735
	0.0004753	8.685	0.0005494	70.838	0.00009235	-165.686	0.0005234	22.562
	0.002916	40.041	0.003622	48.112	0.176	47.914	0.004072	55.35
	0.002693	29.831	0.0002299	131.274	0.0004402	152.102	0.0001574	167.586
	0.0002826	108.33	0.0002983	165.047	0.0003058	141.326	0.003948	57.015
	0.538	-65.055						
168.95	0.153	47.093	0.001999	68.711	0.0008938	49.708	0.0008061	66.563
	0.0008556	58.512	0.002478	30.539	0.003256	34.992	0.887	-12.032
	0.003275	20.957	0.001381	61.836	0.498	-69.02	0.0009949	40.559
	0.0003473	51.626	0.0004377	67.462	0.0002208	-10.361	0.0001694	14.144
	0.0009732	30.44	0.0004147	-36.043	0.0009907	71.39	0.0008495	54.729
	0.503	-70.514	0.0009618	49.951	0.0001665	84.938	0.0002331	142.618
	0.0002355	130.73	0.000517	40.059	0.000145	107.829	0.0007871	62.602
	0.0003046	50.807	0.001127	63.95	0.499	-71.109	0.001344	84.923
	0.0004938	178.972	0.0001735	85.723	0.0007213	57.654	0.0002556	-35.223
	0.0006175	71.391	0.0002309	38.697	0.0002669	125.338	0.001257	80.425
	0.497	-72.006	0.0008217	159.769	0.0005541	-167.49	0.0005423	32.613
	0.0001736	132.218	0.002376	34.557	0.0002928	134.61	0.0001307	-161.747
	0.0004253	107.398	0.0008231	123.868	0.496	-71.953	0.001125	90.748
	0.002455	41.121	0.0003565	-178.118	0.003465	33.883	0.0001443	20.962
	0.0001347	-147.166	0.0004611	114.338	0.0002325	121.474	0.001481	80.872
	0.499	-71.01	0.003469	41.914	0.0001139	-68.047	0.887	-11.97
	0.0009254	16.147	0.0007437	52.313	0.0004007	62.917	0.0004599	38.136
	0.002747	42.996	0.003491	43.524	0.159	44.748	0.004074	58.558
	0.003376	20.099	0.0001882	88.385	0.000346	179.253	0.0002594	-22.992
	0.0002573	134.999	0.0004236	134.225	0.0003225	129.524	0.00407	58.14
	0.497	-69.074						
188.8	0.138	44.053	0.001706	56.915	0.0009183	56.673	0.000764	50.183
	0.0006397	66.475	0.002605	33.231	0.003558	27.147	0.889	-11.481
	0.003365	15.05	0.001643	61.638	0.459	-72.902	0.00088	78.043
	0.0002276	22.874	0.0003522	47.003	0.0003591	178.875	0.0001274	80.633
	0.001068	30.649	0.0003845	48.474	0.0008422	69.292	0.0007984	63.206
	0.465	-74.566	0.000905	58.706	0.0001046	17.564	0.0002883	153.44
	0.0001221	106.169	0.000636	17.469	0.0002532	-111.687	0.001016	48.153
	0.0002626	88.112	0.0007588	72.461	0.462	-75.188	0.001305	89.72
	0.0007681	115.49	0.0002217	100.075	0.0007344	73.763	0.0002692	170.119
	0.0005924	31.789	0.0002339	-18.625	0.000318	123.17	0.001402	86.855
	0.459	-76.18	0.001002	133.356	0.0007426	151.396	0.0009304	47.01
	0.000299	100.98	0.00243	31.952	0.0002015	-168.195	0.0002059	112.488
	0.0004233	132.327	0.001207	125.004	0.459	-76.1	0.001523	93.644
	0.002505	38.338	0.0002785	-168.881	0.003388	33.434	0.0003904	129.835
	0.0002659	115.924	0.0004009	111.41	0.000461	146.68	0.001415	95.393
	0.461	-75.018	0.003592	37.262	0.000209	160.546	0.889	-11.431
	0.001124	18.788	0.0007826	39.046	0.0006535	41.322	0.0005083	50.031
	0.002687	43.276	0.00353	41.447	0.146	41.49	0.004142	60.188
	0.003785	13.033	0.0002043	81.385	0.0002647	-173.362	0.0002916	105.932
	0.0002661	134.688	0.000502	113.994	0.0003766	127.185	0.004152	58.811
	0.458	-72.964						
208.65	0.127	40.719	0.001707	62.815	0.0008373	67.576	0.0008385	55.516
	0.0006451	57.796	0.002711	30.737	0.003647	24.765	0.89	-11.069
	0.003649	9.852	0.001784	66.658	0.425	-76.268	0.0008681	86.746
	0.0004171	59.352	0.0002873	81.533	0.0002282	37.58	0.0002606	95.859
	0.001222	11.717	0.0003027	123.191	0.001124	55.804	0.0008484	74.412
	0.431	-78.142	0.0009042	72.696	0.000408	108.886	0.0003977	127.261
	0.0003921	123.817	0.0008068	18.566	0.0002483	47.595	0.0009331	51.723
	0.0001868	11.863	0.0006395	76.427	0.428	-78.765	0.001782	93.58
	0.0004165	134.978	0.0003119	117.302	0.0005692	46.01	0.00009739	107.847
	0.0007618	42.027	0.00009425	1.58	0.0003849	90.613	0.001665	94.113
	0.426	-79.762	0.001326	137.326	0.0006466	140.141	0.0006408	48.631
	0.0003623	-176.115	0.002607	23.603	0.0002034	126.071	0.0003897	173.186
	0.0003712	131.908	0.001287	127.94	0.425	-79.694	0.001548	101.263
	0.00255	39.899	0.0002141	143.87	0.003646	27.258	0.000301	151.967
	0.0002967	149.009	0.000317	139.724	0.0005317	136.924	0.001582	92.446
	0.428	-78.56	0.003678	37.915	0.0004253	127.739	0.89	-10.997
	0.0008758	17.349	0.0005982	39.49	0.0005722	48.444	0.0007063	51.848
	0.002818	37.487	0.003807	42.771	0.135	38.133	0.004325	57.776
	0.003579	9.342	0.0002793	133.506	0.0002636	123.854	0.0001884	140.936
	0.0002733	92.87	0.0004841	121.802	0.0004768	141.033	0.004211	58.567
	0.424	-76.309						
228.5	0.118	37.318	0.001935	65.708	0.001036	59.071	0.0007225	36.583
	0.0006969	48.235	0.002606	23.958	0.003641	24.226	0.891	-10.799
	0.003608	5.512	0.001888	66.862	0.395	-79.348	0.001156	77.254
	0.00032	78.738	0.0002908	62.224	0.0001443	30.211	0.0001431	117.183
	0.001137	8.718	0.0001783	126.559	0.001025	58.867	0.001055	79.553
	0.401	-81.369	0.0009868	79.856	0.0006127	102.424	0.0002828	121.103
	0.000376	136.005	0.0007614	19.891	0.0003103	142.153	0.0009469	37.438
	0.0003106	25.808	0.0008632	84.566	0.398	-82.033	0.001961	93.086
	0.0005382	138.056	0.0003194	139.385	0.0005276	31.482	0.0001747	-171.266
	0.0005482	35.741	0.00029	75.871	0.0004408	110.671	0.002022	99.156
	0.396	-83.064	0.001455	132.824	0.0006583	126.341	0.0005741	30.346
	0.0001602	-131.368	0.002594	24.964	0.0003442	121.401	0.0003942	139.324
	0.0006652	116.62	0.001299	125.565	0.396	-82.963	0.002179	99.274
	0.00255	39.945	0.0003584	129.071	0.003639	21.003	0.0001857	121.82
	0.000291	102.305	0.0003552	158.789	0.0004975	119.907	0.002011	95.086
	0.398	-81.791	0.00373	35.635	0.0002885	116.035	0.891	-10.76
	0.001063	15.72	0.0007344	34.27	0.0006959	28.834	0.0005621	43.286
	0.002773	34.073	0.003731	36.798	0.126	34.646	0.004373	56.981
	0.003725	2.124	0.0001957	102.104	0.0003125	74.52	0.0001865	-165
	0.0001462	113.042	0.0004561	119.863	0.0004543	124.239	0.00447	57.049
	0.394	-79.409						
248.35	0.11	33.779	0.002032	61.631	0.001123	57.572	0.0008024	44.836
	0.0006874	30.136	0.00269	22.25	0.003578	20.973	0.892	-10.604
	0.003854	-2.562	0.00202	64.124	0.369	-82.101	0.001313	84.495
	0.0003573	55.914	0.0003211	72.41	0.000346	112.27	0.0003057	-176.883
	0.001015	9.278	0.0003973	107.228	0.0012	62.856	0.001349	91.203
	0.376	-84.284	0.001112	86.561	0.0006364	107.16	0.0004903	129.079
	0.0004876	123.218	0.0007185	23.886	0.0003921	101.608	0.000906	32.446
	0.0003335	72.905	0.001202	90.963	0.372	-84.942	0.002153	94.117
	0.0006245	145.27	0.0002859	115.771	0.000585	41.536	0.0001407	149.649
	0.000588	29.233	0.0002561	90.825	0.0004258	102.202	0.002311	99.356
	0.371	-86.061	0.001602	126.037	0.0006568	133.896	0.0006528	41.71
	0.0002455	108.701	0.002583	21.462	0.0003168	94.959	0.0004253	125.133
	0.0007498	135.928	0.001458	121.651	0.371	-85.894	0.00241	96.846
	0.002499	37.289	0.000362	136.493	0.003653	21.524	0.0003441	133.427
	0.0003574	140.105	0.000473	132.245	0.0006131	119.401	0.002282	99.079
	0.373	-84.666	0.003847	33.463	0.0004579	106.74	0.891	-10.577
	0.001059	5.758	0.0006102	25.173	0.0005491	54.116	0.0006182	31.348
	0.002836	32.394	0.003945	37.304	0.12	31.145	0.004556	58.505
	0.003742	-1.474	0.0003848	112.572	0.0001711	127.688	0.0001955	-172.148
	0.0002678	97.868	0.0004338	105.83	0.0005232	106.932	0.004714	55.946
	0.368	-82.161						
268.2	0.104	30.114	0.002053	59.937	0.00128	63.454	0.0008992	50.65
	0.0006174	18.716	0.002907	22.215	0.003638	17.912	0.892	-10.526
	0.003795	-6.204	0.001812	59.555	0.346	-84.665	0.001324	93.335
	0.0004404	51.149	0.000405	103.618	0.0003386	99.568	0.0005908	172.181
	0.001316	4.699	0.0004848	101.447	0.001283	63.084	0.001724	91.495
	0.353	-87.009	0.001074	76.988	0.0007114	117.567	0.0004105	163.168
	0.0004923	118.197	0.000621	5.848	0.0004007	105.792	0.0009477	42.468
	0.0004808	106.126	0.001424	86.825	0.349	-87.718	0.002479	93.67
	0.0005537	138.541	0.0001787	83.412	0.0004616	48.107	0.0001789	118.642
	0.0007212	24.394	0.0003358	101.704	0.0007557	99.735	0.002676	100.121
	0.349	-88.889	0.001747	123.226	0.0007204	128.84	0.0005297	52.914
	0.0002736	105.936	0.002907	17.656	0.000254	104.773	0.0006586	119.843
	0.0007851	122.491	0.00161	123.244	0.349	-88.667	0.002736	101.007
	0.002625	31.657	0.000503	119.612	0.003642	19.695	0.0004717	131.747
	0.0003624	96.262	0.0004308	114.646	0.0007728	128.668	0.002649	98.246
	0.351	-87.411	0.00376	34.281	0.0006794	121.863	0.891	-10.453
	0.001084	1.707	0.0007839	24.247	0.0004453	50.97	0.0006822	44.423
	0.002791	32.809	0.003822	35.602	0.114	27.685	0.004758	57.89
	0.00376	-6.733	0.0006356	116.184	0.0001662	78.517	0.0003475	151.37
	0.000363	123.96	0.0006776	113.748	0.0006246	122.141	0.004854	56.44
	0.345	-84.729						
288.05	0.099	26.31	0.001994	60.923	0.001074	54.839	0.0009181	49.052
	0.0005573	37.669	0.002797	16.8	0.003721	16.106	0.892	-10.507
	0.003951	-6.39	0.001966	64.538	0.325	-86.978	0.001538	99.747
	0.000495	93.53	0.0003934	111.338	0.0003518	149.997	0.0004046	146.587
	0.001214	5.297	0.0004089	97.96	0.001113	57.259	0.001797	91.632
	0.333	-89.496	0.001474	91.585	0.0007273	104.623	0.0004268	148.025
	0.0004373	119.849	0.0006888	11.475	0.000482	118.723	0.0009811	35.912
	0.000297	135.062	0.001438	90.626	0.329	-90.206	0.002756	100.484
	0.0007358	121.404	0.0003149	106.682	0.0004856	32.077	0.0002141	91.196
	0.0006705	31.614	0.0003232	116.246	0.0008432	113.57	0.002897	98.174
	0.329	-91.437	0.001819	117.791	0.0008373	120.061	0.0004173	57.258
	0.0002864	135.242	0.002906	17.504	0.0003858	119.587	0.0006984	115.335
	0.0009247	116.433	0.001922	122	0.329	-91.205	0.002745	103.252
	0.002525	30.492	0.0003689	107.206	0.003485	16.858	0.0002955	138.266
	0.0002429	90.247	0.0003739	119.857	0.0008096	112.342	0.002811	98.056
	0.331	-89.82	0.003827	36.156	0.0007008	124.835	0.892	-10.43
	0.001174	-3.571	0.0007855	13.494	0.000655	25.399	0.0007544	51.809
	0.002628	30.302	0.003944	36.224	0.11	24.145	0.004903	57.021
	0.004024	-9.564	0.0006502	112.976	0.0002937	90.341	0.0003569	72.057
	0.0003864	127.108	0.0004845	120.847	0.0005848	126.736	0.004921	58.981
	0.325	-87.039						
307.9	0.095	22.79	0.002154	65.675	0.00105	53.127	0.0007868	34.44
	0.0007454	26.184	0.002653	14.767	0.003732	15.046	0.892	-10.504
