!Hittite Microwave Corporation								
!12 Elizabeth Drive								
!Chelmsford, MA 01824								
!Tel: 978-250-3343								
!Fax: 978-250-3373								
!Device: HMC252QS24, DC-3 GHz GaAS MMIC SP6T Non-Reflective Switch in 24-lead QSOP package								
!Misc: Port 1 = RFCom, Port 2 = RF1, Port 3 = RF2, Port 4 = RF3, Port 5 = RF4, Port 6 = RF5, Port 7 = RF6, RF1 selected, Vdd=+5V							
!
# MHZ S MA R 50

30	0.704	40.632	0.667	-46.795	0.001088	83.318	0.0009233	86.416
	0.0009034	86.292	0.001101	84.949	0.001195	83.849	0.668	-46.795
	0.705	40.5	0.001151	87.118	0.0008824	91.677	0.0008766	87.671
	0.001016	87.402	0.001061	87.139	0.001136	82.383	0.001107	86.931
	0.917	-20.227	0.0005791	56.161	0.00004735	23.556	0.00003354	7.804
	0.00004653	8.822	0.0009391	84.229	0.0008747	93.311	0.0005346	55.758
	0.916	-20.721	0.00005161	81.887	0.00005022	-18.062	0.00005485	67.672
	0.0008946	87.346	0.0008567	89.531	0.00001453	-67.376	0.00004225	-68.418
	0.917	-20.585	0.000504	54.128	0.00003259	168.328	0.001071	83.534
	0.00101	87.811	0.00003562	12.792	0.00003048	107.603	0.0004673	58.451
	0.918	-20.192	0.0002249	64.349	0.001212	83.896	0.001073	85.402
	0.00002906	93.275	0.00003006	-5.145	0.00001339	41.434	0.0002847	60.452
	0.916	-20.523						
47.35	0.53	51.068	0.797	-34.688	0.001775	72.965	0.00155	76.652
	0.00154	77.021	0.001812	75.845	0.002039	76.286	0.797	-34.682
	0.532	50.844	0.001886	80.044	0.001465	80.34	0.001417	80.867
	0.001615	77.107	0.00167	77.158	0.001828	72.791	0.001869	79.862
	0.854	-30.108	0.0007172	45.926	0.0000257	38.168	0.00004244	-72.09
	0.00004063	3.459	0.001546	76.168	0.001462	80.559	0.0007272	43.875
	0.852	-30.776	0.00006604	84.265	0.00004398	-129.814	0.00004145	26.403
	0.001511	76.392	0.001398	79.411	0.00003343	-81.436	0.00002149	175.042
	0.853	-30.641	0.0006325	41.526	0.00003894	-169.138	0.001813	75.92
	0.001603	78.166	0.00001741	83.053	0.00003231	161.224	0.0006393	46.856
	0.855	-30.088	0.0003121	55.94	0.002018	76.073	0.001669	74.644
	0.00004577	132.702	0.00001929	-40.811	0.00001277	154.484	0.0003496	53.015
	0.851	-30.51						
64.7	0.413	56.329	0.855	-27.738	0.002418	63.331	0.002094	66.517
	0.002105	66.938	0.002453	66.358	0.002766	68.75	0.856	-27.745
	0.415	56.018	0.002556	72.337	0.001936	70.304	0.001881	69.3
	0.002157	68.054	0.00218	64.852	0.002401	62.472	0.002549	72.526
	0.784	-38.662	0.000738	35.012	0.00004475	92.922	0.00007335	-169.36
	0.00002956	63.152	0.00207	66.593	0.001956	68.731	0.0007487	37.372
	0.78	-39.406	0.00007123	134.463	0.0000342	136.923	0.00004041	10.488
	0.002092	66.935	0.001852	69.21	0.00005119	-155.137	0.0000345	99.998
	0.781	-39.266	0.0006558	34.432	0.00003697	107.428	0.002461	66.577
	0.00211	67.073	0.0000267	99.258	0.00005264	-161.952	0.0006697	36.746
	0.785	-38.62	0.0003872	53.055	0.002743	68.592	0.002196	64.727
	0.00005392	131.273	0.00002749	46.282	0.00003873	164.67	0.0003843	52.378
	0.781	-39.101						
82.05	0.333	58.836	0.884	-23.521	0.0029	53.429	0.002506	56.779
	0.002544	58	0.002974	58.359	0.003323	61.286	0.885	-23.484
	0.336	58.456	0.003062	64.727	0.00235	60.152	0.00224	59.564
	0.002579	58.29	0.002616	55.479	0.002855	53.187	0.00309	63.948
	0.715	-46.01	0.0006792	30.154	0.00006376	147.785	0.00007938	114.343
	0.00004258	126.265	0.002537	56.488	0.002333	60.188	0.0006589	30.168
	0.711	-46.82	0.00007441	137.117	0.0000411	136.72	0.00008431	128.367
	0.002529	58.029	0.00227	60.61	0.00004004	112.65	0.00004784	141.003
	0.711	-46.633	0.0005895	30.567	0.00005719	119.923	0.002971	58.595
	0.002571	58.093	0.00005868	146.584	0.00004478	169.651	0.0005693	34.011
	0.714	-45.88	0.0003845	57.042	0.003341	60.707	0.002608	54.336
	0.00005848	164.873	0.00003745	113.083	0.00008408	138.031	0.0004384	55.059
	0.711	-46.434						
99.4	0.277	59.806	0.902	-20.734	0.003279	45.157	0.002838	49.954
	0.002859	50.029	0.003389	52.499	0.003777	55.916	0.902	-20.731
	0.28	59.289	0.003465	59.096	0.002621	53.019	0.002511	52.885
	0.002871	50.426	0.00292	46.716	0.00325	45.336	0.003438	59.371
	0.652	-52.174	0.0005777	35.378	0.00008295	139.843	0.00004574	154.358
	0.00005667	107.09	0.002854	48.72	0.00262	52.913	0.0005752	35.017
	0.647	-53.01	0.00008338	142.723	0.00004636	150.585	0.00007891	152.728
	0.002845	50.458	0.002537	52.603	0.00007967	142.789	0.00008581	134.975
	0.647	-52.793	0.0005287	31.76	0.00008723	116.594	0.003374	51.676
	0.002872	51.107	0.00004528	126.408	0.00006215	170.978	0.0005096	36.259
	0.651	-51.991	0.0003818	67.942	0.00374	55.629	0.002926	46.198
	0.00005651	120.429	0.0000836	157.543	0.0001229	132.983	0.0004096	70.475
	0.647	-52.581						
116.75	0.235	59.741	0.912	-18.919	0.00351	38.526	0.003088	42.382
	0.00311	43.754	0.003671	45.996	0.00412	51.66	0.912	-18.911
	0.239	59.137	0.003751	54.942	0.002873	47.751	0.002756	45.169
	0.003152	45.203	0.003152	39.399	0.003517	38.747	0.003774	54.853
	0.595	-57.22	0.0005157	47.358	0.00009852	128.021	0.0001055	150.995
	0.0000626	151.766	0.003085	42.817	0.002817	48.042	0.0005367	47.587
	0.591	-58.079	0.0001479	138.841	0.0000751	150.187	0.00007733	148.724
	0.003087	44.424	0.002738	45.738	0.0001068	124.683	0.0001383	146.354
	0.59	-57.878	0.000506	49.119	0.0001464	126.614	0.003647	46.609
	0.003136	44.625	0.00005428	122.251	0.00009924	146.48	0.0004559	48.713
	0.594	-57.062	0.0004484	77.279	0.004113	51.509	0.003162	39.086
	0.00005102	139.882	0.00007519	164.829	0.0001895	129.8	0.0004551	77.996
	0.59	-57.648						
134.1	0.202	59.004	0.919	-17.672	0.003734	32.717	0.003249	36.569
	0.003308	39.234	0.003906	41.898	0.004381	48.35	0.918	-17.642
	0.207	58.304	0.00401	51.135	0.003042	42.83	0.002933	39.669
	0.003355	39.395	0.00332	33.361	0.003749	32.567	0.003996	51.327
	0.544	-61.61	0.0005495	68.003	0.0001145	119.506	0.00008128	150.886
	0.00008572	141.654	0.003248	37.413	0.003036	42.682	0.0005504	65.654
	0.541	-62.485	0.0001779	131.896	0.0001142	121.38	0.00007759	146.764
	0.003287	38.916	0.002913	40.186	0.0001016	121.622	0.0001724	143.882
	0.54	-62.257	0.0004983	65.644	0.0002051	129.179	0.003917	42.182
	0.003311	39.265	0.0001122	131.671	0.0000998	151.05	0.0005101	70.23
	0.543	-61.456	0.0005253	86.358	0.00437	47.71	0.003325	32.856
	0.00009	143.854	0.00009452	149.19	0.0002273	123.723	0.000532	84.454
	0.539	-62.085						
151.45	0.176	57.681	0.922	-16.838	0.003923	27.534	0.003402	32.254
	0.003428	35.037	0.004079	38.333	0.004568	45.373	0.923	-16.83
	0.182	56.895	0.004213	48.002	0.003155	38.367	0.003048	35.374
	0.003485	34.429	0.003472	28.272	0.003899	27.389	0.004201	48.675
	0.501	-65.436	0.0006229	82.274	0.0001552	128.742	0.00009825	145.21
	0.00008458	133.042	0.003395	32.874	0.003169	37.822	0.0006342	80.23
	0.497	-66.277	0.0002197	131.045	0.000152	119.081	0.0001066	136.132
	0.003432	34.383	0.003038	35.684	0.0001487	133.564	0.0002213	135.565
	0.497	-66.055	0.0005969	83.352	0.000255	126.184	0.004097	38.155
	0.003464	34.203	0.0001287	128.176	0.0001118	145.002	0.0005929	86.135
	0.5	-65.197	0.0006158	92.811	0.004575	44.876	0.003461	27.752
	0.0001208	137.689	0.00008943	139.548	0.000265	122.615	0.0006169	89.057
	0.496	-65.878						
168.8	0.155	55.893	0.925	-16.311	0.004034	22.885	0.003515	28.493
	0.003511	31.041	0.004213	34.812	0.004713	43.052	0.926	-16.324
	0.161	55.033	0.004375	46.152	0.003241	34.862	0.003128	31.821
	0.003564	30.214	0.003598	23.479	0.004016	22.85	0.004369	46.704
	0.463	-68.737	0.0007343	90.861	0.0001635	135.365	0.0001374	132.966
	0.0001105	127.871	0.003526	28.702	0.003247	34.219	0.00079	91.069
	0.459	-69.552	0.0002768	130.597	0.0001769	125.677	0.000125	126.278
	0.003544	30.505	0.003125	31.943	0.0001944	139.25	0.0002882	128.562
	0.459	-69.389	0.0007395	95.682	0.0003112	121.182	0.004218	34.861
	0.003588	29.941	0.0001378	118.06	0.0001384	133.076	0.0006954	93.92
	0.461	-68.501	0.0007328	95.154	0.004739	42.889	0.003566	23.403
	0.0001244	126.318	0.00009724	138.228	0.0003056	121.363	0.0007238	93.641
	0.458	-69.154						
186.15	0.137	53.761	0.927	-15.987	0.004091	18.776	0.003584	24.867
	0.003604	27.768	0.004329	31.875	0.004843	41.433	0.928	-15.984
	0.144	52.836	0.00451	45.212	0.003312	32.252	0.003195	28.586
	0.003627	26.55	0.003663	18.853	0.004148	18.662	0.004483	45.078
	0.429	-71.585	0.0008987	97.673	0.0001518	128.462	0.0001628	118.785
	0.0001671	117.953	0.003621	24.692	0.003335	31.75	0.0009618	97.92
	0.426	-72.427	0.0003322	125.739	0.0001891	120.79	0.000129	120.985
	0.003625	27.327	0.003209	28.586	0.0002092	130.589	0.0003485	122.384
	0.426	-72.298	0.0008885	99.25	0.000366	115.764	0.004327	32.24
	0.003678	26.712	0.0001691	113.786	0.0001683	127.795	0.0008578	97.967
	0.428	-71.486	0.0008615	95.74	0.004866	41.422	0.003647	19.282
	0.0001322	117.774	0.0001353	131.619	0.0003395	117.528	0.0008471	97.718
	0.424	-72.034						
203.5	0.121	51.294	0.928	-15.777	0.004177	15.285	0.003674	21.825
	0.003704	25.287	0.004422	29.933	0.004963	39.877	0.929	-15.767
	0.13	50.343	0.004603	43.843	0.003367	29.723	0.003249	25.171
	0.003706	23.924	0.003678	15.011	0.004261	15.031	0.004604	43.599
	0.4	-74.095	0.001105	100.8	0.0002131	124.735	0.0001994	109.516
	0.0001737	116.934	0.003677	21.532	0.003418	29.406	0.001086	97.764
	0.398	-74.967	0.000373	121.397	0.0002121	122.462	0.0001676	110.521
	0.003661	25.221	0.003308	25.317	0.0002415	122.206	0.0003766	113.693
	0.397	-74.781	0.001093	100.343	0.0003923	110.444	0.00441	29.602
	0.003764	23.832	0.0001829	111.975	0.0002025	121.9	0.001086	101.861
	0.398	-74.063	0.0009685	98.495	0.00499	40.31	0.003739	15.187
	0.0001845	119.288	0.0001514	112.339	0.0003776	117.272	0.0009592	97.97
	0.394	-74.553						
220.85	0.108	48.407	0.929	-15.723	0.004237	12.056	0.003739	19.132
	0.003744	22.454	0.004498	28.451	0.005064	39.029	0.929	-15.713
	0.118	47.45	0.004656	42.427	0.003434	27.437	0.003277	22.745
	0.003823	21.053	0.003777	11.895	0.004275	12.001	0.00471	42.689
	0.374	-76.332	0.001306	101.579	0.0002471	112.529	0.0002084	115.485
	0.0001735	112.548	0.003708	18.893	0.003431	26.388	0.001307	99.72
	0.373	-77.135	0.0003786	117.652	0.0003092	115.825	0.0001721	116.533
	0.003759	21.922	0.003351	22.583	0.0001994	105.058	0.0003939	114.95
	0.371	-77.084	0.001258	102.516	0.0004463	110.598	0.004478	27.564
	0.003793	21.046	0.0001896	116.514	0.0002376	121.654	0.001215	104.733
	0.372	-76.319	0.001089	97.553	0.005101	38.981	0.003811	11.433
	0.0002099	111.91	0.0001455	110.673	0.0004979	112.053	0.001122	99.498
	0.37	-76.801						
238.2	0.097	45.243	0.931	-15.697	0.004304	8.716	0.003741	16.715
	0.003792	20.32	0.004509	26.529	0.005138	38.298	0.93	-15.713
	0.107	44.361	0.00476	41.663	0.003469	25.16	0.003335	21.499
	0.003861	19.097	0.003788	8.876	0.004341	8.629	0.004765	41.659
	0.352	-78.353	0.001466	101.733	0.0002613	114.688	0.0002405	113.92
	0.0002388	112.086	0.003747	16.339	0.003472	24.747	0.001489	99.716
	0.351	-79.092	0.000426	115.177	0.0002783	114.753	0.0001623	110.647
	0.003772	19.518	0.003341	20.935	0.0002223	114.033	0.0004652	111.708
	0.349	-79.057	0.001424	102.667	0.0004996	112.051	0.004514	26.004
	0.003799	18.818	0.0002234	103.869	0.0002433	115.159	0.001452	103.392
	0.349	-78.42	0.001228	97.745	0.005182	37.795	0.003818	8.806
	0.0002111	112.986	0.000216	116.133	0.0004876	108.499	0.001252	96.34
	0.347	-78.791						
255.55	0.087	41.573	0.932	-15.745	0.004376	6.283	0.003758	14.532
	0.003828	18.419	0.004581	25.106	0.005215	37.75	0.931	-15.758
	0.098	40.942	0.004876	41.604	0.003507	23.381	0.003364	18.675
	0.003885	16.743	0.003858	6.465	0.004347	5.989	0.004846	41.236
	0.332	-80.16	0.001692	100.8	0.0002843	110.845	0.000289	114.107
	0.0002693	108.958	0.003769	13.981	0.003471	22.681	0.001686	99.748
	0.332	-80.887	0.0005125	114.274	0.0002979	116.998	0.0001921	109.282
	0.003812	17.446	0.003373	18.355	0.0002716	107.541	0.0005245	113.063
	0.329	-80.836	0.001647	102.918	0.0005558	109.433	0.004559	24.607
	0.003807	16.648	0.0002488	106.553	0.0002695	109.313	0.001657	103.128
	0.33	-80.25	0.00137	96.589	0.00525	37.542	0.003864	6.081
	0.0002217	109.194	0.0002216	115.333	0.0005449	108.977	0.00139	97
	0.328	-80.541						
272.9	0.078	37.326	0.932	-15.866	0.0044	3.718	0.003811	12.355
	0.003864	16.814	0.004588	23.773	0.005315	37.355	0.931	-15.894
	0.09	37.169	0.004961	41.212	0.003524	21.62	0.00336	16.507
	0.003898	14.658	0.003922	3.454	0.004395	3.434	0.004933	41.159
	0.315	-81.728	0.001887	100.105	0.0003104	109.947	0.0003045	109.613
	0.0002464	104.166	0.003795	12.271	0.003494	21.308	0.001878	100.456
	0.314	-82.44	0.0005406	111.779	0.0003191	111.39	0.0002087	109.137
	0.003823	16.198	0.0034	16.392	0.0003127	109.789	0.0005602	108.226
	0.312	-82.444	0.001831	101.846	0.0005994	105.981	0.004608	23.345
	0.003851	14.809	0.0002563	107.724	0.0003088	107	0.001841	102.031
	0.312	-81.871	0.001455	96.25	0.005295	36.992	0.003899	3.194
	0.0002435	105.875	0.000217	110.311	0.0005966	108.805	0.001491	96.792
	0.31	-82.164						
290.25	0.07	32.577	0.932	-16.061	0.004405	0.753	0.003845	10.204
	0.003881	15.134	0.004632	22.132	0.005381	37.08	0.931	-16.105
	0.083	33.088	0.005042	40.694	0.00351	20.102	0.003403	14.952
	0.003893	12.759	0.003967	0.403	0.004446	0.908	0.004991	40.815
	0.299	-83.165	0.002058	99.465	0.0003367	110.223	0.000289	105.354
	0.0002424	102.748	0.003811	10.118	0.003526	20.051	0.00206	100.59
	0.298	-83.818	0.0005705	108.362	0.0003262	106.29	0.0002375	105.967
	0.003848	14.598	0.003406	14.653	0.000337	111.311	0.0005837	106.051
	0.296	-83.925	0.002021	101.387	0.0006485	105.965	0.004641	22.206
	0.003888	12.861	0.0002687	110.178	0.0003433	109.577	0.002033	101.176
	0.296	-83.375	0.001567	95.853	0.005361	36.768	0.003923	0.684
	0.0002578	105.003	0.0002281	113.791	0.0006415	106.636	0.001575	96.276
	0.294	-83.625						
307.6	0.063	27.333	0.931	-16.323	0.004424	-1.959	0.003834	8.17
	0.003884	13.457	0.004697	20.683	0.005411	36.88	0.932	-16.379
	0.077	28.692	0.005112	40.583	0.003507	18.95	0.003464	13.158
	0.003901	10.809	0.003992	-2.239	0.004476	-1.39	0.005047	40.541
	0.284	-84.503	0.002228	98.724	0.0003567	107.703	0.0002951	103.63
	0.0002801	102.216	0.003817	7.701	0.003544	18.544	0.002252	99.866
	0.284	-85.093	0.0006091	105.548	0.0003228	107.26	0.0002522	104.025
	0.003883	12.708	0.003414	12.674	0.0003522	106.518	0.0006007	108.39
	0.282	-85.288	0.002228	101.64	0.0006876	106.429	0.004663	21.013
	0.003902	10.996	0.0003073	110.221	0.0003549	110.748	0.002234	100.908
	0.281	-84.795	0.001719	95.537	0.00545	36.891	0.003941	-1.646
	0.0002723	106.859	0.0002392	118.614	0.0006892	103.39	0.001686	95.79
	0.279	-84.923						
324.95	0.058	21.394	0.93	-16.634	0.004458	-3.794	0.003808	6.163
	0.003902	12.02	0.004673	20.067	0.005451	36.736	0.932	-16.704
	0.072	23.94	0.005142	40.878	0.003544	17.876	0.003467	10.949
	0.003939	8.795	0.003996	-4.602	0.004494	-3.447	0.005139	40.915
	0.271	-85.684	0.002404	98.211	0.0003609	103.08	0.000349	101.467
	0.0003193	97.204	0.003829	6.276	0.003548	17.151	0.00246	99.214
	0.271	-86.261	0.0006194	104.216	0.0003273	110.057	0.0002111	109.077
	0.003883	11.555	0.003452	10.839	0.0003767	103.044	0.0006273	107.349
	0.269	-86.513	0.002394	100.669	0.0006955	102.454	0.00469	19.682
	0.003922	9.653	0.0003695	101.741	0.000348	104.45	0.002414	100.241
	0.268	-86.088	0.001839	96.065	0.005514	36.657	0.003955	-4.232
	0.000305	109.666	0.0002353	109.378	0.0007372	101.385	0.001836	94.549
	0.267	-86.105						
342.3	0.053	14.566	0.931	-16.951	0.004474	-5.754	0.003819	3.768
	0.003923	10.017	0.004683	19.244	0.005474	36.687	0.932	-17.021
	0.068	19.184	0.005186	40.602	0.003507	16.431	0.003527	9.858
	0.003909	6.883	0.003981	-6.475	0.004448	-5.793	0.005197	40.644
	0.259	-86.715	0.002597	98.088	0.0003461	104.04	0.0003394	98.868
	0.0003489	96.368	0.003844	5.375	0.003535	16.103	0.002615	98.728
	0.259	-87.229	0.000705	104.54	0.0003776	108.906	0.0002196	110.296
	0.00388	10.304	0.003494	10.046	0.0004347	103.053	0.0007306	104.243
	0.257	-87.599	0.002514	98.819	0.0007405	102.006	0.004688	18.774
	0.003969	7.807	0.0004207	104.473	0.0003736	102.284	0.002552	99.216
	0.256	-87.191	0.001916	94.897	0.005522	36.533	0.004	-5.947
	0.0003208	107.393	0.0002695	106.132	0.0007908	103.49	0.001953	94.013
	0.255	-87.137						
359.65	0.049	7.461	0.93	-17.263	0.004504	-7.789	0.003848	2.833
	0.003845	8.868	0.004707	18.042	0.005537	36.967	0.931	-17.315
	0.064	14.296	0.005199	41.037	0.003521	14.874	0.003484	8.406
	0.003892	6.053	0.003952	-8.792	0.004498	-8.619	0.005213	41.217
	0.248	-87.665	0.002799	97.214	0.0003974	99.237	0.0003961	101.981
	0.0003197	103.028	0.00381	2.965	0.003459	15.849	0.002795	98.466
	0.248	-88.084	0.0007687	99.379	0.0003892	96.066	0.0002715	110.317
	0.003872	9.169	0.003431	8.799	0.0003992	103.265	0.0007497	102.593
	0.246	-88.515	0.002766	98.721	0.0008075	101.281	0.004657	18.34
	0.003967	6.016	0.0003559	104.927	0.0003961	106.937	0.002731	97.824
	0.246	-88.24	0.002063	95.047	0.005536	36.737	0.003968	-8.268
	0.0003158	95.945	0.0002759	109.135	0.0008368	101.792	0.002069	94.353
	0.244	-88.115						
377	0.046	-0.379	0.93	-17.588	0.004552	-10.098	0.003822	1.644
	0.003876	7.529	0.004711	17.542	0.005553	37.237	0.93	-17.638
	0.061	9.157	0.005304	41.442	0.003537	13.974	0.003428	7.171
	0.003924	4.965	0.00398	-10.644	0.004478	-9.715	0.005254	41.227
	0.238	-88.538	0.002991	97.244	0.000404	103.244	0.0004132	100.844
	0.0003242	106.632	0.0038	1.386	0.003523	14.364	0.002989	97.955
	0.238	-88.979	0.0007837	100.185	0.0004036	97.627	0.0003132	110.442
	0.003899	7.629	0.003417	7.113	0.0004247	102.698	0.0007682	105.363
	0.236	-89.452	0.002888	98.207	0.0008495	99.533	0.00467	17.803
	0.003927	4.311	0.0003835	107.97	0.0004179	106.3	0.002865	97.102
	0.236	-89.309	0.002124	94.782	0.005589	36.768	0.003972	-10.914
	0.0003202	96.461	0.0002816	115.316	0.0008443	101.618	0.002128	95.319
	0.234	-88.991						
394.35	0.044	-8.591	0.929	-17.925	0.004534	-11.708	0.003788	0.078
	0.003876	6.82	0.004676	17.428	0.00561	37.246	0.929	-17.994
	0.059	3.794	0.005334	41.817	0.003512	13.296	0.003411	6.133
	0.003929	3.753	0.00398	-12.702	0.004476	-11.81	0.005322	41.703
	0.229	-89.351	0.003144	96.775	0.0004612	104.664	0.0004017	105.255
	0.0003535	104.802	0.003814	0.312	0.003506	13.15	0.003148	96.748
	0.229	-89.745	0.0008173	103.228	0.0004416	106.632	0.0003284	105.109
	0.003891	6.442	0.003379	5.807	0.0004543	100.53	0.0008078	101.758
	0.227	-90.37	0.003032	97.837	0.0008788	100.655	0.004653	17.307
	0.003899	3.151	0.0004163	107.567	0.0004608	101.684	0.003006	97.217
	0.227	-90.286	0.002275	94.97	0.00561	37.046	0.003989	-12.765
	0.0003426	101.615	0.0003054	107.062	0.0008812	102.564	0.002282	95.35
	0.225	-89.768						
411.7	0.043	-17.073	0.929	-18.257	0.004524	-13.463	0.003794	-1.46
	0.003863	5.893	0.004641	16.909	0.005678	37.486	0.93	-18.347
	0.057	-1.529	0.005336	42.152	0.003505	12.646	0.003397	4.771
	0.003914	2.586	0.003981	-14.82	0.004508	-14.121	0.005369	42.16
	0.221	-90.093	0.003315	96.225	0.0005077	104.199	0.0004196	102.307
	0.0003749	102.201	0.003828	-1.11	0.00349	11.956	0.00334	96.081
	0.22	-90.494	0.0008694	104.616	0.0004994	108.111	0.0003258	102.491
	0.003856	5.053	0.003382	4.664	0.0005	100.679	0.0008704	99.13
	0.219	-91.095	0.003219	97.454	0.0009324	102.153	0.004646	16.46
	0.003896	1.916	0.0004476	104.448	0.0005047	100.027	0.00323	97.414
	0.218	-91.153	0.002429	94.864	0.005634	37.505	0.004007	-14.628
	0.0003802	104.569	0.0003429	101.739	0.0009632	101.416	0.00244	94.673
	0.216	-90.448						
429.05	0.042	-25.525	0.93	-18.61	0.004538	-15.555	0.00381	-2.65
	0.003849	4.461	0.004644	16.189	0.005734	37.982	0.93	-18.734
	0.056	-6.829	0.00537	42.535	0.003495	11.991	0.003388	3.307
	0.003901	1.334	0.004011	-16.765	0.004535	-15.919	0.005394	42.569
	0.213	-90.801	0.003509	96.038	0.0005324	102.153	0.0004607	97.41
	0.0004085	100.61	0.0038	-2.856	0.003476	10.71	0.003545	95.805
	0.212	-91.2	0.000931	103.075	0.0005264	104.01	0.0003326	102.412
	0.003822	3.569	0.003403	3.619	0.0005399	101.323	0.0009489	99.115
	0.211	-91.78	0.003433	96.782	0.000995	101.196	0.004658	15.76
	0.00389	0.461	0.0004698	101.687	0.0005349	99.881	0.003444	96.898
