!Hittite Microwave Corporation								
!12 Elizabeth Drive								
!Chelmsford, MA 01824								
!Tel: 978-250-3343								
!Fax: 978-250-3373								
!Device: HMC253QS24, DC-2.5 GHz GaAS MMIC SP8T Non-Reflective Switch in 24-lead QSOP package								
!Misc: Port 1 = RFCom, Port 2 = RF1, Port 3 = RF2, Port 4 = RF3, Port 5 = RF4, Port 6 = RF5, Port 7 = RF6, Port 8 = RF7, Port 9 = RF8, RF2 selected, Vdd=+5V							
!
# MHZ S MA R 50

30	0.677	40.672	0.004359	14.256	0.664	-43.919	0.00121	81.674
	0.002503	92.934	0.0007639	-81.813	0.0002704	-116.094	0.0009103	28.082
	0.003673	16.395	0.004049	72.29	0.713	-48.592	0.004486	64.788
	0.001848	69.894	0.001199	-143.02	0.00418	-91.535	0.002235	177.587
	0.002477	-100.044	0.0002924	57.426	0.664	-43.568	0.002407	59.362
	0.675	41.209	0.001502	44.761	0.0004691	-31.327	0.002447	-128.592
	0.0005017	74.637	0.0007423	-37.639	0.001662	78.987	0.002638	64.114
	0.002429	141.385	0.003341	70.313	0.716	-50.541	0.001167	-149.842
	0.0004071	146.979	0.005486	51.811	0.0009011	167.41	0.002971	76.377
	0.005327	26.75	0.0003373	-36.153	0.0007724	3.951	0.009104	-126.961
	0.709	-51.342	0.001587	41.012	0.0008644	121.467	0.005538	-22.575
	0.000659	77.663	0.002518	45.329	0.0003436	-21.894	0.001272	105.632
	0.004085	177.27	0.006372	66.441	0.697	-51.853	0.0004386	-135.255
	0.001823	-74.299	0.002252	70.033	0.0002073	36.034	0.001163	-133.851
	0.0003929	-52.957	0.0009258	134.605	0.002697	66.343	0.0005463	169.242
	0.71	-50.174	0.0003349	-114.712	0.0001658	-32.92	0.001194	65.517
	0.002249	-57.267	0.0003873	113.834	0.002436	93.856	0.0003553	-81.036
	0.001283	-8.808	0.00342	107.168	0.72	-50.398	0.004589	76.54
	0.0004091	-85.791	0.003159	-142.839	0.001462	-164.133	0.0006886	-15.855
	0.00245	-132.668	0.0008679	-148.87	0.0009447	-101.592	0.003025	2.491
	0.722	-49.583						
49.85	0.476	50.45	0.004313	21.751	0.794	-29.914	0.001371	79.591
	0.002586	95.889	0.0001763	-48.639	0.0002865	-71.995	0.0007955	46.716
	0.003383	26.014	0.003569	69.497	0.714	-47.809	0.004222	66.585
	0.001334	139.964	0.0008943	-144.965	0.002829	-123.333	0.001524	148.08
	0.00176	-59.241	0.0002257	130.025	0.794	-29.604	0.00206	60.148
	0.475	51.227	0.001792	49.852	0.0009245	-4.02	0.002192	-148.085
	0.0005449	81.062	0.0007592	-14.047	0.001061	88.845	0.002569	60.705
	0.001615	-42.387	0.003148	72.092	0.717	-49.49	0.0005304	-134.265
	0.0002311	179.098	0.00385	75.718	0.0005977	128.973	0.002102	51.7
	0.004864	36.495	0.0002834	-57.163	0.001272	-19.061	0.005985	-113.736
	0.712	-50.188	0.00128	11.12	0.0005286	108.17	0.003749	-111.254
	0.0004925	44.402	0.002261	1.681	0.0003268	0.942	0.0008501	79.121
	0.002757	-61.559	0.004228	60.836	0.704	-50.547	0.00006938	-128.193
	0.001327	-94.065	0.001456	-1.679	0.0001526	-21.216	0.0008569	166.068
	0.0004337	-80.394	0.0007003	45.301	0.001749	59.108	0.0001365	-171.119
	0.712	-49.258	0.0003584	-134.542	0.00017	-20.603	0.001101	68.834
	0.00159	-19.152	0.0002877	134.854	0.001724	100.003	0.0001811	25.026
	0.0009661	8.561	0.002531	106.085	0.72	-49.31	0.003347	80.479
	0.0001762	8.622	0.00225	167.596	0.001181	-157.331	0.0004498	-12.37
	0.001733	116.21	0.0005461	-85	0.0005815	-151.021	0.002259	15.904
	0.721	-48.481						
69.7	0.356	53.569	0.004249	25.125	0.843	-22.55	0.001627	72.332
	0.002609	91.396	0.0003961	-14.996	0.0003237	-42.249	0.0007272	54.469
	0.003053	31.5	0.003435	63.323	0.687	-50.176	0.004133	65.912
	0.001074	-155.487	0.0007495	-152.563	0.002093	-160.687	0.001142	113.126
	0.001395	-23.631	0.0001968	-162.897	0.843	-22.28	0.00214	55.598
	0.356	54.516	0.00209	51.14	0.001245	9.64	0.001911	-171.183
	0.0005479	81.517	0.0007419	7.204	0.0008168	84.236	0.002681	56.241
	0.001171	128.951	0.00311	69.635	0.689	-51.866	0.000112	-125.02
	0.0001278	-155.285	0.003005	94.128	0.000433	85.085	0.00166	21.597
	0.00441	39.957	0.0002552	-82.01	0.00171	-11.531	0.004262	-106.077
	0.685	-52.559	0.001174	-24.43	0.0003223	89.332	0.002786	154.572
	0.0004192	5.841	0.002024	-46.168	0.0003426	18.617	0.0005908	51.995
	0.002038	53.49	0.003054	49.47	0.679	-52.829	0.0001927	58.402
	0.001085	-119.916	0.00101	-79.258	0.000259	-38.575	0.0007082	100.623
	0.000413	-115.904	0.0005929	-50.122	0.001214	46.279	0.0001519	23.648
	0.686	-51.686	0.0004104	-160.821	0.0001902	-13.653	0.001045	66.248
	0.001248	13.665	0.0002202	165.558	0.001362	100.714	0.00007498	128.937
	0.000825	20.285	0.00211	99.568	0.693	-51.645	0.002743	79.019
	0.0003701	53.251	0.001783	112.781	0.0008724	-155.472	0.0003125	-15.254
	0.001366	-0.366	0.000367	-25.992	0.0003669	153.885	0.001907	23.696
	0.692	-50.721						
89.55	0.281	53.561	0.004179	26.644	0.865	-18.283	0.001919	64.111
	0.002608	83.654	0.0005998	-54.743	0.0003712	-19.768	0.0006887	57.843
	0.002715	35.088	0.003415	56.409	0.652	-53.427	0.00409	64.322
	0.000879	-92.422	0.0006475	-161.774	0.001524	160.414	0.000848	76.71
	0.001127	10.402	0.000173	-97.066	0.865	-18.054	0.002388	52.152
	0.282	54.637	0.002383	50.782	0.001516	18.501	0.001634	164.762
	0.0005345	79.202	0.000711	26.806	0.0007429	73.792	0.002835	51.902
	0.0008189	-62	0.00313	65.793	0.655	-55.195	0.000243	64.104
	0.00004299	-130.592	0.002375	111.012	0.0003059	39.493	0.001333	-10.017
	0.003984	40.772	0.0002426	-107.72	0.002009	-1.485	0.002917	-99.989
	0.651	-55.908	0.001122	-61.552	0.0001562	69.138	0.002046	58.86
	0.0003722	-33.785	0.001797	-95.247	0.0003666	34.473	0.0003756	31.448
	0.001477	167.004	0.002141	36.5	0.646	-56.106	0.000429	61.266
	0.0009088	-147.437	0.0006603	-158.227	0.0003388	-29.429	0.0006024	33.646
	0.000417	-158.865	0.0005222	-147.335	0.0007921	31.882	0.0004048	36.381
	0.652	-55.047	0.000468	171.207	0.0002136	-8.527	0.001013	62.129
	0.0009935	45.133	0.0001696	-143.858	0.001093	99.855	0.00001527	47.65
	0.0007316	30.443	0.001816	91.531	0.658	-54.932	0.002314	76.062
	0.0005578	59.163	0.001437	56.442	0.00056	-157.297	0.0002017	-19.594
	0.001095	-118.469	0.0002242	30.746	0.0001936	97.173	0.001668	30.051
	0.656	-53.891						
109.4	0.231	51.94	0.004111	27.164	0.876	-15.627	0.002227	55.673
	0.002599	74.172	0.0006916	-105.549	0.0004232	-1.462	0.0006727	58.741
	0.00238	37.705	0.003443	49.293	0.614	-57.053	0.004065	62.267
	0.0007128	-29.77	0.0005635	-171.614	0.001026	120.87	0.0005911	39.593
	0.0008973	43.806	0.0001547	-30.793	0.876	-15.437	0.002703	50.117
	0.233	53.135	0.002675	49.566	0.00176	25.033	0.001385	140.771
	0.0005121	75.341	0.0006736	45.153	0.0007642	63.298	0.002999	47.578
	0.0005143	107.405	0.003176	61.268	0.617	-58.927	0.0005721	71.782
	0.00003481	70.982	0.001834	127.253	0.0001947	-6.753	0.001055	-42.246
	0.003588	40.209	0.0002331	-134.124	0.002226	8.643	0.001731	-94.543
	0.614	-59.671	0.001092	-99.341	0.000008379	54.712	0.001401	-37.533
	0.0003366	-73.767	0.001567	-144.653	0.0003928	49.899	0.000198	30.789
	0.0009903	-79.97	0.00134	22.857	0.61	-59.804	0.00065	63.615
	0.0007607	-175.531	0.0003495	122.072	0.0003961	-9.825	0.0005145	-33.971
	0.000468	160.135	0.0004667	114.898	0.0004184	16.839	0.0006426	48.603
	0.615	-58.802	0.0005275	142.664	0.0002379	-3.904	0.000989	58.047
	0.0007773	75.913	0.000203	-80.503	0.0008651	98.417	0.00009862	147.374
	0.0006577	39.946	0.001575	82.863	0.621	-58.619	0.001956	72.485
	0.0007174	58.123	0.001142	-0.544	0.0002557	-168.208	0.0001043	-24.204
	0.0008631	122.786	0.00009678	87.275	0.00003827	39.824	0.001473	35.762
	0.618	-57.454						
129.25	0.197	49.426	0.004049	27.123	0.882	-13.896	0.002544	47.178
	0.002587	63.543	0.0007024	-162.582	0.0004757	14.383	0.0006708	58.29
	0.002051	39.805	0.003495	42.134	0.576	-60.879	0.004051	59.944
	0.0005647	32.845	0.0004888	178.259	0.0005661	80.991	0.0003548	2.138
	0.0006891	76.914	0.0001407	35.519	0.882	-13.746	0.003049	49.031
	0.2	50.764	0.002967	47.879	0.001989	30.282	0.001173	116.924
	0.0004838	70.412	0.0006305	62.651	0.0008373	55.04	0.00317	43.281
	0.0002283	-85.009	0.003238	56.408	0.578	-62.871	0.0008865	79.146
	0.0001082	95.067	0.001341	143.174	0.00009227	-53.324	0.0008024	-74.777
	0.003214	38.814	0.0002262	-160.667	0.002393	18.632	0.0006307	-89.481
	0.575	-63.651	0.001073	-137.478	0.0001304	-154.636	0.000807	-134.237
	0.0003064	-114.009	0.001325	166.075	0.000421	65.146	0.0001654	69.403
	0.0005404	32.537	0.000597	8.863	0.572	-63.724	0.0008639	65.543
	0.0006285	156.074	0.00006012	41.852	0.000479	14.267	0.0004362	-101.93
	0.0005191	124.763	0.0004178	16.874	0.00007034	1.443	0.0008718	60.499
	0.577	-62.767	0.0005881	113.825	0.000263	0.427	0.0009595	54.38
	0.0005796	106.32	0.0003193	-36.131	0.0006575	96.669	0.0001779	-113.934
	0.0005937	49.12	0.001361	73.879	0.582	-62.519	0.001636	68.594
	0.0008601	54.385	0.0008743	-57.844	0.0001144	83.705	0.00001382	-30.167
	0.000653	3.684	0.00002269	-36.952	0.0001075	161.971	0.001303	41.153
	0.578	-61.226						
149.1	0.172	46.404	0.003991	26.73	0.886	-12.74	0.002867	38.674
	0.002574	52.062	0.0006708	134.631	0.0005263	28.815	0.0006802	57.346
	0.001727	41.657	0.003563	34.98	0.536	-64.828	0.004044	57.459
	0.0004291	95.243	0.0004199	167.97	0.0001288	40.838	0.0001304	-35.505
	0.0004936	109.834	0.0001292	101.182	0.886	-12.631	0.003408	48.504
	0.177	47.939	0.003259	45.918	0.002205	34.757	0.0009904	92.635
	0.0004517	64.571	0.0005835	79.579	0.0009372	48.972	0.003341	38.984
	0.00004272	-99.307	0.003308	51.344	0.539	-66.948	0.001192	86.361
	0.0001795	118.211	0.0008764	158.917	0.000005195	82.56	0.0005649	-107.474
	0.002859	36.863	0.0002201	172.578	0.002526	28.531	0.0004177	95.869
	0.536	-67.767	0.001061	-175.814	0.0002637	-176.438	0.000243	128.972
	0.0002786	-154.426	0.001066	116.806	0.0004509	80.243	0.0002672	78.753
	0.0001131	145.19	0.0001097	174.92	0.534	-67.78	0.001073	67.309
	0.0005054	127.475	0.0002167	142.212	0.0006097	35.977	0.0003638	-170.014
	0.0005273	91.631	0.0003735	-81.37	0.0002619	165.978	0.001096	72.221
	0.538	-66.861	0.0006492	84.798	0.0002884	4.581	0.0009161	50.926
	0.0003928	136.553	0.0004664	-4.799	0.0004626	94.727	0.000254	-14.925
	0.0005357	58.115	0.001163	64.717	0.543	-66.55	0.001338	64.529
	0.0009905	49.267	0.0006227	-115.31	0.0003884	44.883	0.00007288	145.778
	0.000456	-115.59	0.0001367	18.874	0.0002474	104.064	0.001147	46.377
	0.538	-65.126						
168.95	0.153	43.103	0.003936	26.109	0.888	-11.966	0.003193	30.177
	0.002564	39.912	0.0006392	66.408	0.0005739	42.456	0.0006988	56.265
	0.001408	43.469	0.00364	27.842	0.497	-68.865	0.004041	54.869
	0.0002992	157.117	0.0003548	157.559	0.0002929	-179.133	0.0000859	107.102
	0.0003064	142.639	0.0001179	166.178	0.888	-11.897	0.003774	48.315
	0.159	44.913	0.003549	43.786	0.002408	38.764	0.0008212	67.099
	0.0004177	57.813	0.0005332	95.961	0.001051	44.476	0.003514	34.687
	0.0003044	72.713	0.003385	46.157	0.499	-71.118	0.00149	93.468
	0.0002493	140.992	0.0004309	174.553	0.00009957	33.472	0.0003373	-140.265
	0.00252	34.494	0.0002143	145.687	0.002632	38.415	0.001431	100.561
	0.497	-71.979	0.001052	145.728	0.0003932	161.525	0.0003007	-148.051
	0.0002522	165.081	0.0007978	67.188	0.0004817	95.16	0.0003577	68.762
	0.0002987	77.327	0.0007918	160.503	0.496	-71.934	0.001279	68.957
	0.0003884	98.769	0.0004848	61.933	0.0007638	53.406	0.0002945	121.836
	0.0004878	56.064	0.0003321	-179.637	0.0005834	150.326	0.001315	83.826
	0.499	-71.047	0.0007104	55.661	0.0003139	8.649	0.0008575	47.209
	0.0002139	166.695	0.000619	21.707	0.000276	92.711	0.0003288	83.941
	0.0004816	67.001	0.0009764	55.447	0.504	-70.673	0.001056	60.36
	0.001113	43.4	0.0003817	-172.841	0.0006874	38.306	0.0001567	140.339
	0.0002671	125.165	0.0002474	74.642	0.0003834	46.036	0.001	51.493
	0.498	-69.119						
188.8	0.139	39.624	0.00392	24.24	0.889	-11.433	0.003461	23.886
	0.002625	30.019	0.0006679	18.354	0.0006922	48.784	0.000727	50.667
	0.001199	41.864	0.003721	22.818	0.459	-72.768	0.004056	52.857
	0.0001874	167.834	0.0003316	146.902	0.0005666	149.676	0.0002223	60.747
	0.0001624	-146.25	0.0001275	-164.345	0.889	-11.379	0.004056	49.385
	0.146	41.794	0.003782	41.413	0.002627	41.215	0.0006886	47.343
	0.000499	53.346	0.0005729	88.068	0.001095	40.933	0.00363	29.696
	0.0004391	171.181	0.003493	40.867	0.461	-75.18	0.001724	99.812
	0.0004129	145.284	0.0001811	173.54	0.0001833	24.618	0.0002178	177.58
	0.002314	30.167	0.0002599	116.009	0.002726	43.16	0.002065	103.144
	0.459	-76.104	0.0009749	123.567	0.0005603	144.23	0.0005873	131.372
	0.0002801	131.032	0.0005733	38.931	0.0003944	108.745	0.000513	59.805
	0.0005252	151.169	0.00125	146.864	0.458	-76.001	0.001547	71.495
	0.0003386	75.923	0.0005573	29.592	0.0008326	58.913	0.0002281	79.386
	0.0005588	36.555	0.0003105	117.535	0.0006752	146.192	0.001452	88.037
	0.462	-75.117	0.0008305	43.35	0.0003536	31.794	0.0008458	42.798
	0.0001306	-178.263	0.0006326	42.422	0.0001827	83.035	0.000322	136.13
	0.0004648	82.568	0.0007694	52.734	0.466	-74.704	0.0008892	58.497
	0.001236	37.388	0.0002037	137.141	0.0008962	35.881	0.0002222	153.989
	0.000218	47.053	0.0003679	101.509	0.0003837	12.268	0.0009233	61.886
	0.459	-72.99						
208.65	0.128	35.954	0.003817	21.044	0.89	-11.031	0.003506	24.501
	0.002799	27.313	0.0007518	30.118	0.0008973	39.316	0.0007589	43.004
	0.001272	33.366	0.003785	21.73	0.424	-76.105	0.0042	51.82
	0.0002149	93.311	0.0004303	139.403	0.0004085	144.342	0.0001814	59.066
	0.0001725	-60.797	0.0002258	137.169	0.89	-10.946	0.004126	51.569
	0.136	38.551	0.003878	39.073	0.002799	38.457	0.000622	51.938
	0.0008177	53.257	0.0007623	32.078	0.001001	39.321	0.003606	25.163
	0.0003855	112.324	0.003695	37.61	0.427	-78.736	0.001935	103.539
	0.0006327	112.009	0.0003287	146.295	0.0002511	95.875	0.0003298	127.904
	0.00247	24.63	0.00041	103.981	0.002778	35.731	0.001904	100.98
	0.425	-79.756	0.0009686	134.944	0.0007182	139.54	0.0003676	110.75
	0.0003516	122.899	0.0005799	55.094	0.0001841	125.377	0.0007491	61.653
	0.0004257	130.548	0.001196	134.851	0.425	-79.61	0.001878	78.343
	0.0004472	79.945	0.0002278	105.956	0.0008051	47.035	0.0001454	127.996
	0.0008303	59.097	0.0003444	138.391	0.0004096	153.767	0.001502	80.941
	0.428	-78.651	0.001092	71.177	0.0003642	73.906	0.0009495	42.218
	0.0002305	151.145	0.0004295	47.239	0.000227	84.985	0.0002347	92.899
	0.000544	101.251	0.0007078	67.448	0.432	-78.282	0.001054	63.993
	0.001362	35.966	0.0001815	140.533	0.000872	34.92	0.000205	-176.423
	0.0003869	81.697	0.0004109	73.072	0.0001479	34.172	0.001069	78.228
	0.425	-76.345						
228.5	0.119	32.18	0.003492	20.858	0.891	-10.759	0.003529	25.563
	0.002772	23.647	0.0006846	36.573	0.0008068	36.432	0.0007499	55.69
	0.001311	32.598	0.003795	16.885	0.394	-79.166	0.004457	50.303
	0.0004038	123.968	0.0005069	131.26	0.0002227	143.976	0.000217	169.077
	0.0002751	164.917	0.0004422	118.355	0.891	-10.703	0.004246	49.593
	0.127	35.322	0.003924	37.789	0.002657	34.007	0.0005552	60.432
	0.0009265	43.864	0.0007041	30.404	0.001052	38.59	0.003616	25.133
	0.0006146	125.198	0.003855	38.854	0.397	-82.011	0.002411	103.798
	0.0004642	112.641	0.0002421	149.696	0.0002466	146.933	0.0003453	119.586
	0.002705	24.876	0.0004267	140.886	0.002606	33.665	0.002238	100.488
	0.396	-83.076	0.001404	123.453	0.0006099	132.15	0.0004386	128.393
	0.0002752	157.798	0.0007781	37.863	0.0003809	141.372	0.0005794	54.844
	0.0006124	129.933	0.001311	126.855	0.396	-82.908	0.001974	87.622
	0.0004965	104.808	0.000196	122.887	0.001005	53.777	0.00008948	170.127
	0.0007525	48.957	0.0004147	124.317	0.0006405	123.481	0.001846	93.031
	0.399	-81.883	0.001182	81.171	0.000287	53.441	0.0009299	49.258
	0.0002428	113.978	0.0005794	32.638	0.0001297	137.494	0.0004318	124.196
	0.0005823	84.674	0.001132	80.954	0.403	-81.569	0.001224	72.032
	0.001487	39.587	0.0002382	-174.727	0.000949	32.562	0.0001536	123.968
	0.0002355	120.939	0.0002253	92.322	0.0002493	41.444	0.00126	76.082
	0.395	-79.463						
248.35	0.111	28.249	0.003808	16.478	0.892	-10.555	0.003773	21.067
	0.002728	19.028	0.0005026	44.39	0.0006907	31.833	0.0008848	46.845
	0.001339	31.174	0.003843	14.198	0.368	-81.882	0.004443	51.661
	0.0004499	104.309	0.0005123	112.1	0.000302	139.639	0.0002874	120.011
	0.0003137	102.46	0.0005946	138.031	0.891	-10.532	0.004297	49.217
	0.12	32.001	0.003881	36.534	0.002539	34.216	0.0007265	48.85
	0.0009351	41.726	0.0006837	40.603	0.001049	32.77	0.003673	20.495
	0.0005004	119.699	0.003905	37.591	0.372	-84.944	0.002611	102.714
	0.0006685	116.876	0.0003595	119.197	0.0001136	-128.678	0.0003345	57.4
	0.00284	19.226	0.000413	137.53	0.002381	31.634	0.002621	101.136
	0.371	-86.054	0.001378	125.006	0.0006125	117.266	0.0003688	134.94
	0.0003674	-145.857	0.0007094	33.495	0.0002897	121.616	0.0006911	41.128
	0.000534	129.847	0.001488	130.659	0.371	-85.812	0.002193	90.854
	0.0005749	109.641	0.0002264	104.325	0.0008717	43.635	0.0002168	78.994
	0.0007679	47.187	0.0005256	113.461	0.000646	125.343	0.002048	96.887
	0.374	-84.799	0.001045	81.041	0.0003139	79.875	0.0009172	45.999
	0.0003143	103.778	0.0006181	19.33	0.0002607	118.008	0.0004719	141.98
	0.0005389	82.719	0.001297	86.939	0.377	-84.438	0.001102	77.563
	0.001489	34.39	0.000367	133.438	0.001049	35.015	0.0002372	100.227
	0.0002375	150.651	0.0001766	84.678	0.0002753	118.532	0.001264	83.746
	0.369	-82.2						
268.2	0.105	24.254	0.003894	11.404	0.892	-10.462	0.00379	16.582
	0.002809	17.962	0.0005029	35.163	0.0006701	29.347	0.0009597	44.862
	0.001316	29.924	0.003891	11.53	0.344	-84.451	0.004495	51.27
	0.0006393	140.719	0.000674	130.914	0.0002741	119.062	0.0003507	115.989
	0.0003802	121.535	0.0003707	126.513	0.892	-10.409	0.004425	49.833
	0.115	28.631	0.003979	35.393	0.002608	29.459	0.0007162	50.481
	0.0008286	36.495	0.0006956	32.887	0.001085	33.283	0.003677	16.621
	0.0003556	111.304	0.004081	35.996	0.349	-87.68	0.002825	105
	0.0009387	118.386	0.0007195	117.574	0.0002915	158.066	0.0001867	-106.294
	0.00285	15.646	0.000589	129.267	0.002537	28.104	0.002697	106.416
	0.348	-88.827	0.001678	125.163	0.0006797	108.655	0.0003925	126.163
	0.0003134	168.661	0.0005728	27.215	0.0002201	120.963	0.0007176	53.238
	0.0005667	137.454	0.001612	128.639	0.349	-88.556	0.002436	92.935
	0.0008291	111.294	0.000353	55.673	0.0008851	36.546	0.000259	103.559
	0.0009631	37.21	0.0005546	128.072	0.0008368	123.503	0.002231	98.366
	0.351	-87.523	0.001242	82.974	0.000182	78.365	0.0008685	33.789
	0.0001881	110.622	0.0005705	26.087	0.0002311	120.549	0.0005113	148.194
	0.0006266	92.6	0.001313	82.184	0.354	-87.153	0.001225	80.333
	0.001176	34.876	0.0002621	136.42	0.0009312	44.266	0.0002817	141.397
	0.0003158	134.001	0.0001234	83.908	0.0001259	-154.404	0.001404	87.909
	0.345	-84.779						
288.05	0.101	20.22	0.003826	8.837	0.892	-10.48	0.003883	14.149
	0.002862	19.035	0.0005825	14.816	0.0006503	13.373	0.0008162	42.137
	0.001122	39.515	0.003725	9.815	0.324	-86.753	0.004622	50.593
	0.0005587	126.273	0.000617	132.907	0.000343	110.551	0.0003831	127.896
	0.0002812	129.704	0.0003261	115.055	0.892	-10.382	0.004562	50.737
	0.11	25.228	0.003863	33.874	0.002722	29.582	0.0006226	55.024
	0.0008594	41.272	0.0005082	18.159	0.001112	20.69	0.003591	16.814
	0.0005711	132.894	0.003814	33.383	0.329	-90.143	0.003117	99.345
	0.0009761	127.64	0.0006821	108.695	0.0004218	124.581	0.0001092	139.377
	0.002843	10.056	0.000648	107.462	0.002622	29.929	0.00306	97.488
	0.328	-91.37	0.001789	120.956	0.0008193	123.15	0.0003181	110.335
	0.0004572	94.314	0.0006442	21.849	0.0003963	122.843	0.000499	78.516
	0.000974	116.308	0.00186	117.044	0.329	-91.094	0.002778	93.583
	0.0008125	101.502	0.0005349	75.845	0.0009875	30.397	0.0002734	166.019
	0.0008329	55.485	0.0005	130.378	0.0008457	125.694	0.002586	95.197
	0.331	-89.957	0.00146	89.922	0.0003359	93.559	0.0006194	43.011
	0.0002931	110.38	0.0006783	38.077	0.0002596	95.903	0.0004888	132.394
	0.0007828	109.184	0.001364	92.8	0.335	-89.606	0.001775	88.136
	0.001306	31.278	0.0004056	126.039	0.001165	51.029	0.0003403	162.904
	0.0004118	99.851	0.0001541	85.179	0.0003649	99.185	0.001563	84.362
	0.325	-87.105						
307.9	0.096	16.33	0.003884	9.636	0.892	-10.462	0.00369	14.367
	0.002849	12.815	0.0006128	17.167	0.0007044	22.026	0.0008561	38.865
