!Hittite Microwave Corporation								
!12 Elizabeth Drive								
!Chelmsford, MA 01824								
!Tel: 978-250-3343								
!Fax: 978-250-3373								
!Device: HMC287MS8, 2.3-2.5 GHz LNA with AGC in 8-lead Grounded Base surface Mount Plastic Package								
!Misc: Vdd = +3V Idd = 9.6 mA Vctl = 3.0V , DEEMBEDDED TO THE PINS OF THE DEVICE								
!
# MHZ S MA R 50

1000 0.94 83.501 0.714 130.897 4.784e-3 154.957 0.165 -160.664
1020 0.937 84.693 0.731 129.439 4.734e-3 156.467 0.166 -162.507
1040 0.933 86.151 0.744 128.014 4.653e-3 157.668 0.169 -165.059
1060 0.933 87.613 0.757 126.456 4.574e-3 158.926 0.172 -167.357
1080 0.931 89.014 0.767 124.814 4.484e-3 160.59 0.177 -169.449
1100 0.93 90.567 0.778 123.065 4.405e-3 162.705 0.183 -170.804
1120 0.928 91.824 0.787 121.314 4.333e-3 163.586 0.186 -171.686
1140 0.923 93.189 0.796 119.407 4.236e-3 165.415 0.189 -172.937
1160 0.919 94.544 0.803 117.401 4.14e-3 167.653 0.192 -174.23
1180 0.919 95.865 0.808 115.391 4.069e-3 170.003 0.197 -175.537
1200 0.916 97.244 0.807 113.252 3.985e-3 172.152 0.202 -176.606
1220 0.907 98.695 0.806 110.94 3.931e-3 174.752 0.208 -177.012
1240 0.903 100.173 0.802 108.844 3.853e-3 177.412 0.213 -177.298
1260 0.899 101.601 0.795 106.703 3.779e-3 -179.893 0.217 -177.58
1280 0.896 102.998 0.787 104.555 3.727e-3 -176.907 0.221 -178.004
1300 0.891 104.262 0.775 102.516 3.671e-3 -173.314 0.225 -178.482
1320 0.887 105.513 0.763 100.441 3.677e-3 -170.205 0.231 -178.67
1340 0.881 106.938 0.746 98.385 3.646e-3 -167.095 0.237 -178.578
1360 0.877 108.416 0.729 96.513 3.652e-3 -164.439 0.243 -178.339
1380 0.872 109.783 0.711 94.766 3.679e-3 -162.172 0.247 -178.02
1400 0.866 111.02 0.692 93.046 3.662e-3 -159.524 0.252 -177.818
1420 0.862 112.585 0.669 91.526 3.687e-3 -156.804 0.257 -177.808
1440 0.855 113.896 0.646 90.225 3.716e-3 -154.711 0.263 -177.624
1460 0.851 115.283 0.624 88.986 3.721e-3 -152.658 0.27 -177.288
1480 0.847 116.724 0.602 87.759 3.702e-3 -150.359 0.275 -176.812
1500 0.842 118.143 0.579 86.781 3.706e-3 -147.649 0.281 -176.236
1520 0.838 119.51 0.556 86.002 3.689e-3 -146.02 0.285 -175.78
1540 0.834 120.964 0.534 85.37 3.696e-3 -144.016 0.291 -175.419
1560 0.827 122.327 0.512 84.818 3.694e-3 -141.84 0.296 -175.076
1580 0.822 123.651 0.489 84.338 3.678e-3 -139.712 0.302 -174.683
1600 0.817 124.981 0.469 83.983 3.649e-3 -137.867 0.308 -174.153
1620 0.809 126.291 0.449 84.081 3.623e-3 -135.865 0.313 -173.415
1640 0.805 127.65 0.429 84.161 3.595e-3 -134.079 0.317 -172.765
1660 0.802 128.976 0.41 84.503 3.572e-3 -132.057 0.323 -172.174
1680 0.797 130.256 0.392 85.032 3.537e-3 -129.832 0.327 -171.682
1700 0.791 131.63 0.374 85.521 3.468e-3 -127.719 0.331 -171.268
1720 0.787 132.865 0.359 86.306 3.404e-3 -125.15 0.337 -170.681
1740 0.781 134.198 0.342 87.134 3.361e-3 -122.814 0.342 -169.959
1760 0.775 135.527 0.327 88.203 3.325e-3 -120.513 0.346 -169.183
1780 0.769 136.791 0.314 89.518 3.291e-3 -118.086 0.35 -168.496
1800 0.761 138.044 0.3 90.962 3.226e-3 -115.338 0.352 -167.926
1820 0.756 139.288 0.287 92.758 3.131e-3 -112.654 0.356 -167.369
1840 0.75 140.609 0.276 94.693 3.064e-3 -109.867 0.361 -166.86
1860 0.743 141.899 0.265 96.775 3.002e-3 -106.793 0.365 -166.223
1880 0.738 143.095 0.255 98.984 2.935e-3 -103.432 0.368 -165.422
1900 0.734 144.203 0.246 101.298 2.838e-3 -99.942 0.371 -164.44
1920 0.727 145.395 0.238 104.15 2.777e-3 -96.682 0.372 -163.726
1940 0.72 146.771 0.231 107.108 2.718e-3 -92.32 0.373 -163.189
1960 0.712 148.013 0.225 110.084 2.661e-3 -87.608 0.376 -162.703
1980 0.705 149.105 0.22 113.2 2.617e-3 -82.86 0.38 -162.176
2000 0.698 150.299 0.215 116.79 2.586e-3 -77.95 0.383 -161.375
2020 0.69 151.517 0.213 120.363 2.577e-3 -72.625 0.384 -160.39
2040 0.681 152.694 0.212 123.445 2.56e-3 -66.915 0.385 -159.497
2060 0.674 153.887 0.212 126.6 2.551e-3 -61.084 0.384 -158.855
2080 0.666 155.076 0.212 129.986 2.568e-3 -55.16 0.384 -158.375
2100 0.658 156.278 0.215 133.321 2.644e-3 -48.969 0.386 -158.069
2120 0.651 157.535 0.218 136.673 2.739e-3 -43.009 0.389 -157.388
2140 0.642 158.651 0.221 139.897 2.844e-3 -37.441 0.391 -156.443
2160 0.633 159.745 0.225 142.86 2.974e-3 -32.11 0.39 -155.467
2180 0.623 160.85 0.23 145.563 3.131e-3 -26.965 0.389 -154.65
2200 0.612 162.029 0.237 148.158 3.308e-3 -22.042 0.387 -154.28
2220 0.604 163.257 0.244 150.593 3.511e-3 -17.631 0.386 -154.028
2240 0.594 164.412 0.252 152.683 3.75e-3 -13.523 0.388 -153.636
2260 0.583 165.546 0.259 154.676 4.011e-3 -9.678 0.39 -152.885
2280 0.572 166.666 0.267 156.625 4.287e-3 -6.143 0.39 -151.857
2300 0.563 167.849 0.276 158.402 4.539e-3 -3.038 0.387 -150.897
2320 0.552 169.154 0.285 159.941 4.824e-3 0.037 0.382 -150.479
2340 0.539 170.337 0.295 161.295 5.134e-3 2.927 0.379 -150.426
2360 0.528 171.496 0.305 162.611 5.468e-3 5.691 0.379 -150.336
2380 0.516 172.659 0.315 163.902 5.816e-3 8.264 0.381 -149.937
2400 0.504 173.866 0.324 165.068 6.146e-3 10.478 0.382 -149.087
2420 0.492 175.05 0.334 166.072 6.552e-3 12.674 0.379 -147.987
2440 0.479 176.403 0.346 166.949 6.971e-3 14.551 0.373 -147.538
2460 0.467 177.629 0.357 167.765 7.379e-3 16.455 0.368 -147.446
2480 0.454 178.742 0.368 168.493 7.792e-3 18.423 0.365 -147.613
2500 0.44 -179.911 0.378 169.075 8.251e-3 20.245 0.365 -147.818
2520 0.426 -178.623 0.388 169.661 8.747e-3 22.047 0.366 -147.112
2540 0.411 -177.496 0.398 170.252 9.288e-3 23.644 0.364 -146.249
2560 0.396 -176.24 0.409 170.768 9.906e-3 24.996 0.359 -145.54
2580 0.38 -174.776 0.421 171.155 0.011 25.963 0.351 -145.504
2600 0.366 -173.093 0.432 171.503 0.011 26.423 0.345 -146
2620 0.351 -171.145 0.444 172.106 0.012 26.522 0.344 -146.568
2640 0.335 -169.333 0.454 172.459 0.012 26.899 0.344 -146.509
2660 0.321 -167.5 0.465 172.764 0.013 27.456 0.344 -145.849
2680 0.307 -165.643 0.477 173.016 0.013 28.068 0.34 -145.277
2700 0.293 -163.872 0.489 173.114 0.014 28.694 0.332 -145.274
2720 0.277 -161.637 0.502 173.23 0.014 29.498 0.325 -146.151
2740 0.262 -159.359 0.512 173.388 0.015 30.428 0.321 -147.106
2760 0.248 -157.223 0.522 173.614 0.015 31.23 0.322 -147.716
2780 0.233 -154.879 0.531 173.822 0.016 31.888 0.323 -147.599
2800 0.217 -152.287 0.541 173.983 0.016 32.793 0.321 -146.987
2820 0.203 -149.405 0.552 173.918 0.017 33.416 0.314 -146.993
2840 0.189 -146.091 0.562 173.917 0.018 34.025 0.306 -147.972
2860 0.174 -142.408 0.572 173.995 0.018 34.663 0.302 -149.351
2880 0.159 -138.575 0.583 174.138 0.019 35.432 0.301 -150.735
2900 0.145 -133.782 0.589 174.168 0.019 36.358 0.303 -151.349
2920 0.134 -127.67 0.598 174.266 0.02 37.12 0.303 -151.242
2940 0.122 -121.913 0.606 174.296 0.02 37.718 0.299 -151.364
2960 0.11 -114.883 0.615 174.315 0.021 38.317 0.294 -152.264
2980 0.1 -106.599 0.622 174.341 0.021 38.989 0.289 -153.656
3000 0.093 -97.67 0.629 174.312 0.022 39.672 0.288 -155.572
