!Hittite Microwave Corporation								
!12 Elizabeth Drive								
!Chelmsford, MA 01824								
!Tel: 978-250-3343								
!Fax: 978-250-3373								
!Device: HMC252QS24, DC-3 GHz GaAS MMIC SP6T Non-Reflective Switch in 24-lead QSOP package								
!Misc: Port 1 = RFCom, Port 2 = RF1, Port 3 = RF2, Port 4 = RF3, Port 5 = RF4, Port 6 = RF5, Port 7 = RF6, RF6 selected, Vdd=+5V							
!
# MHZ S MA R 50

30	0.705	41.253	0.001116	85.667	0.00105	83.31	0.0008994	90.252
	0.0009224	89.009	0.001145	85.392	0.665	-46.963	0.001115	84.187
	0.915	-20.499	0.0002926	59.29	0.00006476	72.056	0.00003252	-71.968
	0.00003819	-3.813	0.001011	86.931	0.001068	85.325	0.0003011	67.785
	0.917	-20.262	0.0005353	57.998	0.00005492	-62.933	0.00006785	76.127
	0.001049	87.262	0.0009129	85.855	0.00006621	80.686	0.0005377	59.104
	0.916	-20.714	0.00002864	40.599	0.00005676	64.642	0.0008879	89.727
	0.0009242	85.605	0.00004362	145.723	0.00003591	85.088	0.00002486	13.239
	0.917	-20.599	0.0004907	50.779	0.0009105	90.337	0.001128	84.514
	0.00004632	-23.267	0.00004359	108.346	0.0000413	133.355	0.0004879	57.49
	0.918	-20.227	0.001154	88.816	0.666	-46.989	0.001024	88.404
	0.001008	85.408	0.0008947	90.362	0.0009101	89.281	0.001154	88.534
	0.703	40.439						
47.35	0.533	52.013	0.001827	75.617	0.001779	76.743	0.001501	78.414
	0.001521	77.227	0.001817	74.728	0.795	-34.775	0.00186	75.602
	0.851	-30.446	0.0004046	55.882	0.00009428	64.739	0.00003385	46.39
	0.00003516	-51.309	0.001614	76.471	0.001755	76.383	0.0003796	55.197
	0.854	-30.134	0.0007046	43.489	0.00004554	-88.06	0.00004999	66.397
	0.001693	77.928	0.00155	77.818	0.00006099	73.459	0.000693	43.502
	0.852	-30.79	0.00005371	116.578	0.00005352	-11.4	0.001464	77.852
	0.00153	76.735	0.0000297	142.842	0.00005069	55.063	0.0000383	20.941
	0.853	-30.623	0.0006204	40.4	0.001485	79.479	0.001824	73.692
	0.00004244	56.056	0.00003877	98.714	0.00002091	106.009	0.0006319	44.41
	0.855	-30.092	0.001905	78.616	0.795	-34.762	0.001629	77.593
	0.001697	77.328	0.001479	79.197	0.001483	79.549	0.001902	78.438
	0.53	50.771						
64.7	0.418	57.551	0.002467	66.747	0.002416	66.768	0.002052	67.551
	0.00205	67.283	0.002434	64.457	0.853	-27.755	0.002502	66.628
	0.78	-39.031	0.0004106	53.206	0.00008963	77.087	0.00002818	119.26
	0.00002781	20.48	0.002155	66.925	0.002386	67.245	0.0004288	49.557
	0.784	-38.665	0.0007572	36.817	0.00004248	145.967	0.00002476	-8.109
	0.002221	67.761	0.002066	67.786	0.00005745	68.239	0.000713	33.551
	0.78	-39.443	0.00005664	178.049	0.00002961	-132.973	0.002007	68.63
	0.002043	67.452	0.00004597	93.973	0.00005981	54.658	0.0000487	13.866
	0.781	-39.239	0.0006608	34.402	0.001974	69.852	0.002452	63.759
	0.00005168	89.975	0.00001606	37.814	0.00001578	92.673	0.000671	38.114
	0.785	-38.614	0.002585	69.902	0.853	-27.751	0.002162	67.219
	0.002244	67.4	0.00201	67.894	0.002022	69.567	0.002578	70.862
	0.413	55.914						
82.05	0.339	60.264	0.003002	58.959	0.00291	58.924	0.002512	58.192
	0.002505	58.399	0.002928	55.235	0.883	-23.486	0.002994	58.641
	0.709	-46.353	0.0003721	61.181	0.00009061	83.869	0.00003773	94.78
	0.00008019	113.274	0.002611	58.21	0.002935	58.369	0.000402	60.236
	0.715	-46.019	0.0006789	37.798	0.00002632	31.583	0.00006433	94.319
	0.002727	59.469	0.002533	57.821	0.00008005	142.36	0.0006052	33.518
	0.711	-46.846	0.00003365	-156.405	0.00003012	134.076	0.002434	58.906
	0.002447	57.866	0.00007089	144.437	0.00002947	94.809	0.00004451	151.188
	0.711	-46.606	0.0006161	33.398	0.002447	60.411	0.002932	54.387
	0.00007179	149.232	0.00001784	8.907	0.00004992	113.187	0.000588	35.398
	0.715	-45.897	0.003129	63.307	0.882	-23.464	0.00256	57.688
	0.002724	58.846	0.002399	59.052	0.002421	60.037	0.003107	63.619
	0.334	58.272						
99.4	0.284	61.332	0.003403	51.877	0.003275	51.593	0.002827	50.516
	0.00284	50.416	0.003315	47.108	0.9	-20.718	0.003381	51.533
	0.646	-52.485	0.0004409	68.396	0.0001081	123.166	0.0000597	158.087
	0.00005695	143.918	0.002938	51.007	0.003323	50.912	0.0004415	72.536
	0.652	-52.139	0.0005809	38.29	0.00009323	147.693	0.00002832	152.131
	0.003074	51.979	0.002872	50.629	0.0001375	118.787	0.0005599	36.747
	0.648	-53.03	0.0001079	155.922	0.00002861	141.867	0.002703	51.741
	0.002816	49.673	0.00003441	99.139	0.0000639	103.904	0.00007102	143.072
	0.647	-52.767	0.0005105	36.805	0.002721	52.591	0.003313	47.015
	0.00003789	104.474	0.00005203	126.791	0.00005543	146.106	0.0005067	41.143
	0.652	-51.974	0.003527	58.365	0.9	-20.67	0.002901	50.386
	0.003092	51.281	0.002686	50.836	0.002726	52.609	0.003539	57.325
	0.278	59.039						
116.75	0.243	61.322	0.003697	46.416	0.003572	46.306	0.003095	44.83
	0.003104	44.297	0.003584	40.717	0.91	-18.816	0.003661	46.925
	0.588	-57.579	0.0004801	77.381	0.0001526	131.986	0.00007318	124.008
	0.00006438	129.209	0.003138	43.949	0.003602	45.377	0.0004829	84.467
	0.594	-57.229	0.0005054	52.589	0.00007729	126.427	0.0000807	116.079
	0.003324	45.747	0.003111	44.542	0.0001334	118.305	0.0005232	52.955
	0.591	-58.124	0.0001034	155.691	0.0001013	128.058	0.00292	45.33
	0.003088	43.415	0.00005586	117.03	0.00008901	128.347	0.0001242	136.062
	0.59	-57.843	0.0004827	52.488	0.002937	46.95	0.003563	40.351
	0.00006887	116.064	0.00007523	128.85	0.00009615	126.91	0.0004663	49.099
	0.595	-57.043	0.00382	52.636	0.911	-18.782	0.003142	44.187
	0.003356	45.112	0.002943	44.397	0.002951	47.207	0.003824	52.393
	0.237	58.816						
134.1	0.212	60.491	0.003909	42.215	0.003792	41.161	0.003255	39.247
	0.003249	38.671	0.003772	35.067	0.916	-17.551	0.003906	42.698
	0.537	-61.994	0.0005808	85.387	0.0002064	126.194	0.00009148	121.134
	0.0001122	106.044	0.003331	38.302	0.00381	40.99	0.000582	86.969
	0.545	-61.603	0.0005311	65.934	0.00009873	131.232	0.0001255	116.332
	0.003531	40.125	0.00328	39.063	0.0001605	112.128	0.0005488	69.254
	0.541	-62.531	0.0001753	143.605	0.0001211	137.133	0.003113	39.514
	0.003263	38.286	0.00005374	118.643	0.000121	132.361	0.0001751	135.451
	0.54	-62.27	0.0005083	66.722	0.003128	41.741	0.003776	34.85
	0.00008377	111.772	0.00008748	120.379	0.0001313	125.038	0.0005037	68.228
	0.543	-61.438	0.004054	49.092	0.917	-17.521	0.003316	38.251
	0.003557	40.294	0.003128	39.158	0.003155	41.958	0.004067	48.8
	0.204	57.834						
151.45	0.186	59.028	0.004086	38.651	0.003963	36.833	0.003416	34.319
	0.003381	34.023	0.003948	29.861	0.921	-16.707	0.004097	38.779
	0.493	-65.782	0.0006867	93.102	0.0002663	118.691	0.00007339	128.831
	0.0001203	117.475	0.003458	33.666	0.003981	37.213	0.0007005	90.118
	0.501	-65.411	0.0006114	81.777	0.0001471	126.95	0.0001227	120.076
	0.003685	35.728	0.003403	34.218	0.0002278	113.765	0.0006225	80.454
	0.498	-66.346	0.0002459	129.201	0.0001727	136.021	0.003229	34.961
	0.003422	34.229	0.00007099	125.074	0.0001354	126.956	0.0002215	130.366
	0.497	-66.099	0.0005977	82.088	0.003273	37.759	0.003943	29.932
	0.0001173	120.928	0.0001051	123.833	0.0001496	130.85	0.0005786	82.883
	0.499	-65.242	0.004254	46.508	0.921	-16.672	0.003453	33.486
	0.003674	36.039	0.003243	34.913	0.003274	37.623	0.004264	46.03
	0.179	56.288						
168.8	0.166	57.025	0.004216	35.615	0.00411	33.693	0.003547	30.434
	0.003478	30.591	0.004071	25.352	0.924	-16.14	0.004229	35.902
	0.455	-69.089	0.0008177	95.574	0.0003105	117.729	0.000077	136.575
	0.0001211	127.1	0.00357	29.769	0.004114	33.569	0.0008341	94.046
	0.463	-68.7	0.000752	92.725	0.0001818	120.777	0.0001208	117.992
	0.003797	31.907	0.003515	30.488	0.0002999	118.105	0.0007561	89.439
	0.46	-69.643	0.0002743	117.738	0.0001878	130.988	0.003321	31.129
	0.003538	30.388	0.000114	126.401	0.0001423	122.675	0.0002864	124.822
	0.459	-69.39	0.0007212	94.261	0.003389	34.517	0.0041	25.449
	0.0001443	117.275	0.000119	127.504	0.0001545	124.076	0.0007224	92.569
	0.461	-68.569	0.0044	44.154	0.924	-16.12	0.00356	29.618
	0.003762	32.172	0.003312	31.225	0.003357	34.261	0.004406	43.726
	0.158	54.268						
186.15	0.149	54.538	0.0043	33.058	0.004227	31.111	0.003616	27.242
	0.003548	27.45	0.00414	21.727	0.926	-15.77	0.004333	33.463
	0.422	-71.999	0.0009686	93.681	0.0003334	118.917	0.0001249	141.77
	0.0001474	117.437	0.00369	26.297	0.004222	30.243	0.0009726	96.616
	0.429	-71.558	0.0009499	96.057	0.0001961	126.659	0.0001513	119.701
	0.003889	28.179	0.003613	27.492	0.000361	116.769	0.000946	97.034
	0.427	-72.495	0.0002967	114.867	0.0001577	129.56	0.003434	27.768
	0.003606	26.662	0.0001533	116.566	0.0001692	121.483	0.0003531	123.544
	0.426	-72.243	0.0008739	100.412	0.003465	31.476	0.004223	21.711
	0.0001416	100.248	0.0001289	119.323	0.0001659	111.586	0.0009012	99.377
	0.427	-71.503	0.004503	42.174	0.927	-15.772	0.003639	26.228
	0.003862	28.695	0.003378	28.042	0.003452	31.457	0.004513	41.934
	0.141	51.838						
203.5	0.134	51.615	0.004375	30.797	0.004292	28.122	0.003679	24.069
	0.003667	23.607	0.004234	18.695	0.927	-15.561	0.004445	30.026
	0.392	-74.508	0.001081	96.096	0.0003621	111.501	0.0001501	137.727
	0.0001694	124.013	0.003755	22.901	0.004328	27.795	0.001091	99.164
	0.4	-74.13	0.001155	99.848	0.0002249	129.951	0.0001868	127.684
	0.003978	25.11	0.00367	24.174	0.000426	112.406	0.001153	98.977
	0.398	-74.984	0.0003684	124.491	0.0001932	121.115	0.003521	25.234
	0.003681	23.986	0.0001586	115.704	0.0002238	119.239	0.0003652	122.469
	0.397	-74.785	0.001078	103.494	0.003477	28.743	0.004243	18.744
	0.0001318	117.015	0.0001582	107.063	0.0002048	121.072	0.001025	100.461
	0.397	-74.072	0.004614	41.015	0.928	-15.544	0.003699	23.384
	0.00395	25.493	0.003469	25.455	0.003524	28.669	0.004623	40.776
	0.127	49.085						
220.85	0.121	48.23	0.004435	29.17	0.004393	25.855	0.003763	21.213
	0.003728	21.642	0.004254	15.266	0.929	-15.45	0.004475	28.716
	0.367	-76.819	0.001207	99.028	0.0004261	110.46	0.0001407	129.653
	0.0001912	111.71	0.003784	20.573	0.004358	24.971	0.001224	99.39
	0.374	-76.356	0.001314	101.388	0.0002574	115.641	0.0002404	110.66
	0.004009	23.395	0.003749	21.859	0.0004539	111.536	0.001346	99.231
	0.373	-77.206	0.0003795	117.671	0.0001999	119.069	0.003499	21.914
	0.003702	20.853	0.0001631	120.11	0.0002417	120.544	0.0003514	120.045
	0.372	-77.114	0.001247	101.397	0.003569	26.319	0.004334	15.094
	0.0001543	107.181	0.0002226	105.766	0.0002492	117.349	0.001277	103.332
	0.372	-76.329	0.004686	39.733	0.929	-15.46	0.003765	20.659
	0.004002	22.917	0.003498	22.031	0.003537	26.013	0.004688	39.637
	0.114	45.906						
238.2	0.11	44.296	0.004492	27.504	0.004418	23.608	0.003754	19.388
	0.003769	19.092	0.004342	12.934	0.929	-15.401	0.004522	27.158
	0.344	-78.799	0.001329	98.477	0.0005036	111.61	0.0001761	120.863
	0.0002229	111.311	0.003791	17.599	0.004382	23.639	0.001356	97.336
	0.352	-78.377	0.001493	99.615	0.0002971	120.945	0.0002211	108.803
	0.004052	21.186	0.003743	19.523	0.0005153	111.112	0.001515	100.787
	0.351	-79.134	0.0004296	115.325	0.0002503	112.182	0.003533	19.665
	0.003732	18.985	0.0001862	114.087	0.0002308	114.126	0.0004115	118.803
	0.349	-79.124	0.001476	102.23	0.003549	24.941	0.004319	12.844
	0.0001714	109.448	0.0002507	106.032	0.0002657	108.842	0.001468	101.984
	0.349	-78.403	0.004773	38.875	0.929	-15.462	0.003772	18.266
	0.004083	20.887	0.003539	20.135	0.003568	24.657	0.004778	38.757
	0.104	42.401						
255.55	0.101	39.832	0.00458	26.3	0.004465	22.272	0.003825	17.287
	0.003803	16.458	0.004389	10.424	0.93	-15.42	0.004583	25.817
	0.324	-80.598	0.001483	98.18	0.0005667	109.39	0.0001932	113.994
	0.0002074	105.048	0.003791	15.512	0.00443	22.081	0.001489	97.933
	0.332	-80.158	0.001715	100.43	0.0002606	118.557	0.0002557	106.409
	0.004076	18.934	0.003813	17.066	0.0005669	109.814	0.001717	101.373
	0.332	-80.897	0.0004789	111.784	0.0002654	106.173	0.003574	17.539
	0.003773	16.594	0.0002147	110.324	0.0002871	108.34	0.000463	111.973
	0.33	-80.918	0.00164	102.638	0.003592	22.704	0.004402	10.379
	0.0002349	108.647	0.0002644	105.11	0.0002757	111.278	0.00163	102.643
	0.33	-80.193	0.004868	38.155	0.93	-15.469	0.003819	16.041
	0.004121	19.201	0.003576	17.303	0.003601	22.703	0.004812	38.338
	0.095	38.426						
272.9	0.092	34.797	0.004611	24.842	0.004513	20.632	0.003875	15.673
	0.003815	14.648	0.004415	8.396	0.93	-15.541	0.004603	24.943
	0.306	-82.236	0.001654	97.544	0.0006234	108.341	0.000224	110.811
	0.0002353	100.159	0.00382	13.728	0.004502	20.367	0.001626	97.557
	0.315	-81.731	0.001922	100.609	0.0002755	116.355	0.0002642	102.184
	0.004117	17.136	0.003853	14.818	0.0005922	108.517	0.001897	101.403
	0.314	-82.495	0.0005193	112.408	0.0003143	105.755	0.003592	16.091
	0.003803	14.46	0.0002102	106.503	0.0003217	109.368	0.0005332	108.929
	0.312	-82.529	0.001836	102.629	0.003613	20.861	0.004414	7.844
	0.0002612	104.025	0.0002541	102.233	0.0003192	110.977	0.001827	102.928
	0.312	-81.861	0.004905	37.453	0.931	-15.581	0.003836	13.802
	0.004147	17.099	0.003616	15.184	0.003619	20.666	0.004876	37.758
	0.087	34.147						
290.25	0.085	29.135	0.004612	23.615	0.004543	18.831	0.003905	13.694
	0.003836	13.276	0.004445	6.077	0.932	-15.706	0.004625	23.969
	0.29	-83.756	0.001814	97.182	0.0006596	106.796	0.0002521	107.493
	0.0002806	104.015	0.003848	12.088	0.00456	18.969	0.001771	96.482
	0.299	-83.188	0.002115	100.262	0.0002922	112.831	0.0002778	102.755
	0.004133	15.679	0.00385	13.121	0.0006338	107.408	0.002099	101.007
	0.299	-83.903	0.0005712	110.295	0.0003434	107.714	0.003595	14.299
	0.003832	12.805	0.0002171	106.703	0.0003552	109.598	0.0006033	109.362
	0.296	-84.009	0.002037	101.574	0.003633	19.024	0.004414	5.601
	0.0002636	104.025	0.0002853	102.14	0.0003389	111.195	0.002032	101.876
	0.296	-83.405	0.004921	37.022	0.931	-15.777	0.003852	11.699
	0.004152	15.454	0.003643	13.562	0.00364	19.346	0.004942	37.301
	0.081	29.642						
307.6	0.079	22.827	0.004631	22.692	0.004553	17.057	0.003911	11.416
	0.00386	11.491	0.004452	3.525	0.932	-15.919	0.004658	22.945
	0.276	-85.138	0.001941	96.548	0.0006809	105.496	0.0002635	106.639
	0.0003132	110.109	0.00387	10.528	0.00459	17.835	0.001915	95.513
	0.284	-84.531	0.002296	99.562	0.0003212	109.985	0.0003098	105.098
	0.004136	14.159	0.003859	11.614	0.0006979	106.246	0.002312	100.092
	0.284	-85.133	0.000628	105.565	0.0003451	109.312	0.003617	12.029
	0.00385	11.247	0.0002496	108.457	0.0003755	106.552	0.0006431	107.794
	0.282	-85.372	0.002217	100.37	0.003656	17.468	0.004438	3.558
	0.0002679	106.656	0.0003289	103.719	0.0003277	110.425	0.002216	100.707
	0.281	-84.815	0.004961	36.798	0.932	-16.026	0.003878	9.842
	0.004158	14.205	0.00364	12.055	0.003664	18.376	0.004978	36.746
	0.076	24.733						
324.95	0.074	15.941	0.004667	21.643	0.004559	15.401	0.003881	9.731
	0.003852	9.129	0.004423	1.529	0.931	-16.224	0.004669	22.307
	0.263	-86.353	0.002045	95.056	0.0007165	106.275	0.0002564	110.857
	0.0003284	106.981	0.003898	8.962	0.004601	16.518	0.002035	94.704
	0.271	-85.703	0.002467	98.582	0.0004143	111.622	0.0003276	101.98
	0.004167	12.357	0.003912	9.788	0.0007443	104.345	0.002479	98.871
	0.271	-86.251	0.0006624	104.383	0.0003675	108.838	0.00366	10.161
	0.003835	9.374	0.0002764	105.491	0.0003554	105.297	0.0006623	102.618
	0.27	-86.586	0.002392	100.279	0.003658	16.885	0.004441	1.328
	0.0002805	102.934	0.0003112	102.475	0.0003417	103.628	0.002386	100.617
	0.268	-86.118	0.005023	36.587	0.932	-16.319	0.003886	8.168
	0.004185	12.478	0.003623	10.679	0.003664	17.019	0.005003	35.884
	0.071	19.267						
342.3	0.07	8.616	0.004652	20.769	0.0046	14.698	0.00388	8.076
	0.003825	7.734	0.004502	-0.454	0.931	-16.558	0.004694	21.38
	0.251	-87.512	0.002183	95.675	0.0007855	102.969	0.0002187	103.61
	0.000303	103.748	0.003891	7.326	0.004569	15.189	0.002136	94.318
	0.259	-86.764	0.002673	99.674	0.0004413	109.199	0.0003234	104.767
	0.004165	10.704	0.003899	8.461	0.000753	100.628	0.002632	98.536
	0.259	-87.347	0.0006837	101.168	0.0003867	100.063	0.003615	8.625
	0.003827	7.616	0.0002935	103.566	0.0003945	105.933	0.0007494	105.32
	0.257	-87.626	0.002554	99.308	0.003674	15.996	0.004445	-0.911
	0.000311	99.166	0.0003311	104.114	0.0003933	102.429	0.002571	98.992
	0.256	-87.306	0.005054	36.848	0.932	-16.627	0.003885	6.551
	0.004153	10.928	0.00366	9.177	0.003623	16.501	0.005067	36.372
	0.068	13.888						
359.65	0.067	0.79	0.004644	20.577	0.00461	13.944	0.003878	6.927
	0.003823	6.244	0.004434	-2.566	0.932	-16.869	0.004652	20.393
	0.24	-88.481	0.002276	95.076	0.0008092	101.385	0.0002804	99.468
	0.0003309	103.013	0.003922	5.54	0.00455	14.112	0.002264	94.409
	0.248	-87.722	0.002787	98.213	0.0004654	99.335	0.00035	103.667
	0.004157	9.778	0.003861	7.536	0.0008114	101.966	0.00278	98.334
	0.248	-88.242	0.000753	102.203	0.0004099	98.203	0.003585	7.324
	0.003863	6.022	0.0002981	109.21	0.0004352	104.34	0.0007682	103.305
	0.246	-88.622	0.002703	98.813	0.003622	14.449	0.004468	-2.265
	0.0003201	100.539	0.0003642	105.748	0.0003987	102.287	0.002713	98.937
	0.245	-88.283	0.005017	36.782	0.931	-16.912	0.003859	4.865
	0.004151	9.521	0.003627	7.025	0.003631	14.648	0.005088	36.441
	0.065	8.576						
377	0.065	-7.364	0.004643	19.868	0.004569	13.388	0.003877	5.802
	0.003773	4.424	0.004417	-4.459	0.93	-17.202	0.004648	19.839
	0.23	-89.435	0.002349	95.049	0.0008622	104.481	0.0002923	102.909
	0.000354	104.509	0.003902	3.968	0.004576	13.117	0.002382	94.537
	0.238	-88.613	0.002988	96.978	0.0004244	95.243	0.0004046	102.351
	0.004156	8.353	0.003889	6.303	0.0008871	100.493	0.002987	97.643
	0.238	-89.072	0.0007612	102.564	0.0004489	102.124	0.003607	6.608
	0.003832	4.586	0.0002827	103.306	0.0004674	105.16	0.0007918	102.263
	0.236	-89.551	0.002882	98.324	0.003624	13.004	0.004452	-4.112
	0.0003351	108.03	0.0003861	103.554	0.0004221	103.973	0.002897	98.052
	0.236	-89.308	0.005024	36.963	0.93	-17.227	0.003843	3.477
	0.004168	8.254	0.003621	6.383	0.00366	13.411	0.005077	36.493
	0.062	3.019						
394.35	0.064	-15.514	0.004634	19.344	0.004551	12.484	0.003852	4.281
	0.003795	3.23	0.004448	-5.825	0.93	-17.518	0.00465	19.241
	0.221	-90.359	0.002511	94.803	0.0009284	103.026	0.0003121	100.568
	0.0003564	100.065	0.00386	1.919	0.004575	12.109	0.002508	94.597
	0.229	-89.403	0.00315	96.226	0.0004692	98.16	0.0004287	104.56
	0.004151	7.379	0.003878	4.732	0.0009354	100.454	0.003157	96.862
	0.229	-89.835	0.0008049	102.968	0.0004448	102.87	0.003611	5.412
	0.003838	2.938	0.0002869	102.732	0.000472	103.524	0.0008193	100.684
	0.227	-90.363	0.003032	97.48	0.003603	12.577	0.00446	-5.962
	0.0003833	102.874	0.0003892	99.737	0.0004479	105.187	0.00303	97.375
	0.227	-90.275	0.005092	37.169	0.93	-17.538	0.003848	2.301
	0.004143	7.406	0.003611	5.352	0.003614	12.819	0.00509	37.125
	0.061	-2.517						
411.7	0.064	-23.61	0.004642	19.158	0.004554	11.675	0.003861	3.141
	0.003826	2.347	0.004465	-7.314	0.93	-17.827	0.00464	18.772
	0.213	-91.241	0.002651	94.611	0.0009764	99.73	0.000364	102.182
	0.0003683	100.578	0.003825	0.734	0.004541	11.186	0.00266	94.071
	0.221	-90.15	0.003328	96.026	0.0005145	101.563	0.0004435	103.259
	0.00412	6.828	0.003867	3.469	0.0009763	100.169	0.003343	96.099
	0.22	-90.548	0.0008634	101.571	0.000451	101.189	0.003601	4.159
	0.003822	1.825	0.0003157	105.371	0.0004983	103.638	0.0008659	100.43
	0.219	-91.143	0.003193	97.095	0.003589	12.359	0.00447	-7.676
	0.0004403	96.653	0.000419	97.452	0.0004774	103.379	0.003202	97.19
	0.218	-91.147	0.005123	37.632	0.93	-17.852	0.003836	1.134
	0.004151	6.626	0.003614	4.477	0.003609	12.307	0.005144	37.745
	0.06	-7.859						
429.05	0.064	-31.544	0.004659	18.974	0.004564	10.743	0.003888	2.302
	0.003819	1.453	0.004442	-9.136	0.93	-18.175	0.004636	18.326
	0.205	-92.038	0.00278	94.137	0.001013	97.861	0.0004071	105.369
	0.0003971	103.93	0.003821	0.115	0.004524	10.454	0.002805	93.49
	0.213	-90.861	0.00352	96.039	0.0005253	101.865	0.0004689	100.215
	0.004086	6.322	0.003857	2.399	0.001025	98.503	0.003542	95.551
	0.212	-91.24	0.0009137	99.665	0.0004854	101.512	0.003591	3.068
	0.003789	0.972	0.0003628	105.425	0.0005404	105.417	0.0009	100.534
	0.211	-91.885	0.003378	96.854	0.003592	11.883	0.004446	-9.463
	0.000452	96.324	0.0004692	97.008	0.0004999	100.628	0.003416	96.765
