! Hittite Microwave Corporation					
! 20 Alpha Road
! Chelmsford, MA 01824
! Tel: 978-250-3343
! Fax: 978-250-3373
! Device: HMC241LP3, DC-4 GHz, High Isolation SP4T Non-Reflective Switch in leadless QFN SMT package
! Misc: Port 1 = RFCom
!       Port 2 = RF1
!       Port 3 = RF2
!       Port 4 = RF3
!       Port 5 = RF4
!       Vdd    = + 5 V
!  
!  RF2 selected, Vctl= 0/+5 V
!
!  Data reformated to new Touchstone file format - Tue Jan 09 08:08:41 2007
!
# MHz S DB R 50
! 5 Port Network Data
! freq  dbS11  angS11  dbS12  angS12  dbS13  angS13  dbS14  angS14  
!       dbS15  angS15  
!       dbS21  angS21  dbS22  angS22  dbS23  angS23  
!       dbS24  angS24  dbS25  angS25  
!       dbS31  angS31  dbS32  angS32  
!       dbS33  angS33  dbS34  angS34  dbS35  angS35  
!       dbS41  angS41  
!       dbS42  angS42  dbS43  angS43  dbS44  angS44  dbS45  angS45  
!       dbS51  angS51  dbS52  angS52  dbS53  angS53  dbS54  angS54  
!       dbS55  angS55  
!     
             10       -5.59681         -57.987        -53.7861          80.808       -0.714807          13.969        -55.0947          83.939
                   -54.2216           81.73
                   -53.9968          82.138        -0.14893         -21.352        -50.9766          56.567        -104.193         -12.654
                   -91.9376        -124.429
                  -0.752613          13.948         -50.758          56.411         -12.111         -75.007        -52.6566          57.883
                    -51.264          56.697
                   -55.4012           84.01        -99.8195         -94.287        -52.3309          58.798       -0.193223         -21.862
                   -63.7124           5.278
                   -54.2889          81.567        -88.6949          84.558         -51.347          56.862        -63.3664          13.395
                  -0.184346         -21.433

          39.95       -6.74484         -63.241         -51.917          71.647       -0.686561          10.723        -53.1713          73.027
                   -52.2131          72.743
                   -52.0725          72.591        -0.97325         -29.436        -50.0421          48.688        -100.702           6.416
                   -90.5536         -75.435
                  -0.724243          10.713        -49.9106          48.644        -13.1122         -75.151        -51.6141          50.266
                   -50.2572          48.422
                   -53.3634          73.013        -96.4435         -56.131        -51.4146          50.908        -1.02196         -29.926
                   -65.1722           9.071
                   -52.2807          72.632        -88.2301          77.597        -50.3368          48.485        -64.8703           14.65
                   -1.00245         -29.497

           69.9        -8.0461         -68.492        -50.3855          62.545        -0.64904            7.49        -51.6009          62.168
                   -50.5859          63.815
                    -50.504          63.103        -1.90569          -37.49        -49.2135          40.827        -98.2302          25.397
                   -89.3653         -26.435
                  -0.686561            7.49        -49.1535          40.894         -14.334         -75.397        -50.6983          42.666
                    -49.373          40.167
                   -51.7173          62.074        -94.0142         -18.026        -50.6036          43.034        -1.95994         -37.958
                   -66.9473          12.922
                   -50.6567          63.755        -87.8102          70.677        -49.4526          40.128        -66.7128          15.963
                   -1.92735          -37.53

          99.85       -9.57724         -73.748        -49.0939          53.489       -0.621006           4.265        -50.2827           51.35
                   -49.2285          54.933
                   -49.1859          53.659        -2.93821         -45.511        -48.4594          32.983        -96.3289          44.327
                   -88.3292          22.453
                  -0.658405           4.275        -48.4594          33.161        -15.7031         -75.805        -49.8726          35.082
                   -48.5705          31.927
                   -50.3425          51.179         -92.132          19.962        -49.8618          35.174        -2.99933         -45.958
                   -69.1709           16.82
                   -49.2967          54.924        -87.4118          63.789        -48.6501          31.787        -69.0396          17.323
                   -2.93821         -45.531

          129.8       -11.4698         -79.002        -47.9762          44.489       -0.593062           1.052         -49.141          40.591
                   -48.0593           46.11
                   -48.0461          44.277        -4.11024         -53.473        -47.7719          25.174        -94.7557           63.17
                   -87.4138          70.926
                  -0.630341           1.072        -47.8209          25.459        -17.3292         -76.468        -49.1261          27.534
                    -47.838           23.72
                   -49.1609          40.345        -90.6419          57.659        -49.1859          27.352        -4.16619         -53.899
                   -72.1355          21.018
                   -48.1298          46.151        -87.0269          57.182        -47.9176           23.48        -72.1954          19.033
                   -4.09631         -53.472

         159.75       -12.9563         -82.864        -47.3145          37.581       -0.583768          -1.408        -48.4548          32.475
                   -47.4098           39.62
                   -47.3853          37.452        -5.20855         -59.628        -47.3975          19.369         -89.757          65.669
                    -84.642          73.128
                  -0.621006          -1.388        -47.4179          19.358        -18.4164         -76.988        -48.7732          21.779
                   -47.4629          17.123
                   -48.5055          32.243         -91.207          62.463        -48.8138          21.666        -5.25615         -60.041
                   -74.2038          51.727
                   -47.4404          39.476        -85.8947          75.254        -47.5226           17.05        -74.1107          52.095
                   -5.17697         -59.617

          189.7       -14.1549          -85.97        -46.9088          32.392       -0.574483          -3.455        -48.0373          25.858
                   -46.9764          34.673
                   -46.9493          32.414        -6.19608         -64.499        -47.1745          14.539        -89.8025          65.096
                   -83.6342          81.243
                  -0.630341          -3.445        -47.2162          14.592        -19.0935         -77.394        -48.5472          17.434
                   -47.2382          11.874
                   -48.1055          25.865        -91.3246          60.238        -48.5868          17.281        -6.24942          -64.86
                    -72.118          83.266
                   -47.0153          34.627        -84.1508          75.574        -47.2783          11.805        -71.8454          83.858
                    -6.1607         -64.467

         219.65       -15.1392         -88.514        -46.6211          28.434       -0.565208           -5.28        -47.7847          20.602
                   -46.6884          30.936
                   -46.6809          28.298        -7.09155         -68.346         -47.025          10.663         -86.836          62.156
                   -82.4273          88.395
                  -0.621006          -5.259        -47.0758          10.809        -19.5762         -77.604         -48.402          13.702
                   -47.0582           7.255
                   -47.8338          20.499        -89.6455          58.598        -48.4732          13.737        -7.13095         -68.644
                   -68.5032          96.993
                   -46.7392          30.931        -82.3268          81.279        -47.1171           7.271        -68.3451          96.226
                    -7.0328         -68.272

          249.6       -15.9721         -90.716        -46.4918          25.096       -0.574483          -6.975        -47.6642           16.06
                   -46.5433          28.028
                   -46.5525            25.1        -7.91548         -71.503        -46.9958           7.269        -87.0445          67.306
                   -80.8824          83.516
                  -0.630341          -6.928        -47.0426           7.416         -19.828         -78.128        -48.3747          10.904
                   -47.0211           3.455
                   -47.7042          16.173        -88.6689          59.935        -48.4502          10.948        -7.93711         -71.722
                   -65.8605         101.305
                   -46.5914          28.058        -80.8125          74.768          -47.07           3.463        -65.9859         101.588
                    -7.8509         -71.363

         279.55       -16.6537         -92.659        -46.3463          22.403       -0.574483          -8.593        -47.5474           12.33
                   -46.3842          25.877
                   -46.4024          22.619        -8.63597          -74.18        -46.9861           4.393        -85.0347          66.545
                   -80.2699          76.828
                  -0.611682          -8.467        -46.9977           4.538        -19.9136         -78.615        -48.3383           8.453
                   -46.9512           0.177
                   -47.5869          12.396        -85.0595          63.465         -48.361           8.627        -8.65947         -74.349
                   -63.5606         100.791
                    -46.426          25.985        -78.6735          82.793        -46.9997           0.342        -63.5514         100.808
                   -8.54257         -74.002

          309.5       -17.3292         -94.304        -46.2995          20.357       -0.583768         -10.078        -47.4814           9.073
                   -46.2941           24.22
                   -46.3247           20.43        -9.31948          -76.34        -46.9822           1.916         -85.503          71.166
                   -78.1176          81.465
                  -0.621006          -9.998        -47.0036           2.044        -20.0873         -79.147        -48.3111            6.35
                   -46.9415          -2.957
                   -47.5309           9.194        -84.8612          61.611        -48.3633           6.359        -9.31948          -76.47
                   -61.9208         100.442
                   -46.3517          24.202        -78.4672          81.066        -46.9764          -2.809        -62.0047             100
                   -9.21848         -76.128

         339.45       -17.7882         -95.688        -46.2405          18.555       -0.583768         -11.518        -47.4465           6.132
                   -46.2263          22.776
                   -46.2995           18.66          -9.897         -78.201        -46.9958          -0.487        -83.6315          70.554
                   -77.3037           79.46
                  -0.630341         -11.438        -47.0367          -0.294             -20         -80.365        -48.3224           4.495
                   -46.9222          -5.779
                   -47.4876           6.238        -83.9802          75.137        -48.3815           4.529         -9.8699         -78.308
                   -60.5374           99.13
                   -46.2744          22.868        -77.6017          83.646        -46.9822          -5.734        -60.5838          98.732
                   -9.76233         -77.989

          369.4       -18.2019         -97.004        -46.2263          17.008       -0.602367         -12.922        -47.4384           3.384
                   -46.1837          21.717
                   -46.2691          17.171        -10.4287         -79.791        -47.0387          -2.576        -83.8331          69.767
                   -76.7129          77.827
                  -0.639686         -12.839        -47.0798          -2.393        -19.9136         -81.118        -48.3496           2.899
                   -46.9415          -8.361
                   -47.4896           3.506         -84.176          70.189        -48.3998           3.008        -10.3711         -79.854
                   -59.3396          97.648
                   -46.2316          21.733         -76.386          81.059        -46.9977           -8.31        -59.4286          97.678
                   -10.2572         -79.558

         399.35       -18.6363         -97.923        -46.1996          15.822       -0.593062         -14.305        -47.4261           0.933
                   -46.1255          20.773
                   -46.2494           15.94        -10.9031         -81.133        -47.0739           -4.49        -83.3141          69.934
                   -75.7137          80.593
                  -0.630341         -14.204        -47.1211          -4.352        -19.9136         -81.806        -48.3565           1.386
                    -46.957         -10.881
                   -47.4855           1.098        -83.3192           71.49        -48.3975           1.501        -10.8122         -81.117
                   -58.3085          95.856
                   -46.1642          20.822        -75.8258          81.827          -46.99         -10.793        -58.3659          96.103
                   -10.7221         -80.836

          429.3       -18.9384         -98.622        -46.2103          14.765       -0.602367         -15.651        -47.4424          -1.331
                   -46.0956          20.108
                   -46.2494          14.883        -11.3086         -82.258        -47.1566           -6.41        -82.8824          71.191
                   -75.4474           80.82
                  -0.639686         -15.545        -47.1864          -6.377        -19.7433         -82.942        -48.3906           0.028
                   -46.9861         -13.205
                    -47.502          -1.203         -82.251          69.124         -48.441            0.07        -11.2133         -82.136
                   -57.3998          94.628
                   -46.1343          20.203         -75.219          80.438         -47.025         -13.106        -57.4191          94.644
                   -11.1191         -81.872

         459.25       -19.3315         -99.388         -46.228          13.861       -0.611682         -16.965        -47.4835          -3.489
                   -46.0764          19.603
                   -46.2601          13.978        -11.7005         -83.253        -47.2342          -8.142        -82.1037          73.166
                   -74.6707          80.199
                   -0.64904         -16.873        -47.2642          -8.149        -19.5762         -83.764        -48.4387          -1.097
                    -47.023         -15.387
                   -47.5329          -3.333        -82.0651          71.796        -48.4778          -1.026        -11.6009          -83.04
                   -56.6596          93.041
                   -46.1061          19.696         -74.503           79.45        -47.0543         -15.281        -56.6655          93.111
                   -11.5024         -82.765

          489.2       -19.6593         -99.684        -46.2387          13.104       -0.621006         -18.269        -47.5144          -5.425
                   -46.0519          19.147
                   -46.2798          13.199         -12.076         -84.163        -47.3226          -9.694        -81.6436          72.168
                    -73.962          78.283
                  -0.658405         -18.169        -47.3569           -9.59        -19.5762         -84.729        -48.4778          -2.284
                   -47.0523         -17.584
                    -47.564          -5.265        -81.2979          73.028        -48.5171          -2.185         -11.972         -83.892
                   -55.9122          91.676
                   -46.0834           19.33        -73.9577          79.753        -47.0916         -17.514        -55.9666          91.666
                   -11.8352         -83.614

         519.15       -19.9136        -100.112        -46.2583          12.534       -0.621006         -19.561        -47.5599           -7.31
                   -46.0102           18.95
                   -46.2977          12.559        -12.3958         -84.939        -47.3792         -11.163        -80.9074          70.729
                   -73.5888          78.095
                   -0.64904         -19.459        -47.4261         -11.096        -19.4939         -85.542        -48.5333          -3.243
                   -47.1053         -19.618
                   -47.6056          -7.198        -80.9151          70.844        -48.5751          -3.112        -12.2522         -84.652
                   -55.2592          90.279
                   -46.0502          19.056        -73.2788          79.655        -47.1369         -19.519        -55.3147          90.523
                   -12.1461         -84.374

          549.1       -20.0873        -100.149        -46.2905          11.854       -0.621006         -20.838        -47.6119          -9.172
                   -45.9825          18.626
                   -46.3211          12.007        -12.6902         -85.605        -47.4814         -12.774        -80.0479          71.575
                     -73.03          77.257
                  -0.658405          -20.73        -47.5164         -12.647        -19.3315         -86.751        -48.5915          -4.192
                   -47.1428         -21.724
                   -47.6432          -9.035        -80.6725          70.138        -48.6336           -4.13         -12.505         -85.301
                   -54.6519          88.984
                   -46.0241          18.761        -72.9332          77.504        -47.1824         -21.602        -54.7225          89.204
                   -12.3958          -85.03

         579.05       -20.3546        -100.004        -46.3085          11.394       -0.621006          -22.11        -47.6474         -10.975
                   -45.9514          18.443
                   -46.3427          11.584        -12.9563         -86.214        -47.5536          -14.27        -79.9913          72.185
                   -72.3705          76.722
                  -0.658405         -22.006        -47.5931         -14.137        -19.2515         -87.615        -48.6266          -5.171
                   -47.1864         -23.801
                   -47.6894         -10.885        -79.8964          71.108         -48.676          -5.078        -12.7278         -85.859
                   -54.0843          87.712
                    -45.998          18.588        -72.3922          77.137        -47.2222         -23.624        -54.1416          87.794
                   -12.6157         -85.595

            609       -20.5374        -100.094        -46.3427          11.016       -0.630341          -23.37        -47.7063         -12.698
                   -45.9376          18.343
