!Hittite Microwave Corporation								
!12 Elizabeth Drive								
!Chelmsford, MA 01824								
!Tel: 978-250-3343								
!Fax: 978-250-3373								
!Device: HMC253QS24, DC-2.5 GHz GaAS MMIC SP8T Non-Reflective Switch in 24-lead QSOP package								
!Misc: Port 1 = RFCom, Port 2 = RF1, Port 3 = RF2, Port 4 = RF3, Port 5 = RF4, Port 6 = RF5, Port 7 = RF6, Port 8 = RF7, Port 9 = RF8, RF3 selected, Vdd=+5V							
!
# MHZ S MA R 50

30	0.674	40.887	0.002643	43.857	0.003595	105.755	0.664	-43.964
	0.004262	63.488	0.0001623	-62.103	0.001438	-155.133	0.0002581	-92.727
	0.002558	140.26	0.003962	47.47	0.713	-49.393	0.001814	16.962
	0.003074	50.744	0.001252	-112.913	0.003422	21.443	0.003541	11.755
	0.001027	-2.141	0.00008426	-30.044	0.004097	71.58	0.001084	-102.456
	0.717	-50.14	0.00345	52.52	0.003944	-33.558	0.0002318	-125.211
	0.001143	42.12	0.003538	-82.191	0.002025	81.303	0.664	-43.769
	0.005836	-19.013	0.006427	77.435	0.674	41.23	0.001949	107.136
	0.0004818	-62.87	0.0004314	-69.99	0.0008137	-5.703	0.003174	93.418
	0.003421	28.211	0.0002352	130.661	0.003577	41.039	0.001878	81.536
	0.701	-50.95	0.004428	-28.626	0.002256	158.455	0.001856	-175.497
	0.0008173	-150.913	0.003591	3.585	0.0001191	-163.465	0.002141	-134.487
	0.005075	62.086	0.004003	-135.422	0.707	-51.537	0.001882	29.368
	0.001286	16.29	0.001397	-175.175	0.002972	-178.81	0.003742	98.395
	0.002183	-165.725	0.001062	-100.364	0.00179	-52.043	0.0005365	-33.991
	0.709	-50.356	0.004755	-139.441	0.002796	110.419	0.001123	-100.095
	0.002319	145.474	0.001193	-159.38	0.00258	-167.695	0.001165	56.76
	0.005536	-96.204	0.002105	-33.721	0.719	-50.678	0.000573	-97.763
	0.002853	16.788	0.0003914	-11.027	0.002856	105.164	0.002104	52.636
	0.002418	-119.071	0.004415	11.378	0.001458	70.035	0.003682	147.792
	0.722	-49.702						
49.85	0.475	50.812	0.001915	52.268	0.002704	97.025	0.792	-29.948
	0.004132	63.706	0.0002092	-76.511	0.001377	-171.081	0.0004951	-135.456
	0.001919	137.284	0.003687	50.855	0.715	-48.357	0.001387	82.89
	0.002755	50.608	0.0008385	115.301	0.002424	150.061	0.002498	-78.349
	0.0007396	19.703	0.00003182	-106.913	0.003542	71.763	0.0005777	-95.739
	0.718	-49.108	0.003406	54.258	0.002804	-57.885	0.00008951	-104.712
	0.0007373	-64.218	0.002503	-91.851	0.001461	40.07	0.792	-29.773
	0.005521	-4.404	0.005983	79.521	0.475	51.24	0.001591	93.634
	0.0003042	-58.992	0.0001261	-55.139	0.0004984	23.779	0.002889	90.381
	0.003363	33.595	0.0001709	-174.208	0.002596	8.855	0.001664	81.973
	0.706	-49.963	0.002878	-22.156	0.001623	111.82	0.001225	116.461
	0.0005539	-88.051	0.003446	10.097	0.00005888	174.146	0.001515	-140.507
	0.003927	73.827	0.00259	-116.621	0.711	-50.312	0.001516	41.315
	0.001018	81.452	0.001037	177.55	0.002416	-120.395	0.002551	31.284
	0.001545	84.157	0.000817	-14.987	0.001284	-18.025	0.0005969	-10.047
	0.712	-49.382	0.003374	-157.516	0.001882	-140.779	0.0005538	-66.123
	0.001648	-159.025	0.0007731	-132.301	0.002156	-159.376	0.0008715	124.495
	0.003897	-115.458	0.00161	-13.825	0.72	-49.493	0.0005639	-71.946
	0.002116	0.998	0.0002951	47.895	0.001936	46.411	0.001628	47.622
	0.001596	-98.985	0.003125	20.452	0.001067	171.32	0.002323	165.014
	0.721	-48.556						
69.7	0.355	54.098	0.001778	47.001	0.002484	82.582	0.842	-22.609
	0.003959	59.323	0.0002525	-68.593	0.001274	168.849	0.0005993	-152.339
	0.00161	126.09	0.003599	50.873	0.687	-50.611	0.001203	142.76
	0.002691	48.736	0.0006086	-23.369	0.001917	-86.84	0.001955	-173.97
	0.0006025	36.404	0.00001165	-34.016	0.003279	66.169	0.0002598	-94.967
	0.691	-51.455	0.003457	55.4	0.002223	-87.791	0.000008169	94.301
	0.0005049	-176.526	0.001976	-106.893	0.001178	-6.457	0.842	-22.454
	0.005129	5.598	0.005603	77.857	0.356	54.507	0.001754	78.749
	0.0001195	-48.322	0.00007935	89.203	0.00023	56.71	0.002584	84.869
	0.003283	34.383	0.0001365	-125.847	0.002111	-28.843	0.001778	76.038
	0.681	-52.402	0.002007	-21.466	0.001305	59.576	0.0008731	42.575
	0.000411	-30.031	0.003127	16.5	0.00002084	147.757	0.001198	-152.104
	0.003152	77.642	0.001794	-103.513	0.684	-52.644	0.001388	47.654
	0.0009137	141.132	0.0008734	164.851	0.001862	-64.887	0.001907	-41.444
	0.00121	-31.563	0.0008166	32.58	0.001034	10.439	0.0006946	6.908
	0.686	-51.783	0.002672	179.012	0.001382	-37.446	0.0003745	-21.163
	0.001305	-108.901	0.0005371	-110.47	0.001708	-155.067	0.0007336	-173.52
	0.003062	-140.28	0.001397	0.586	0.693	-51.781	0.0006073	-51.779
	0.001491	-18.798	0.0002484	101.044	0.00144	-17.747	0.001405	42.12
	0.001146	-84.404	0.002467	24.019	0.0008735	-92.764	0.001547	176.845
	0.692	-50.774						
89.55	0.281	54.301	0.001944	40.733	0.002507	68.642	0.864	-18.38
	0.003775	52.814	0.0002763	-54.124	0.001155	146.734	0.0006001	-173.976
	0.001441	111.945	0.003561	49.648	0.653	-53.783	0.001081	-159.159
	0.002696	46.621	0.0004393	-162.382	0.001543	34.644	0.001552	88.914
	0.0005025	51.134	0.00004826	-110.525	0.003136	58.563	0.000008699	112.222
	0.656	-54.741	0.003506	56.157	0.001793	-119.239	0.00009283	106.286
	0.0003243	69.499	0.001589	-123.477	0.0009723	-54.441	0.864	-18.245
	0.004722	13.527	0.005244	74.558	0.283	54.605	0.00208	69.743
	0.00008442	70.379	0.0002263	97.108	0.00006601	129.387	0.002263	78.076
	0.003197	33.126	0.0001118	-77.775	0.001762	-68.107	0.002023	70.52
	0.647	-55.797	0.00132	-22.358	0.001074	5.755	0.0005999	-32.833
	0.0003017	26.572	0.002712	22.06	0.00001147	-85.128	0.0009658	-165.202
	0.002551	78.292	0.001167	-91.988	0.65	-55.963	0.001324	52.43
	0.0008564	-160.739	0.000761	150.701	0.001366	-10.326	0.001417	-115.707
	0.0009656	-148.853	0.0007368	56.335	0.0008497	37.389	0.0008021	21.869
	0.652	-55.124	0.002155	153.927	0.0009976	64.404	0.0004358	16.069
	0.001053	-60.333	0.0003524	-90.109	0.001255	-152.965	0.0006377	-113.115
	0.002443	-166.693	0.00126	13.447	0.658	-55.033	0.0006652	-33.181
	0.0009114	-40.75	0.0002148	152.743	0.001059	-83.364	0.001254	38.59
	0.000795	-71.452	0.001981	26.036	0.0007349	1.731	0.0009299	-172.892
	0.656	-53.928						
109.4	0.232	52.953	0.002256	37.17	0.002625	56.097	0.875	-15.766
	0.003594	45.175	0.0002906	-35.44	0.001027	123.421	0.0005888	158.054
	0.001342	96.663	0.003549	47.823	0.615	-57.344	0.0009819	-101.686
	0.002728	44.549	0.0002797	58.055	0.001225	155.508	0.001207	-8.88
	0.0004184	65.601	0.00007826	157.596	0.003054	50.08	0.000253	85.6
	0.619	-58.424	0.003548	56.629	0.001426	-151.318	0.0001712	120.133
	0.0001639	-44.885	0.001259	-140.716	0.0007976	-103.029	0.875	-15.651
	0.004321	20.404	0.0049	70.429	0.235	53.088	0.002451	64.258
	0.0002453	82.746	0.0003439	93.142	0.00007923	-109.721	0.001937	70.617
	0.003115	30.815	0.00009108	-29.971	0.001469	-107.996	0.002324	66.033
	0.611	-59.597	0.0007126	-23.881	0.0008793	-48.727	0.000358	-108.842
	0.0002078	82.934	0.002255	27.018	0.000039	-110.456	0.0007688	-178.943
	0.002049	77.372	0.0006122	-81.127	0.613	-59.698	0.001286	56.585
	0.0008171	-103.335	0.00067	135.879	0.0009066	43.402	0.0009885	169.505
	0.0007539	93.378	0.0006344	63.048	0.0006958	63.638	0.0009123	36.19
	0.615	-58.864	0.001716	128.208	0.0006625	165.591	0.0005757	33.671
	0.0008362	-12.391	0.0001876	-70.466	0.0008077	-152.897	0.0005595	-53.278
	0.001917	166.276	0.001153	25.662	0.621	-58.691	0.0007285	-15.16
	0.0003618	-66.791	0.000187	-155.941	0.000726	-149.562	0.001147	37.219
	0.000486	-59.104	0.001567	27.416	0.0006207	95.602	0.0003794	-163.314
	0.618	-57.477						
129.25	0.198	50.783	0.002637	35.911	0.002785	44.67	0.881	-14.08
	0.003421	36.838	0.0003074	-13.855	0.000895	99.327	0.0006118	128.372
	0.001285	80.962	0.003553	45.697	0.576	-61.111	0.0008953	-44.303
	0.002772	42.524	0.0001391	-83.824	0.0009358	-83.949	0.0008924	-106.926
	0.0003437	79.617	0.0001073	63.16	0.00301	41.162	0.0004862	83.906
	0.581	-62.317	0.003585	56.909	0.001093	176.286	0.0002464	133.838
	0.0000131	-158.103	0.000959	-158.256	0.0006392	-151.929	0.881	-13.985
	0.003928	26.706	0.004569	65.826	0.202	50.718	0.00283	60.477
	0.0004037	77.326	0.0004364	88.279	0.0001332	-35.709	0.001612	62.85
	0.003038	27.907	0.00007407	18.342	0.001205	-148.18	0.002652	62.251
	0.573	-63.61	0.0001475	-25.717	0.000703	-103.505	0.0001335	174.786
	0.0001226	138.781	0.001776	31.611	0.00006449	-144.586	0.0005902	166.983
	0.001608	75.538	0.00009567	-71.042	0.574	-63.654	0.001261	60.413
	0.0007865	-46.244	0.0005905	120.768	0.0004536	96.196	0.0005918	94.378
	0.0005619	-24.904	0.000627	58.603	0.0005564	89.608	0.001023	50.253
	0.577	-62.815	0.001317	102.19	0.0003516	-93.62	0.0007274	42.031
	0.0006396	35.303	0.00003373	-51.08	0.0003687	-158.3	0.0004911	6.256
	0.001438	138.916	0.001063	37.565	0.582	-62.564	0.0007939	2.578
	0.0001805	112.693	0.0001627	-104.824	0.0004178	143.955	0.00108	37.629
	0.0001992	-47.126	0.001191	28.478	0.0005185	-170.898	0.0001354	26.044
	0.578	-61.235						
149.1	0.174	48.183	0.00305	36.061	0.002964	33.982	0.884	-12.971
	0.003254	28.031	0.000338	8.508	0.0007639	74.553	0.0006452	101.112
	0.001252	65.151	0.003566	43.382	0.537	-65.005	0.0008192	13.067
	0.002821	40.513	0.000005286	152.455	0.0006639	36.426	0.0005954	154.88
	0.0002738	93.524	0.0001376	-31.446	0.00299	32.013	0.0007119	82.309
	0.542	-66.341	0.003618	57.063	0.00078	143.722	0.0003196	147.381
	0.0001316	-94.364	0.0006774	-175.968	0.0004909	158.979	0.884	-12.897
	0.003545	32.69	0.004248	60.921	0.179	47.915	0.003208	57.575
	0.0005506	68.695	0.0005098	83.643	0.0002633	17.267	0.001289	55.022
	0.002964	24.633	0.00005918	66.117	0.0009581	171.463	0.002993	58.883
	0.535	-67.756	0.0003921	152.21	0.000538	-158.449	0.00008039	-81.966
	0.00004066	-166.259	0.001285	36.033	0.0000886	-179.794	0.0004226	152.746
	0.001207	73.066	0.0003973	120.069	0.535	-67.745	0.001244	64.046
	0.0007613	10.7	0.0005174	105.51	0.0000302	-49.245	0.0002163	18.998
	0.0003817	-143.223	0.0007194	56.517	0.0004264	115.396	0.001135	64.147
	0.538	-66.896	0.0009429	75.995	0.00005552	7.013	0.0008778	46.517
	0.0004556	82.841	0.0001132	147.983	0.0001143	81.404	0.0004285	65.612
	0.0009868	111.385	0.0009826	49.304	0.543	-66.568	0.0008605	20.15
	0.0006995	79.493	0.0001404	-53.912	0.0001251	77.389	0.001057	38.89
	0.00007452	145.196	0.0008377	29.373	0.0004229	-77.597	0.0006281	35.119
	0.538	-65.123						
168.95	0.155	45.38	0.003479	37.022	0.003153	23.781	0.886	-12.245
	0.003095	18.873	0.0003858	29.588	0.0006365	49.009	0.0006489	75.102
	0.001235	49.378	0.003585	40.944	0.498	-68.99	0.0007513	70.275
	0.002875	38.525	0.0001294	175.908	0.0004043	156.696	0.0003101	56.507
	0.0002074	107.32	0.0001678	-125.378	0.002988	22.741	0.0009323	80.67
	0.502	-70.455	0.003648	57.132	0.0004803	111.073	0.0003915	160.781
	0.0002708	150.797	0.0004078	166.223	0.0003494	109.757	0.886	-12.19
	0.003168	38.51	0.003936	55.817	0.162	44.935	0.003584	55.151
	0.000689	58.453	0.0005674	79.466	0.000454	50.552	0.0009687	47.427
	0.002895	21.117	0.00004514	112.969	0.0007227	131.007	0.003341	55.752
	0.496	-71.996	0.0009143	150.055	0.0003802	146.491	0.0002871	-158.509
	0.00003918	69.8	0.0007867	40.572	0.0001118	144.357	0.0002625	138.406
	0.0008346	69.986	0.0008743	130.255	0.496	-71.933	0.001231	67.559
	0.00074	67.544	0.0004486	90.139	0.0005503	13.716	0.0001455	123.65
	0.0002084	98.387	0.0008131	60.158	0.0003023	141.089	0.001247	77.928
	0.499	-71.069	0.0005847	49.675	0.0002295	-72.386	0.001025	49.163
	0.0002797	130.264	0.0002555	166.987	0.0005216	45.817	0.0003698	124.845
	0.0005554	83.733	0.0009083	60.934	0.504	-70.667	0.0009281	37.622
	0.001217	55.347	0.0001192	-2.903	0.0001568	-169.748	0.001072	39.843
	0.000339	156.605	0.0004997	30.158	0.000332	15.667	0.001106	44.137
	0.498	-69.103						
188.8	0.141	42.404	0.003766	37.987	0.003302	17.217	0.887	-11.751
	0.003018	13.896	0.0004733	31.792	0.0005894	26.712	0.0006698	55.722
	0.001293	36.611	0.003571	39.045	0.459	-72.861	0.0008617	105.271
	0.003008	34.944	0.000261	96.582	0.00024	-69.465	0.0001206	-52.161
	0.0001401	107.483	0.0002415	152.929	0.003059	16.268	0.001072	83.428
	0.464	-74.464	0.003625	56.189	0.0003934	91.916	0.0003603	163.714
	0.0003549	96.233	0.0001727	111.384	0.0002703	68.013	0.887	-11.709
	0.002958	39.609	0.003765	51.936	0.149	41.874	0.003902	54.921
	0.0007487	51.156	0.0005663	75.939	0.0005775	58.194	0.0007844	46.308
	0.002963	18.908	0.0001731	133.863	0.0005665	107.103	0.003706	53.258
	0.459	-76.125	0.001227	145.186	0.0003968	112.864	0.0004588	146.266
	0.0001523	122.488	0.0004367	38.385	0.0001768	100.706	0.0002321	131.207
	0.0006368	68.293	0.001179	134.535	0.458	-76.029	0.001353	73.229
	0.0006043	100.078	0.0004035	83.016	0.0008795	46.309	0.0004382	96.224
	0.0001047	47.024	0.0008206	60.05	0.0003183	153.893	0.001453	86.956
	0.462	-75.119	0.0004649	41.264	0.0003621	-17.532	0.001078	53.291
	0.0001571	122.088	0.0003869	-170.575	0.0007943	48.071	0.0003668	164.337
	0.0003041	73.268	0.0008143	68.501	0.466	-74.7	0.001018	58.506
	0.001493	39.845	0.0001829	49.395	0.0003035	168.344	0.001049	39.236
	0.0004151	161.308	0.0002523	25.763	0.000311	57.466	0.001356	54.758
	0.459	-72.979						
208.65	0.131	39.108	0.003704	36.948	0.003411	15.668	0.889	-11.371
	0.00317	17.29	0.000624	14.875	0.0007234	18.479	0.0008164	59.599
	0.001453	35.308	0.003526	37.849	0.424	-76.228	0.001279	91.43
	0.003182	29.201	0.0003672	144.185	0.0002847	89.368	0.0001615	-154.816
	0.0001184	104.878	0.0003448	116.52	0.003248	15.136	0.001091	92.638
	0.431	-77.994	0.003648	53.707	0.0006761	108.057	0.000222	139.595
	0.0003007	170.792	0.0001537	35.517	0.0003289	76.208	0.889	-11.315
	0.003123	30.772	0.003948	52.56	0.139	38.7	0.004012	55.694
	0.0006819	49.729	0.0005831	69.537	0.0005546	34.228	0.0009072	52.852
	0.003293	18.378	0.0005085	113.448	0.0006623	123.866	0.004	52.735
	0.426	-79.736	0.001148	130.905	0.0007558	129.392	0.0004452	148.775
	0.0002657	136.279	0.0004654	25.386	0.000369	83.696	0.0004791	129.826
	0.000855	71.469	0.001142	126.27	0.425	-79.647	0.001781	82.071
	0.0003409	80.449	0.0003637	80.596	0.000764	40.141	0.0004296	126.591
	0.0001866	144.796	0.0007721	54.268	0.0005995	139.423	0.001783	84.93
	0.428	-78.64	0.0008644	70.067	0.0002346	-42.522	0.000882	63.853
	0.0002166	38.632	0.0003844	-179.072	0.0006894	56.787	0.0004424	144.642
	0.0004003	90.477	0.0008064	69.052	0.433	-78.304	0.001148	80.159
	0.001233	41.283	0.000352	89.322	0.0001894	-146.4	0.0009254	38.668
	0.0001691	154.377	0.0002416	19.335	0.0003898	13.068	0.001106	68.158
	0.425	-76.35						
228.5	0.122	35.783	0.003812	33.402	0.003623	5.859	0.889	-11.136
	0.00335	11.299	0.0006211	43.919	0.0007767	19.323	0.0009727	59.615
	0.001395	40.056	0.003663	34.883	0.395	-79.333	0.001309	100.824
	0.003047	29.049	0.0004113	121.38	0.0002706	160.116	0.0001969	-178.358
	0.0002097	152.591	0.0002956	125.462	0.003345	8.021	0.001292	89.627
	0.401	-81.268	0.004013	53.69	0.0006507	119.174	0.0004101	127.018
	0.0002782	150.605	0.0003396	119.6	0.0002875	144.593	0.889	-11.083
	0.003133	29.483	0.004106	54.13	0.13	35.619	0.004032	48.939
	0.0007752	51.421	0.0008253	55.935	0.000632	54.579	0.0009555	43.064
	0.003324	11.796	0.000414	135.833	0.0008228	124.005	0.004096	53.891
	0.396	-83.048	0.001444	118.052	0.0007755	129.126	0.0003647	153.766
	0.0002303	106.467	0.0004491	35.455	0.0004564	146.615	0.0004885	101.348
	0.0009122	69.252	0.001343	126.055	0.396	-82.937	0.00202	86.315
	0.0005144	88.953	0.0002787	53.564	0.0008705	41.809	0.0002099	25.949
	0.0002687	149.374	0.0007996	57.931	0.0006257	139.148	0.001965	87.266
	0.399	-81.911	0.001006	72.857	0.0003645	32.27	0.0007403	62.551
	0.0002879	123.141	0.0001981	103.523	0.0007194	40.814	0.0003933	118.228
	0.0004003	79.352	0.00106	73.487	0.403	-81.538	0.001226	79.981
	0.001264	34.587	0.0003242	98.354	0.0002697	128.648	0.0009909	39.55
	0.0002681	174.863	0.0002423	49.056	0.0002446	77.843	0.001125	74.935
	0.395	-79.441						
248.35	0.114	32.404	0.003922	30.195	0.003622	2.171	0.89	-10.967
	0.003353	6.264	0.0005498	23.223	0.0007223	30.169	0.001011	48.885
	0.001272	34.159	0.003744	32.734	0.368	-82.07	0.001383	97.583
	0.003209	28.102	0.000446	153.329	0.0003538	113.403	0.0001821	145.365
	0.000227	93.963	0.0005237	141.591	0.003438	1.843	0.001431	93.444
	0.375	-84.125	0.004104	53.681	0.0009515	125.062	0.0003636	128.895
	0.0003478	121.733	0.0002195	100.935	0.000249	141.476	0.89	-10.955
	0.003135	27.672	0.004224	52.964	0.124	32.501	0.004155	52.031
	0.0007566	66.907	0.0007067	46.427	0.0005942	49.067	0.001061	39.397
	0.003283	4.714	0.0004611	124.845	0.0007476	115.234	0.004282	54.546
	0.371	-85.999	0.001576	120.219	0.000657	134.125	0.00061	152.607
	0.0003358	152.854	0.0004962	31.927	0.0002183	130.451	0.000296	107.152
	0.0007893	57.064	0.001482	124.59	0.371	-85.834	0.002135	94.601
	0.0006167	88.449	0.00041	73.85	0.000815	37.748	0.0003525	69.704
	0.0003811	131.488	0.0008358	45.565	0.0006535	128.189	0.002336	89.032
	0.374	-84.828	0.001037	80.388	0.0003243	75.381	0.0008439	40.005
	0.0002594	122.495	0.0003584	118.988	0.0007907	31.801	0.0004457	120.476
	0.0007323	111.653	0.0009794	78.064	0.377	-84.437	0.001312	81.669
	0.001266	33.591	0.0004703	119.722	0.0003308	108.097	0.001067	35.155
	0.0002492	179.958	0.0001823	73.178	0.00009217	69.672	0.001287	80.818
	0.369	-82.234						
268.2	0.108	28.955	0.003835	29.869	0.003642	-0.735	0.891	-10.895
	0.003257	2.733	0.000697	4.955	0.0007346	38.366	0.000919	53.454
	0.001238	30.992	0.003678	29.846	0.345	-84.635	0.00145	95.852
	0.003263	24.747	0.0003254	139.125	0.0003781	134.702	0.000121	121.537
	0.0003237	58.775	0.0007114	118.425	0.003371	-2.624	0.001607	98.187
	0.352	-86.809	0.004245	56.218	0.001023	129.812	0.000405	106.721
	0.0004664	120.562	0.0003703	121.167	0.0003788	90.598	0.891	-10.855
	0.00311	24.014	0.004215	53.294	0.119	29.351	0.004225	54.989
	0.0007012	51.547	0.0006756	53.023	0.0007121	50.236	0.000986	33.16
	0.00341	-0.411	0.0006568	123.237	0.0007178	118.518	0.00427	54.698
	0.348	-88.829	0.001439	114.153	0.0006071	133.261	0.000389	133.38
	0.0002056	100.679	0.0005904	25.105	0.0002623	170.956	0.0003358	128.76
	0.001072	47.931	0.001542	122.9	0.349	-88.6	0.002337	93.992
	0.000762	105.08	0.0004181	67.203	0.0009409	31.843	0.0003296	109.012
	0.0005584	106.553	0.0009074	57.551	0.0007058	128.484	0.002208	91.79
	0.351	-87.535	0.001002	77.971	0.000317	109.974	0.00102	46.12
	0.0005332	89.996	0.000471	117.422	0.0008549	39.836	0.0005065	130.539
	0.0007508	109.93	0.0011	105.236	0.355	-87.12	0.001433	83.238
	0.001278	31.467	0.0004465	107.151	0.0003873	145.615	0.001055	36.856
	0.0003672	125.264	0.0002499	72.069	0.0001015	78.038	0.001388	95.64
	0.345	-84.776						
288.05	0.104	25.426	0.003812	29.047	0.003447	-3.589	0.891	-10.93
	0.003256	-2.037	0.0005537	-4.204	0.0009232	20.555	0.001027	42.634
	0.001249	32.672	0.003681	27.501	0.325	-86.969	0.001723	104.55
	0.003378	25.141	0.0005083	101.968	0.0001108	140.837	0.0003186	95.797
	0.0005285	109.969	0.0004557	134.591	0.003431	-3.681	0.001797	97.663
	0.332	-89.296	0.004348	55.228	0.001057	126.531	0.0003826	101.443
	0.0004839	131.595	0.0003964	112.726	0.0002458	103.08	0.891	-10.848
	0.003286	25.562	0.004537	52.756	0.115	26.291	0.004596	53.473
	0.0008419	74.508	0.0006269	67.445	0.0007593	31.72	0.00112	47.375
	0.003573	-1.32	0.0006251	106.16	0.0008448	115.036	0.004459	56.002
	0.328	-91.385	0.001719	115.153	0.0008148	138.129	0.0003595	139.381
	0.0001804	105.989	0.0007277	10.226	0.0005043	142.955	0.0006054	122.017
	0.0008638	61.919	0.001731	116.899	0.329	-91.119	0.002477	92.782
	0.0007781	111.375	0.0003293	60.076	0.0007848	27.891	0.0002033	152.13
	0.0003266	85.862	0.0007976	52.267	0.0007786	129.898	0.002595	98.431
	0.331	-89.969	0.001214	82.039	0.0002555	93.261	0.0009744	50.777
	0.0003006	70.994	0.0002331	104.198	0.0007842	47.098	0.0005908	133.302
	0.0008059	103.422	0.001556	93.424	0.335	-89.593	0.001648	87.006
	0.001275	33.37	0.0005849	101.554	0.0002911	108.982	0.001016	38.329
	0.0002843	150.948	0.0003516	112.899	0.0002813	103.036	0.001415	97.377
	0.325	-87.093						
307.9	0.099	22.151	0.00393	31.622	0.00354	-2.794	0.891	-10.976
