!Hittite Microwave Corporation								
!12 Elizabeth Drive								
!Chelmsford, MA 01824								
!Tel: 978-250-3343								
!Fax: 978-250-3373								
!Device: HMC224MS8, 5-6 GHz GaAs MMIC SPDT Switch in 8 lead plastic surface mount Mini Small Outline Package								
!Misc: Port 1 = RFC, Port 2 = RF1, Port 3 =RF2, RF2 Selected, Vdd=+5V							
!
# MHZ S MA R 50

2000 0.596 -148.277 0.679 20.199 0.475 59.014
          0.69 21.721 0.408 -129.626 0.599 28.796
          0.483 61.246 0.608 31.318 0.61 -128.117
2035.928 0.581 -151.982 0.67 20.426 0.468 62.033
          0.67 19.71 0.384 -131.801 0.589 30.364
          0.473 61.152 0.6 29.533 0.595 -131.219
2071.856 0.571 -155.669 0.692 19.275 0.498 63.121
          0.686 19.678 0.363 -134.502 0.623 29.585
          0.489 62.964 0.61 29.016 0.583 -134.442
2107.784 0.56 -160.125 0.695 15.953 0.508 60.439
          0.69 15.296 0.337 -137.842 0.63 25.231
          0.499 60.468 0.615 25.855 0.569 -138.22
2143.713 0.547 -163.896 0.677 13.995 0.492 60.11
          0.655 15.164 0.31 -139.389 0.605 23.334
          0.48 61.73 0.599 25.115 0.552 -141.454
2179.641 0.538 -167.715 0.672 13.294 0.495 62.084
          0.694 15.193 0.292 -141.826 0.602 23.632
          0.512 63.796 0.618 24.526 0.539 -144.827
2215.569 0.528 -171.975 0.675 11.873 0.511 62.311
          0.685 9.38 0.266 -144.804 0.616 22.336
          0.517 59.701 0.619 20.707 0.529 -148.791
2251.497 0.516 -176.025 0.674 9.93 0.518 61.728
          0.64 9.656 0.242 -146.465 0.618 20.102
          0.49 61.434 0.598 19.933 0.512 -152.377
2287.425 0.51 -179.869 0.671 8.148 0.526 61.572
          0.667 10.612 0.223 -148.426 0.62 18.255
          0.518 64.17 0.606 19.74 0.501 -155.863
2323.353 0.503 175.708 0.667 6.199 0.532 60.508
          0.68 6.438 0.202 -151.195 0.618 15.72
          0.538 61.639 0.613 17.309 0.491 -159.884
2359.281 0.493 171.51 0.656 4.346 0.524 60.035
          0.651 3.451 0.178 -152.481 0.6 13.878
          0.524 60.151 0.604 15.012 0.478 -163.897
2395.21 0.485 167.612 0.647 3.06 0.523 61.023
          0.624 4.022 0.159 -152.587 0.592 13.342
          0.511 62.269 0.592 13.995 0.467 -167.603
2431.138 0.481 163.57 0.641 1.534 0.531 61.022
          0.652 4.532 0.144 -153.667 0.591 11.815
          0.543 64.403 0.594 13.591 0.458 -171.453
2467.066 0.475 159.227 0.63 -0.056 0.526 61.157
          0.661 -0.836 0.124 -154.032 0.576 10.822
          0.563 60.608 0.601 11.575 0.449 -175.355
2502.994 0.469 155.389 0.619 -0.976 0.534 63.185
          0.609 -2.921 0.109 -151.341 0.579 11.414
          0.53 59.935 0.589 9.114 0.442 -179.377
2538.922 0.464 151.772 0.618 -1.818 0.565 62.897
          0.602 -1.101 0.097 -149.957 0.602 9.401
          0.534 63.258 0.575 8.397 0.432 176.719
2574.85 0.464 148.017 0.619 -3.794 0.568 59.65
          0.619 -2.506 0.082 -147.126 0.592 4.849
          0.561 63.221 0.574 7.642 0.427 172.816
2610.778 0.462 143.711 0.607 -6.163 0.542 59.468
          0.618 -5.83 0.07 -139.693 0.555 3.585
          0.572 61.277 0.575 6.357 0.42 168.853
2646.707 0.457 140.265 0.589 -7.363 0.543 62.018
          0.583 -8.814 0.065 -129.324 0.549 4.886
          0.552 59.861 0.572 4.138 0.414 165.079
2682.635 0.455 136.978 0.583 -8.176 0.563 61.959
          0.562 -6.413 0.064 -120.916 0.559 3.177
          0.543 63.632 0.552 2.663 0.407 161.325
2718.563 0.456 133.483 0.577 -10.001 0.557 60.971
          0.598 -7.97 0.064 -111.965 0.541 0.975
          0.591 63.593 0.547 2.983 0.403 157.837
2754.491 0.453 130.092 0.562 -11.823 0.552 62.536
          0.571 -13.2 0.068 -101.649 0.528 1.436
          0.579 59.78 0.556 1.175 0.4 154.132
2790.419 0.451 127.123 0.547 -12.622 0.571 63.658
          0.539 -12.36 0.078 -97.452 0.536 1.055
          0.558 62.082 0.541 -1.159 0.396 150.402
2826.347 0.451 124.422 0.539 -13.386 0.585 62.907
          0.541 -12.672 0.085 -94.394 0.538 -1.039
          0.578 63.049 0.529 -1.772 0.393 147.104
2862.275 0.451 121.649 0.533 -14.483 0.591 62.194
          0.537 -14.12 0.095 -92.239 0.531 -3.084
          0.588 63.04 0.521 -2.688 0.39 143.831
2898.204 0.45 118.875 0.529 -15.671 0.592 61.058
          0.533 -16.53 0.105 -91.052 0.52 -5.371
          0.6 61.999 0.518 -3.435 0.389 140.569
2934.132 0.449 115.989 0.527 -18.014 0.573 60.598
          0.506 -18.414 0.118 -90.775 0.494 -6.951
          0.584 61.424 0.516 -5.396 0.386 137.205
2970.06 0.447 113.333 0.507 -21.178 0.561 63.521
          0.499 -17.648 0.132 -92.761 0.473 -5.435
          0.59 63.669 0.498 -6.774 0.383 134.15
3005.988 0.442 111.236 0.476 -21.935 0.593 66.206
          0.498 -19.957 0.143 -94.952 0.488 -4.067
          0.61 62.99 0.493 -6.961 0.38 131.522
3041.916 0.443 109.411 0.465 -20.703 0.627 64.388
          0.481 -21.464 0.155 -97.254 0.503 -7.176
          0.609 62.735 0.487 -8.56 0.379 128.772
3077.844 0.444 107.224 0.47 -21.8 0.619 62.217
          0.472 -23.188 0.168 -99.519 0.484 -10.417
          0.615 62.236 0.48 -9.316 0.378 126.087
3113.772 0.442 105.039 0.46 -24.161 0.61 62.92
          0.448 -24.054 0.182 -102.234 0.466 -10.931
          0.602 62.694 0.474 -11.757 0.376 123.108
3149.701 0.44 103.13 0.447 -25.474 0.618 63.28
          0.451 -23.529 0.195 -105.577 0.459 -11.853
          0.627 64.722 0.451 -11.988 0.373 120.85
3185.629 0.439 101.343 0.438 -27.417 0.614 63.289
          0.444 -27.631 0.208 -108.334 0.444 -12.766
          0.64 61.748 0.458 -11.73 0.373 118.537
3221.557 0.437 99.478 0.416 -29.721 0.619 65.233
          0.412 -28.199 0.224 -111.76 0.437 -12.145
          0.612 62.699 0.451 -15.293 0.371 115.897
3257.485 0.433 98.121 0.392 -29.209 0.652 65.547
          0.411 -27.653 0.237 -115.366 0.446 -13.1
          0.638 64.611 0.428 -15.5 0.366 113.959
3293.413 0.434 96.893 0.392 -28.234 0.664 63.006
          0.403 -30.07 0.25 -118.447 0.44 -16.522
          0.649 63.202 0.425 -15.905 0.366 112.095
3329.341 0.434 95.259 0.394 -30.945 0.645 62.572
          0.39 -31.343 0.265 -121.609 0.415 -17.992
          0.652 63.071 0.418 -16.86 0.364 109.924
3365.269 0.431 93.854 0.371 -33.602 0.646 64.36
          0.37 -33.036 0.281 -124.935 0.405 -17.295
          0.643 62.697 0.414 -18.884 0.362 107.767
3401.198 0.429 92.718 0.355 -33.653 0.667 64.411
          0.36 -31.619 0.295 -128.391 0.403 -18.406
          0.653 65.247 0.387 -20.142 0.356 105.893
3437.126 0.427 91.922 0.346 -34.82 0.669 63.849
          0.365 -35.064 0.309 -131.713 0.39 -19.696
          0.693 62.978 0.388 -17.767 0.355 104.512
3473.054 0.427 90.738 0.329 -36.035 0.675 64.504
          0.329 -37.609 0.324 -134.688 0.383 -20.041
          0.65 61.516 0.395 -22.539 0.354 102.162
3508.982 0.421 89.883 0.316 -35.822 0.695 64.192
          0.322 -34.076 0.338 -138.062 0.379 -21.462
          0.669 66.063 0.353 -23.523 0.346 100.555
3544.91 0.42 89.667 0.308 -36.395 0.699 63.213
          0.329 -38.153 0.351 -141.171 0.367 -22.927
          0.715 62.826 0.36 -20.05 0.345 99.724
3580.838 0.42 88.631 0.297 -37.215 0.703 63.221
          0.296 -40.396 0.365 -144.085 0.358 -23.802
          0.672 61.489 0.364 -25.115 0.344 97.476
3616.766 0.415 87.935 0.29 -36.839 0.714 62.213
          0.286 -37.927 0.379 -147.086 0.349 -25.593
          0.682 64.869 0.33 -26.058 0.337 95.979
3652.695 0.413 87.435 0.295 -39.226 0.695 60.992
          0.285 -39.353 0.393 -149.92 0.328 -27.322
          0.715 64.156 0.323 -24.03 0.334 94.658
3688.623 0.409 86.68 0.276 -45.395 0.676 63.62
          0.275 -42.199 0.407 -152.817 0.308 -25.395
          0.725 62.407 0.327 -24.12 0.33 92.889
3724.551 0.403 86.357 0.233 -45.729 0.719 66.675
          0.252 -44.066 0.42 -155.677 0.314 -23.102
          0.702 61.504 0.326 -27.857 0.324 91.332
3760.479 0.399 86.226 0.219 -38.609 0.778 64.247
          0.237 -41.164 0.432 -158.568 0.326 -26.001
          0.704 64.693 0.291 -29.552 0.316 90.163
3796.407 0.401 86.595 0.234 -36.445 0.771 59.834
          0.244 -42.386 0.444 -161.144 0.311 -30.369
          0.759 63.486 0.287 -24.599 0.316 89.887
3832.335 0.402 85.627 0.241 -40.439 0.733 59.214
          0.224 -46.061 0.455 -163.525 0.286 -31.451
          0.731 60.463 0.299 -28.665 0.316 87.629
3868.263 0.395 84.98 0.229 -45.262 0.72 60.809
          0.209 -43.95 0.468 -166.088 0.269 -30.506
          0.725 63.385 0.269 -29.934 0.307 85.706
3904.192 0.391 84.911 0.208 -48.188 0.725 62.418
          0.206 -45.519 0.478 -168.612 0.261 -29.077
          0.758 62.226 0.269 -27.673 0.3 84.621
3940.12 0.387 84.71 0.184 -48.011 0.751 63.646
          0.19 -46.061 0.489 -170.988 0.259 -28.152
          0.744 62.002 0.26 -30.631 0.293 83.067
3976.048 0.385 85.207 0.171 -43.532 0.788 62.247
          0.185 -45.488 0.498 -173.404 0.261 -29.471
          0.771 62.372 0.249 -28.593 0.286 82.583
4011.976 0.387 85.112 0.177 -41.289 0.783 59.436
          0.174 -47.647 0.508 -175.563 0.25 -32.377
          0.763 60.227 0.252 -30.921 0.285 81.224
4047.904 0.383 84.56 0.176 -46.361 0.757 59.819
          0.162 -46.284 0.517 -177.776 0.232 -32.32
          0.755 62.014 0.229 -31.984 0.278 78.999
4083.832 0.377 84.872 0.154 -48.151 0.774 61.435
          0.157 -46.497 0.526 179.978 0.227 -30.613
          0.786 61.718 0.226 -29.408 0.269 77.918
4119.76 0.377 85.014 0.146 -43.528 0.8 59.864
          0.148 -47.044 0.534 177.941 0.226 -31.954
          0.788 60.671 0.222 -30.49 0.265 76.999
4155.689 0.377 84.897 0.15 -44.421 0.781 58.252
          0.141 -47.71 0.541 175.912 0.213 -33.489
          0.795 59.948 0.218 -30.526 0.262 75.347
4191.617 0.372 84.584 0.14 -49.085 0.77 59.581
          0.128 -48.331 0.549 173.94 0.201 -32.214
          0.774 59.582 0.208 -33.788 0.255 73.024
4227.545 0.365 84.993 0.124 -48.963 0.792 60.196
          0.122 -45.318 0.556 171.898 0.198 -31.351
          0.795 61.911 0.188 -30.091 0.243 71.642
4263.473 0.366 85.381 0.117 -46.591 0.8 59.124
          0.121 -47.417 0.562 169.981 0.193 -32.01
          0.834 59.246 0.203 -28.158 0.239 71.081
4299.401 0.364 84.87 0.112 -47.446 0.798 59.113
          0.107 -48.716 0.569 168.185 0.186 -31.968
          0.795 57.812 0.193 -34.731 0.235 68.576
4335.329 0.359 85.387 0.102 -46.793 0.812 58.985
          0.1 -45.357 0.575 166.272 0.181 -31.695
          0.805 60.219 0.174 -31.149 0.225 66.686
4371.257 0.357 85.878 0.098 -45.072 0.814 57.792
          0.097 -46.204 0.58 164.399 0.175 -32.342
          0.831 58.815 0.179 -29.463 0.219 65.623
4407.186 0.353 85.756 0.092 -47.556 0.806 58.082
          0.089 -46.312 0.585 162.697 0.167 -31.768
          0.826 57.827 0.174 -31.354 0.214 63.263
4443.114 0.349 86.056 0.08 -46.078 0.827 58.519
          0.082 -46.219 0.59 160.913 0.165 -30.802
          0.825 57.332 0.167 -32.313 0.206 61.556
4479.042 0.347 86.173 0.078 -41.01 0.841 56.492
          0.075 -44.272 0.594 159.21 0.161 -32.309
          0.82 57.894 0.155 -31.921 0.2 59.559
4514.97 0.344 86.276 0.08 -42.716 0.812 55.262
          0.072 -43.4 0.598 157.483 0.15 -33.245
          0.847 57.685 0.157 -28.715 0.195 57.132
4550.898 0.34 86.172 0.072 -49.207 0.798 57.068
          0.065 -45.071 0.603 155.762 0.142 -31.086
          0.836 55.66 0.155 -33.302 0.189 54.03
4586.826 0.333 86.628 0.059 -49.71 0.823 58.257
          0.059 -41.478 0.606 154.079 0.141 -29.254
          0.827 57.305 0.138 -30.783 0.178 51.01
4622.754 0.332 87.606 0.05 -44.299 0.844 57.629
          0.056 -40.459 0.609 152.443 0.14 -29.113
          0.865 56.546 0.146 -28.118 0.17 49.612
4658.683 0.331 87.727 0.046 -39.119 0.86 56.862
          0.049 -40.944 0.613 150.698 0.138 -29.314
          0.844 54.407 0.14 -34.149 0.167 46.996
4694.611 0.326 88.176 0.043 -33.703 0.874 54.965
          0.044 -36.962 0.616 149.068 0.135 -30.65
          0.838 56.043 0.126 -30.218 0.16 43.996
4730.539 0.325 88.159 0.044 -30.723 0.851 52.78
          0.041 -35.488 0.619 147.475 0.128 -32.518
          0.862 55.293 0.13 -28.865 0.157 41.398
4766.467 0.319 87.802 0.042 -37.52 0.816 53.874
          0.036 -34.27 0.622 145.849 0.118 -31.176
          0.857 54.328 0.124 -30.507 0.152 36.515
4802.395 0.314 88.407 0.032 -40.731 0.83 56.077
          0.032 -31.198 0.624 144.212 0.116 -28.18
          0.862 54.06 0.122 -30.214 0.143 32.557
4838.323 0.312 89.1 0.026 -31.032 0.863 55.606
          0.028 -27.352 0.626 142.548 0.116 -27.943
          0.857 53.525 0.116 -31.113 0.138 29.687
4874.251 0.31 89.617 0.023 -23.529 0.865 54.186
          0.024 -22.699 0.629 140.875 0.113 -28.963
          0.863 53.905 0.113 -28.637 0.133 26.213
4910.18 0.306 90.05 0.02 -17.9 0.867 54.094
          0.021 -17.667 0.631 139.27 0.11 -28.645
          0.868 52.701 0.112 -30.809 0.129 22.335
4946.108 0.302 90.5 0.017 -7.787 0.88 53.262
          0.018 -8.448 0.633 137.59 0.108 -28.949
          0.859 52.838 0.104 -29.689 0.125 18.134
4982.036 0.3 90.898 0.016 3.193 0.874 51.825
          0.016 0.067 0.635 135.906 0.104 -30.112
          0.878 52.295 0.107 -29.744 0.122 14.539
5017.964 0.295 90.87 0.014 11.101 0.862 51.752
          0.013 12.06 0.636 134.301 0.099 -29.908
          0.861 50.929 0.098 -32.893 0.122 9.309
5053.892 0.288 91.444 0.012 29.216 0.865 51.762
          0.012 28.918 0.638 132.682 0.096 -29.648
          0.859 52.338 0.094 -27.384 0.118 3.739
5089.82 0.286 91.99 0.013 45.454 0.86 51.361
          0.012 44.714 0.64 131.011 0.093 -29.92
          0.887 51.129 0.099 -30.12 0.115 -0.054
5125.749 0.283 92.242 0.013 56.53 0.857 52.152
          0.013 59.202 0.641 129.308 0.09 -28.922
          0.864 49.715 0.088 -33.485 0.115 -5.694
5161.677 0.28 93.55 0.014 70.457 0.882 52.39
          0.015 74.259 0.643 127.583 0.09 -28.55
          0.861 50.769 0.086 -29.41 0.111 -11.146
5197.605 0.28 94.394 0.016 82.73 0.899 50.447
          0.017 82.182 0.645 125.955 0.089 -30.697
          0.872 50.165 0.086 -30.947 0.11 -14.14
5233.533 0.277 94.754 0.019 92.411 0.879 48.96
          0.019 90.086 0.647 124.194 0.084 -32.396
          0.871 49.763 0.083 -31.635 0.111 -18.596
5269.461 0.274 95.502 0.021 95.051 0.869 49.5
          0.021 95.75 0.648 122.531 0.08 -32.189
          0.873 48.829 0.08 -33.897 0.111 -23.605
5305.389 0.272 96.321 0.023 99.996 0.88 49.259
          0.024 100.446 0.649 120.835 0.079 -32.717
          0.858 48.84 0.074 -32.432 0.112 -28.396
5341.317 0.271 97.211 0.026 105.179 0.876 48.203
          0.027 105.006 0.65 119.181 0.076 -34.478
          0.873 49.21 0.077 -32.2 0.112 -32.665
5377.246 0.27 97.656 0.029 106.974 0.865 48.338
          0.029 107.278 0.653 117.43 0.073 -34.917
          0.871 47.575 0.072 -37.146 0.113 -36.414
5413.174 0.267 98.408 0.031 109.38 0.871 48.415
          0.031 110.653 0.654 115.74 0.071 -35.481
          0.856 48.131 0.068 -34.454 0.114 -41.352
5449.102 0.267 98.998 0.033 111.922 0.873 47.732
          0.034 112.88 0.656 114.033 0.069 -37.215
          0.874 47.987 0.07 -36.632 0.113 -45.21
5485.03 0.266 99.386 0.036 112.93 0.87 47.861
          0.036 114.509 0.658 112.323 0.066 -38.424
          0.863 46.747 0.064 -40.097 0.115 -49.141
5520.958 0.267 100.144 0.036 115.138 0.886 47.683
          0.039 117.326 0.659 110.532 0.065 -39.949
          0.86 47.334 0.063 -38.668 0.115 -53.816
5556.886 0.268 100.383 0.038 121.386 0.892 45.821
          0.042 118.124 0.661 108.818 0.064 -43.739
          0.868 46.665 0.063 -42.74 0.114 -56.438
5592.814 0.268 100.327 0.044 124.927 0.866 44.705
          0.044 119.739 0.664 107.096 0.06 -46.523
          0.859 46.302 0.059 -44.332 0.117 -59.446
5628.743 0.268 100.82 0.048 122.42 0.853 45.604
          0.047 121.595 0.665 105.453 0.057 -47.689
          0.864 46.016 0.058 -47.274 0.118 -63.932
5664.671 0.268 101.225 0.049 122.232 0.863 45.896
          0.049 122.827 0.668 103.809 0.056 -49.726
          0.855 45.467 0.055 -49.58 0.117 -67.776
5700.599 0.269 101.462 0.051 124.681 0.864 45.221
          0.051 124.675 0.669 102.196 0.055 -53.26
          0.857 45.925 0.056 -51.106 0.117 -71.547
5736.527 0.27 101.51 0.053 125.312 0.862 45.141
          0.054 125.672 0.671 100.602 0.054 -56.398
          0.864 44.887 0.054 -57.17 0.117 -74.801
5772.455 0.272 101.535 0.054 127.069 0.87 44.73
          0.056 126.737 0.674 98.889 0.053 -60.186
          0.85 44.757 0.052 -58.595 0.116 -78.486
5808.383 0.274 101.587 0.057 130.586 0.868 43.516
          0.059 127.873 0.675 97.341 0.052 -65.291
          0.859 44.755 0.053 -63.344 0.115 -81.967
5844.311 0.275 101.521 0.062 131.28 0.853 43.197
          0.061 128.612 0.678 95.743 0.051 -69.393
          0.853 43.835 0.05 -68.578 0.116 -85.343
5880.24 0.276 101.723 0.064 129.899 0.852 43.625
          0.063 130.286 0.68 94.189 0.05 -72.732
          0.849 44.119 0.051 -71.025 0.116 -89.857
5916.168 0.278 101.619 0.065 132.378 0.859 43.039
          0.067 130.793 0.682 92.588 0.051 -77.764
          0.856 43.559 0.051 -77.487 0.114 -94.035
5952.096 0.279 101.062 0.069 134.299 0.852 42.273
          0.069 131.67 0.685 91.09 0.051 -83.041
          0.848 43.058 0.051 -81.56 0.114 -97.987
5988.024 0.282 100.714 0.072 133.997 0.847 42.26
          0.071 132.907 0.687 89.651 0.052 -87.635
          0.85 42.926 0.053 -86.428 0.114 -102.813
6023.952 0.285 100.316 0.074 135.002 0.849 41.894
          0.074 133.879 0.689 88.236 0.053 -92.227
          0.845 42.364 0.053 -91.037 0.113 -107.375
6059.88 0.288 100.17 0.078 136.395 0.842 41.343
          0.076 135.341 0.691 86.834 0.055 -97.105
          0.844 42.493 0.056 -94.942 0.113 -112.358
6095.808 0.291 99.989 0.082 135.708 0.837 41.474
          0.08 135.696 0.693 85.45 0.056 -101.447
          0.849 41.621 0.058 -101.792 0.113 -117.48
6131.737 0.293 99.687 0.082 135.883 0.843 41.308
          0.081 135.998 0.696 84.068 0.059 -105.327
          0.837 41.083 0.059 -104.02 0.113 -122.702
6167.665 0.296 99.387 0.083 138.501 0.843 40.34
          0.084 137.622 0.697 82.761 0.063 -110.177
          0.84 41.309 0.064 -107.919 0.114 -128.549
6203.593 0.299 98.859 0.088 139.483 0.834 39.854
          0.087 137.757 0.699 81.509 0.065 -114.174
          0.841 40.417 0.066 -114.009 0.115 -134.156
6239.521 0.302 98.435 0.091 139.053 0.831 39.764
          0.089 138.617 0.702 80.281 0.069 -117.535
          0.832 40.147 0.069 -116.306 0.118 -140.076
6275.449 0.305 97.976 0.093 140.731 0.83 39.135
          0.092 139.677 0.703 79.098 0.073 -121.535
          0.833 39.916 0.075 -120.266 0.122 -146.081
6311.377 0.307 97.199 0.098 141.913 0.821 38.611
          0.095 140.028 0.706 77.951 0.077 -124.839
          0.83 39.198 0.078 -124.052 0.126 -151.705
6347.305 0.309 96.636 0.103 140.524 0.815 38.699
          0.098 140.966 0.707 76.884 0.081 -127.251
          0.826 38.764 0.083 -127.021 0.132 -157.53
6383.234 0.313 95.861 0.103 139.762 0.818 38.591
          0.101 141.624 0.708 75.83 0.087 -129.956
          0.823 38.348 0.087 -129.85 0.139 -163.437
6419.162 0.318 95.163 0.103 141.029 0.819 37.956
          0.104 142.724 0.709 74.781 0.092 -132.503
          0.82 38.11 0.093 -132.522 0.146 -169.193
6455.09 0.322 94.508 0.106 142.634 0.816 37.249
          0.107 142.956 0.711 73.833 0.098 -135.317
          0.819 37.293 0.097 -136.427 0.154 -174.525
6491.018 0.327 93.794 0.109 144.125 0.811 36.542
          0.109 143.312 0.712 72.915 0.103 -137.996
          0.808 36.659 0.102 -137.184 0.163 -179.275
6526.946 0.331 93.282 0.114 145.306 0.802 35.962
          0.113 144.56 0.713 72.021 0.108 -140.422
          0.807 36.551 0.111 -139.548 0.175 176.03
6562.874 0.336 92.838 0.12 145.012 0.794 35.764
          0.117 144.674 0.714 71.153 0.114 -142.2
          0.806 35.879 0.116 -143.63 0.187 171.574
6598.802 0.341 92.418 0.123 143.386 0.792 35.539
          0.119 145.053 0.714 70.338 0.121 -144.153
