!Hittite Microwave Corporation								
!12 Elizabeth Drive								
!Chelmsford, MA 01824								
!Tel: 978-250-3343								
!Fax: 978-250-3373							
!Device: HMC241QS16, DC-3.5 GHz GaAs MMIC SP4T Non-Reflective Switch in 16 lead QSOP package								
!Misc: Port 1 = RFC, Port 2 = RF1, Port 3 = RF2. Port 4 = RF3, Port 5 = RF 4, RF2 Selected, Bias: +5VDC, DEEMBEDDED TO THE PINS OF THE DEVICE							
!
# MHZ S MA R 50

0.01	0.999	-0.186	0.00005585	109.476	0.001802	120.758	0.00002131	166.222
	0.00003147	87.091	0.00004158	164.231	0.998	-0.214	0.00001913	81.656
	0.00005436	107.465	0.0000825	107.547	0.001805	121.569	0.00005087	105.614
	0.999	-0.188	0.000003562	-172.308	0.00003116	111.382	0.00002162	167.542
	0.00004096	114.7	0.00004753	78.005	0.998	-0.244	0.00003956	101.487
	0.00001581	-105.802	0.00003056	87.169	0.00003253	36.806	0.000112	121.782
	0.997	-0.254						
19.105	0.455	-59.11	0.0007343	87.621	0.813	29.39	0.0006165	90.234
	0.000709	88.845	0.0006982	89.746	0.966	-12.329	0.0006767	88.479
	0.0002609	48.019	0.0002723	36.691	0.813	29.394	0.0006713	85.77
	0.451	-56.809	0.0005241	92.723	0.0006883	83.766	0.0005821	92.013
	0.0002391	41.488	0.0005802	85.568	0.966	-12.33	0.0004092	59.701
	0.000714	96.206	0.0002888	43.161	0.000625	82.085	0.0003853	56.227
	0.965	-12.274						
38.201	0.248	-70.954	0.001433	73.665	0.912	13.605	0.001173	72.603
	0.001242	75.148	0.001407	75.645	0.909	-23.324	0.00126	73.327
	0.0004171	-32.129	0.0006299	-60.935	0.912	13.61	0.001276	74.347
	0.249	-65.981	0.001078	73.742	0.001082	66.793	0.001182	77.615
	0.0003905	-30.589	0.001147	76.604	0.91	-23.279	0.0006701	-23.572
	0.001281	76.427	0.0006108	-60.549	0.001072	67.856	0.0006664	-28.699
	0.909	-23.264						
57.296	0.164	-73.492	0.002028	70.292	0.93	8.577	0.001774	71.856
	0.002013	75.732	0.002039	70.176	0.838	-32.88	0.001898	71.046
	0.000121	-114.199	0.0001564	-179.714	0.93	8.595	0.00194	71.915
	0.168	-66.214	0.001617	71.138	0.001745	65.155	0.001789	73.091
	0.0001388	-124.658	0.001614	70.967	0.838	-32.847	0.0002051	55.157
	0.002026	75.992	0.0001434	163.118	0.001744	63.971	0.0001922	68.445
	0.838	-32.718						
76.392	0.121	-73.156	0.002622	62.128	0.935	6.021	0.002325	64.257
	0.002637	69.674	0.002596	61.709	0.763	-41.002	0.002443	64.432
	0.00006548	-119.718	0.00005147	91.308	0.934	6.017	0.002429	64.222
	0.128	-63.974	0.002116	62.157	0.00226	56.482	0.002334	63.807
	0.00008512	-140.243	0.00215	61.716	0.764	-40.956	0.0001963	88.756
	0.002616	69.161	0.00008614	122.127	0.002249	55.697	0.0001924	87.052
	0.763	-40.773						
95.487	0.095	-71.417	0.003052	54.54	0.937	4.416	0.002715	56.957
	0.00309	64.144	0.003045	55.17	0.692	-47.87	0.00286	58.47
	0.00009212	153.989	0.0001116	81.953	0.937	4.398	0.002824	57.781
	0.105	-60.796	0.002443	55.264	0.002627	48.597	0.00273	55.346
	0.00006968	138.308	0.002461	55.026	0.693	-47.79	0.0003062	106.139
	0.003091	63.771	0.0001237	87.302	0.002614	48.09	0.0003116	108.109
	0.692	-47.569						
114.583	0.078	-68.924	0.003379	48.59	0.938	3.224	0.003023	49.872
	0.003442	58.421	0.003388	49.413	0.626	-53.639	0.00315	53.677
	0.0001175	130.824	0.0001022	89.533	0.938	3.246	0.003152	53.131
	0.09	-57.075	0.00272	49.03	0.002934	41.114	0.003043	50.097
	0.0001122	139.481	0.0027	48.964	0.628	-53.528	0.0004368	115.863
	0.003468	58.265	0.00009833	94.105	0.002898	41.02	0.0004134	111.391
	0.628	-53.241						
133.678	0.066	-65.653	0.003602	43.555	0.939	2.361	0.003247	44.665
	0.003679	54.569	0.003612	44.554	0.569	-58.513	0.003359	49.514
	0.0001352	129.097	0.000148	105.306	0.939	2.355	0.003381	49.012
	0.079	-53.272	0.002885	44.327	0.003128	34.428	0.003227	45.173
	0.0001513	137.187	0.002891	44.121	0.571	-58.321	0.0006247	122.779
	0.003649	54.535	0.0001773	110.35	0.003107	35.115	0.0006246	121.783
	0.571	-58.035						
152.773	0.056	-61.58	0.003796	39.94	0.939	1.657	0.0034	40.888
	0.00388	52.321	0.00377	40.513	0.519	-62.669	0.003511	45.978
	0.0001665	124.821	0.0002097	114.255	0.939	1.639	0.003548	45.986
	0.072	-49.301	0.003019	39.937	0.003272	29.503	0.003334	40.842
	0.0001594	132.609	0.003028	39.756	0.521	-62.426	0.0008141	121.947
	0.003857	52.012	0.0002492	116.01	0.003292	29.659	0.0008312	125.12
	0.521	-62.088						
171.869	0.049	-56.956	0.003921	37.122	0.939	1.097	0.003485	37.571
	0.004062	50.665	0.003906	36.993	0.474	-66.26	0.003639	43.093
	0.0002016	127.46	0.0002639	110.86	0.939	1.054	0.003657	43.244
	0.067	-45.396	0.003135	36.372	0.003384	25.148	0.003479	37.59
	0.0001794	133.358	0.003149	36.43	0.477	-65.975	0.0009969	120.067
	0.004046	50.252	0.00025	110.446	0.00343	24.94	0.001016	120.949
	0.477	-65.564						
190.964	0.044	-51.878	0.003968	34.392	0.938	0.585	0.003563	35.007
	0.004191	49.339	0.003986	34.108	0.436	-69.399	0.003757	41.265
	0.0002515	128.423	0.0003264	108.435	0.939	0.53	0.003716	41.341
	0.063	-41.705	0.003234	33.428	0.003454	21.191	0.003581	34.539
	0.0002116	132.877	0.003249	33.966	0.439	-69.047	0.0012	120.275
	0.004186	49.215	0.0002788	106.802	0.003468	21.415	0.001213	118.277
	0.439	-68.567						
210.06	0.04	-46.493	0.004029	32.066	0.938	0.101	0.00365	32.834
	0.004288	48.431	0.004018	31.878	0.402	-72.155	0.003831	40.252
	0.0002688	119.561	0.0003662	107.5	0.939	0.061	0.003774	40.421
	0.06	-38.177	0.003292	30.825	0.003536	17.833	0.003629	32.341
	0.0002533	124.607	0.003313	31.637	0.406	-71.761	0.001418	119.203
	0.004319	48.646	0.000349	104.611	0.003532	18.526	0.001425	117.652
	0.406	-71.199						
229.155	0.037	-41.015	0.004101	30.2	0.938	-0.298	0.003711	30.922
	0.004406	48.152	0.004067	30.023	0.373	-74.643	0.003869	39.151
	0.0002779	115.77	0.0003771	105.451	0.939	-0.338	0.003847	39.451
	0.058	-34.886	0.003316	29.115	0.003611	14.903	0.003678	30.76
	0.0003041	112.834	0.003347	29.514	0.377	-74.151	0.001625	117.757
	0.00443	48.239	0.0003978	102.184	0.003637	15.586	0.001656	117.791
	0.377	-73.559						
248.251	0.034	-35.399	0.004134	28.628	0.938	-0.652	0.00374	29.539
	0.004517	48.201	0.004121	28.281	0.347	-76.905	0.003897	38.23
	0.0003289	117.975	0.0004049	106.166	0.939	-0.692	0.00391	38.436
	0.057	-31.853	0.003363	27.959	0.003635	12.437	0.00373	29.144
	0.00034	112.452	0.003374	27.598	0.35	-76.276	0.001813	117.35
	0.004506	47.898	0.0004166	104.566	0.003648	12.349	0.001864	116.772
	0.351	-75.668						
267.346	0.033	-29.818	0.004155	27.305	0.938	-0.979	0.003741	28.157
	0.004581	48.129	0.004139	26.754	0.324	-78.899	0.003893	37.927
	0.0003518	109.383	0.0004583	105.967	0.938	-1.01	0.00395	37.708
	0.056	-29.128	0.003399	26.956	0.003662	10.196	0.003808	28.489
	0.000364	113.081	0.003411	26.138	0.327	-78.249	0.002009	116.486
	0.004568	47.878	0.0004466	103.719	0.003632	9.325	0.002041	115.903
	0.328	-77.543						
286.441	0.032	-24.751	0.004174	25.843	0.938	-1.298	0.003765	27.277
	0.004656	48.322	0.004161	25.709	0.303	-80.772	0.003905	37.433
	0.0003938	108.859	0.0005135	106.37	0.938	-1.323	0.003952	37.54
	0.055	-26.877	0.003406	25.764	0.003694	8.072	0.003817	27.134
	0.0003874	110.467	0.003403	25.299	0.307	-80.011	0.002229	114.755
	0.004687	47.957	0.0005219	103.593	0.003669	7.331	0.00225	115.874
	0.308	-79.236						
305.537	0.031	-20.15	0.004182	25.174	0.938	-1.576	0.003792	26.495
	0.004732	48.674	0.004158	24.844	0.285	-82.482	0.003946	37.714
	0.0004227	110.272	0.0005828	106.899	0.938	-1.654	0.003947	37.469
	0.055	-24.994	0.003411	24.229	0.003729	5.253	0.003807	25.61
	0.0004129	109.401	0.003412	23.972	0.289	-81.683	0.002439	114.382
	0.004755	48.351	0.0005603	102.939	0.003744	5.521	0.002425	114.5
	0.29	-80.857						
324.632	0.03	-16.006	0.004112	24.412	0.938	-1.862	0.003786	25.395
	0.004824	48.881	0.004141	24.503	0.268	-83.996	0.003983	37.977
	0.0004627	107.387	0.0006115	107.289	0.937	-1.966	0.004003	37.103
	0.055	-23.529	0.003431	23.292	0.003774	3.314	0.003841	24.77
	0.0004322	114.778	0.003433	22.502	0.272	-83.23	0.002647	113.757
	0.00483	48.832	0.0005667	106.686	0.003737	3.199	0.002611	113.885
	0.273	-82.323						
343.728	0.03	-12.395	0.004119	23.387	0.937	-2.15	0.003822	24.276
	0.004865	49.191	0.004119	23.479	0.253	-85.479	0.003977	37.531
	0.0004567	105.755	0.000669	103.913	0.938	-2.222	0.003979	37.591
	0.056	-22.474	0.003429	22.698	0.003808	1.454	0.003772	24.382
	0.0005446	113.916	0.003442	22.494	0.257	-84.69	0.002815	113.043
	0.004873	49.608	0.0006388	105.938	0.00374	1.363	0.002826	113.254
	0.258	-83.746						
362.823	0.031	-9.429	0.004098	22.582	0.937	-2.452	0.003796	23.34
	0.004926	50.151	0.004065	22.968	0.24	-86.798	0.004013	38.073
	0.000531	108.35	0.0006695	101.524	0.938	-2.545	0.003994	37.948
	0.056	-21.402	0.003427	21.562	0.003782	-1.002	0.003805	23.798
	0.0005321	109.708	0.003422	21.678	0.243	-86.065	0.00302	111.802
	0.004904	50.059	0.000652	101.052	0.003738	-0.552	0.002988	111.836
	0.245	-85.03						
381.919	0.031	-6.803	0.004086	22.588	0.937	-2.691	0.003802	23.061
	0.004982	50.732	0.004138	22.818	0.227	-88.041	0.003972	38.762
	0.0005265	108.425	0.0007574	102.406	0.938	-2.841	0.003926	38.302
	0.056	-20.64	0.003432	21.3	0.003753	-1.93	0.003819	23.115
	0.0005494	107.627	0.003408	20.556	0.23	-87.352	0.003197	111.183
	0.004971	50.947	0.0007376	100.138	0.003779	-2.525	0.003212	111.103
	0.232	-86.256						
401.014	0.032	-4.732	0.00406	22.276	0.937	-3.024	0.003791	22.096
	0.005038	51.545	0.00409	22.833	0.216	-89.173	0.003978	38.873
	0.0005824	105.643	0.0007551	101.637	0.937	-3.089	0.003997	38.571
	0.057	-20.015	0.003407	20.385	0.003749	-3.356	0.003854	22.478
	0.0005991	107.253	0.00338	19.862	0.219	-88.696	0.00337	110.668
	0.005066	50.899	0.0007086	104.899	0.003762	-4.326	0.003397	110.607
	0.221	-87.497						
420.109	0.032	-2.977	0.004026	22.195	0.937	-3.313	0.003707	22.197
	0.005064	51.915	0.004075	22.096	0.205	-90.284	0.003935	39.29
	0.0005897	108.207	0.0007781	104.309	0.936	-3.31	0.003929	39.366
	0.057	-19.291	0.003385	20.425	0.003717	-5.403	0.003783	22.187
	0.0006012	110.118	0.003376	20.828	0.209	-89.879	0.003556	110.64
	0.005093	52.161	0.000808	105.963	0.003746	-5.08	0.003555	110.436
	0.21	-88.652						
439.205	0.033	-1.503	0.003985	21.539	0.937	-3.616	0.003739	22.16
	0.005153	53.302	0.004028	21.574	0.195	-91.42	0.003966	39.845
	0.0006625	109.869	0.0008498	104.851	0.936	-3.606	0.003922	39.102
	0.057	-18.844	0.003358	20.299	0.003717	-6.729	0.003682	22.38
	0.0006315	106.323	0.003383	20.174	0.199	-91.14	0.00376	110.198
	0.005183	53.292	0.0008667	105.908	0.003728	-7.364	0.003745	109.961
	0.201	-89.861						
458.3	0.034	-0.166	0.003935	21.568	0.936	-3.802	0.003716	21.901
	0.005222	54.483	0.003969	21.595	0.185	-92.413	0.003934	40.547
	0.0006686	104.151	0.000903	103.511	0.936	-3.8	0.003924	40.573
	0.057	-18.053	0.003349	20.148	0.003703	-8.784	0.00368	22.238
	0.0006512	106.782	0.003339	19.487	0.19	-92.346	0.003889	109.999
	0.00519	54.317	0.0008989	105.403	0.003756	-8.732	0.003893	110.006
	0.192	-91.002						
477.396	0.035	1.019	0.003895	22.051	0.936	-4.024	0.003713	22.039
	0.005286	55.209	0.003924	21.915	0.177	-93.43	0.003902	41.155
	0.0007089	105.948	0.0009317	102.384	0.936	-4.024	0.003912	41.786
	0.057	-17.304	0.0033	20.774	0.003705	-10.301	0.003669	22.189
	0.0007084	104.88	0.003317	19.576	0.181	-93.656	0.004087	109.953
	0.005257	54.779	0.0009329	102.856	0.003738	-10.542	0.004061	110.128
	0.183	-92.144						
496.491	0.036	2.178	0.003867	21.713	0.936	-4.228	0.003663	22.048
	0.005343	56.445	0.00386	21.953	0.169	-94.435	0.003896	42.103
	0.0007313	105.452	0.0009556	102.411	0.936	-4.263	0.003885	42.407
	0.057	-16.559	0.00329	20.504	0.003713	-10.94	0.003642	21.817
	0.0007126	105.499	0.003318	19.881	0.173	-94.866	0.00429	110.172
	0.005327	55.936	0.0009415	101.443	0.003707	-12.369	0.004296	109.928
	0.176	-93.186						
515.587	0.037	3.289	0.003829	21.788	0.936	-4.413	0.003653	21.907
	0.005377	57.074	0.003818	21.567	0.161	-95.385	0.003878	43.081
	0.0007551	103.836	0.0009897	102.431	0.935	-4.456	0.00387	43.599
	0.057	-15.674	0.003308	19.905	0.00372	-12.549	0.003647	21.455
	0.0007758	105.103	0.003328	19.508	0.166	-96.056	0.004444	110.048
	0.005413	56.849	0.001003	102.061	0.003716	-13.547	0.004507	109.998
	0.169	-94.291						
534.682	0.039	4.368	0.003782	22.293	0.935	-4.588	0.003665	21.646
	0.005458	57.743	0.003788	21.716	0.154	-96.377	0.003852	43.996
	0.0007629	103.102	0.001043	102.142	0.936	-4.682	0.003858	44.371
	0.057	-14.627	0.003297	19.759	0.003732	-14.649	0.003654	20.904
	0.0008293	105.03	0.003322	19.207	0.16	-97.308	0.004641	109.438
	0.00549	57.731	0.00107	102.056	0.003726	-15.005	0.004668	109.814
	0.162	-95.436						
553.777	0.04	5.322	0.00371	22.031	0.935	-4.804	0.003627	21.844
	0.005544	58.839	0.003703	21.753	0.147	-97.418	0.003829	44.781
	0.0008059	103.199	0.001115	101.932	0.936	-4.923	0.003833	45.262
	0.057	-13.67	0.003262	19.184	0.00374	-16.14	0.003624	20.951
	0.0008551	103.678	0.003264	19.268	0.153	-98.574	0.004844	109.653
	0.00555	58.612	0.001107	102.786	0.003699	-16.183	0.004817	109.547
	0.156	-96.624						
572.873	0.041	6.353	0.003652	22.035	0.934	-5.072	0.003549	22.135
	0.005589	59.732	0.003638	21.66	0.14	-98.465	0.003792	45.895
	0.0008736	104.022	0.001151	101.828	0.935	-5.162	0.003814	46.384
	0.057	-12.691	0.00325	18.737	0.003735	-17.8	0.003538	21.25
	0.0008641	103.446	0.003226	19.03	0.148	-99.801	0.004987	109.851
	0.005608	59.545	0.001127	102.036	0.0037	-17.593	0.004996	109.76
	0.151	-97.781						
591.968	0.042	7.497	0.00362	22.614	0.934	-5.336	0.003503	21.767
	0.005672	60.498	0.003613	22.071	0.134	-99.522	0.00377	47.455
	0.0009345	103.719	0.00116	102.291	0.935	-5.393	0.003811	47.241
	0.056	-11.593	0.003225	18.836	0.003721	-19.173	0.003472	21.684
	0.0008776	105.078	0.003204	19.095	0.143	-101.059	0.005163	109.57
	0.005682	60.75	0.001163	101.269	0.003725	-19.1	0.005195	109.79
	0.145	-98.834						
611.064	0.043	8.532	0.003555	23.008	0.934	-5.587	0.003499	21.622
	0.005772	61.742	0.003555	22.829	0.128	-100.624	0.003765	48.785
	0.0009476	103.586	0.001185	102.338	0.935	-5.647	0.003793	48.572
	0.056	-10.603	0.003182	19.322	0.003715	-20.176	0.003489	22.134
	0.0009126	104.735	0.003174	19.687	0.138	-102.348	0.005382	109.541
	0.005737	61.812	0.001223	102.113	0.003722	-20.38	0.005354	109.563
	0.141	-99.931						
630.159	0.044	9.498	0.003504	23.228	0.933	-5.847	0.003485	22.321
	0.0058	63.094	0.003484	23.319	0.122	-101.692	0.003744	49.851
	0.0009402	104.949	0.001235	101.044	0.935	-5.933	0.00376	50.385
	0.057	-9.772	0.003168	19.643	0.003705	-21.975	0.003485	21.705
	0.0009495	103.76	0.003174	19.321	0.134	-103.548	0.005546	109.568
	0.00578	62.711	0.001272	102	0.00371	-22.071	0.005519	109.639
	0.136	-101.122						
649.255	0.045	10.45	0.003497	23.329	0.933	-6.065	0.003453	22.461
	0.005841	63.933	0.003431	23.479	0.117	-102.681	0.003727	51.292
	0.000992	104.306	0.001298	100.352	0.934	-6.16	0.003744	51.682
	0.057	-9.139	0.003131	19.063	0.003681	-23.555	0.003405	21.362
	0.0009817	104.775	0.003157	18.352	0.13	-104.719	0.005716	109.563
	0.005874	63.779	0.001301	101.932	0.003697	-23.608	0.005744	109.535
	0.132	-102.228						
668.35	0.046	10.854	0.003392	24.112	0.933	-6.218	0.003396	21.938
	0.005919	64.957	0.003353	23.871	0.111	-103.634	0.003717	52.665
	0.001004	103.317	0.001315	100.581	0.933	-6.353	0.003723	53.069
	0.058	-9.023	0.003055	19.177	0.003663	-24.549	0.00337	22.055
	0.0009966	104.987	0.003105	18.614	0.126	-105.935	0.005921	109.478
	0.00595	64.491	0.001346	101.442	0.00369	-25.132	0.005909	109.498
	0.129	-103.276						
687.445	0.048	9.829	0.003335	24.909	0.933	-6.356	0.003315	22.188
	0.005998	66.431	0.003285	24.011	0.107	-104.073	0.003693	53.61
	0.001052	104.036	0.001321	100.857	0.932	-6.504	0.003703	54.307
	0.059	-9.379	0.003005	19.113	0.003638	-25.775	0.003322	22.12
	0.001028	104.958	0.003044	18.965	0.122	-107.052	0.006057	109.468
	0.005978	65.71	0.00136	102.905	0.00367	-26.684	0.006098	109.534
	0.125	-104.256						
706.541	0.047	7.722	0.003267	25.206	0.933	-6.447	0.003306	23.015
	0.006066	67.1	0.003218	25.037	0.103	-104.124	0.003694	55.703
	0.001074	107.248	0.001372	101.035	0.93	-6.556	0.003705	55.504
	0.059	-10.1	0.002982	19.182	0.00363	-27.038	0.003305	22.425
	0.001077	106.514	0.002998	19.049	0.119	-108.099	0.006234	109.547
	0.006045	66.851	0.00138	102.723	0.003654	-27.563	0.006294	109.531
	0.122	-105.097						
725.636	0.045	6.939	0.003194	25.737	0.933	-6.595	0.003275	23.748
	0.006149	67.958	0.003164	25.78	0.101	-104.898	0.003669	57.557
	0.001074	103.953	0.001439	102.614	0.932	-6.543	0.003671	57.639
	0.059	-10.37	0.002972	20.105	0.003615	-28.941	0.003249	23.413
	0.001132	106.55	0.002929	19.237	0.116	-109.044	0.006393	109.529
	0.006124	68.183	0.001418	101.552	0.003626	-28.28	0.006423	109.383
	0.119	-106.016						
744.732	0.044	7.988	0.003126	26.452	0.934	-6.676	0.003209	24.16
	0.00627	69.277	0.003064	26.723	0.098	-105.997	0.003662	58.988
	0.001146	103.594	0.001457	102.143	0.933	-6.79	0.003645	59.158
	0.059	-11.014	0.002872	20.271	0.003655	-29.655	0.003217	24.39
	0.001206	103.889	0.002907	20.878	0.114	-110.112	0.006607	109.151
	0.00621	68.841	0.001472	102.49	0.003616	-29.8	0.006589	109.108
	0.116	-106.871						
763.827	0.043	8.739	0.003064	27.28	0.934	-6.793	0.003224	24.039
	0.006275	70.259	0.003036	26.867	0.094	-107.085	0.003655	59.799
	0.001192	103.56	0.00147	103.068	0.935	-6.983	0.003634	59.624
	0.06	-11.106	0.002858	20.594	0.003654	-31.492	0.003173	23.963
	0.001163	102.022	0.002848	20.679	0.111	-110.877	0.006709	109.79
	0.006297	70.268	0.00155	101.23	0.003666	-31.01	0.006779	109.311
	0.113	-107.717						
782.923	0.043	9.118	0.003041	27.929	0.934	-7.062	0.003142	23.013
	0.006397	71.487	0.002933	28.414	0.09	-107.891	0.003612	61.277
	0.001205	100.994	0.00158	102.694	0.935	-7.138	0.00362	62.077
	0.06	-11.423	0.002814	21.08	0.003651	-33.057	0.003181	23.867
	0.001165	101.988	0.002762	20.557	0.108	-111.732	0.006904	110.013
	0.006357	71.234	0.00155	102.24	0.003617	-32.365	0.0069	109.931
	0.111	-108.324						
802.018	0.043	9.126	0.002936	28.911	0.933	-7.24	0.003132	23.551
	0.006442	72.2	0.002883	28.589	0.087	-108.646	0.003581	63.809
	0.001222	101.23	0.001638	101.824	0.935	-7.382	0.003642	63.843
	0.061	-11.433	0.002747	21.482	0.003654	-34.685	0.003108	23.688
	0.001195	102.909	0.00275	22.135	0.106	-112.345	0.007118	110.145
	0.006398	72.399	0.001607	101.749	0.003612	-34.39	0.007095	109.977
	0.108	-109.085						
821.113	0.043	8.771	0.002871	30.525	0.933	-7.473	0.003054	23.837
	0.006545	73.42	0.002865	29.426	0.084	-109.498	0.003596	65.723
	0.001262	103.06	0.001633	102.064	0.935	-7.691	0.003585	64.836
	0.062	-11.33	0.002704	22.216	0.003626	-36.41	0.003012	24.042
	0.00123	103.926	0.002702	23.268	0.103	-113.084	0.007262	109.925
	0.006501	73.489	0.001615	101.056	0.003617	-35.75	0.007301	109.651
	0.106	-109.895						
840.209	0.042	8.257	0.002771	30.42	0.933	-7.722	0.002945	25.026
	0.006659	73.93	0.00281	30.752	0.08	-110.261	0.003584	67.012
	0.001287	103.495	0.00166	101.897	0.936	-7.968	0.003582	66.441
	0.062	-11.203	0.002752	22.663	0.003606	-37.748	0.002944	24.054
	0.001308	103.837	0.002734	23.356	0.101	-113.723	0.007433	110.119
	0.006612	74.696	0.001692	101.524	0.00364	-37.421	0.007457	109.509
	0.103	-110.556						
859.304	0.042	7.602	0.002699	32.352	0.934	-8.061	0.002844	25.433
	0.006698	74.9	0.00273	32.782	0.077	-111.051	0.003583	69.221
	0.001309	103.695	0.001733	102.422	0.936	-8.146	0.003565	68.636
	0.064	-11.252	0.00272	22.813	0.003621	-38.888	0.002827	25.363
	0.001332	102.716	0.002737	22.904	0.099	-114.459	0.007588	110.136
	0.006675	75.422	0.001715	101.608	0.003631	-38.32	0.007645	110.128
	0.101	-111.143						
878.4	0.042	6.915	0.002637	33.899	0.934	-8.355	0.002796	27.065
	0.00675	75.898	0.002647	34.085	0.073	-111.746	0.003607	71.052
	0.001318	104.589	0.001783	102.285	0.935	-8.385	0.003534	71.105
	0.065	-11.06	0.002672	22.52	0.003637	-39.839	0.002791	27.01
	0.001337	103.583	0.002694	22.702	0.096	-115.304	0.00779	110.266
	0.00675	76.476	0.001775	101.717	0.003616	-40.229	0.007799	110.171
	0.099	-111.813						
