!Hittite Microwave Corporation								
!12 Elizabeth Drive								
!Chelmsford, MA 01824								
!Tel: 978-250-3343								
!Fax: 978-250-3373							
!Device: HMC240, DC-4 GHz GaAs MMIC SPDT SWITCH							
!Misc: Port1 = RFC, Port2 = RF1, Port3 = RF2, RF2 ON, Vctl=-5V, Data includes 2 SMA connectors, Room							
!
# MHZ S MA R 50

180 0.031 -3.094 0.016 68.384 0.966 -7.892
          0.016 68.825 0.958 -39.155 0.017 72.093
          0.964 -7.953 0.017 71.815 0.02 3.953
200 0.035 -14.123 0.016 60.455 0.958 -8.457
          0.016 60.397 0.958 -43.35 0.017 62.965
          0.956 -8.527 0.016 63.117 0.027 -12.69
220 0.034 -19.816 0.016 65.588 0.954 -9.206
          0.016 65.386 0.954 -47.526 0.016 67.265
          0.952 -9.253 0.016 67.224 0.028 -18.087
240 0.034 -19.581 0.019 64.505 0.954 -9.964
          0.019 64.713 0.951 -51.305 0.019 65.783
          0.952 -10 0.019 65.391 0.028 -19.278
260 0.035 -20.98 0.021 55.206 0.954 -10.76
          0.021 55.322 0.952 -55.22 0.021 57.361
          0.952 -10.776 0.021 57.005 0.03 -21.468
280 0.036 -25.328 0.021 50.748 0.954 -11.634
          0.021 50.75 0.95 -59.36 0.02 52.592
          0.952 -11.652 0.02 52.496 0.031 -26.365
300 0.036 -29.396 0.021 50.939 0.953 -12.465
          0.021 50.793 0.947 -63.308 0.019 53.149
          0.952 -12.495 0.019 53.252 0.031 -30.774
320 0.036 -32.198 0.022 50.16 0.952 -13.228
          0.022 50.081 0.944 -67.042 0.02 53.963
          0.951 -13.295 0.021 54.168 0.031 -33.941
340 0.036 -34.843 0.023 48.83 0.952 -14
          0.023 48.683 0.941 -70.725 0.022 53.455
          0.951 -14.065 0.022 53.596 0.031 -36.771
360 0.036 -37.705 0.024 47.149 0.951 -14.807
          0.024 47.072 0.938 -74.411 0.023 52.407
          0.95 -14.863 0.023 52.439 0.032 -40.533
380 0.036 -40.457 0.026 45.852 0.95 -15.637
          0.026 45.926 0.934 -77.979 0.025 51.182
          0.949 -15.653 0.025 51.249 0.032 -43.948
400 0.037 -40.957 0.028 41.092 0.951 -16.371
          0.028 41.237 0.934 -81.333 0.027 45.933
          0.949 -16.4 0.027 45.923 0.033 -45.505
420 0.039 -43.811 0.028 38.34 0.951 -17.159
          0.028 38.267 0.932 -84.891 0.027 43.118
          0.949 -17.15 0.027 43.159 0.035 -49.016
440 0.04 -46.859 0.028 37.003 0.95 -17.941
          0.028 36.922 0.928 -88.339 0.027 42.248
          0.949 -17.941 0.027 42.394 0.035 -52.424
460 0.04 -48.736 0.029 35.113 0.95 -18.776
          0.029 35.179 0.925 -91.603 0.028 41.01
          0.948 -18.769 0.028 41.139 0.037 -55.013
480 0.042 -50.253 0.03 32.885 0.949 -19.6
          0.03 32.975 0.923 -94.858 0.029 39.611
          0.948 -19.614 0.029 39.627 0.038 -57.176
500 0.042 -51.715 0.031 31.105 0.95 -20.37
          0.031 31.171 0.921 -98.025 0.03 37.979
          0.948 -20.393 0.03 38.017 0.038 -58.7
520 0.043 -52.861 0.032 29.843 0.949 -21.114
          0.032 29.675 0.918 -101.057 0.031 36.663
          0.947 -21.141 0.031 36.533 0.039 -60.323
540 0.043 -53.769 0.033 28.028 0.948 -21.879
          0.033 27.885 0.916 -104.071 0.032 35.27
          0.947 -21.93 0.032 35.246 0.039 -61.908
560 0.043 -53.327 0.035 25.669 0.948 -22.635
          0.034 25.523 0.914 -106.975 0.034 29.309
          0.947 -22.688 0.034 29.477 0.04 -61.612
580 0.044 -55.132 0.034 22.654 0.948 -23.475
          0.034 22.585 0.913 -109.9 0.033 28.296
          0.947 -23.554 0.033 28.406 0.041 -63.215
600 0.045 -57.28 0.034 20.517 0.948 -24.296
          0.034 20.459 0.911 -112.762 0.033 28.001
          0.947 -24.379 0.033 28.006 0.042 -64.919
620 0.044 -58.727 0.035 19.34 0.948 -25.05
          0.034 19.343 0.909 -115.47 0.033 27.209
          0.947 -25.123 0.033 27.145 0.043 -65.916
640 0.043 -60.074 0.036 18.437 0.947 -25.854
          0.036 18.4 0.906 -118.103 0.034 26.55
          0.946 -25.895 0.034 26.499 0.043 -67.162
660 0.042 -59.743 0.038 16.117 0.947 -26.653
          0.038 15.923 0.904 -120.607 0.037 23.222
          0.946 -26.72 0.037 23.197 0.044 -68.758
680 0.045 -61.786 0.037 9.991 0.947 -27.456
          0.037 9.849 0.906 -123.288 0.036 21.278
          0.945 -27.521 0.036 21.184 0.045 -70.606
700 0.045 -65.856 0.036 8.912 0.947 -28.234
          0.036 8.946 0.903 -125.908 0.035 18.848
          0.945 -28.279 0.035 18.835 0.045 -72.711
720 0.045 -69.732 0.036 7.867 0.948 -28.949
          0.036 7.832 0.901 -128.343 0.035 18.075
          0.946 -28.981 0.035 18.142 0.047 -72.333
740 0.046 -72.929 0.036 6.915 0.947 -29.825
          0.036 6.908 0.899 -130.751 0.035 17.331
          0.945 -29.856 0.035 17.303 0.048 -76.144
760 0.046 -75.786 0.037 5.702 0.946 -30.623
          0.037 5.611 0.896 -133.108 0.036 16.243
          0.945 -30.668 0.036 16.169 0.049 -78.822
780 0.048 -78.386 0.037 3.129 0.946 -31.46
          0.037 3.065 0.896 -135.49 0.036 13.096
          0.944 -31.495 0.036 13.064 0.051 -80.925
800 0.049 -81.207 0.037 2.455 0.945 -32.216
          0.037 2.437 0.893 -137.762 0.036 12.973
          0.944 -32.239 0.036 12.961 0.051 -83.228
820 0.05 -83.312 0.038 0.499 0.946 -32.993
          0.038 0.57 0.892 -139.929 0.037 11.639
          0.945 -32.981 0.037 11.637 0.053 -84.113
840 0.052 -85.355 0.038 -1.174 0.946 -33.807
          0.038 -1.206 0.891 -142.176 0.037 10.27
          0.944 -33.811 0.037 10.367 0.055 -86.499
860 0.054 -87.039 0.038 -2.624 0.946 -34.626
          0.038 -2.651 0.889 -144.414 0.037 9.196
          0.944 -34.661 0.037 9.201 0.056 -88.894
880 0.055 -88.498 0.038 -4.172 0.945 -35.454
          0.038 -4.135 0.888 -146.593 0.037 7.987
          0.943 -35.511 0.037 8.007 0.057 -91.311
900 0.057 -89.637 0.038 -5.567 0.945 -36.233
          0.038 -5.601 0.886 -148.686 0.037 6.933
          0.943 -36.293 0.037 6.929 0.058 -93.199
920 0.058 -90.553 0.038 -6.893 0.945 -36.985
          0.038 -6.977 0.885 -150.763 0.037 5.742
          0.942 -37.037 0.037 5.724 0.058 -94.452
940 0.059 -91.291 0.039 -8.103 0.945 -37.768
          0.039 -8.26 0.883 -152.882 0.038 4.823
          0.942 -37.809 0.038 4.787 0.059 -95.6
960 0.06 -92.008 0.039 -9.95 0.944 -38.591
          0.039 -10.076 0.882 -154.957 0.038 3.427
          0.942 -38.674 0.038 3.329 0.06 -96.466
980 0.061 -92.833 0.039 -11.551 0.944 -39.429
          0.039 -11.559 0.881 -157.013 0.038 2.166
          0.942 -39.467 0.038 2.202 0.061 -97.502
1000 0.062 -93.876 0.039 -12.925 0.944 -40.225
          0.039 -12.975 0.88 -158.979 0.038 1.06
          0.942 -40.203 0.038 1.156 0.061 -98.7
1020 0.062 -94.99 0.039 -14.256 0.943 -40.952
          0.039 -14.28 0.879 -160.861 0.038 0.117
          0.941 -40.94 0.038 0.086 0.062 -99.724
1040 0.062 -96.302 0.039 -15.645 0.943 -41.76
          0.039 -15.709 0.878 -162.794 0.038 -0.994
          0.941 -41.75 0.038 -0.84 0.062 -101.022
1060 0.062 -97.743 0.039 -17.157 0.944 -42.562
          0.039 -17.12 0.877 -164.662 0.038 -1.818
          0.941 -42.534 0.038 -1.71 0.063 -101.709
1080 0.063 -99.672 0.039 -18.625 0.944 -43.398
          0.039 -18.574 0.877 -166.512 0.038 -3.214
          0.94 -43.341 0.038 -3.087 0.064 -103.369
1100 0.063 -101.639 0.039 -19.91 0.944 -44.193
          0.039 -19.86 0.875 -168.296 0.038 -4.154
          0.94 -44.133 0.038 -4.142 0.065 -104.607
1120 0.064 -103.711 0.039 -21.249 0.943 -44.928
          0.039 -21.162 0.874 -170.045 0.038 -5.001
          0.94 -44.914 0.038 -4.966 0.065 -105.801
1140 0.064 -105.988 0.039 -22.568 0.943 -45.732
          0.039 -22.56 0.873 -171.827 0.038 -5.893
          0.939 -45.675 0.038 -5.88 0.066 -106.773
1160 0.066 -107.896 0.039 -23.939 0.943 -46.523
          0.039 -23.9 0.872 -173.537 0.039 -7.149
          0.94 -46.463 0.038 -7.166 0.067 -107.442
1180 0.067 -110.167 0.039 -25.612 0.942 -47.409
          0.039 -25.607 0.872 -175.305 0.038 -8.567
          0.94 -47.339 0.038 -8.52 0.069 -109.277
1200 0.069 -112.131 0.039 -26.864 0.942 -48.159
          0.039 -26.73 0.872 -176.973 0.038 -9.229
          0.939 -48.098 0.038 -9.151 0.071 -111.1
1220 0.071 -113.797 0.039 -28.049 0.941 -48.89
          0.038 -28.003 0.871 -178.663 0.038 -10.015
          0.939 -48.858 0.038 -9.916 0.072 -112.648
1240 0.073 -115.298 0.038 -29.243 0.942 -49.668
          0.038 -29.308 0.87 179.667 0.038 -11
          0.94 -49.638 0.038 -10.88 0.073 -113.768
1260 0.075 -116.503 0.038 -30.524 0.941 -50.527
          0.038 -30.621 0.869 177.999 0.038 -11.9
          0.94 -50.497 0.038 -11.817 0.075 -115.45
1280 0.077 -117.502 0.038 -31.908 0.941 -51.331
          0.038 -31.995 0.868 176.351 0.038 -13.086
          0.94 -51.32 0.038 -12.976 0.077 -116.88
1300 0.079 -118.354 0.038 -33.39 0.941 -52.132
          0.038 -33.402 0.868 174.735 0.038 -13.901
          0.939 -52.122 0.038 -13.879 0.079 -118.586
1320 0.081 -119.187 0.038 -34.566 0.941 -52.894
          0.038 -34.535 0.867 173.17 0.038 -14.655
          0.938 -52.884 0.038 -14.694 0.08 -120.202
1340 0.083 -119.92 0.038 -35.849 0.94 -53.685
          0.038 -35.738 0.866 171.547 0.038 -15.567
          0.938 -53.695 0.037 -15.519 0.082 -121.372
1360 0.084 -120.551 0.038 -37.139 0.94 -54.526
          0.038 -37.089 0.866 169.935 0.037 -16.473
          0.938 -54.536 0.037 -16.384 0.083 -122.552
1380 0.085 -121.278 0.038 -38.322 0.94 -55.356
          0.037 -38.329 0.865 168.346 0.037 -17.335
          0.938 -55.346 0.037 -17.205 0.085 -123.945
1400 0.087 -121.982 0.037 -39.577 0.939 -56.117
          0.037 -39.461 0.865 166.877 0.037 -18.027
          0.938 -56.107 0.037 -17.89 0.086 -124.995
1420 0.087 -122.744 0.037 -40.745 0.94 -56.879
          0.037 -40.753 0.865 165.418 0.037 -19.078
          0.938 -56.859 0.037 -18.979 0.087 -125.651
1440 0.088 -123.658 0.037 -42.018 0.939 -57.691
          0.037 -41.979 0.865 163.942 0.037 -19.753
          0.937 -57.66 0.037 -19.663 0.089 -126.62
1460 0.088 -124.862 0.037 -43.327 0.938 -58.53
          0.037 -43.312 0.865 162.477 0.037 -20.438
          0.937 -58.48 0.037 -20.316 0.09 -127.513
1480 0.089 -126.165 0.037 -44.559 0.938 -59.32
          0.037 -44.479 0.864 161.037 0.037 -21.104
          0.937 -59.273 0.036 -21.123 0.091 -128.443
1500 0.09 -127.519 0.036 -45.712 0.939 -60.091
          0.036 -45.82 0.864 159.683 0.036 -21.828
          0.937 -60.08 0.036 -21.819 0.092 -129.39
1520 0.091 -128.989 0.036 -46.927 0.938 -60.846
          0.036 -46.889 0.863 158.319 0.036 -22.513
          0.937 -60.825 0.036 -22.54 0.093 -130.681
1540 0.092 -130.654 0.036 -48.109 0.938 -61.658
          0.036 -48.114 0.862 156.929 0.036 -23.248
          0.936 -61.62 0.036 -23.223 0.094 -131.993
1560 0.093 -132.355 0.036 -49.314 0.937 -62.463
          0.036 -49.292 0.862 155.56 0.036 -23.89
          0.935 -62.451 0.036 -23.809 0.095 -133.359
1580 0.094 -133.902 0.036 -50.321 0.937 -63.293
          0.035 -50.466 0.862 154.198 0.036 -24.801
          0.936 -63.266 0.036 -24.699 0.097 -134.514
1600 0.096 -135.266 0.035 -51.765 0.937 -64.087
          0.035 -51.687 0.862 152.908 0.036 -25.198
          0.935 -64.088 0.035 -25.189 0.099 -135.755
1620 0.098 -136.736 0.035 -52.892 0.937 -64.811
          0.035 -52.93 0.862 151.591 0.035 -25.787
          0.935 -64.823 0.035 -25.795 0.101 -137.09
1640 0.1 -138.001 0.035 -54.049 0.936 -65.629
          0.035 -54.153 0.861 150.271 0.035 -26.347
          0.934 -65.655 0.035 -26.471 0.103 -138.265
1660 0.103 -139.084 0.035 -55.272 0.936 -66.477
          0.035 -55.349 0.861 148.913 0.035 -27.009
          0.933 -66.479 0.035 -26.885 0.105 -139.537
1680 0.105 -140.059 0.034 -56.416 0.935 -67.283
          0.034 -56.531 0.86 147.53 0.035 -27.528
          0.932 -67.297 0.035 -27.497 0.106 -140.701
1700 0.107 -140.847 0.034 -57.621 0.935 -68.036
          0.034 -57.645 0.86 146.211 0.035 -28.167
          0.933 -68.072 0.035 -28.026 0.108 -141.647
1720 0.109 -141.504 0.034 -58.794 0.935 -68.795
          0.034 -58.768 0.859 144.908 0.035 -28.838
          0.932 -68.805 0.035 -28.828 0.109 -142.693
1740 0.111 -142.239 0.034 -60.066 0.934 -69.603
          0.034 -59.962 0.859 143.573 0.034 -29.397
          0.931 -69.617 0.034 -29.175 0.111 -143.945
1760 0.112 -142.843 0.033 -61.261 0.934 -70.429
          0.033 -61.184 0.859 142.159 0.034 -29.929
          0.931 -70.463 0.034 -29.91 0.113 -145.039
1780 0.114 -143.484 0.033 -62.395 0.934 -71.219
          0.033 -62.362 0.859 140.823 0.034 -30.465
          0.931 -71.219 0.034 -30.537 0.113 -145.993
1800 0.115 -143.949 0.033 -63.647 0.934 -71.996
          0.033 -63.736 0.859 139.54 0.034 -30.969
          0.931 -71.988 0.034 -30.985 0.115 -146.798
1820 0.116 -144.654 0.032 -64.894 0.933 -72.757
          0.032 -64.936 0.859 138.25 0.034 -31.448
          0.93 -72.716 0.033 -31.383 0.116 -147.769
1840 0.117 -145.532 0.032 -65.945 0.933 -73.561
          0.032 -66.088 0.858 136.903 0.033 -32.015
          0.93 -73.564 0.033 -31.937 0.117 -148.317
1860 0.118 -146.499 0.032 -67.06 0.933 -74.376
          0.032 -67.18 0.858 135.627 0.033 -32.549
          0.93 -74.38 0.033 -32.512 0.117 -149.114
1880 0.118 -147.573 0.031 -68.246 0.932 -75.196
          0.031 -68.342 0.858 134.382 0.033 -32.938
          0.93 -75.16 0.033 -32.882 0.117 -150.149
1900 0.119 -148.638 0.031 -69.479 0.932 -75.967
          0.031 -69.525 0.858 133.181 0.033 -33.338
          0.93 -76.006 0.033 -33.325 0.119 -150.832
1920 0.12 -149.738 0.031 -70.716 0.932 -76.748
          0.031 -70.61 0.858 132.04 0.033 -33.903
          0.93 -76.706 0.033 -33.828 0.12 -151.873
1940 0.121 -151.023 0.03 -71.873 0.932 -77.574
          0.03 -71.831 0.858 130.846 0.032 -34.369
          0.93 -77.531 0.032 -34.263 0.121 -153.195
1960 0.122 -152.418 0.03 -73.038 0.932 -78.434
          0.03 -73.095 0.858 129.621 0.032 -34.903
          0.93 -78.402 0.032 -34.786 0.122 -154.417
1980 0.123 -153.785 0.03 -74.194 0.932 -79.239
          0.03 -74.063 0.858 128.483 0.032 -35.388
          0.929 -79.169 0.032 -35.202 0.123 -155.433
2000 0.124 -155.194 0.029 -75.316 0.931 -80.013
          0.029 -75.232 0.858 127.375 0.032 -35.681
          0.929 -79.963 0.032 -35.467 0.125 -156.531
2020 0.126 -156.468 0.029 -76.396 0.931 -80.776
          0.029 -76.341 0.857 126.177 0.032 -35.956
          0.929 -80.784 0.031 -35.814 0.127 -157.732
2040 0.128 -157.752 0.029 -77.648 0.931 -81.608
          0.029 -77.478 0.857 125.02 0.031 -36.08
          0.928 -81.59 0.031 -36.112 0.128 -158.847
2060 0.13 -158.987 0.028 -78.846 0.93 -82.451
          0.028 -78.772 0.857 123.899 0.031 -36.474
          0.928 -82.398 0.031 -36.479 0.13 -160.117
2080 0.132 -160.083 0.028 -80.03 0.931 -83.26
          0.028 -80.047 0.857 122.688 0.031 -36.775
          0.928 -83.242 0.031 -36.753 0.132 -161.358
2100 0.134 -161.114 0.028 -81.164 0.93 -84.04
          0.028 -81.153 0.857 121.543 0.031 -37.098
          0.927 -84.011 0.031 -37.03 0.134 -162.402
2120 0.136 -162.075 0.027 -82.374 0.929 -84.807
          0.027 -82.338 0.857 120.455 0.03 -37.411
          0.927 -84.804 0.03 -37.463 0.136 -163.5
2140 0.138 -162.962 0.027 -83.599 0.929 -85.625
          0.027 -83.552 0.857 119.24 0.03 -37.691
          0.926 -85.621 0.03 -37.763 0.138 -164.498
2160 0.14 -163.799 0.026 -84.809 0.929 -86.432
          0.026 -84.845 0.857 118.04 0.03 -37.737
          0.925 -86.439 0.03 -37.736 0.141 -165.47
2180 0.142 -164.609 0.026 -86.076 0.929 -87.239
          0.026 -86.107 0.857 116.833 0.03 -37.84
          0.925 -87.236 0.03 -37.836 0.143 -166.334
2200 0.143 -165.388 0.026 -87.26 0.929 -88.013
          0.026 -87.357 0.857 115.698 0.03 -37.902
          0.925 -88.02 0.029 -37.948 0.145 -167.018
2220 0.145 -166.155 0.025 -88.448 0.928 -88.779
          0.025 -88.494 0.857 114.564 0.029 -37.968
          0.924 -88.806 0.029 -38.021 0.147 -167.619
2240 0.146 -167.031 0.025 -89.64 0.927 -89.608
          0.025 -89.649 0.857 113.402 0.029 -38.172
          0.924 -89.608 0.029 -38.064 0.148 -168.384
2260 0.147 -167.975 0.024 -90.865 0.927 -90.428
          0.024 -90.766 0.857 112.26 0.029 -38.301
          0.923 -90.438 0.029 -38.253 0.149 -169.173
2280 0.148 -168.903 0.024 -91.965 0.926 -91.215
          0.024 -91.856 0.856 111.14 0.029 -38.425
          0.924 -91.252 0.029 -38.425 0.15 -169.911
2300 0.15 -169.83 0.024 -93.152 0.926 -91.963
          0.023 -93.087 0.856 110.058 0.029 -38.407
          0.923 -92.017 0.029 -38.45 0.151 -170.653
2320 0.151 -170.816 0.023 -94.257 0.925 -92.74
          0.023 -94.278 0.856 108.992 0.028 -38.337
          0.923 -92.792 0.028 -38.441 0.152 -171.447
2340 0.152 -171.855 0.023 -95.542 0.925 -93.556
          0.023 -95.382 0.856 107.922 0.028 -38.383
          0.922 -93.585 0.028 -38.429 0.154 -172.359
2360 0.153 -172.988 0.022 -97.017 0.924 -94.402
          0.022 -96.864 0.856 106.815 0.028 -38.346
          0.922 -94.412 0.028 -38.3 0.155 -173.275
2380 0.154 -174.143 0.022 -98.098 0.924 -95.23
          0.022 -98.069 0.856 105.757 0.028 -38.219
          0.922 -95.225 0.028 -38.218 0.155 -174.196
2400 0.155 -175.261 0.021 -99.279 0.924 -96.014
          0.021 -99.253 0.856 104.729 0.028 -38.106
          0.921 -95.996 0.028 -38.054 0.156 -175.239
2420 0.157 -176.372 0.021 -100.548 0.923 -96.805
          0.021 -100.592 0.856 103.687 0.028 -38.012
          0.921 -96.797 0.028 -37.835 0.157 -176.252
2440 0.158 -177.567 0.021 -101.778 0.922 -97.635
          0.02 -101.872 0.856 102.622 0.028 -37.989
          0.92 -97.611 0.027 -37.785 0.158 -177.357
2460 0.16 -178.759 0.02 -103.151 0.922 -98.482
          0.02 -103.229 0.856 101.508 0.027 -37.902
          0.92 -98.435 0.027 -37.833 0.16 -178.517
2480 0.162 -179.921 0.02 -104.419 0.922 -99.299
          0.02 -104.666 0.855 100.416 0.027 -37.793
          0.92 -99.229 0.027 -37.792 0.161 -179.715
2500 0.164 178.941 0.019 -105.827 0.922 -100.071
          0.019 -106.024 0.855 99.338 0.027 -37.517
          0.92 -100.01 0.027 -37.503 0.163 179.123
2520 0.165 177.866 0.019 -107.2 0.921 -100.866
          0.019 -107.333 0.855 98.265 0.027 -37.244
          0.919 -100.803 0.027 -37.146 0.166 177.93
2540 0.167 176.803 0.018 -108.588 0.921 -101.684
          0.018 -108.533 0.855 97.154 0.027 -36.885
          0.919 -101.622 0.027 -36.944 0.168 176.757
2560 0.169 175.745 0.018 -109.966 0.92 -102.501
          0.018 -109.968 0.855 96.03 0.027 -36.661
          0.918 -102.452 0.027 -36.678 0.17 175.726
2580 0.171 174.739 0.017 -111.356 0.919 -103.296
          0.017 -111.453 0.855 94.909 0.027 -36.685
          0.918 -103.25 0.027 -36.578 0.173 174.714
2600 0.173 173.764 0.017 -113.01 0.919 -104.058
          0.017 -112.794 0.856 93.841 0.027 -36.692
          0.918 -104.024 0.027 -36.625 0.175 173.778
2620 0.175 172.792 0.016 -114.517 0.918 -104.844
          0.016 -114.434 0.856 92.787 0.027 -36.328
          0.916 -104.804 0.027 -36.381 0.178 172.962
2640 0.177 171.88 0.016 -116.171 0.917 -105.642
          0.016 -116.164 0.856 91.699 0.027 -35.921
          0.916 -105.627 0.027 -35.952 0.18 172.125
2660 0.179 170.949 0.016 -117.821 0.917 -106.454
          0.015 -117.743 0.856 90.615 0.027 -35.539
          0.916 -106.444 0.027 -35.504 0.182 171.19
2680 0.181 170.032 0.015 -119.314 0.917 -107.266
          0.015 -119.253 0.856 89.571 0.027 -35.148
          0.915 -107.246 0.027 -35.037 0.184 170.374
2700 0.183 169.166 0.015 -120.8 0.916 -108.032
          0.015 -120.814 0.856 88.566 0.027 -34.714
          0.914 -108.022 0.027 -34.675 0.186 169.638
2720 0.184 168.3 0.014 -122.404 0.916 -108.808
          0.014 -122.366 0.855 87.571 0.027 -34.291
          0.914 -108.809 0.027 -34.394 0.188 168.844
2740 0.186 167.399 0.014 -124.212 0.915 -109.614
          0.014 -124.056 0.856 86.567 0.027 -34.105
          0.913 -109.624 0.027 -34.086 0.189 168.025
2760 0.188 166.476 0.013 -126.088 0.914 -110.434
