!Hittite Microwave Corporation								
!12 Elizabeth Drive								
!Chelmsford, MA 01824								
!Tel: 978-250-3343								
!Fax: 978-250-3373								
!Device: HMC253QS24, DC-2.5 GHz GaAS MMIC SP8T Non-Reflective Switch in 24-lead QSOP package								
!Misc: Port 1 = RFCom, Port 2 = RF1, Port 3 = RF2, Port 4 = RF3, Port 5 = RF4, Port 6 = RF5, Port 7 = RF6, Port 8 = RF7, Port 9 = RF8, RF8 selected, Vdd=+5V							
!
# MHZ S MA R 50

30	0.675	40.566	0.001973	-3.001	0.002349	146.312	0.0002302	-122.088
	0.001601	-17.723	0.002717	18.832	0.002444	88.208	0.003992	9.331
	0.661	-43.832	0.0006683	-48.089	0.723	-48.887	0.002615	87.099
	0.003082	-102.206	0.003344	-15.919	0.0007659	132.728	0.00245	-172.736
	0.001033	24.334	0.001839	-96.875	0.002056	-8.172	0.002316	34.696
	0.718	-50.447	0.0009868	-141.261	0.00343	86.207	0.002465	-99.514
	0.0001499	179.594	0.003702	103.17	0.0008817	-176.921	0.002821	178.893
	0.003593	80.588	0.0008927	-54.636	0.709	-50.417	0.001821	166.102
	0.001295	30.988	0.001767	-130.832	0.004298	-175.205	0.001928	-106.026
	0.002203	-34.433	0.003274	-7.798	0.0005726	94.259	0.00007692	172.679
	0.71	-50.938	0.001291	-132.312	0.001964	-56.316	0.002733	128.115
	0.001392	25.308	0.005999	43.086	0.0005236	4.194	0.003074	-136.723
	0.0001339	147.232	0.0009729	-60.721	0.701	-50.648	0.0005589	30.132
	0.001978	5.937	0.005176	28.859	0.002456	-3.749	0.002271	37.115
	0.00241	-65.458	0.0004695	-57.711	0.004969	155.969	0.00502	-121.65
	0.71	-50.096	0.0006256	-144.193	0.001908	21.776	0.001162	5.339
	0.0006453	-84.747	0.0002853	-71.083	0.002507	-164.172	0.006593	-143.767
	0.003455	163.475	0.001323	13.298	0.719	-49.95	0.0007609	24.237
	0.661	-43.559	0.003365	-89.857	0.005639	78.251	0.0007225	-125.041
	0.0009572	38.471	0.0009643	114.538	0.001016	124.082	0.002884	46.737
	0.674	40.918						
49.85	0.475	50.139	0.001192	3.088	0.001393	152.687	0.000227	177.687
	0.001347	20.199	0.002769	30.284	0.002595	87.679	0.003893	16.999
	0.788	-29.865	0.0003982	-18.095	0.721	-48.007	0.001622	113.05
	0.002198	-127.232	0.002227	-23.554	0.000503	115.154	0.001746	81.784
	0.0006977	-149.333	0.001338	-101.123	0.001733	8.688	0.00175	44.595
	0.719	-49.322	0.000534	-132.149	0.002288	170.646	0.001761	39.064
	0.0001281	-178.357	0.002632	48.86	0.001287	177.49	0.002624	169.908
	0.002451	153.111	0.0007605	-32.979	0.712	-49.429	0.0009639	-175.155
	0.0009985	3.374	0.001169	-163.414	0.002914	172.193	0.001454	-113.569
	0.001862	-42.481	0.002331	6.518	0.0004895	154.15	0.0002829	-142.564
	0.712	-49.928	0.0007157	-112.802	0.001251	-46.798	0.001916	140.03
	0.0008546	8.59	0.004949	47.3	0.0004185	24.954	0.002214	-140.055
	0.0001979	152.571	0.0005045	-51.987	0.706	-49.763	0.0001662	22.094
	0.001485	-19.686	0.004549	31.102	0.002511	5.788	0.001608	65.353
	0.001703	-133.069	0.0002082	-97.13	0.003371	-171.643	0.003235	-110.672
	0.713	-49.215	0.0003063	-132.059	0.001807	27.594	0.001532	15.614
	0.0004108	12.15	0.0001661	-14.761	0.001685	125.658	0.004486	-124.313
	0.002503	164.831	0.000812	3.586	0.719	-49.004	0.001089	23.929
	0.788	-29.622	0.003254	-119.838	0.004973	77.988	0.0005328	-119.423
	0.0003975	72.92	0.0007227	114.114	0.0009389	98.85	0.002497	52.243
	0.475	50.639						
69.7	0.356	53.064	0.00075	18.953	0.0009689	144.949	0.0003416	151.638
	0.001013	54.868	0.002758	35.426	0.002707	82.332	0.003824	21.53
	0.837	-22.534	0.0004273	19.984	0.692	-50.351	0.001043	133.804
	0.00175	-157.628	0.001611	-36.633	0.0003562	92.263	0.001386	-29.076
	0.0005073	31.932	0.0008984	-111.397	0.00151	20.718	0.001496	49.186
	0.692	-51.63	0.0002467	-128.844	0.001675	-110.299	0.001404	172.184
	0.0001222	177.48	0.002087	-11.03	0.00136	164.193	0.002352	157.094
	0.001833	-139.893	0.0007333	-17.021	0.686	-51.825	0.0004307	-162.099
	0.0008702	-29.894	0.0008369	158.505	0.002165	154.154	0.001178	-134.735
	0.001474	-54.537	0.001852	15.484	0.000469	-151.383	0.000458	-105.852
	0.685	-52.369	0.0003582	-98.887	0.0008454	-42.759	0.001495	146.447
	0.000542	-28.611	0.00435	46.945	0.0003779	41.044	0.001787	-148.971
	0.0002604	151.934	0.0002077	-48.775	0.681	-52.251	0.0001081	-169.898
	0.001256	-50.576	0.004173	32.098	0.002607	12.178	0.001265	88.342
	0.001333	153.665	0.00003687	-141.86	0.002507	-144.789	0.002215	-105.285
	0.686	-51.661	0.0001016	-126.801	0.001907	29.311	0.001883	20.462
	0.0002712	104.409	0.00009443	36.653	0.001235	50.019	0.003354	-110.35
	0.00203	160.643	0.0005075	-11.712	0.692	-51.402	0.001488	25.441
	0.837	-22.321	0.003045	-151.581	0.004248	73.373	0.0003419	-119.466
	0.000188	131.804	0.0007255	89.841	0.001189	79.235	0.002476	52.037
	0.356	53.667						
89.55	0.282	52.875	0.0006661	50.529	0.0007759	128.981	0.0004429	135.513
	0.0006786	90.092	0.002735	37.803	0.002805	74.821	0.003756	24.598
	0.859	-18.291	0.0006192	41.586	0.657	-53.595	0.0005783	153.006
	0.001419	170.465	0.001132	-51.214	0.0002421	68.092	0.00112	-141.474
	0.0003613	-148.711	0.0004982	-127.299	0.001352	30.608	0.001323	52.29
	0.657	-54.892	0.000007035	-121.965	0.001201	-32.932	0.001138	-56.365
	0.0001226	172.433	0.001691	-72.424	0.001301	146.971	0.002055	142.381
	0.001357	-74.366	0.0007333	-2.603	0.652	-55.165	0.00001296	31.425
	0.0007874	-64.681	0.0005771	118.897	0.001589	134.59	0.0009919	-163.021
	0.001066	-68.77	0.001499	22.964	0.0004663	-98.085	0.0006221	-70.536
	0.651	-55.769	0.00006159	-86.048	0.0005235	-40.358	0.00118	151.336
	0.0003889	-83.795	0.003915	45.127	0.0003563	56.013	0.00148	-159.443
	0.0003227	149.94	0.00004272	135.02	0.647	-55.682	0.0003491	174.687
	0.001099	-82.881	0.003841	32.715	0.00271	17.211	0.001011	109.873
	0.001058	78.711	0.0001105	-8.428	0.001845	-119.482	0.001407	-101.467
	0.652	-55.037	0.0000756	62.292	0.002077	30.601	0.002227	23.385
	0.0001639	-163.832	0.00003617	86.994	0.0008881	-27.142	0.002487	-97.917
	0.001688	154.931	0.0002607	-28.592	0.657	-54.73	0.001906	28.202
	0.859	-18.108	0.002756	176.001	0.003516	66.817	0.0001555	-127.231
	0.0002064	155.455	0.0009466	69.645	0.001529	67.616	0.00259	50.953
	0.283	53.56						
109.4	0.233	51.084	0.0008741	69.636	0.0007143	109.153	0.0005272	120.807
	0.0003832	126.529	0.002712	38.777	0.0029	66.175	0.003693	26.89
	0.87	-15.65	0.0008723	51.862	0.618	-57.221	0.0001626	171.71
	0.001138	137.926	0.0007107	-66.353	0.0001413	43.021	0.0008936	105.537
	0.0002325	30.351	0.0001535	-173.873	0.001237	38.589	0.001185	54.757
	0.62	-58.556	0.000212	54.306	0.0007848	43.854	0.0009144	74.614
	0.0001256	166.688	0.001353	-134.401	0.001177	127.44	0.001751	126.635
	0.0009424	-9.461	0.0007446	11.289	0.615	-58.903	0.0004185	40.371
	0.0007239	-100.157	0.0003479	78.651	0.001087	114.389	0.0008626	164.032
	0.0006455	-84.59	0.001199	29.82	0.0004724	-45.406	0.0007819	-35.744
	0.614	-59.576	0.0002093	104.929	0.000236	-38.623	0.0009106	155.597
	0.0003788	-144.931	0.003559	42.697	0.0003436	70.471	0.001221	-170.56
	0.0003852	147.259	0.0002733	135.087	0.611	-59.512	0.0005755	159.05
	0.000971	-115.746	0.003524	33.115	0.002819	21.538	0.000795	130.763
	0.0008254	3.043	0.0002472	-55.257	0.001267	-94.815	0.0006873	-98.331
	0.615	-58.806	0.0002382	64.925	0.002276	32.013	0.002569	25.425
	0.00006931	-73.919	0.00001739	-49.06	0.0005834	-104.903	0.001732	-86.113
	0.001402	148.592	0.00003909	-47.494	0.62	-58.452	0.00233	31.433
	0.87	-15.497	0.002401	143.268	0.002795	59.314	0.00005483	115.913
	0.0002304	126.243	0.001267	57.761	0.001884	59.3	0.002764	49.942
	0.235	51.858						
129.25	0.199	48.412	0.001139	74.056	0.0007341	89.471	0.0005983	105.931
	0.0001018	161.573	0.002691	38.961	0.002995	56.868	0.003633	28.734
	0.876	-13.93	0.001151	57.349	0.579	-61.049	0.0002278	9.874
	0.0008835	105.081	0.0003204	-81.842	0.00004725	17.633	0.0006877	-7.817
	0.0001144	-151.156	0.0002936	66.619	0.001144	44.815	0.001066	56.931
	0.581	-62.432	0.0004204	55.3	0.0004009	120.33	0.0007117	-154.857
	0.0001295	160.386	0.001046	163.328	0.001024	105.848	0.001445	110.264
	0.0005594	55.111	0.0007616	24.886	0.577	-62.853	0.0008037	50.888
	0.0006702	-135.928	0.0001349	38.002	0.0006231	93.878	0.0007786	127.85
	0.0002181	-103.883	0.000927	36.344	0.0004819	6.887	0.0009393	-1.275
	0.575	-63.597	0.000466	116.385	0.00003259	142.592	0.0006649	159.546
	0.000432	162.958	0.003247	39.968	0.0003355	84.55	0.000989	177.998
	0.0004471	144.209	0.0004927	136.022	0.573	-63.553	0.0007935	143.136
	0.0008583	-148.881	0.003213	33.381	0.00293	25.46	0.000598	151.309
	0.0006142	-72.902	0.0003779	-102.509	0.0007341	-70.471	0.00001586	-100.637
	0.577	-62.783	0.0003938	68.736	0.002491	33.564	0.002909	27.02
	0.00002194	-162.579	0.00006836	1.349	0.0003014	176.997	0.001036	-74.631
	0.001144	141.935	0.0001692	116.97	0.581	-62.382	0.002755	34.841
	0.876	-13.807	0.001996	110.126	0.002086	51.401	0.0002253	77.139
	0.0003393	88.805	0.001626	50.207	0.002241	52.401	0.002969	49.166
	0.202	49.307						
149.1	0.174	45.245	0.00136	73.175	0.000802	71.863	0.0006589	90.527
	0.0002081	15.116	0.002674	38.651	0.00309	47.137	0.003578	30.302
	0.879	-12.782	0.001439	60.735	0.538	-65.002	0.0006022	28.017
	0.0006443	72.069	0.00005129	82.601	0.00004242	172.113	0.0004955	-121.326
	0.00000033	147.258	0.0006433	41.765	0.001052	49.467	0.0009569	58.95
	0.542	-66.44	0.0006217	56.081	0.00003585	-163.373	0.0005207	-24.492
	0.0001336	154.049	0.0007579	100.876	0.0008651	82.39	0.001138	93.498
	0.0001964	119.64	0.0007822	38.301	0.538	-66.933	0.001176	61.255
	0.0006223	-171.905	0.0000682	177.878	0.0001829	73.243	0.0007336	89.743
	0.0002158	70.142	0.0006714	42.693	0.0004934	59.035	0.001095	33.006
	0.536	-67.752	0.0007142	127.596	0.0002897	144.028	0.0004338	163.316
	0.0004792	117.938	0.002962	37.075	0.0003298	98.341	0.000772	166.374
	0.0005085	140.982	0.0007049	136.828	0.535	-67.725	0.001006	127.061
	0.0007542	177.824	0.002907	33.563	0.003043	29.134	0.0004125	171.647
	0.0004152	-148.928	0.0005051	-149.942	0.0002285	-46.317	0.0006264	87.491
	0.538	-66.89	0.0005447	72.485	0.002714	35.214	0.003247	28.378
	0.0001072	-74.171	0.0001181	49.477	0.00003337	99.146	0.0003762	-63.342
	0.0009024	135.11	0.000369	98.818	0.542	-66.441	0.003179	38.327
	0.879	-12.69	0.001567	76.191	0.001389	43.599	0.0004077	70.949
	0.0004818	63.263	0.002	44.608	0.002595	46.12	0.003192	48.575
	0.179	46.318						
168.95	0.156	41.815	0.001517	71.151	0.0008973	56.368	0.000711	74.523
	0.0005499	44.511	0.002659	38.014	0.003187	37.125	0.003525	31.689
	0.881	-12.014	0.00173	63.105	0.498	-69.046	0.0009661	46.023
	0.0004154	38.935	0.0004103	66.747	0.000129	146.512	0.0003106	125.248
	0.000108	25.946	0.001	25.889	0.0009513	52.791	0.0008554	60.857
	0.503	-70.541	0.0008183	56.749	0.0003165	92.784	0.0003388	105.882
	0.0001381	147.57	0.0004823	38.27	0.0007155	56.961	0.0008293	76.516
	0.0001531	3.801	0.0008048	51.6	0.499	-71.106	0.00154	71.517
	0.0005781	152.013	0.0002645	136.766	0.0002415	-127.726	0.000721	51.065
	0.0006476	50.039	0.000427	48.957	0.0005064	111.078	0.001249	67.179
	0.497	-72.001	0.0009563	138.669	0.000539	145.162	0.0002121	166.965
	0.0004957	75.331	0.002695	34.084	0.0003251	111.952	0.0005653	154.642
	0.0005695	137.642	0.000912	137.53	0.496	-71.991	0.001215	110.886
	0.0006557	144.412	0.002603	33.693	0.003157	32.652	0.0002343	-168.164
	0.0002236	135	0.0006293	162.526	0.0002587	157.773	0.001248	90.006
	0.499	-71.088	0.000692	76.2	0.002941	36.939	0.003586	29.595
	0.0001897	16.196	0.0001666	97.162	0.0002255	-159.687	0.0002594	127.918
	0.0006727	128.19	0.0005632	80.715	0.503	-70.591	0.003602	41.847
	0.881	-11.952	0.001141	40.803	0.0007012	37.453	0.0005896	67.373
	0.0005797	39.638	0.00238	39.93	0.002946	40.158	0.003425	48.113
	0.162	43.139						
188.8	0.142	38.243	0.001678	65.996	0.001049	51.839	0.0008361	58.509
	0.0007344	65.875	0.002707	36.231	0.003221	29.505	0.003545	30.972
	0.883	-11.491	0.001906	64.888	0.459	-72.95	0.001131	58.893
	0.0003484	19.748	0.0004972	79.762	0.0001574	144.494	0.000154	49.082
	0.0002412	144.008	0.001203	14.147	0.0009602	59.598	0.00087	61.647
	0.465	-74.552	0.001021	60.498	0.0005578	127.452	0.000314	-176.968
	0.0001377	-170.237	0.0002335	32.118	0.0005694	26.605	0.0007479	60.625
	0.0003501	47.601	0.0008952	66.791	0.462	-75.176	0.00177	84.862
	0.0004652	124.61	0.0004192	106.18	0.0004781	-165.545	0.0006048	29.74
	0.0009442	39.035	0.0003087	53.523	0.0005068	135.151	0.001482	90.621
	0.459	-76.164	0.001094	144.102	0.0006642	140.599	0.0001668	168.519
	0.0004888	36.733	0.002543	30.706	0.0003169	141.865	0.000393	153.192
	0.0005942	136.57	0.001011	137.248	0.459	-76.124	0.001513	98.049
	0.0005613	122.25	0.002468	34.163	0.003309	32.613	0.0001637	-171.178
	0.00011	104.781	0.0005881	129.236	0.0005373	163.82	0.001702	91.844
	0.462	-75.173	0.0007875	79.709	0.003038	35.858	0.00376	29.877
	0.0002052	96.572	0.0001718	109.492	0.0003706	147.702	0.000562	131.23
	0.0005683	116.668	0.0007409	73.023	0.465	-74.638	0.003934	43.889
	0.883	-11.441	0.0008411	12.131	0.0003428	35.779	0.0006939	59.942
	0.0005494	26	0.002586	37.123	0.003197	35.144	0.00365	46.574
	0.149	39.901						
208.65	0.131	34.59	0.001991	57.876	0.001187	64.597	0.001055	49.532
	0.0006291	64.578	0.002816	30.067	0.003248	28.546	0.00373	25.012
	0.885	-11.108	0.00184	65.03	0.425	-76.273	0.0009049	62.382
	0.000547	35.576	0.0001106	127.864	0.0000801	172.504	0.000164	85.85
	0.0003243	101.796	0.001065	11.781	0.001155	67.56	0.001088	64.619
	0.431	-78.103	0.001186	69.02	0.0004764	81.714	0.0005572	134.918
	0.0001476	-80.401	0.0001374	142.484	0.0005463	4.339	0.001039	56.538
	0.0002107	34.705	0.001066	81.461	0.428	-78.742	0.001741	99.978
	0.0003705	120.904	0.0004434	111.803	0.0003691	138.178	0.000385	52.047
	0.0008204	49.639	0.0003769	65.198	0.0004259	99.599	0.001871	88.102
	0.426	-79.828	0.001127	137.711	0.0005452	129.252	0.0004951	152.311
	0.0004893	12.961	0.002626	28.556	0.0003079	178.806	0.0003465	153.58
	0.0005145	138.233	0.001007	132.976	0.426	-79.696	0.001909	95.852
	0.0005826	118.145	0.002614	35.292	0.003466	26.074	0.0003119	150.114
	0.0001574	158.119	0.0002753	129.645	0.0004473	136.355	0.001803	94.238
	0.428	-78.724	0.0009274	87.624	0.00295	30.351	0.003604	26.711
	0.0001296	135.374	0.0001045	69.143	0.0002984	162.768	0.0001786	113.146
	0.0006757	110.358	0.000846	88.393	0.432	-78.175	0.003947	41.627
	0.884	-11.037	0.0009376	10.168	0.0005969	23.233	0.0006487	37.618
	0.000409	42.4	0.002386	36.867	0.003157	32.873	0.003841	43.674
	0.139	36.626						
228.5	0.123	30.905	0.002248	63.617	0.001006	58.592	0.0009557	49.4
	0.0007297	49.84	0.002698	22.696	0.003483	26.871	0.003798	20.336
	0.885	-10.851	0.001924	62.803	0.395	-79.343	0.001143	78.364
	0.0003991	56.373	0.0002707	73.238	0.000141	119.937	0.0003096	137.962
	0.0001739	88.109	0.001084	13.202	0.001039	54.365	0.001074	81.574
	0.401	-81.354	0.001216	70.596	0.0004051	112.041	0.0004686	128.915
	0.0001944	177.493	0.0003019	140.455	0.0007963	21.283	0.0007909	60.256
	0.0002399	47.871	0.001065	84.139	0.398	-81.992	0.001961	97.926
	0.0006496	123.633	0.0003978	133.514	0.0004763	143.571	0.0006164	46.02
	0.0006997	54.184	0.0001944	93.552	0.0003794	101.043	0.002057	93.456
	0.396	-83.119	0.001473	136.331	0.0006697	139.352	0.0005154	117.707
	0.0004615	10.833	0.002697	29.589	0.0003473	129.77	0.0003941	114.421
	0.0004943	124.908	0.001365	126.788	0.396	-82.989	0.002053	96.699
	0.0007618	100.052	0.00246	32.674	0.003388	25.846	0.0002829	157.124
	0.0001664	117.412	0.0003695	123.027	0.0005734	143.009	0.002037	99.237
	0.399	-81.949	0.001356	103.046	0.00319	31.635	0.003712	21.543
	0.0002222	125.449	0.0001754	135.053	0.0003887	153.222	0.0002972	112.017
	0.0006376	132.108	0.0009785	91.304	0.402	-81.384	0.003872	39.891
	0.885	-10.806	0.00112	11.9	0.0003753	18.671	0.0007503	22.31
	0.0005775	35.028	0.002409	33.678	0.003112	31.66	0.00395	43.362
	0.131	33.393						
248.35	0.116	27.059	0.002199	59.876	0.001079	59.287	0.0008506	48.899
	0.00066	35.401	0.002746	23.925	0.003382	24.073	0.003791	18.849
	0.886	-10.686	0.00198	60.161	0.369	-82.099	0.001619	91.762
	0.0003367	90.208	0.0002904	64.13	0.0002879	107.502	0.0002148	132.694
	0.0002544	123.172	0.001016	5.224	0.001026	60.917	0.001251	94.716
	0.376	-84.261	0.001312	80.587	0.0006754	117.963	0.0004896	123.836
	0.0002211	157.93	0.0003966	113.904	0.0006219	6.065	0.0008826	42.196
	0.0003363	103.024	0.00117	92.553	0.372	-84.908	0.002196	97.084
	0.0005522	145.193	0.0004322	126.841	0.0003884	121.855	0.0007101	22.626
	0.0008348	34.801	0.000328	101.563	0.0006302	94.825	0.002163	100.009
	0.371	-86.12	0.001513	127.02	0.0008556	136.02	0.000307	130.337
	0.0004393	25.74	0.002911	25.021	0.0004134	114.367	0.0004157	132.525
	0.0006143	112.055	0.00146	125.267	0.371	-85.907	0.002378	96.466
	0.0006543	121.206	0.002584	28.671	0.003446	23.618	0.0002231	129.891
	0.0003338	115.841	0.000463	126.034	0.0004185	132.825	0.002296	97.188
	0.374	-84.833	0.001361	102.047	0.003209	28.38	0.003803	18.555
	0.0001983	147.128	0.00026	162.84	0.0004618	111.201	0.0005212	132.384
	0.0008821	110.695	0.001321	96.899	0.377	-84.269	0.004047	40.745
	0.886	-10.647	0.000908	6.421	0.0005002	22.018	0.0007317	39.419
	0.0006176	24.296	0.002496	30.911	0.003206	29.629	0.003945	40.844
	0.124	30.203						
268.2	0.11	23.248	0.001945	57.913	0.001306	63.103	0.0009533	54.47
	0.0008485	43.858	0.002883	20.736	0.003588	20.223	0.003892	18.839
	0.886	-10.601	0.002115	54.397	0.345	-84.643	0.001771	89.781
	0.000317	88.67	0.0003414	93.798	0.0003858	143.832	0.0003269	113.531
	0.0003562	140.25	0.001062	-0.851	0.001104	63.182	0.001645	96.099
	0.353	-86.978	0.001395	90.915	0.0008493	106.18	0.0006373	145.823
	0.0003121	140.553	0.0003496	137.322	0.0003711	14.058	0.0008826	49.128
	0.0003134	77.994	0.001258	91.199	0.35	-87.66	0.002403	97.44
	0.0006681	154.995	0.0005166	98.899	0.0005516	102.68	0.0009157	23.647
	0.0006785	52.644	0.0004626	116.201	0.0006872	99.991	0.0024	103.028
	0.348	-88.896	0.001564	119.906	0.0008825	118.002	0.0003165	149.962
	0.0004403	17.076	0.00283	23.628	0.0004466	111.003	0.0005847	114.114
	0.0006257	128.582	0.00156	122.817	0.349	-88.703	0.002481	99.528
	0.0007612	117.715	0.002618	33.366	0.003559	23.066	0.0002817	146.226
	0.0004174	123.064	0.0005957	121.802	0.0008034	116.322	0.002762	98.352
	0.351	-87.548	0.001494	98.039	0.003332	27.298	0.003994	15.814
	0.0002407	-53.07	0.0002288	146.534	0.0005356	114.525	0.0004743	105.704
	0.0009372	99.878	0.001454	100.98	0.354	-86.959	0.00398	39.733
	0.886	-10.541	0.001177	7.615	0.0005204	15.625	0.0005252	34.491
	0.0006676	17.869	0.002417	27.059	0.003149	28.581	0.004159	43.253
	0.119	26.893						
288.05	0.105	19.377	0.001881	59.941	0.001092	57.265	0.001155	30.97
	0.0007512	34.771	0.002866	18.354	0.003383	18.476	0.003821	16.675
	0.886	-10.596	0.002198	63.536	0.325	-86.992	0.001899	88.584
	0.0004589	103.189	0.0003729	90.298	0.0002081	169.032	0.0003571	128.812
	0.0003156	159.093	0.001003	-4.187	0.001117	58.345	0.001635	98.765
	0.333	-89.462	0.001532	94.251	0.0008322	107.573	0.0006831	150.38
	0.0003445	113.826	0.0003241	132.198	0.0006804	22.195	0.0009217	48.481
	0.0002878	83.017	0.001665	87.506	0.33	-90.185	0.002883	100.737
	0.0009303	124.829	0.0005198	102	0.0004821	102.841	0.0007627	23.255
	0.0008591	31.583	0.0002311	69.598	0.000821	109.777	0.002783	100.075
	0.329	-91.42	0.00164	115.611	0.0008777	130.743	0.0006108	130.342
	0.0005412	7.123	0.002865	22.668	0.0004697	116.509	0.000606	122.125
	0.0008178	119.289	0.001692	122.703	0.329	-91.226	0.00295	101.557
	0.0009445	112.861	0.00267	26.625	0.003368	23.25	0.000231	49.592
	0.0003152	107.468	0.0005095	122.453	0.0009429	110.232	0.002983	95.972
	0.331	-90.028	0.001684	99.493	0.003295	27.25	0.004092	14.4
	0.0002809	89.09	0.0003504	150.045	0.0004088	105.687	0.0004327	119.779
	0.0009262	97.921	0.001714	99.378	0.334	-89.383	0.003952	39.662
	0.886	-10.533	0.001175	-3.759	0.0005706	4.416	0.0004599	17.632
	0.0005354	3.727	0.002327	24.878	0.003129	26.301	0.004208	38.689
	0.115	23.625						
307.9	0.101	15.672	0.002062	59.603	0.001168	62.199	0.0008812	41.988
	0.0007425	38.214	0.002761	19.511	0.003508	19.788	0.00382	11.761
