! Hittite Microwave Corporation
! 20 Alpha Road
! Chelmsford, MA 01824
! Tel: 978-250-3343
! Fax: 978-250-3373
! Device: HMC276QS24, 0.7-3.0 GHz, GaAS MMIC 4x2 Switch Matrix in 24-lead QSOP package
! Misc: Data was de-embedded to package pins.
!       Port 1 = OP1
!       Port 2 = VL
!       Port 3 = VH
!       Port 4 = HH
!       Port 5 = HL
!       Port 6 = OP2
!          Vdd = +5 V
!         Vctl = 0 V[Logic 0] / +5 V[Logic 1]
!
!  State 14,  HH to OP1, VH to OP2
!  Control Lines (Logic)
!    HV 1 = 1, Tone 1 = 1
!    HV 2 = 0, Tone 2 = 1
!
!  Data reformated to new Touchstone file format - Wed Jan 10 15:59:03 2007
!
# MHz S DB R 50
! 6 Port Network Data
! freq  dbS11  angS11  dbS12  angS12  dbS13  angS13  dbS14  angS14  
!       dbS15  angS15  dbS16  angS16  
!       dbS21  angS21  dbS22  angS22  
!       dbS23  angS23  dbS24  angS24  dbS25  angS25  dbS26  angS26  
!       dbS31  angS31  dbS32  angS32  dbS33  angS33  dbS34  angS34  
!       dbS35  angS35  dbS36  angS36  
!       dbS41  angS41  dbS42  angS42  
!       dbS43  angS43  dbS44  angS44  dbS45  angS45  dbS46  angS46  
!       dbS51  angS51  dbS52  angS52  dbS53  angS53  dbS54  angS54  
!       dbS55  angS55  dbS56  angS56  
!       dbS61  angS61  dbS62  angS62  
!       dbS63  angS63  dbS64  angS64  dbS65  angS65  dbS66  angS66  
!     
                10        -10.692343            -12.298         -37.721133             90.948        -55.3248527             64.545         -2.6860788              3.377
                       -54.841631            -66.625        -41.3332918            103.606
                      -48.9320498            -134.59      -0.0173891743             -4.052        -44.2522076           -169.784        -43.9363222            -98.629
                      -53.3270249             168.31        -49.6270895            144.184
                      -44.8840269            163.541        -62.6494718           -129.745        -11.1191041            -14.007        -38.4163751             -9.628
                      -46.1783702             19.971        -2.76931178              3.295
                      -2.63887276                  4        -48.4939333            -87.553        -35.9176003            -55.738        -11.7340047              -11.3
                      -42.0871299            -74.489        -48.8884385            -57.938
                      -43.8101525              85.03         -52.637983              64.63        -44.2380473           -157.395        -47.3023972            179.473
                    -0.0435383851             -3.912        -43.2406596             50.863
                        -46.52116            -41.689        -43.8479466             -84.81        -2.74544943              3.735        -38.4163751           -146.594
                      -43.3830962           -121.499        -11.0258736             -10.36

             29.95       -11.5023673            -13.257        -63.0608935            102.782        -60.6032981             80.013        -2.69792051             -0.558
                      -61.2256037            -175.01        -53.2268867            101.816
                      -68.2435366              2.128       -0.282492854            -12.623        -62.8076284             48.192        -54.2708706             84.832
                      -67.9479496            -49.706         -56.869017           -156.019
                      -58.1455871           -128.343        -63.5775935            -20.492        -11.6671899            -16.128        -56.7966341             53.182
                      -60.0811567             -1.912        -2.65065024             -0.277
                      -2.70977838             -0.438        -61.7651324            -66.033        -59.0156395            -79.482        -11.6671899            -16.325
                      -60.8949063            151.082         -61.436181            -97.706
                      -61.6825099             77.772        -65.3008048             75.269        -53.7268731             75.735        -59.5927743            126.943
                     -0.273524459             -12.72        -65.0657595           -139.721
                      -54.6004065            -94.426         -63.681807              5.968        -2.66244371             -0.286        -80.2878783            119.171
                      -58.1877858            140.961        -11.0258736            -12.283

              49.9       -11.8691964            -14.066        -60.7867799            115.686        -65.5571975             46.019        -2.60363584             -3.857
                      -67.7485609             -75.22         -62.164792            125.016
                      -77.4643885             30.929        -0.63968572            -20.355        -67.6746919             89.388        -66.0275514             45.401
                      -67.2943472            112.184        -68.7803589              10.43
                      -66.9860804             38.665        -63.5083725             53.073        -12.1460609            -18.497        -60.7469319             102.17
                      -69.8428826               43.7        -2.55687455             -3.709
                      -2.61536561             -3.747        -63.5605636             53.634        -85.7352308            -24.667        -12.3236927            -18.693
                      -68.0395186            109.739        -79.7601377            117.462
                      -62.1203287            122.935        -61.7875119           -107.278        -67.2182426             22.663         -63.124136            -78.199
                      -0.63968572            -20.377        -64.6628238            135.974
                       -71.010432            133.966        -76.6773206            105.301        -2.59192189             -3.589        -76.1765709            167.546
                      -67.1586275             113.31        -11.4373041             -13.59

             69.85       -12.0411998            -17.568         -63.814194             54.467        -69.1087181            -25.721         -2.7335428              -5.67
                      -65.1943256            107.239        -61.0513256             66.384
                      -60.6584053            121.703         -1.0906283            -27.369        -72.3668703            141.445        -74.6847817             -8.013
                      -68.2121795            -73.616        -68.8186333            103.756
                      -64.6346397            -26.692        -69.3678674             87.822        -12.3596591            -24.005        -62.4964588             82.206
                      -67.7974477           -166.608        -2.67425322               -5.5
                       -2.7335428              -5.54        -74.8224674              99.18        -60.9103257             54.934        -12.3596591            -24.407
                      -66.1836788            174.395        -66.6733851           -153.226
                      -66.1925339             68.095         -76.351707           -128.359          -75.62404             48.909        -66.2851652             85.129
                      -1.08078593            -27.422        -64.4717882            105.904
                      -58.3371171             80.881        -69.4757999             90.514         -2.6860788               -5.4        -69.9051473             98.174
                      -68.4111881            119.856         -11.600885            -17.638

              89.8       -12.2522035            -20.947        -66.2458544             72.245        -71.5810919            -40.542        -2.82925605             -7.446
                      -68.8908557            -18.443        -59.8194852             95.096
                      -69.4861495             85.308        -1.59753347            -33.553        -73.2828218             78.866         -67.735853             40.057
                      -78.0548538           -166.446        -68.2211271             51.924
                      -89.5955713             79.855         -67.501988            108.139        -12.5786428            -29.052        -63.5959708             55.145
                      -78.0757083             55.889        -2.78126759             -7.269
                      -2.84129471             -7.298         -72.058589             62.581        -60.5152945             87.781        -12.5417599            -29.512
                       -73.862925            -92.853        -75.6608559             59.637
                      -65.4670856             64.194        -71.2672074            158.369        -73.3431547             55.338        -68.7803589             70.991
                      -1.59753347            -33.628        -64.9867471             70.714
                      -58.1666608             82.407        -78.8466779            -25.559        -2.79323987              -7.15        -69.2941176            -81.078
                      -76.7666518            119.355        -11.8013375             -21.15

            109.75        -12.432042            -24.055        -67.0152506             83.318        -77.2150156            -10.579        -2.97483303             -8.902
                      -69.1360283             38.975        -56.8569112             85.385
                      -69.7276585             62.272        -2.18040806            -39.011        -65.3088036              68.02        -76.2891569            -161.07
                      -73.4650924            -58.907        -68.3473712             71.509
                      -78.8011622              2.231        -65.4752391            130.301        -12.8413031            -33.904        -62.6482935             79.987
                      -70.2742248              69.63        -2.90173955             -8.741
                      -2.97483303              -8.83        -76.2101937             63.857        -59.7601377             80.236        -12.7654433            -34.697
                      -67.8594824            106.594        -82.7085919            -34.914
                      -79.5596852             69.187        -77.3164578             80.527        -71.1066154             31.656        -64.2891326            100.742
                      -2.16925085            -39.136        -73.1990536             43.897
                      -57.4903747             80.689        -69.7010799             54.475        -2.91387916             -8.661        -77.9034319             61.907
                      -66.4005461             87.072        -12.0065256            -24.515

             129.7       -12.6156829            -26.756        -68.8715376             55.232        -82.3120235            -90.065        -3.08563964            -10.303
                      -64.5052823             20.607        -58.7935994             86.694
                      -66.0101831             83.014        -2.75737241            -43.783        -65.8810161             101.87        -67.0133028              46.98
                      -73.3270249             77.515        -63.9870329             38.732
                      -72.6156829            174.782        -63.6117538            106.861        -13.1515464            -38.515        -60.0925619             66.867
                      -71.7844553             71.657        -3.01161172            -10.138
                      -3.08563964            -10.175        -80.2627746             22.928        -59.4856923             63.153        -13.0339027            -39.062
                       -64.108845             84.344        -76.1041648              1.172
                       -72.512366             15.637        -76.1709797           -168.507        -72.9834145             10.087        -66.8378633            102.801
                      -2.75737241            -43.891         -67.300384             68.978
                      -56.0213626              86.58        -67.2682363             29.526        -3.03621766             -10.05        -67.5495028             62.927
                      -66.0781168             55.528        -12.2166783            -27.451

            149.65       -12.8413031            -29.279        -63.5854647             80.857        -81.6163454            -66.063        -3.19787811            -11.517
                      -67.9479496             25.417        -56.2383125             86.536
                      -66.1412999             69.367        -3.34982175            -47.848        -61.7099635             96.159        -79.8878111             42.409
                      -92.7315213             24.801        -66.4844332             26.805
                      -80.8987586             -3.425        -64.9513478             80.872        -13.4324079            -42.762        -58.0271255             67.794
                      -69.2637827             48.589        -3.14781521            -11.336
                      -3.23561556            -11.438        -67.2242267             -9.198        -59.1721463             71.249         -13.310925            -43.229
                      -63.1465673             95.046        -69.5615551            -35.243
                      -67.0738864              9.751        -71.8013375            155.951         -74.230544             35.221        -64.5198854              94.66
                      -3.33705776            -48.013         -64.051879             58.045
                      -54.9867216             90.569        -67.5951962             -0.193        -3.16030391            -11.316        -80.0095597             41.107
                      -63.9090338             73.606        -12.4684609            -29.988

             169.6       -13.0339027            -31.245         -67.068005             64.481         -73.407975             -7.133        -3.32431251             -12.61
                      -67.3468057             18.398        -53.9274405             86.569
                      -66.7128025              81.05        -3.91721135            -51.415        -64.3491143             89.436        -76.8206948             -9.234
                      -82.4941435             82.262        -65.4086055              9.321
                      -68.0812619            -43.629        -63.6698713            107.291        -13.7649228            -46.794        -58.4453764             72.718
                      -73.6178788             -4.111        -3.27351769            -12.414
                      -3.34982175            -12.538        -72.2914497              8.598        -57.9102578             62.815        -13.5970743            -47.214
                      -63.7390607             84.284        -73.9360789             -2.352
                       -69.613943             30.252        -70.2997757            141.571        -73.8201794            -37.423        -63.1141851             95.053
                      -3.90358643            -51.582        -65.5013817             76.086
                      -54.2171433             88.078        -67.0386574             -0.716        -3.28618857            -12.392        -73.2628036             -53.51
                      -64.5594367             75.899        -12.6902403            -32.432

            189.55       -13.2308701            -33.117        -62.9236031             75.901         -67.870223            -38.524        -3.45261454            -13.581
                      -68.1943119             -1.465         -53.858641             87.063
                      -65.0222912             79.687        -4.46597632            -54.438        -62.7478327             90.169        -71.2449887              -2.73
                      -77.6214849            -89.147        -73.7479912              6.299
                      -81.8270832            -23.507        -62.0068724             98.499        -14.0666962            -50.473        -57.8016827             69.576
                        -79.62599             30.978        -3.38822663            -13.382
                      -3.47850395            -13.471        -71.8691964             15.738        -56.5654709             70.887        -13.8500792            -50.827
                      -62.0926542             85.753        -69.8240207            -55.056
                      -67.7612875             25.349        -81.2737473             105.64        -74.4478157             23.935        -63.0251364             86.551
                      -4.45146355            -54.645        -62.5173244             81.951
                      -53.8116555              87.03        -72.1883624              8.616        -3.41392454             -13.32        -77.3100829            -50.866
                      -65.8468935             67.917        -12.9178312            -34.489

             209.5       -13.4324079            -34.745        -60.4081221             85.142         -74.009854            -74.576        -3.58284021            -14.401
                      -69.2235002              7.956        -52.5528083             88.819
                      -63.5618725             74.745         -4.9898321            -57.014        -61.6951701             97.409        -81.0630977            -50.205
                      -76.8508646            139.474        -68.4249243            -12.807
                      -72.0203787            -87.513        -59.5267216             105.39        -14.3793327            -53.825        -57.0650397             64.488
                      -73.7184402             26.927        -3.50447075            -14.251
                      -3.59597081            -14.289        -82.2521556            -51.478        -57.1898391             62.199        -14.1548786            -54.129
                      -62.4008883             79.513        -72.5675615            -51.447
                      -69.5120776              3.298        -73.8244445            169.872        -76.6891785              18.15        -61.9610307             95.496
                       -4.9898321             -57.24        -63.0473131             83.478
                      -52.8108796             87.273        -65.6866172             -2.093        -3.53051542            -14.142        -76.1821657            -66.632
                      -63.7123841             71.297        -13.1121545            -36.268

            229.45       -13.5970743             -35.99        -62.4318622             90.522        -70.5127605            -65.996        -3.68844503            -15.169
                      -66.9299611              3.285        -52.2450868             87.311
                      -62.6247608              86.37        -5.48176735            -59.233        -59.4611674             96.754        -73.2069968              39.03
                      -74.6284406            128.441        -67.4690868             15.439
                      -75.8904993            -17.369        -60.6922026            100.108        -14.7036435            -56.906        -55.7829327             57.269
                      -71.9788855             18.851        -3.62229171            -14.984
                      -3.71504809            -15.033        -69.9078646              -4.66        -56.3061714             66.875         -14.424928            -57.128
                      -59.7940009             95.317        -69.0223887             -52.64
                      -65.9617358             -6.511        -73.3028862           -171.823        -68.6500622             15.901        -60.5781957             98.474
                      -5.48176735            -59.482        -63.1953681             79.992
