!Hittite Microwave Corporation								
!12 Elizabeth Drive								
!Chelmsford Massachusetts 01824								
!Tel: 978 250-3343								
!Fax: 978 250-3373								
!Device: HMC226, DC - 2.0 GHz SP2T switch in SOT26 package							
!Misc: Port 1 = RFC, Port 2 = RF1, Port 3 = RF2, RF1 Selected, Vctl= 0/+3VDC							
!
# MHZ S MA R 50

30 0.018 -33.791 0.965 0.422 4.178e-3 106.32
          0.966 0.41 0.018 -33.224 3.96e-3 105.564
          4.173e-3 105.453 3.866e-3 105.209 0.995 -1.219
59.85 0.017 -17.759 0.972 -0.294 7.544e-3 91.477
          0.971 -0.275 0.017 -15.114 7.15e-3 93.64
          7.439e-3 91.554 7.077e-3 92.916 0.995 -2.404
89.7 0.016 -13.778 0.972 -0.499 0.012 93.548
          0.971 -0.538 0.017 -9.561 0.011 93.728
          0.012 93.758 0.011 93.666 0.996 -3.537
119.55 0.017 -11.905 0.971 -0.668 0.016 91.943
          0.97 -0.737 0.018 -7.161 0.015 92.181
          0.016 92.119 0.015 92.069 0.997 -4.674
149.4 0.018 -13.941 0.971 -0.832 0.02 91.17
          0.969 -0.902 0.018 -7.435 0.019 91.337
          0.02 91.153 0.019 91.329 0.996 -5.787
179.25 0.019 -15.131 0.969 -1.025 0.024 90.144
          0.969 -1.076 0.019 -8.836 0.023 89.874
          0.024 90.206 0.023 90.245 0.995 -6.988
209.1 0.02 -16.885 0.968 -1.163 0.028 89.398
          0.968 -1.223 0.02 -9.995 0.026 89.094
          0.028 89.636 0.026 89.438 0.996 -8.091
238.95 0.022 -18.359 0.967 -1.34 0.032 89.697
          0.967 -1.4 0.021 -11.061 0.03 88.607
          0.032 89.984 0.03 88.919 0.996 -9.243
268.8 0.023 -20.379 0.968 -1.412 0.036 88.924
          0.968 -1.527 0.022 -12.591 0.034 88.503
          0.036 88.877 0.034 88.309 0.996 -10.435
298.65 0.025 -22.709 0.968 -1.618 0.04 88.698
          0.968 -1.648 0.023 -14.557 0.038 88.389
          0.04 88.33 0.038 87.868 0.996 -11.601
328.5 0.026 -24.45 0.968 -1.746 0.045 88.272
          0.967 -1.766 0.024 -16.154 0.042 87.778
          0.044 87.853 0.041 87.47 0.996 -12.733
358.35 0.027 -26.472 0.967 -1.844 0.049 87.276
          0.967 -1.952 0.025 -17.958 0.046 86.852
          0.048 87.485 0.045 87.013 0.996 -13.797
388.2 0.029 -28.566 0.966 -2.053 0.052 86.367
          0.967 -2.059 0.026 -19.571 0.049 85.798
          0.052 87.137 0.049 86.596 0.996 -14.918
418.05 0.03 -30.17 0.965 -2.179 0.056 86.038
          0.964 -2.169 0.027 -20.829 0.052 85.434
          0.056 86.808 0.052 86.28 0.997 -15.981
447.9 0.031 -31.768 0.964 -2.294 0.059 86.247
          0.964 -2.25 0.028 -21.79 0.055 85.626
          0.06 86.426 0.056 85.808 0.996 -17.08
477.75 0.032 -33.158 0.964 -2.358 0.063 86.621
          0.963 -2.376 0.029 -23.314 0.059 86.031
          0.063 86.112 0.059 85.457 0.995 -18.154
507.6 0.034 -34.961 0.965 -2.47 0.068 86.389
          0.963 -2.509 0.03 -25.301 0.064 85.785
          0.067 85.787 0.063 85.127 0.994 -19.216
537.45 0.035 -36.576 0.965 -2.591 0.072 85.692
          0.964 -2.614 0.031 -26.92 0.068 84.975
          0.071 85.346 0.067 84.821 0.994 -20.42
567.3 0.036 -37.81 0.963 -2.74 0.076 84.657
          0.963 -2.825 0.032 -28.229 0.071 84.016
          0.075 85.218 0.07 84.41 0.994 -21.51
597.15 0.038 -38.745 0.961 -2.932 0.079 84.216
          0.962 -3.04 0.033 -29.09 0.074 83.414
          0.079 84.601 0.074 84.03 0.993 -22.524
627 0.04 -38.863 0.958 -3.097 0.083 83.906
          0.958 -3.255 0.035 -29.524 0.077 83.256
          0.083 84.403 0.077 83.691 0.992 -23.601
656.85 0.044 -41.763 0.954 -3.022 0.086 83.886
          0.953 -3.137 0.038 -32.435 0.08 83.071
          0.086 84.289 0.081 83.385 0.992 -24.629
686.7 0.045 -47.13 0.955 -2.906 0.089 83.893
          0.954 -2.937 0.039 -37.536 0.083 83.154
          0.09 84 0.084 83.204 0.991 -25.712
716.55 0.044 -50.14 0.957 -2.982 0.093 84.21
          0.957 -2.984 0.039 -40.038 0.087 83.508
          0.094 83.838 0.088 83.041 0.992 -26.762
746.4 0.044 -51.629 0.957 -3.076 0.098 84.692
          0.958 -3.099 0.038 -40.789 0.091 83.98
          0.098 83.576 0.091 82.751 0.991 -27.818
776.25 0.044 -52.83 0.958 -3.206 0.103 84.598
          0.958 -3.251 0.038 -41.602 0.096 83.793
          0.101 83.545 0.094 82.535 0.991 -28.731
806.1 0.044 -54.096 0.958 -3.308 0.108 83.516
          0.959 -3.394 0.037 -42.633 0.101 82.546
          0.105 83.239 0.098 82.435 0.989 -29.73
835.95 0.044 -55.233 0.959 -3.439 0.112 81.885
          0.958 -3.568 0.037 -43.845 0.104 81.022
          0.109 83.101 0.102 82.259 0.987 -30.727
865.8 0.045 -56.692 0.958 -3.593 0.112 81.078
          0.957 -3.755 0.037 -45.25 0.105 80.134
          0.112 82.892 0.105 82.003 0.986 -31.654
895.65 0.045 -58.066 0.957 -3.779 0.113 81.475
          0.956 -3.822 0.036 -46.647 0.106 80.546
          0.116 82.678 0.109 81.604 0.984 -32.73
925.5 0.045 -59.718 0.956 -3.94 0.116 83.003
          0.956 -3.916 0.036 -48.08 0.108 82.085
          0.12 82.551 0.112 81.482 0.982 -33.701
955.35 0.045 -61.638 0.955 -4.019 0.122 84.354
          0.955 -3.982 0.035 -49.584 0.114 83.367
          0.123 82.343 0.115 81.453 0.981 -34.65
985.2 0.045 -63.592 0.955 -4.041 0.13 84.178
          0.954 -4.042 0.035 -51.178 0.121 83.307
          0.127 82.353 0.118 81.338 0.981 -35.593
1015.05 0.044 -65.465 0.954 -4.121 0.136 82.71
          0.955 -4.228 0.035 -52.581 0.127 81.708
          0.131 82.111 0.122 81.131 0.98 -36.553
1044.9 0.043 -67.278 0.954 -4.302 0.139 81.153
          0.955 -4.36 0.034 -54.225 0.129 80.167
          0.135 81.904 0.125 80.875 0.979 -37.514
1074.75 0.042 -68.478 0.953 -4.408 0.14 80.541
          0.953 -4.463 0.033 -55.072 0.13 79.488
          0.138 81.884 0.129 80.75 0.977 -38.431
1104.6 0.042 -70.425 0.953 -4.429 0.142 80.672
          0.953 -4.547 0.032 -56.187 0.132 79.65
          0.142 81.795 0.132 80.757 0.975 -39.407
1134.45 0.041 -72.916 0.952 -4.541 0.144 81.001
          0.952 -4.656 0.031 -57.892 0.135 80.076
          0.146 81.702 0.136 80.747 0.974 -40.353
1164.3 0.039 -75.564 0.952 -4.701 0.147 81.347
          0.951 -4.788 0.03 -59.661 0.138 80.423
          0.15 81.432 0.139 80.495 0.972 -41.284
1194.15 0.038 -78.44 0.952 -4.875 0.151 81.825
          0.952 -4.882 0.028 -61.491 0.141 80.904
          0.153 81.247 0.143 80.307 0.971 -42.223
1224 0.037 -81.702 0.951 -4.935 0.156 82.575
          0.952 -4.918 0.026 -63.477 0.146 81.652
          0.157 81.163 0.147 80.164 0.97 -43.177
1253.85 0.035 -85.324 0.952 -5.023 0.164 82.86
          0.951 -5.028 0.024 -65.652 0.153 81.987
          0.161 81.023 0.15 80.034 0.968 -44.103
1283.7 0.033 -89.239 0.951 -5.17 0.172 81.778
          0.95 -5.203 0.023 -67.528 0.161 80.91
          0.165 80.939 0.154 79.936 0.967 -44.994
1313.55 0.032 -93.685 0.95 -5.232 0.177 79.635
          0.95 -5.332 0.021 -69.747 0.165 78.653
          0.169 80.806 0.158 79.818 0.966 -45.913
1343.4 0.03 -98.784 0.948 -5.324 0.176 77.871
          0.948 -5.53 0.019 -72.113 0.164 76.917
          0.173 80.616 0.161 79.578 0.963 -46.806
1373.25 0.028 -104.624 0.948 -5.492 0.173 77.905
          0.948 -5.625 0.016 -76.491 0.161 76.969
          0.177 80.468 0.165 79.341 0.96 -47.766
1403.1 0.027 -110.989 0.947 -5.625 0.172 79.737
          0.948 -5.66 0.014 -83.612 0.161 78.779
          0.18 80.366 0.169 79.17 0.959 -48.716
1432.95 0.026 -118.264 0.947 -5.739 0.179 81.889
          0.948 -5.772 0.011 -93.853 0.167 80.977
          0.185 80.221 0.173 79.007 0.957 -49.643
1462.8 0.025 -126.659 0.947 -5.901 0.191 82.445
          0.948 -5.977 7.973e-3 -110.838 0.178 81.477
          0.189 79.897 0.177 78.78 0.955 -50.625
1492.65 0.024 -135.597 0.946 -6.105 0.2 80.923
          0.946 -6.174 6.781e-3 -137.324 0.187 79.945
          0.193 79.603 0.181 78.589 0.954 -51.632
1522.5 0.024 -145.181 0.945 -6.247 0.204 79.009
          0.944 -6.326 7.544e-3 -165.41 0.191 78.03
          0.197 79.425 0.184 78.4 0.952 -52.623
1552.35 0.025 -155.275 0.944 -6.374 0.206 77.974
          0.943 -6.431 9.707e-3 174.353 0.193 76.894
          0.2 79.261 0.188 78.158 0.95 -53.647
1582.2 0.027 -165.014 0.944 -6.516 0.207 77.545
          0.942 -6.506 0.013 162.121 0.194 76.477
          0.205 79.119 0.192 77.955 0.948 -54.718
1612.05 0.03 -173.846 0.942 -6.561 0.208 77.25
          0.943 -6.641 0.016 154.487 0.195 76.228
          0.209 78.811 0.196 77.666 0.945 -55.68
1641.9 0.033 178.799 0.939 -6.541 0.208 77.324
          0.944 -6.732 0.019 149.003 0.195 76.308
          0.214 78.51 0.2 77.396 0.94 -56.623
1671.75 0.037 172.163 0.939 -6.611 0.209 78.503
          0.942 -6.897 0.023 144.13 0.196 77.539
          0.218 78.323 0.204 77.178 0.937 -57.619
1701.6 0.041 165.608 0.942 -6.878 0.215 80.48
          0.941 -7.237 0.028 139.245 0.202 79.512
          0.221 77.958 0.207 76.849 0.936 -58.567
1731.45 0.045 159.78 0.941 -7.272 0.23 81.169
          0.939 -7.563 0.033 134.529 0.216 80.133
          0.225 77.626 0.211 76.58 0.933 -59.635
1761.3 0.049 155.283 0.936 -7.651 0.246 78.915
          0.933 -7.76 0.037 131.156 0.23 77.811
          0.229 77.419 0.215 76.414 0.931 -60.817
1791.15 0.053 151.691 0.931 -7.832 0.249 75.081
          0.927 -7.781 0.042 129.324 0.234 73.878
          0.232 77.2 0.217 76.153 0.927 -61.966
1821 0.057 148.06 0.924 -7.719 0.24 72.668
          0.925 -7.634 0.047 127.558 0.225 71.477
          0.235 77.098 0.221 75.872 0.922 -63.036
1850.85 0.062 144.265 0.922 -7.576 0.228 73.508
          0.927 -7.487 0.052 125.291 0.214 72.329
          0.239 77.099 0.225 75.759 0.916 -64.013
1880.7 0.067 140.94 0.927 -7.558 0.227 76.841
          0.93 -7.615 0.057 122.851 0.213 75.571
          0.244 76.919 0.229 75.561 0.913 -65.019
1910.55 0.072 138.039 0.929 -7.622 0.239 79.802
          0.931 -7.982 0.061 120.465 0.224 78.633
          0.248 76.524 0.233 75.205 0.911 -65.893
1940.4 0.077 135.231 0.931 -8.051 0.257 79.762
          0.927 -8.273 0.065 118.028 0.242 78.593
          0.252 76.164 0.237 74.971 0.912 -66.871
1970.25 0.082 133.179 0.931 -8.371 0.27 77.352
          0.923 -8.339 0.069 116.464 0.254 76.11
          0.256 76.009 0.241 74.811 0.914 -67.934
2000.1 0.086 131.909 0.927 -8.395 0.273 75.055
          0.922 -8.307 0.073 115.753 0.257 73.73
          0.26 75.907 0.245 74.666 0.912 -69.067
2029.95 0.091 130.717 0.923 -8.401 0.271 74.125
          0.922 -8.302 0.077 115.131 0.255 72.802
          0.265 75.69 0.25 74.441 0.909 -70.31
2059.8 0.095 129.368 0.922 -8.516 0.272 74.052
          0.924 -8.505 0.081 114.51 0.256 72.753
          0.271 75.361 0.255 74.034 0.906 -71.556
2089.65 0.099 128.361 0.92 -8.585 0.275 73.887
          0.922 -8.76 0.086 114.036 0.259 72.592
          0.275 74.891 0.259 73.553 0.902 -72.862
2119.5 0.103 127.519 0.917 -8.656 0.276 73.44
          0.918 -8.859 0.09 113.809 0.26 72.013
          0.278 74.545 0.263 73.153 0.901 -74.122
2149.35 0.108 126.715 0.916 -8.741 0.275 73.589
          0.915 -8.797 0.095 113.522 0.259 72.11
          0.282 74.423 0.266 72.922 0.897 -75.402
2179.2 0.113 125.976 0.919 -8.792 0.277 74.865
          0.917 -8.801 0.099 113.261 0.261 73.44
          0.286 74.248 0.27 72.657 0.897 -76.767
2209.05 0.118 125.095 0.92 -9.105 0.287 76.157
          0.92 -9.04 0.104 112.913 0.271 74.737
          0.292 73.982 0.275 72.379 0.896 -77.976
2238.9 0.123 124.008 0.92 -9.639 0.303 75.624
          0.921 -9.458 0.108 112.16 0.286 74.208
          0.298 73.343 0.28 71.929 0.896 -79.416
2268.75 0.128 122.93 0.915 -10.062 0.315 73.262
          0.917 -9.957 0.112 111.215 0.297 71.794
          0.302 72.517 0.284 71.196 0.894 -80.912
2298.6 0.132 122.246 0.909 -10.178 0.315 70.752
          0.91 -10.266 0.115 110.645 0.298 69.303
          0.304 71.809 0.287 70.523 0.889 -82.377
2328.45 0.137 121.836 0.904 -10.118 0.309 69.826
          0.905 -10.281 0.119 110.329 0.292 68.364
          0.306 71.491 0.289 70.029 0.883 -83.729
2358.3 0.142 121.258 0.904 -10.119 0.308 70.225
          0.902 -10.202 0.124 109.938 0.291 68.811
          0.309 71.208 0.292 69.829 0.877 -84.999
2388.15 0.146 120.798 0.904 -10.212 0.313 70.39
          0.9 -10.15 0.129 109.579 0.296 68.918
          0.312 71.05 0.295 69.649 0.875 -86.512
2418 0.151 120.363 0.901 -10.404 0.319 69.374
          0.898 -10.112 0.133 109.223 0.301 67.939
          0.316 70.919 0.299 69.396 0.873 -87.958
2447.85 0.156 119.761 0.898 -10.469 0.314 68.523
          0.9 -10.139 0.139 108.889 0.297 66.997
          0.321 70.809 0.303 69.26 0.87 -89.451
2477.7 0.16 119.199 0.898 -10.309 0.308 69.864
          0.904 -10.282 0.144 108.414 0.291 68.376
          0.328 70.405 0.309 68.801 0.867 -91.072
2507.55 0.165 118.526 0.902 -10.676 0.314 72.902
          0.908 -10.9 0.148 107.775 0.298 71.442
          0.334 69.6 0.314 68.026 0.867 -92.538
2537.4 0.169 117.591 0.903 -11.3 0.341 74.196
          0.906 -11.754 0.152 106.758 0.323 72.854
          0.337 68.454 0.318 67.124 0.864 -94.059
2567.25 0.171 116.735 0.896 -11.932 0.373 70.97
          0.892 -12.335 0.153 105.973 0.352 69.607
          0.337 67.312 0.318 66.169 0.864 -95.762
2597.1 0.173 117.114 0.882 -12.072 0.377 64.777
          0.876 -12.013 0.154 106.386 0.357 63.469
          0.334 67.237 0.317 66.063 0.859 -97.305
2626.95 0.178 117.487 0.874 -11.64 0.351 60.645
          0.872 -11.209 0.158 106.715 0.332 59.296
          0.335 67.858 0.318 66.408 0.849 -98.702
2656.8 0.184 116.694 0.87 -11.088 0.32 61.473
          0.879 -10.511 0.164 106.286 0.303 60.362
          0.34 68.477 0.323 66.798 0.841 -100.034
2686.65 0.188 115.939 0.879 -10.869 0.31 66.133
          0.891 -10.659 0.169 105.534 0.294 65.126
          0.35 68.283 0.331 66.726 0.84 -101.528
2716.5 0.191 115.592 0.885 -11.311 0.325 70.336
          0.896 -11.596 0.174 104.637 0.309 69.194
          0.357 66.973 0.338 65.654 0.836 -103.122
2746.35 0.194 114.957 0.884 -12.019 0.352 70.708
          0.888 -12.562 0.178 103.793 0.336 69.478
          0.358 65.86 0.339 64.722 0.833 -104.671
2776.2 0.196 114.474 0.878 -12.545 0.37 68.379
          0.872 -13.082 0.18 102.995 0.354 67.13
          0.355 64.889 0.338 64.106 0.832 -106.518
2806.05 0.198 114.487 0.87 -12.699 0.376 66.203
          0.863 -12.839 0.183 102.791 0.359 64.755
          0.354 65.082 0.34 63.956 0.828 -108.246
2835.9 0.202 114.531 0.864 -12.792 0.377 64.682
          0.86 -12.594 0.187 102.375 0.361 63.101
          0.357 65.232 0.343 63.842 0.822 -109.788
2865.75 0.206 114.382 0.855 -12.845 0.378 62.71
          0.86 -12.558 0.189 101.89 0.361 61.246
          0.361 64.98 0.347 63.427 0.819 -111.446
2895.6 0.211 114.115 0.848 -12.466 0.37 60.456
          0.858 -12.639 0.191 101.459 0.353 59.108
          0.364 64.737 0.349 63.207 0.816 -112.956
2925.45 0.214 113.547 0.845 -12.038 0.348 59.822
          0.856 -12.493 0.192 101.087 0.334 58.59
          0.366 64.308 0.352 62.759 0.81 -114.349
2955.3 0.217 112.82 0.852 -11.86 0.332 62.974
          0.858 -12.313 0.194 100.815 0.319 61.534
          0.37 64.528 0.355 62.812 0.809 -115.73
2985.15 0.219 112.085 0.86 -12.219 0.34 68.017
          0.862 -12.761 0.196 100.298 0.326 66.693
          0.377 63.974 0.36 62.451 0.808 -117.155
3015 0.22 111.86 0.861 -12.993 0.375 70.256
          0.861 -13.23 0.198 99.854 0.361 68.898
          0.38 63.262 0.364 61.89 0.803 -118.697
3044.85 0.221 111.37 0.852 -13.734 0.413 66.972
          0.851 -13.829 0.199 99.414 0.399 65.579
          0.378 62.597 0.364 61.384 0.803 -120.317
3074.7 0.222 111.577 0.837 -13.702 0.418 60.566
          0.836 -13.894 0.201 99.478 0.404 59.268
          0.377 62.15 0.363 60.949 0.797 -122.319
3104.55 0.226 111.486 0.829 -13.314 0.388 56.812
          0.833 -13.091 0.205 99.6 0.376 55.283
          0.377 62.859 0.366 61.334 0.792 -123.729
3134.4 0.229 110.924 0.831 -12.771 0.357 58.432
          0.836 -12.673 0.208 98.907 0.345 56.744
          0.383 63.149 0.369 61.354 0.785 -125.181
3164.25 0.23 110.233 0.835 -12.827 0.353 62.932
          0.844 -13.018 0.21 98.169 0.339 61.456
          0.391 62.567 0.375 60.842 0.786 -126.751
3194.1 0.23 110.131 0.838 -13.461 0.373 65.708
          0.844 -13.985 0.211 97.447 0.359 64.404
          0.394 61.625 0.376 60.358 0.781 -128.123
3223.95 0.23 110.008 0.831 -13.921 0.399 64.65
          0.832 -14.663 0.211 97.003 0.384 63.697
          0.392 60.688 0.376 59.951 0.781 -129.836
3253.8 0.231 110.319 0.824 -14.191 0.407 61.853
          0.818 -14.652 0.211 96.617 0.394 60.897
          0.389 60.697 0.377 60.121 0.779 -131.372
3283.65 0.232 110.752 0.816 -14.11 0.398 60.348
          0.811 -14.211 0.213 96.079 0.386 59.399
          0.389 61.11 0.38 60.365 0.773 -132.739
3313.5 0.233 111.246 0.815 -14.198 0.393 60.616
          0.813 -14.058 0.215 94.969 0.383 59.794
          0.394 61.444 0.386 60.567 0.769 -134.11
3343.35 0.233 112.013 0.808 -14.381 0.396 61.17
          0.812 -14.315 0.214 93.642 0.388 60.489
          0.399 61.082 0.392 60.253 0.765 -135.509
3373.2 0.234 113.462 0.798 -14.49 0.402 60.469
          0.804 -14.802 0.213 91.918 0.396 59.709
          0.401 60.618 0.394 59.77 0.761 -137.073
3403.05 0.242 115.28 0.787 -14.27 0.397 59.3
          0.788 -14.798 0.206 90.414 0.394 58.363
          0.401 60.422 0.398 59.581 0.757 -138.558
3432.9 0.254 116.145 0.78 -13.563 0.386 60.18
          0.776 -13.913 0.196 90.15 0.385 59.115
          0.402 60.432 0.402 59.274 0.752 -139.913
3462.75 0.269 115.233 0.778 -12.909 0.386 62.847
          0.778 -12.815 0.187 92.129 0.387 61.518
          0.407 60.658 0.408 59.068 0.751 -141.176
3492.6 0.28 113.315 0.782 -12.536 0.408 64.672
          0.786 -12.615 0.184 95.27 0.41 63.143
          0.412 60.273 0.412 58.534 0.749 -142.548
3522.45 0.285 111.148 0.784 -12.532 0.435 63.266
          0.787 -12.971 0.186 98.084 0.44 61.252
          0.413 59.577 0.414 57.865 0.749 -144.03
3552.3 0.288 109.403 0.782 -12.372 0.446 59.383
          0.78 -13.115 0.191 99.863 0.451 56.781
          0.411 59.676 0.414 57.683 0.746 -145.481
3582.15 0.29 108.114 0.78 -12.167 0.428 56.224
          0.777 -12.559 0.198 100.553 0.429 53.326
          0.413 60.091 0.418 57.588 0.74 -146.878
3612 0.292 106.879 0.782 -11.775 0.401 57.139
          0.78 -11.868 0.203 100.572 0.4 54.273
          0.419 60.636 0.422 57.743 0.734 -147.993
3641.85 0.292 105.703 0.79 -11.724 0.395 61.078
          0.79 -11.821 0.207 100.235 0.394 58.248
          0.428 60.526 0.429 57.47 0.731 -149.004
3671.7 0.291 104.839 0.795 -12.196 0.417 64.067
          0.794 -12.49 0.21 99.952 0.417 61.117
          0.434 59.917 0.434 56.926 0.728 -150.141
3701.55 0.291 104.204 0.791 -12.823 0.448 63.274
          0.789 -12.991 0.212 99.801 0.449 60.204
          0.437 59.316 0.438 56.283 0.727 -151.358
3731.4 0.293 103.653 0.785 -12.968 0.461 60.319
          0.783 -12.91 0.215 99.561 0.461 57.102
          0.439 58.978 0.44 55.787 0.726 -152.662
3761.25 0.294 102.9 0.782 -12.82 0.454 58.517
          0.784 -12.625 0.218 99.062 0.454 55.191
          0.444 58.846 0.444 55.383 0.724 -153.907
3791.1 0.295 102.067 0.782 -12.759 0.449 58.959
          0.789 -12.915 0.219 98.467 0.449 55.501
          0.45 58.336 0.448 54.91 0.721 -154.98
3820.95 0.296 101.33 0.781 -12.956 0.46 59.391
          0.785 -13.651 0.22 97.885 0.46 55.735
          0.452 57.392 0.45 54.166 0.721 -156.096
3850.8 0.297 100.696 0.776 -13.197 0.475 57.548
          0.772 -14.052 0.221 97.45 0.474 53.82
          0.45 56.71 0.45 53.552 0.721 -157.298
3880.65 0.299 100.298 0.77 -12.939 0.469 54.699
          0.759 -13.32 0.222 97.156 0.466 50.955
          0.448 56.981 0.45 53.514 0.718 -158.56
3910.5 0.302 99.578 0.77 -12.429 0.445 54.21
          0.759 -12.107 0.225 96.553 0.441 50.463
          0.452 57.617 0.453 53.635 0.714 -159.593
3940.35 0.303 98.5 0.777 -12.304 0.433 57.031
