! Hittite Microwave Corporation
! 20 Alpha Road
! Chelmsford, MA 01824
! Tel: 978-250-3343
! Fax: 978-250-3373
! Device: HMC276QS24, 0.7-3.0 GHz, GaAS MMIC 4x2 Switch Matrix in 24-lead QSOP package
! Misc: Data was de-embedded to package pins.
!       Port 1 = OP1
!       Port 2 = VL
!       Port 3 = VH
!       Port 4 = HH
!       Port 5 = HL
!       Port 6 = OP2
!          Vdd = +5 V
!         Vctl = 0 V[Logic 0] / +5 V[Logic 1]
!
!  State 08,  VH to OP1,  HH to OP2
!  Control Lines (Logic)
!    HV 1 = 0, Tone 1 = 1
!    HV 2 = 1, Tone 2 = 1
!
!  Data reformated to new Touchstone file format - Wed Jan 10 14:36:49 2007
!
# MHz S DB R 50
! 6 Port Network Data
! Created Wed Jan 10 15:18:00 2007
!# mhz S db R 50
! 6 Port Network Data from SP1.SP block
! freq  dbS11  angS11  dbS12  angS12  dbS13  angS13  dbS14  angS14  
!       dbS15  angS15  dbS16  angS16  
!       dbS21  angS21  dbS22  angS22  
!       dbS23  angS23  dbS24  angS24  dbS25  angS25  dbS26  angS26  
!       dbS31  angS31  dbS32  angS32  dbS33  angS33  dbS34  angS34  
!       dbS35  angS35  dbS36  angS36  
!       dbS41  angS41  dbS42  angS42  
!       dbS43  angS43  dbS44  angS44  dbS45  angS45  dbS46  angS46  
!       dbS51  angS51  dbS52  angS52  dbS53  angS53  dbS54  angS54  
!       dbS55  angS55  dbS56  angS56  
!       dbS61  angS61  dbS62  angS62  
!       dbS63  angS63  dbS64  angS64  dbS65  angS65  dbS66  angS66  
!     
                10         -10.75204            -16.461        -45.6166901              4.791        -2.69792051               3.33        -46.3715569            122.853
                      -49.5877096            -17.654                -40             -48.84
                      -45.4801348            -72.889      -0.0697665569             -3.891        -45.4264327            143.591        -74.0360427           -142.261
                      -49.7890998             44.265        -47.1309465            -13.573
                      -2.85335007              3.589        -44.8855511             -9.257        -11.0258736             -7.579        -40.0557683               -105
                      -59.4530078             34.121        -43.2785838            135.903
                      -47.3326511           -104.573        -55.3859137            -51.751        -47.4199676           -162.865        -10.9950178            -11.291
                      -48.8330298            159.958        -2.72165246              2.705
                       -51.229153            157.384         -56.437735             54.313        -44.9206827           -110.617        -46.1889908              2.237
                    -0.0260968338             -3.902        -56.1765709            170.509
                      -51.5219816            -69.368        -52.0377262            -151.84        -46.4205325             60.578        -2.85335007              2.736
                      -48.5147434              57.62        -10.8423621            -11.643

             29.95       -11.6671899            -13.972         -64.779495            -23.741        -2.72165246             -0.544        -72.1320061           -176.744
                      -76.5596238            -36.931        -54.2843545             57.315
                      -56.3061714             71.028       -0.273524459            -12.611        -69.8213295           -177.794        -66.3282536            154.874
                      -62.7705066            -69.265        -62.3210961            -26.481
                      -2.75737241             -0.564         -64.781001           -173.074        -11.5350825            -15.843        -58.6958774             96.658
                      -63.3065005            -32.371        -60.5282075            108.359
                      -59.9913185            122.114        -58.2870542            -13.793        -56.8508646           -168.133        -11.5023673            -15.678
                      -69.7596606             63.623        -2.70977838             -0.634
                      -59.0001429            -75.969        -58.1175681             54.747        -66.4005461           -152.461        -66.3246548            124.367
                     -0.282492854            -12.708        -63.9746706              22.21
                        -59.62599           -168.383        -60.6228725           -129.512        -70.5829735             -3.608         -2.7335428             -0.594
                      -66.1096509            126.315        -11.3727247             -12.74

              49.9       -12.1812979            -13.925        -63.8641946            128.677        -2.63887276              -3.85        -70.5011133            -30.772
                      -69.1285715             106.05         -62.070578             86.787
                      -73.0416963             -4.153       -0.658405317            -20.298        -70.8757169            -60.053         -74.172623             39.576
                      -66.8416813             24.909        -78.8695255             21.935
                      -2.65065024             -3.799        -61.3749119           -100.762        -12.2166783            -17.883        -60.9170802            -10.406
                      -64.0671259            -83.177        -69.2915856            109.815
                      -74.6989242             11.638        -74.6471804            157.381        -62.2409059             97.711        -11.9719892            -18.588
                      -63.4293799            100.537        -2.62711123             -3.933
                      -64.2352181             59.904        -70.0780202            -68.136        -63.7980392             65.856        -64.4326331            161.818
                     -0.630341029            -20.351        -65.6249853             83.638
                      -56.4550433             77.444        -71.4860557            -11.881         -73.773401             -7.254        -2.65065024             -3.833
                       -64.069901             81.973        -11.8352007            -13.643

             69.85       -12.3236927            -17.042        -68.4134759             19.024        -2.76931178             -5.681        -72.2700207             77.569
                       -70.692343            143.293        -63.2142109             89.009
                       -72.421146             35.656         -1.0906283            -27.338        -70.3083094             96.771        -65.6200072             31.916
                      -77.0341181             -2.432         -68.266004            119.549
                      -2.76931178             -5.581        -68.4985535            109.923        -12.3236927            -23.459        -65.0176468             95.374
                      -65.5736824            -12.635        -65.4948387            137.124
                      -63.8249806            -33.306        -74.7320134              14.84        -64.1018779             99.159        -12.1460609             -24.14
                      -64.4442163             18.254        -2.74544943             -5.776
                      -79.0078877             19.044        -77.0588466            -57.693        -67.6516051            103.766        -65.0284877             98.503
                       -1.0906283            -27.435        -64.3778233              62.31
                      -60.7034976             54.785        -76.2439472             66.609        -75.5508733             77.139        -2.75737241             -5.655
                      -68.3769422             62.414        -12.0065256            -17.346

              89.8       -12.5417599            -20.048        -68.5984859             83.849        -2.86542219             -7.401        -67.2502054             93.158
                      -71.3759423             83.178        -58.7033556             99.001
                      -68.6500622             37.313        -1.61843815            -33.537        -78.6511431            168.252         -68.187621             74.624
                      -70.4517862            -68.962        -68.5984859             50.686
                      -2.87751112             -7.303        -70.9336332             58.128        -12.5417599            -28.323        -61.7311409            104.951
                      -67.5102327             36.353        -66.9608786             57.314
                      -73.1515464            129.645        -76.1598081            143.166        -62.9382094              87.52        -12.3596591            -29.333
                      -66.8111844             32.838        -2.85335007             -7.563
                       -64.600644            100.066        -77.1584708            -18.406        -70.4200174             -45.35        -64.9283388            132.179
                      -1.60797952            -33.653        -66.1907621             63.519
                      -58.2089623             82.538        -86.3552929             38.612        -71.9375896             16.971        -2.86542219             -7.415
                      -62.8630064             48.348        -12.1812979            -20.572

            109.75       -12.7277604            -22.712        -66.3697483             60.841        -2.99933485             -8.902        -70.0669412             49.209
                      -67.9198014             67.127        -57.0774393             87.037
                      -69.7037341             55.274        -2.18040806            -38.984        -73.2030243             47.272        -69.7303209            109.781
                      -82.8823514           -172.511        -66.9666879             68.848
                      -2.99933485             -8.881        -70.6300995             76.822        -12.8032904            -33.198        -62.2758275             61.827
                      -74.0273043            151.783        -76.3745646            -11.494
                      -75.8850892             66.294        -67.1289726              9.323        -59.0389365              69.32        -12.5786428            -34.134
                      -69.2260124             55.718        -2.96260799             -9.055
                      -72.3704782             85.346        -70.0282758            145.715        -66.3570985             53.997        -66.3824165             66.742
                      -2.18040806            -39.122        -69.5850906             89.419
                      -61.4669785             84.217        -70.3941108            113.487        -73.1239533             60.184         -2.9870753             -9.003
                      -65.0408939             73.846        -12.3957752            -23.502

             129.7       -12.9178312             -25.12        -67.1250263             46.205        -3.11045649            -10.282         -66.269062             36.017
                      -65.5440321             64.513        -56.6713977             83.758
                      -66.0623926             64.354        -2.76931178            -43.747        -68.8594856             96.263        -72.5160348             35.957
                       -73.290842             86.391        -75.8419294             41.001
                      -3.12289155            -10.215        -70.5390239             63.293        -13.1121545            -37.418        -60.3790388             72.748
                      -95.5926074            -26.686        -79.0156395             27.886
                      -71.5843876             43.508        -68.9296212             50.735        -59.0233983             73.464        -12.8794829            -38.682
                      -63.0695466             84.905        -3.08563964            -10.452
                      -70.7550357             27.482        -79.8279966             80.905        -71.1629565             45.881        -65.0517638             85.713
                      -2.75737241            -43.861         -64.104664                 68
                      -58.0132944             78.803        -64.5741311             39.569        -74.1327489             23.922        -3.12289155            -10.353
                      -67.8766737             30.954        -12.6156829            -26.216

            149.65       -13.1121545            -27.248        -65.4231886             50.095        -3.23561556            -11.498        -80.2663564            -10.296
                      -67.0308481             64.215        -56.5362746             85.155
                      -63.9363222             43.757        -3.34982175            -47.826        -66.2155993             89.555        -77.0341181              86.92
                      -72.9409218           -161.258         -66.024075             55.458
                      -3.24823124            -11.515        -65.8724729             75.936        -13.4324079            -41.603        -58.7935994             78.466
                      -70.8666074               39.1        -84.8490429             50.609
                      -79.8194852             86.851        -76.7546877             87.317         -60.216345             79.101        -13.1515464            -42.843
                      -69.6825231             81.104        -3.22301819            -11.678
                      -67.5081708             55.422        -71.3984989            128.027        -72.4138896            -10.919        -67.8166525             94.198
                      -3.34982175            -47.964        -66.0781168             57.422
                      -56.2270541             79.041        -69.9925257             30.668        -70.7430593               18.9        -3.23561556            -11.638
                        -66.51932             45.936        -12.8413031            -28.601

             169.6        -13.310925            -29.058        -66.8493222              45.66        -3.36260451            -12.622        -66.5635888              6.821
                      -68.2390501             75.246        -54.3793327             73.711
                      -69.7676796             43.732        -3.91721135            -51.344         -61.271736            114.658        -71.5810919             46.708
                      -81.6593476           -153.739        -66.0205999             29.654
                      -3.37540612            -12.571        -65.5802851             95.355        -13.7649228             -45.44        -58.0271255             69.057
                      -73.1792274             32.801        -68.8787768              21.01
                      -67.6160457             31.203        -72.4247765             54.873        -57.8966114             81.057        -13.4324079            -46.746
                      -66.7732132            104.061        -3.34982175            -12.774
                      -70.5712319             79.362        -76.5304471             65.381        -72.1671859             66.229        -63.9870329             75.872
                      -3.91721135            -51.539        -67.2042957             71.366
                      -54.5214644             76.427        -67.1230538             60.925        -67.2903251             14.264        -3.36260451            -12.752
                       -69.322018             45.842        -13.0729405            -30.742

            189.55       -13.5143509            -30.564         -68.112149             33.694        -3.47850395            -13.588        -72.8374943             17.572
                      -68.9856515              67.32        -54.4569877              80.85
                      -65.6183485             39.853        -4.46597632            -54.366        -63.6566286             83.924        -75.3197836             36.213
                      -76.2891569            158.409        -66.5728399             62.586
                      -3.50447075            -13.518        -61.9577655             85.405        -14.1106755             -49.12        -56.0488757             66.957
                      -72.3704782             79.641        -74.9090385             49.874
                      -76.2045809            -21.645        -74.6331217             27.383        -57.1835564             69.673        -13.7226556            -50.254
                      -63.1005212             95.048         -3.4655496            -13.778
                      -66.8876283             46.853         -73.676398            -135.38        -78.1596306             42.687        -64.7554343             81.286
                      -4.46597632            -54.591        -65.5374568              32.67
                      -54.9477932             77.165        -71.8284175             67.473        -73.4610001             16.244        -3.50447075            -13.716
                      -70.3482446             45.921        -13.2708053            -32.609

             209.5       -13.6805931            -31.889        -65.9015542             54.513        -3.59597081            -14.431        -68.5891412              9.857
                      -67.8466113             52.764        -53.6262146             76.472
                      -67.4978685             44.348        -5.00527369            -56.942        -62.4756432             94.915        -77.7144541             88.268
                      -87.5370825             129.77        -67.4322214             53.548
                      -3.62229171            -14.353        -62.7669226             87.406        -14.4707639            -52.387        -56.2101937             63.949
                      -72.3957752             68.605        -75.0848129             48.267
                      -73.2030243             48.289        -71.0351517             43.734         -55.815063              67.12        -14.0229385            -53.526
                       -62.184875             88.301        -3.58284021            -14.647
                      -68.1943119             42.951        -73.5432145            116.758        -70.4229006             67.329        -62.9357733              98.27
                      -5.00527369            -57.139        -68.0460963             53.607
                      -53.6470891             77.557        -66.3534876             31.225        -73.0612107             -8.107        -3.60912129            -14.549
                      -67.8145166             37.458        -13.4732828            -34.132

            229.45       -13.8073967            -32.881        -68.0417106             37.172        -3.72838023            -15.186        -72.2202243            -19.303
                      -66.3354559             25.658        -53.3431547             74.544
                      -67.0425647             67.769        -5.49810958            -59.174        -62.3358593            100.113        -70.0062583             44.342
                      -76.3118503            145.302        -67.8508995             40.772
                      -3.72838023            -15.136        -64.1493648            106.901        -14.7985722            -55.369        -56.6832475             67.511
                      -71.8216396              65.54         -71.103496              12.99
                      -71.6041883              2.492        -73.2988696             32.854        -55.2944825             71.745        -14.3339754            -56.426
                      -62.6813466            102.755        -3.70173637            -15.428
                      -67.2382056             53.691        -70.4691638            125.053         -70.130839             83.772        -64.5315855             93.824
                      -5.49810958            -59.426        -70.4720635             52.097
