!Hittite Microwave Corporation								
!12 Elizabeth Drive								
!Chelmsford, MA 01824								
!Tel: 978-250-3343								
!Fax: 978-250-3373								
!Device: HMC253QS24, DC-2.5 GHz GaAS MMIC SP8T Non-Reflective Switch in 24-lead QSOP package								
!Misc: Port 1 = RFCom, Port 2 = RF1, Port 3 = RF2, Port 4 = RF3, Port 5 = RF4, Port 6 = RF5, Port 7 = RF6, Port 8 = RF7, Port 9 = RF8, RF6 selected, Vdd=+5V							
!
# MHZ S MA R 50

30	0.672	40.479	0.0001023	-139.586	0.001179	83.146	0.0004775	-94.017
	0.001481	-178.733	0.003333	-1.638	0.66	-43.816	0.001675	129.519
	0.001308	120.607	0.003136	-6.428	0.721	-49.918	0.001226	-145.778
	0.0003072	-46.747	0.003433	-0.446	0.004018	17.929	0.0009322	54.134
	0.0008008	-7.839	0.001066	-7.276	0.00225	-69.448	0.00002336	164.141
	0.718	-50.307	0.001157	26.655	0.00106	-97.606	0.0006584	137.457
	0.002006	-119.742	0.002042	-0.64	0.004546	114.376	0.003366	-25.791
	0.005718	-140.913	0.004054	41.581	0.709	-50.215	0.003139	-78.84
	0.00473	-81.924	0.003811	-77.852	0.0006218	-5.016	0.0004895	-68.217
	0.005112	-114.629	0.000654	43.828	0.002322	-53.049	0.0002821	-101.315
	0.697	-49.637	0.002084	-68.899	0.003702	-118.819	0.000007569	16.187
	0.002323	-34.031	0.004218	72.966	0.002459	-104.512	0.001714	159.433
	0.003811	-2.45	0.004818	-146.183	0.708	-50.396	0.004877	101.608
	0.003934	160.006	0.0004092	-129.1	0.665	-43.875	0.001059	131.73
	0.004193	154.259	0.0002948	-102.757	0.001986	179.304	0.00371	47.3
	0.673	41.234	0.003146	49.362	0.003723	85.564	0.002047	29.147
	0.000263	-26.446	0.000601	-120.225	0.000146	-41.111	0.001567	-155.488
	0.002671	60.537	0.0008016	122.992	0.71	-50.495	0.001673	-40.607
	0.001685	95.366	0.00272	-139.4	0.002558	-156.878	0.002274	-12.037
	0.002086	-145.637	0.002784	-123.733	0.004194	73.387	0.001239	-127.972
	0.714	-49.08						
49.85	0.472	50.059	0.0002575	37.317	0.00159	80.255	0.000302	-92.297
	0.0008126	111.507	0.003376	5.045	0.789	-29.82	0.0009024	129.511
	0.001017	88.68	0.002857	9.761	0.721	-48.69	0.001014	-110.217
	0.0002631	-78.494	0.002411	-86.557	0.002817	-12.061	0.0006097	89.101
	0.0005971	19.803	0.0007062	-6.364	0.001464	-64.272	0.0001419	14.565
	0.719	-49.231	0.0009486	35.619	0.0008067	-107.676	0.0004964	-111.971
	0.00172	-121.157	0.001492	24.377	0.003072	99.66	0.002456	-15.971
	0.004005	-162.73	0.002984	51.989	0.712	-49.29	0.002422	-49.889
	0.00335	-96.461	0.00317	-87.741	0.000425	-173.666	0.0002872	-22.439
	0.004245	-87.441	0.0005382	106.185	0.001552	-6.37	0.000054	85.101
	0.702	-49.118	0.001288	-60.117	0.002409	-113.949	0.00001935	-90.083
	0.00166	-55.966	0.003957	67.234	0.001639	-94.294	0.001127	-178.116
	0.002672	-27.636	0.003234	-125.524	0.71	-49.541	0.004219	101.325
	0.002804	162.368	0.000197	-156.512	0.794	-29.868	0.001115	125.963
	0.003557	148.965	0.000302	-145.095	0.001863	161.683	0.003305	57.941
	0.474	51.211	0.003433	57.297	0.00367	86.783	0.002295	38.113
	0.0001228	24.709	0.0003704	91.373	0.00004493	57.882	0.001146	2.626
	0.001953	77.753	0.0007262	98.745	0.714	-49.409	0.001299	-16.689
	0.001414	75.373	0.001808	144.696	0.001729	-129.954	0.001616	-129.676
	0.001416	-126.014	0.001883	-58.907	0.004018	75.934	0.0006621	-119.99
	0.715	-48.164						
69.7	0.353	52.976	0.000547	46.456	0.001716	79.455	0.0001291	-97.401
	0.0007543	21.196	0.003398	10.336	0.838	-22.501	0.0005321	87.319
	0.001313	64.062	0.002616	21.68	0.692	-50.866	0.0009504	-80.102
	0.0002529	-115.723	0.001878	-178.316	0.002198	-47.506	0.0005616	99.415
	0.0005056	41.789	0.0005059	-10.597	0.0009245	-65.751	0.0002732	23.562
	0.692	-51.562	0.000876	38.962	0.0006917	-123.085	0.0004313	-7.882
	0.001386	-123.116	0.001225	43.933	0.00227	79.5	0.001918	-9.379
	0.003117	170.009	0.002466	56.9	0.686	-51.715	0.00212	-26.262
	0.00264	-116.478	0.002601	-99.682	0.0003101	14.355	0.0001673	17.952
	0.003531	-62.516	0.0004987	162.682	0.001124	34.695	0.0003099	87.607
	0.678	-51.771	0.0008202	-56.887	0.001734	-115.577	0.00003418	-153.453
	0.001317	-83.305	0.003821	60.662	0.001187	-89.419	0.0008021	-161.13
	0.002078	-58.361	0.002344	-110.499	0.684	-52.041	0.003935	95.83
	0.00223	159.187	0.00006196	172.774	0.843	-22.538	0.001126	115.937
	0.002971	135.9	0.0003917	-175.644	0.001621	144.349	0.003186	61.186
	0.355	54.449	0.003566	60.751	0.003574	83.368	0.002446	39.691
	0.00003402	71.387	0.0002416	-62.499	0.00002694	-30.318	0.0009307	155.218
	0.001602	89.436	0.001043	75.973	0.688	-51.736	0.00114	1.769
	0.001616	59.412	0.001306	63.45	0.00128	-108.597	0.001286	107.081
	0.001044	-111.88	0.001388	0.982	0.003861	73.855	0.0002982	-117.541
	0.687	-50.479						
89.55	0.28	52.787	0.0008086	51.321	0.001707	77.057	0.0000493	97.76
	0.0008919	-50.38	0.003389	14.66	0.861	-18.285	0.0007804	39.977
	0.001729	52.311	0.0024	31.65	0.656	-53.988	0.0009269	-51.474
	0.0002523	-154.353	0.001481	88.354	0.001738	-84.46	0.0005679	92.762
	0.0004439	62.079	0.0003513	-16.316	0.000491	-68.555	0.0003974	30.977
	0.657	-54.841	0.0008433	40.885	0.0006143	-140.186	0.0003849	94.315
	0.001018	-126.055	0.001035	61.981	0.001651	57.812	0.00153	-2.51
	0.002453	141.218	0.002098	60.272	0.652	-55.074	0.00193	-4.368
	0.002113	-137.969	0.002034	-112.599	0.0002213	-160.982	0.00006852	56.415
	0.002867	-38.222	0.0004812	-142.08	0.0007882	74.184	0.0005405	87.939
	0.645	-55.319	0.0004432	-55.179	0.001278	-118.388	0.00004851	144.885
	0.001062	-112.171	0.003691	53.636	0.0008369	-85.983	0.0005476	-145.689
	0.001633	-90.634	0.00165	-96.974	0.649	-55.476	0.003792	88.647
	0.001806	154.484	0.00005238	-49.226	0.864	-18.313	0.001109	103.61
	0.002442	119.54	0.0004802	158.879	0.001364	129.737	0.00319	61.815
	0.282	54.516	0.003643	61.986	0.003467	77.852	0.002573	38.072
	0.00004195	-66.236	0.0001354	142.746	0.00009153	60.694	0.0007757	-53.628
	0.001351	99.539	0.001515	66.959	0.654	-55.013	0.001042	18.705
	0.00192	50.023	0.0009145	-19.211	0.0009301	-88.794	0.001041	-17.52
	0.0007551	-99.288	0.001009	59.208	0.003711	69.776	0.00000636	69.417
	0.653	-53.699						
109.4	0.231	51.028	0.001053	54.728	0.001625	73.475	0.0002259	81.322
	0.0009327	-111.742	0.003368	18.385	0.872	-15.681	0.001251	23.937
	0.002153	45.165	0.002203	40.529	0.618	-57.509	0.00092	-23.436
	0.0002554	166.448	0.00114	-5.578	0.001345	-122.008	0.0006093	77.753
	0.000394	81.649	0.0002147	-22.822	0.0001171	-59.339	0.0005172	37.609
	0.62	-58.52	0.0008264	42.081	0.0005526	-157.851	0.0003484	-163.713
	0.0006353	-130.235	0.0008775	79.426	0.00111	35.49	0.001234	5.722
	0.001883	111.798	0.001794	63.02	0.615	-58.828	0.001783	16.896
	0.001663	-160.081	0.001462	-126.251	0.0001458	24.331	0.00002178	-86.009
	0.002244	-13.918	0.0004731	-87.591	0.000492	113.048	0.0007606	87.686
	0.609	-59.247	0.0001049	-53.82	0.000892	-121.023	0.00006208	83.817
	0.0008454	-141.653	0.003559	46.296	0.0005296	-83.166	0.0003226	-130.934
	0.00125	-123.546	0.00104	-84.053	0.612	-59.308	0.003717	80.771
	0.001446	149.142	0.0001574	-81.551	0.875	-15.698	0.001073	89.782
	0.001963	101.46	0.000554	134.488	0.001174	118.431	0.003255	61.331
	0.234	52.96	0.003701	62.034	0.003359	71.24	0.002691	34.871
	0.000112	-22.147	0.00004094	-14.723	0.0001507	150.933	0.0006462	96.753
	0.001143	109.008	0.002025	63.21	0.618	-58.692	0.0009685	35.051
	0.002237	43.701	0.0005709	-102.462	0.0006245	-69.569	0.000832	-142.834
	0.0005034	-87.239	0.0006801	116.876	0.003574	64.701	0.000285	63.996
	0.615	-57.302						
129.25	0.197	48.43	0.001285	57.516	0.001498	69.136	0.0004051	74.081
	0.0008484	-171.207	0.00334	21.733	0.879	-14.002	0.001748	17.08
	0.002567	39.695	0.002019	48.692	0.578	-61.241	0.0009217	4.292
	0.0002601	126.964	0.0008279	-99.797	0.0009844	-159.85	0.0006944	60.005
	0.0003502	100.888	0.00008768	-29.756	0.0002403	84.105	0.0006344	43.967
	0.581	-62.41	0.0008173	42.996	0.0004986	-175.861	0.0003184	-62.241
	0.0002486	-138.689	0.0007369	96.557	0.0006104	12.846	0.001011	15.614
	0.001362	82.068	0.001523	65.466	0.577	-62.793	0.001661	37.833
	0.001253	177.495	0.0008816	-141.109	0.00007348	-151.468	0.0001072	-48.51
	0.001665	10.812	0.0004692	-33.422	0.0002172	151.632	0.0009742	87.079
	0.572	-63.376	0.0002126	126.258	0.0005086	-124.761	0.0000741	21.883
	0.0006478	-171.415	0.003427	38.743	0.000245	-80.761	0.0001128	-116.661
	0.000901	-156.772	0.0004738	-71.531	0.574	-63.351	0.00368	72.57
	0.00112	143.486	0.0002575	-116.357	0.881	-14.009	0.001024	74.692
	0.001523	82.383	0.0006145	109.88	0.001078	107.744	0.003356	60.306
	0.201	50.538	0.00375	61.395	0.003255	63.99	0.002808	30.761
	0.0001788	21.283	0.00004603	9.87	0.0002085	-118.978	0.0005298	-113.06
	0.0009563	118.156	0.002546	61.315	0.58	-62.583	0.0009075	51.071
	0.00255	38.747	0.0002517	174.107	0.0003417	-50.722	0.0006422	91.556
	0.0002699	-75.635	0.0003746	173.946	0.003446	59.042	0.0005495	63.921
	0.576	-61.108						
149.1	0.173	45.391	0.001505	60.009	0.001339	64.341	0.0005851	67.135
	0.0006855	127.287	0.003309	24.828	0.884	-12.898	0.002242	12.937
	0.002971	34.936	0.001844	56.273	0.538	-65.104	0.0009283	31.838
	0.0002658	87.325	0.0005334	165.798	0.0006448	162.161	0.0008229	42.812
	0.0003101	119.96	0.00003318	144.792	0.000564	82.424	0.0007498	50.15
	0.542	-66.431	0.0008129	43.728	0.0004497	165.971	0.0002901	39.039
	0.0001494	60.289	0.0006065	113.512	0.0001354	-10.036	0.0008524	26.753
	0.0008712	52.155	0.001272	67.746	0.538	-66.886	0.001551	58.587
	0.0008677	154.903	0.0002964	-163.34	0.000006213	33.673	0.0001892	-11.197
	0.001132	36.411	0.0004679	20.578	0.00004442	9.824	0.001183	86.307
	0.534	-67.63	0.0005174	126.91	0.0001199	-156.111	0.00008607	-41.121
	0.0004615	158.679	0.003295	31.05	0.00002612	103.57	0.00008765	78.177
	0.0005715	169.846	0.00006611	121.211	0.535	-67.523	0.003666	64.2
	0.0008127	137.656	0.0003544	-151.625	0.885	-12.895	0.0009697	58.303
	0.001116	62.732	0.0006627	84.484	0.001033	94.552	0.003478	58.99
	0.178	47.666	0.003796	60.328	0.003153	56.339	0.002925	26.109
	0.0002442	64.509	0.0001322	-146.322	0.0002642	-29.109	0.00042	36.804
	0.000783	127.131	0.003068	60.174	0.542	-66.604	0.0008542	66.902
	0.002857	34.433	0.00005334	-90.634	0.00007306	-32.195	0.0004641	-34.298
	0.00004723	-64.663	0.00008249	-130.119	0.003324	53.026	0.0008055	63.706
	0.537	-65.04						
168.95	0.155	42.145	0.001715	62.378	0.001159	59.318	0.0007632	60.13
	0.0005084	60.423	0.003276	27.748	0.887	-12.175	0.002729	9.818
	0.003366	30.521	0.001672	63.305	0.498	-69.059	0.0009381	59.269
	0.0002723	47.561	0.0002509	71.255	0.0003186	124.115	0.0009862	27.31
	0.0002726	138.904	0.00015	137.074	0.0008748	76.406	0.000864	56.223
	0.503	-70.544	0.0008115	44.356	0.0004039	147.665	0.0002647	140.349
	0.000538	46.38	0.0004828	130.36	0.0003228	147.177	0.0007428	37.973
	0.0004005	22.114	0.001034	69.918	0.499	-71.072	0.001451	79.241
	0.0004982	132.201	0.0003197	29.866	0.00005909	37.329	0.0002689	26.091
	0.0006428	63.983	0.0004684	74.475	0.0002972	48.271	0.001389	85.424
	0.497	-71.974	0.0008136	127.371	0.0003664	80.368	0.0000987	-104.028
	0.0002827	128.674	0.003164	23.262	0.000288	104.092	0.0002813	92.083
	0.0002551	136.384	0.0005879	133.136	0.496	-71.79	0.003667	55.736
	0.0005193	131.733	0.000449	172.907	0.886	-12.163	0.0009154	40.523
	0.0007342	42.951	0.0007008	58.117	0.0009793	78.368	0.003616	57.504
	0.161	44.599	0.00384	58.978	0.003055	48.419	0.003045	21.101
	0.0003085	107.476	0.0002132	57.363	0.0003191	60.823	0.000317	-173.289
	0.0006185	135.994	0.003589	59.376	0.503	-70.718	0.0008058	82.612
	0.003158	30.451	0.000348	-173.643	0.0001855	167.013	0.0002944	-160.161
	0.0001676	127.437	0.0002008	108.301	0.003207	46.768	0.001055	63.396
	0.498	-69.062						
188.8	0.142	38.795	0.001808	64.936	0.000978	57.007	0.0008288	49.147
	0.000406	17.632	0.003281	26.494	0.889	-11.687	0.003146	8.532
	0.00358	27.038	0.001563	64.531	0.459	-72.914	0.001008	78.118
	0.0003021	20.257	0.00013	-8.121	0.0001684	108.77	0.001056	20.526
	0.000279	159.717	0.000231	126.438	0.001012	68.538	0.001041	61.808
	0.465	-74.565	0.000823	53.018	0.0003987	118.68	0.0002294	-149.241
	0.0007784	40.954	0.0003252	127.929	0.0005714	130.868	0.000711	43.463
	0.00009296	15.586	0.0009158	70.992	0.462	-75.148	0.001501	94.332
	0.0003614	116.419	0.0007358	20.566	0.0001515	-42.052	0.0002956	86.793
	0.0003908	70.451	0.0004599	110.073	0.0005432	83.471	0.00157	86.309
	0.459	-76.161	0.001013	120.962	0.0006981	76.198	0.0001559	-166.508
	0.0002306	112.243	0.003164	17.753	0.00042	124.315	0.0004733	126.436
	0.0001286	118.194	0.001035	139.443	0.458	-75.908	0.003778	49.709
	0.0003124	130.309	0.0005093	131.06	0.888	-11.656	0.0008664	23.557
	0.0004769	28.452	0.0007732	42.934	0.0008219	65.468	0.003848	56.064
	0.148	41.479	0.003945	57.761	0.003088	41.119	0.003114	15.798
	0.000265	151.538	0.0002193	-30.223	0.000364	136.761	0.0003022	-101.173
	0.0004848	132.424	0.004066	58.793	0.466	-74.741	0.0008104	90.778
	0.00336	26.716	0.0004181	116.55	0.0003586	168.131	0.0001857	97.698
	0.0003166	141.159	0.0003898	144.783	0.003155	41.947	0.001257	66.76
	0.459	-72.959						
208.65	0.131	35.258	0.001725	64.45	0.0008684	57.298	0.0006472	39.512
	0.0003961	38.482	0.003327	17.444	0.889	-11.31	0.003266	9.443
	0.003435	25.617	0.00165	55.599	0.425	-76.273	0.001174	74.955
	0.000343	19.255	0.0003528	0.15	0.000393	142.426	0.0009235	24.197
	0.0003015	147.507	0.0002267	108.389	0.0008361	58.73	0.0012	68.925
	0.431	-78.125	0.0009128	75.617	0.0005384	85.591	0.0002239	-176.942
	0.0005749	32.742	0.0001938	102.708	0.0003454	131.641	0.0008048	35.448
	0.0002075	58.362	0.001012	73.686	0.428	-78.699	0.001805	94.896
	0.0006499	121.29	0.0006974	41.628	0.0002375	112.062	0.0002019	156.923
	0.000615	22.655	0.0003846	110.008	0.00071	97.211	0.00173	91.397
	0.426	-79.739	0.001027	109.532	0.0007013	69.35	0.000336	143.589
	0.0003525	134.018	0.003403	17.498	0.0003302	157.095	0.000555	178.46
	0.000469	134.605	0.001147	133.366	0.425	-79.449	0.004043	50.683
	0.0004449	134.625	0.0004942	101.305	0.889	-11.255	0.0008839	13.803
	0.0005066	32.964	0.0008886	56.354	0.000578	63.246	0.004131	54.261
	0.138	38.291	0.00412	56.444	0.003277	38.52	0.003138	9.223
	0.00007744	175.256	0.00008942	53.041	0.0003229	135.538	0.0004589	153.531
	0.0005094	106.814	0.004283	57.884	0.432	-78.298	0.0009395	85.466
	0.003378	23.097	0.0001186	107.208	0.000334	139.467	0.0002488	85.035
	0.0003353	161.668	0.0003772	128.633	0.003228	40.626	0.001224	77.684
	0.424	-76.332						
228.5	0.122	31.574	0.00195	57.488	0.0009636	49.172	0.0006603	48.486
	0.0004605	27.1	0.003225	15.17	0.89	-11.071	0.003176	5.19
	0.00351	22.371	0.001724	59.163	0.395	-79.333	0.001197	74.762
	0.0002641	11.244	0.0003145	86.33	0.0003288	138.971	0.001023	8.345
	0.0002361	83.527	0.0002812	100.518	0.001011	53.909	0.001082	82.213
	0.402	-81.395	0.001114	78.703	0.0006673	100.389	0.0003462	129.877
	0.0004111	19.279	0.0003037	132.845	0.0002623	125.007	0.0008666	32.396
	0.0002954	58.83	0.0009724	85.597	0.398	-81.958	0.001901	95.75
	0.0005265	125.022	0.0007647	42.644	0.0001669	143.978	0.0002274	115.92
	0.0006242	19.533	0.0002771	124.11	0.0006878	86.331	0.001977	96.308
	0.396	-83.083	0.001212	126.358	0.0007208	59.28	0.0004982	130.841
	0.0001996	148.11	0.003275	14.717	0.0004575	113.273	0.0004009	144.446
	0.0006627	129.856	0.00109	133.877	0.395	-82.769	0.004022	52.716
	0.00079	123.022	0.0004916	135.281	0.89	-11.042	0.001004	12.633
	0.0005356	47.024	0.0008443	57.789	0.0006792	57.098	0.004074	51.212
	0.13	35.02	0.004172	55.117	0.003084	42.427	0.003341	1.292
	0.0002475	136.406	0.0001563	87.44	0.0002685	74.344	0.0004427	139.068
	0.0006965	115.554	0.004226	56.257	0.402	-81.527	0.001076	93.569
	0.003489	20.337	0.0002599	127.013	0.0002942	148.134	0.0002981	125.921
	0.0003678	157.721	0.0004427	119.205	0.003236	37.516	0.001025	84.767
	0.394	-79.45						
248.35	0.115	27.893	0.002171	58.164	0.001229	55.568	0.0008074	27.573
	0.000613	32.386	0.003221	10.139	0.891	-10.907	0.003359	-0.977
	0.003469	15.271	0.001767	61.708	0.369	-82.07	0.001324	78.254
	0.0001823	44.697	0.0001699	88.712	0.0001499	130.434	0.001039	9.164
	0.0004987	130.927	0.0004661	98.023	0.001155	52.867	0.001398	90.985
	0.376	-84.294	0.001181	81.38	0.0005406	88.592	0.0004241	118.178
	0.0005633	16.26	0.0002876	125.349	0.0002556	120.559	0.0008682	37.991
	0.0001707	64.405	0.001241	92.947	0.372	-84.927	0.002253	95.187
	0.0005518	114.629	0.0008322	40.447	0.0002345	82.744	0.0003315	141.723
	0.0006431	13.22	0.0004024	99.728	0.0006744	103.916	0.002217	101.711
	0.371	-86.07	0.001352	127.256	0.0006777	63.898	0.0006015	130.319
	0.0002812	113.564	0.003168	11.514	0.0003717	134.026	0.000438	136.062
	0.0006349	117.999	0.001657	127.926	0.37	-85.695	0.004101	54.614
	0.0008222	115.916	0.0005327	135.021	0.89	-10.904	0.0009433	12.438
	0.0005834	41.175	0.0007882	50.113	0.0007772	62.407	0.00424	51.031
	0.124	31.762	0.00434	58.188	0.003234	44.464	0.003447	-2.555
	0.000335	117.456	0.0003346	97.696	0.0004263	96.273	0.0004401	137.169
	0.0007668	131.379	0.004528	56.424	0.377	-84.399	0.001333	93.101
	0.00332	19.11	0.0002159	90.306	0.0002537	133.366	0.000232	122.166
	0.0002644	103.499	0.0004594	123.169	0.00338	35.687	0.001199	89.953
	0.368	-82.191						
268.2	0.109	24.171	0.002246	59.041	0.001231	61.884	0.0008909	23.225
	0.0005336	12.328	0.003314	9.547	0.891	-10.845	0.003458	-5.111
	0.003576	13.367	0.002077	59.463	0.345	-84.628	0.001548	86.655
	0.0001295	83.162	0.000311	141.302	0.000268	133.706	0.001104	13.238
	0.0004162	134.716	0.000555	101.846	0.001141	46.265	0.001541	93.237
	0.353	-87.034	0.00117	80.636	0.000577	118.712	0.0004802	107.118
	0.0006316	23.211	0.0003937	142.78	0.0004136	138.335	0.0008577	31.492
	0.000164	91.736	0.001535	99.761	0.35	-87.658	0.002454	96.314
	0.0007271	110.994	0.0007327	43.5	0.0003144	113.345	0.000194	170.221
	0.0006198	25.701	0.0005115	95.2	0.0006539	110.015	0.002577	98.815
	0.348	-88.831	0.001493	130.027	0.0008861	55.041	0.0006487	125.097
	0.0002378	80.402	0.003353	6.896	0.0002377	152.121	0.000482	124.082
	0.0007713	118.419	0.001977	123.388	0.348	-88.476	0.004162	54.209
	0.0009057	118.426	0.0007096	133.943	0.891	-10.812	0.000886	-3.706
	0.0006159	32.258	0.0008759	43.594	0.0007465	71.233	0.00423	51.633
	0.118	28.493	0.004321	57.443	0.003321	41.058	0.003666	-3.444
	0.0003626	125.649	0.0004213	92.98	0.0003341	76.328	0.0005817	132.127
	0.0009558	128.976	0.00484	56.854	0.354	-87.141	0.001569	96.879
	0.00317	14.946	0.0003523	118.707	0.0004439	123.217	0.0002636	108.106
	0.0003863	95.971	0.0005282	125.12	0.003538	35.008	0.001523	84.221
	0.345	-84.78						
288.05	0.104	20.451	0.002067	59.841	0.001156	62.37	0.0008742	19.859
	0.0005208	-6.18	0.003334	6.029	0.891	-10.885	0.003502	-9.447
	0.003548	13.526	0.002071	57.998	0.325	-86.962	0.001606	93.576
	0.000302	84	0.0004322	115.588	0.0003073	109.524	0.001093	1.276
	0.000274	145.47	0.0004654	138.244	0.001206	47.042	0.001804	92.481
	0.333	-89.5	0.001478	91.151	0.000718	123.419	0.0004271	104.909
	0.0006374	18.219	0.000269	117.303	0.0003426	119.653	0.00108	31
	0.0004834	87.995	0.001512	97.231	0.33	-90.212	0.002842	100.229
	0.0008137	113.948	0.0005437	38.62	0.0004437	134.647	0.0002066	-143.788
	0.0006121	25.96	0.000362	66.028	0.0007523	96.385	0.002952	98.942
	0.329	-91.374	0.001955	122.522	0.0009752	55.761	0.0005374	121.837
	0.0002997	145.817	0.003222	4.344	0.0002647	104.002	0.0004656	130.312
	0.0009329	125.823	0.001979	121.946	0.328	-90.869	0.004242	53.696
	0.00108	119.786	0.0005674	131.362	0.891	-10.795	0.0009379	-1.261
	0.0005114	31.024	0.0007817	48.971	0.0008058	50.192	0.004319	50.135
	0.114	25.257	0.004847	58.363	0.003296	38.707	0.003675	-7.045
	0.0004821	83.886	0.0002729	101.127	0.0004574	140.392	0.0006563	152.352
	0.001039	112.692	0.004746	58.432	0.335	-89.563	0.001652	97.933
	0.003383	11.136	0.000424	151.424	0.0003232	127.177	0.000238	120.937
	0.0005877	121.721	0.0007602	118.521	0.003484	35.821	0.001818	100.456
	0.324	-87.096						
307.9	0.1	16.861	0.001975	62.564	0.00114	70.73	0.0007792	31.944
	0.0005386	-6.045	0.003307	2.348	0.891	-10.917	0.003689	-14.109
