! Hittite Microwave Corporation
! 20 Alpha Road
! Chelmsford, MA 01824
! Tel: 978-250-3343
! Fax: 978-250-3373
! Device: HMC276QS24, 0.7-3.0 GHz, GaAS MMIC 4x2 Switch Matrix in 24-lead QSOP package
! Misc: Data was de-embedded to package pins.
!       Port 1 = OP1
!       Port 2 = VL
!       Port 3 = VH
!       Port 4 = HH
!       Port 5 = HL
!       Port 6 = OP2
!          Vdd = +5 V
!         Vctl = 0 V[Logic 0] / +5 V[Logic 1]
!
!  State 13,  HH to OP1,  VL to OP2
!  Control Lines (Logic)
!    HV 1 = 1, Tone 1 = 1
!    HV 2 = 0, Tone 2 = 0
!
!  Data reformated to new Touchstone file format - Wed Jan 10 15:57:24 2007
!
# MHz S DB R 50
! 6 Port Network Data
! freq  dbS11  angS11  dbS12  angS12  dbS13  angS13  dbS14  angS14  
!       dbS15  angS15  dbS16  angS16  
!       dbS21  angS21  dbS22  angS22  
!       dbS23  angS23  dbS24  angS24  dbS25  angS25  dbS26  angS26  
!       dbS31  angS31  dbS32  angS32  dbS33  angS33  dbS34  angS34  
!       dbS35  angS35  dbS36  angS36  
!       dbS41  angS41  dbS42  angS42  
!       dbS43  angS43  dbS44  angS44  dbS45  angS45  dbS46  angS46  
!       dbS51  angS51  dbS52  angS52  dbS53  angS53  dbS54  angS54  
!       dbS55  angS55  dbS56  angS56  
!       dbS61  angS61  dbS62  angS62  
!       dbS63  angS63  dbS64  angS64  dbS65  angS65  dbS66  angS66  
!     
                10       -10.4575749            -12.351        -43.7684999            -82.929        -41.4782983            124.751        -2.81723405              2.584
                      -45.2164674            -27.837        -42.1436435            140.579
                      -41.9208458           -119.935        -11.3086219            -11.865        -43.7377249             60.366        -46.5340512            169.907
                      -52.3524539             17.837        -2.59192189              2.874
                      -44.5506319             81.744        -58.6437098            -66.922      -0.0610150301             -3.864        -46.2280445            -59.614
                      -51.6871804             17.848        -54.9332399            165.859
                      -2.85335007              4.207        -48.0878713             51.652        -47.7464416            -44.275        -11.3406142            -10.658
                      -44.7719689             94.145        -43.0448462            -50.125
                      -50.0310319            -32.829        -45.8605265            118.164        -50.8393362            -82.323        -41.6551428            123.985
                    -0.0785269103             -4.313        -46.4078086              25.05
                      -45.5621397             44.601        -2.65065024              2.704        -47.8573359           -128.623        -45.2085531             61.578
                      -57.7814752             28.711        -11.4697748            -10.318

             29.95       -11.4697748            -13.089        -59.0311639             88.521          -62.00359            150.294        -2.70977838              -0.59
                       -56.082007           -112.062        -61.5299387            144.762
                      -61.3312666            109.699        -11.7340047            -15.939        -76.6241596           -111.656        -65.7234715            -40.481
                      -58.8771548            -12.838        -2.63887276             -0.638
                       -53.335086            -34.315        -69.2562155           -139.402       -0.273524459             -12.48        -58.9307479             -4.038
                      -56.4032214           -111.676        -63.6473707            145.794
                      -2.72165246              -0.51        -64.7314401           -172.139        -73.0690288               40.3        -11.6339742             -16.12
                      -69.0938577             -0.221        -65.5901986           -170.703
                      -61.6194847             29.533        -60.6284733           -134.002        -62.7216525            141.457        -58.9000828            -75.826
                     -0.282492854            -12.655         -57.297347            -30.031
                      -60.1066196             21.639        -2.62711123             -0.499        -62.1170031             103.81        -56.8146734             23.904
                       -66.376985            163.983        -11.9375896             -14.36

              49.9       -11.8691964             -14.02        -64.5579686             56.179        -70.9857824           -136.789        -2.61536561             -3.859
                      -64.9882895            -63.926        -69.9160216            -62.814
                      -64.3706371             150.88        -12.2166783            -18.959        -64.5359772             96.904         -62.183758            -85.123
                      -64.0228454             18.281        -2.54522345             -3.707
                      -71.3182072             135.36        -64.0643518            -40.087       -0.658405317            -20.214        -66.9860804             49.028
                      -66.6378752             20.388        -67.2342093             28.834
                      -2.63887276             -3.808        -62.8376814              88.81        -65.5226807            178.991        -12.2878745            -18.699
                      -69.2764094            161.292        -62.9760565             68.851
                       -73.310925             62.375        -68.0132573            -115.23        -62.7788751           -168.224        -68.0900756             45.668
                      -0.63968572            -20.367        -62.6896296             54.506
                      -65.5951596             16.789        -2.55687455             -3.696         -69.133542             58.261        -83.2950692           -178.588
                      -70.3396716             70.654        -12.4684609            -14.962

             69.85       -12.0411998            -17.536        -69.5850906            122.801        -70.8970096             83.634         -2.7335428             -5.689
                      -61.8560738             46.553        -65.7453228             86.845
                      -65.0424459             61.403        -12.3957752              -24.9         -72.156617            114.926        -62.5057262             70.448
                      -69.3908831             89.856        -2.66244371             -5.451
                      -79.9913185            131.913         -71.906746              67.44         -1.0906283            -27.259        -82.7359228            176.536
                      -69.9897818            -99.441        -65.0284877             83.382
                       -2.7335428             -5.559        -81.1034401            -128.47        -70.4315562             50.841        -12.3596591            -24.412
                      -69.9760752            128.703        -69.8590826             68.524
                      -85.0346885           -167.883        -76.7367725            151.705        -82.8654222             33.751        -71.1881148             40.451
                       -1.0906283            -27.444         -66.684629            101.862
                      -67.2983713             58.282        -2.66244371              -5.38         -66.326454            107.779        -66.2191532             84.556
                      -64.4023007             27.691        -12.6528816            -18.779

              89.8       -12.2166783            -20.901        -67.9219634            127.732        -68.6641818             43.655        -2.84129471             -7.433
                      -66.6434724             32.848         -64.122796             59.006
                      -70.1587679             88.144        -12.5417599            -30.246        -63.3626045             90.733        -67.6999477             76.382
                      -71.4437885             59.713        -2.76931178             -7.068
                      -75.3248527             -37.79        -69.2612595            131.424        -1.61843815            -33.424        -72.5675615             88.618
                      -72.2771578            111.025        -68.6830436             30.056
                      -2.84129471             -7.295        -66.0536692             31.083        -71.8964891             106.06        -12.5050331            -29.477
                      -66.6658973             92.317        -71.7743417             55.205
                      -63.3103143             49.196        -68.7327518             36.172        -79.3556859             96.512        -65.9807364             61.047
                      -1.59753347            -33.638        -75.7137221             83.805
                      -63.4036363             74.533        -2.78126759             -6.989        -72.0411998            107.243        -69.7944631             66.128
                      -70.5273415             23.265        -12.8032904            -22.218

            109.75        -12.432042             -23.85        -64.8414563             79.461        -72.9679386            117.052        -2.97483303             -8.911
                      -67.0601693             26.949        -61.5662705             93.331
                      -64.7254519             89.446        -12.7654433            -35.412        -64.5198854             60.693        -64.3792612             52.009
                      -78.4453764             -34.85        -2.88961689             -8.462
                      -76.8569112             32.124        -78.7258288             44.213        -2.19157962            -38.915        -73.1003717             85.067
                      -71.5580567            -56.873        -66.1554033             36.291
                      -2.97483303              -8.83        -68.4318006             42.484        -69.6323537            125.118        -12.7654433              -34.6
                      -68.5263261             94.196        -67.7316211             52.676
                      -67.4773004              19.56         -72.237976             67.752        -76.4897637            165.448        -67.6076999             82.651
                      -2.18040806            -39.107        -68.9539378              74.73
                       -64.284864             63.483        -2.88961689             -8.431        -61.9501516             41.484        -62.6730715             81.495
                      -66.5802479             67.409        -12.9950396             -25.38

             129.7       -12.6156829            -26.643        -63.6170211             84.232        -75.9230307            111.391        -3.08563964            -10.292
                      -64.2069758             33.432        -60.9596582             83.031
                      -64.4152874             65.947        -12.9950396            -40.164          -65.74364             77.546        -66.5802479             70.054
                      -83.9308577             -0.232        -3.01161172             -9.764
                      -70.8817952             57.853        -66.6883802             71.896        -2.79323987            -43.733        -67.6957333            113.355
                      -75.4268608           -150.045        -65.6899611             66.772
                       -3.0980392            -10.184        -63.1415776              73.79        -70.0090075             81.035        -13.0339027             -38.92
                      -65.9169897             83.013        -62.6659849             80.605
                      -70.8878777             26.909        -70.8031072             47.636        -81.2777714             11.809        -65.2784473              87.55
                      -2.75737241             -43.89        -62.7717016             71.966
                      -62.4641005              98.21        -3.01161172             -9.677         -63.783257             26.735        -63.8791153             68.608
                      -64.5125808             86.233        -13.1911177            -28.286

            149.65       -12.8413031             -29.15        -62.3609006             77.836        -68.1520231             81.851        -3.21043905            -11.507
                      -67.3124701             35.323        -61.3586462             69.263
                      -60.3419176             67.214        -13.2308701            -44.587        -65.1486393             82.276         -62.898101             66.201
                      -71.3727247             75.841        -3.13534444             -10.87
                      -66.8914682             43.657        -63.2079254             84.838        -3.38822663            -47.848        -71.3086219             63.048
                      -70.1671641             69.296        -67.2442034             22.668
                      -3.22301819            -11.466        -64.3677644             67.622        -74.9769731             23.854         -13.310925            -43.176
                      -65.3859691             92.451        -62.0353723             77.051
                      -63.7363893              35.79        -69.9733364             44.881        -79.4367116             84.066        -65.0471036             98.161
                      -3.33705776            -47.992        -66.0397299             87.133
                      -60.0104293             89.487        -3.14781521             -10.87        -69.2713565              9.714        -61.0709547             66.629
                      -64.6762061             57.857        -13.3917245             -30.85

             169.6       -13.0339027            -31.142        -60.8891312             71.005        -66.1166741             36.727        -3.33705776              -12.6
                      -66.4515112             11.195        -58.6884057             78.736
                      -60.7148074             74.932        -13.5143509            -48.737        -64.7569362             90.169        -63.5018706             48.587
                      -69.9541894             57.766        -3.26086526            -11.876
                       -66.999681             53.769        -61.4218462             97.951         -3.9719258            -51.459        -71.7743417              -0.22
                      -75.5197038            174.501        -63.7190456             23.413
                      -3.36260451            -12.538         -63.921303             59.049        -72.2450868             71.504        -13.5970743            -47.122
                      -63.6844616             80.716        -61.8528478              63.89
                      -67.2842953             40.567        -74.3793327             15.013        -74.8224674            104.956        -65.0548721             82.547
                      -3.91721135            -51.562        -65.8349822             78.285
                      -59.9913185             78.232        -3.27351769            -11.883        -68.3883425             27.874        -61.8195829             58.367
                      -65.7117282              69.29        -13.5970743            -33.222

            189.55       -13.2308701            -32.986        -60.3401109             61.862         -73.862925              48.17         -3.4655496            -13.581
                      -67.4731927            -20.128        -59.6176742             73.917
                      -59.5102866             77.489        -13.7226556            -52.544        -61.0955537             95.441        -64.9744179              51.33
                      -73.6178788             -6.035        -3.38822663            -12.752
                       -70.047587              55.16        -65.1407866             87.729        -4.53890613            -54.582        -69.8025143             83.667
                      -84.2777543             25.326        -65.3408726             21.374
                      -3.47850395            -13.481        -65.2800423             52.639        -69.1136772             80.977        -13.8500792            -50.748
                      -62.8184355             80.569        -61.9468905             76.414
                      -67.6076999             14.247        -77.6678451            -29.005         -71.408184            -178.16        -62.2995641            103.943
                      -4.45146355            -54.622        -63.3370578             87.508
                      -58.5183062             82.965        -3.40106608            -12.692        -68.7090458             34.379        -62.3997432             70.122
                      -64.9559569             77.629        -13.7649228            -35.383

             209.5       -13.3917245            -34.574        -60.5633544             61.011        -67.0895897             50.204        -3.58284021            -14.401
                      -66.6118027              1.821        -58.5918536             76.448
                      -59.8963897             72.454        -13.9360789            -55.935        -62.2005272            103.707         -63.009155             66.234
                      -72.3021841             68.414        -3.50447075            -13.503
                      -67.8230636             51.533        -62.9772801             99.247        -5.11414034            -57.218        -75.6083095             77.636
                      -79.3154548             46.803        -67.3124701              2.764
                      -3.59597081            -14.311        -62.9491803             63.711        -69.1784046             75.679        -14.1548786            -54.033
                      -60.7620905             90.053        -61.5164826             64.775
                      -64.1619784             10.029        -72.8451135               7.18        -81.3070015            171.275        -60.6893811             99.028
                       -4.9898321            -57.172        -64.8384236             82.999
                      -57.5164389              78.14        -3.51748332            -13.441        -68.0680581             16.257        -62.0386668             59.607
                      -63.0670734             78.923        -13.9360789            -37.098

            229.45       -13.5970743            -35.889        -58.7108402             77.484        -65.8861461             35.751        -3.68844503            -15.179
                      -65.1974853              5.094        -58.2301906              78.97
                       -60.171048             77.095        -14.1993078            -59.004        -61.8560738             90.906        -63.4435714             64.672
                      -70.8848359              7.682        -3.62229171            -14.164
                      -69.2335533             48.085        -62.6376959             96.446        -5.62996622            -59.495        -70.5011133             88.703
                      -80.5791242           -167.234        -66.3697483              4.504
                      -3.71504809             -15.09        -64.9191523             70.879        -70.0669412             52.972         -14.424928            -57.137
                      -60.0881735             87.728        -60.0383022             62.256
                      -67.8123811            -11.208        -69.9133018             11.923        -79.5102866            123.155        -61.3201367             92.263
                      -5.48176735            -59.491        -63.4190733             88.808
