!Hittite Microwave Corporation								
!12 Elizabeth Drive								
!Chelmsford, MA 01824								
!Tel: 978-250-3343								
!Fax: 978-250-3373								
!Device: HMC252QS24, DC-3 GHz GaAS MMIC SP6T Non-Reflective Switch in 24-lead QSOP package								
!Misc: Port 1 = RFCom, Port 2 = RF1, Port 3 = RF2, Port 4 = RF3, Port 5 = RF4, Port 6 = RF5, Port 7 = RF6, RF4 selected, Vdd=+5V							
!
# MHZ S MA R 50

30	0.705	41.493	0.001105	85.689	0.001098	86.005	0.0009144	86.965
	0.664	-47.143	0.001197	84.648	0.001235	83.833	0.00112	83.779
	0.914	-20.488	0.0003122	65.778	0.00005371	49.467	0.001001	87.765
	0.00003324	49.66	0.00006042	30.138	0.00106	83.52	0.0003033	64.795
	0.917	-20.248	0.0005362	55.351	0.001055	87.912	0.00004087	77.069
	0.00003626	63.22	0.000892	87.678	0.00007299	87.65	0.0005632	55.925
	0.916	-20.69	0.0009095	90.503	0.00005477	-55.632	0.00002932	158.994
	0.664	-47.157	0.0009629	88.998	0.001046	88.751	0.000913	88.399
	0.702	40.32	0.001162	88.732	0.001114	87.815	0.001179	83.956
	0.00003738	-37.945	0.00003939	62.851	0.00004574	162.155	0.00114	86.467
	0.918	-20.185	0.0002727	56.72	0.001279	83.242	0.00005014	89.005
	0.00005918	-4.332	0.00002934	102.677	0.001125	87.35	0.0003044	62.381
	0.916	-20.517						
47.35	0.535	52.352	0.001838	75.458	0.001815	75.969	0.001528	76.815
	0.793	-34.941	0.001954	74.994	0.002095	75.872	0.001857	74.727
	0.85	-30.447	0.0003858	63.581	0.00006212	78.822	0.001592	78.477
	0.00004001	49.839	0.00005722	105.341	0.001774	76.003	0.0004078	59.209
	0.854	-30.149	0.0006641	45.125	0.001677	77.917	0.00004771	37.261
	0.00002576	150.953	0.001509	76.301	0.00004459	101.715	0.0007126	45.503
	0.851	-30.782	0.001502	80.078	0.00004534	-67.15	0.00002292	95.394
	0.794	-34.991	0.001548	77.561	0.001692	78.23	0.001533	78.863
	0.53	50.564	0.001871	79.673	0.001716	76.369	0.001924	74.613
	0.0000294	43.944	0.00005102	90.782	0.00004501	-170.291	0.001892	79.208
	0.855	-30.065	0.0003724	60.245	0.002114	75.622	0.00002431	67.293
	0.00004013	-39.448	0.00002718	89.844	0.001742	75.81	0.0003503	56.929
	0.851	-30.479						
64.7	0.42	57.963	0.002506	66.674	0.002394	66.406	0.002072	65.827
	0.851	-27.996	0.002616	64.827	0.002833	67.946	0.002501	66.953
	0.78	-39.015	0.0003889	54.337	0.00003507	95.925	0.002079	67.349
	0.00004097	50.071	0.00002045	169.758	0.002409	66.779	0.0003844	60.323
	0.784	-38.694	0.0006793	35.436	0.002181	67.446	0.00005249	112.282
	0.00005077	121.015	0.00206	65.725	0.00005915	141.297	0.0007479	37.801
	0.78	-39.454	0.002017	69.24	0.00004359	179.26	0.00003074	72.905
	0.852	-28.044	0.00205	66.518	0.002215	67.481	0.002071	68.679
	0.414	55.623	0.002544	70.447	0.002258	65.048	0.002598	63.804
	0.00002082	34.318	0.0000725	120.721	0.00003335	-164.978	0.002537	70.164
	0.785	-38.611	0.0003742	52.088	0.002815	67.536	0.00001787	40.783
	0.00003396	-81.534	0.00002213	-49.815	0.002277	64.341	0.0003612	53.719
	0.781	-39.116						
82.05	0.343	60.76	0.003057	59.263	0.002925	58.702	0.002489	56.532
	0.881	-23.77	0.003137	55.703	0.00341	61.175	0.003053	58.26
	0.711	-46.356	0.0003819	63.227	0.00005266	136.37	0.002502	56.231
	0.00007024	126.007	0.00004181	137.033	0.00291	58.092	0.0003869	62.795
	0.715	-46.005	0.0006445	32.945	0.002689	58.559	0.00005227	102.327
	0.00003713	85.488	0.002474	56.974	0.00007363	124.822	0.0006771	34.215
	0.711	-46.843	0.002473	59.869	0.00004259	137.564	0.00004915	105.399
	0.881	-23.808	0.002499	57.278	0.002674	58.943	0.002469	59.449
	0.335	57.89	0.003024	62.466	0.002714	54.416	0.003124	54.931
	0.00001295	-86.593	0.00002969	118.782	0.00001902	-162.051	0.003049	62.104
	0.715	-45.885	0.0003313	59.464	0.003416	61.256	0.00002762	-95.111
	0.00005982	148.876	0.00002132	-131.891	0.002718	54.039	0.0004331	60.739
	0.713	-46.454						
99.4	0.289	61.885	0.003481	52.811	0.003348	51.149	0.002841	48.512
	0.898	-21.058	0.003475	49.175	0.003872	55.344	0.003463	51.481
	0.646	-52.509	0.0004074	73.019	0.00009137	125.357	0.002815	49.608
	0.0000576	110.49	0.0000373	146.322	0.00332	51.195	0.0004001	72.024
	0.652	-52.113	0.0005837	35.256	0.003037	52.284	0.00004755	169.553
	0.0000514	157.653	0.002849	48.828	0.0001266	129.169	0.000577	38.243
	0.647	-53	0.002759	52.284	0.0000865	159.517	0.00004142	97.884
	0.898	-21.069	0.002823	50.046	0.003003	51.043	0.002736	52.864
	0.28	58.623	0.003434	56.1	0.003063	46.194	0.003561	47.508
	0.00003612	148.019	0.00009158	116.679	0.00005361	149.772	0.003433	55.192
	0.651	-51.979	0.0003969	70.693	0.003858	55.796	0.00003847	128.263
	0.00005091	64.756	0.00002369	167.183	0.003029	46.237	0.0003977	71.191
	0.647	-52.6						
116.75	0.249	61.911	0.003738	47.764	0.003613	45.768	0.003066	42.211
	0.908	-19.225	0.003821	42.335	0.00419	50.924	0.003743	46.761
	0.588	-57.594	0.0004305	77.271	0.0001664	124.142	0.00305	42.71
	0.00003638	121.437	0.00009293	115.061	0.003605	45.554	0.0005161	78.097
	0.594	-57.203	0.0005498	51.462	0.003288	45.515	0.00002959	99.424
	0.00008718	135.83	0.003075	42.083	0.0001953	126.806	0.0005223	49.988
	0.59	-58.134	0.002977	47.009	0.00007324	171.149	0.00005257	104.079
	0.908	-19.276	0.003053	43.281	0.003242	45.574	0.002989	46.916
	0.239	58.281	0.003692	50.125	0.003278	39.585	0.003791	42.162
	0.00007376	137.8	0.00007477	106.926	0.00006878	138.345	0.003724	50.553
	0.594	-57.06	0.0004534	79.394	0.004217	51.664	0.00006164	132.315
	0.00006535	86.367	0.00005447	167.012	0.003262	38.682	0.0004866	80.65
	0.59	-57.631						
134.1	0.218	61.142	0.003957	43.456	0.003844	40.956	0.003243	36.704
	0.915	-18.021	0.004045	36.732	0.004452	47.586	0.003983	42.586
	0.537	-61.982	0.0005383	85.823	0.0002068	128.414	0.003226	36.948
	0.00005821	131.277	0.0001081	131.712	0.003854	40.933	0.0005899	85.749
	0.544	-61.617	0.0005368	68.244	0.003483	39.761	0.00008303	109.371
	0.00007675	104.394	0.003258	36.608	0.0002185	125.551	0.0005264	66.97
	0.54	-62.525	0.003167	42.225	0.0000938	137.892	0.00008814	109.944
	0.915	-18.02	0.00321	37.314	0.003489	40.125	0.003194	41.68
	0.207	57.285	0.003898	46.425	0.003458	32.392	0.004009	37.165
	0.0001094	134.675	0.0001263	127.5	0.0001126	135.381	0.003941	45.769
	0.543	-61.411	0.0005023	83.765	0.004464	48.004	0.0001095	129.563
	0.00008254	94.175	0.00007887	157.17	0.003441	32.489	0.0005481	84.882
	0.539	-62.009						
151.45	0.194	59.743	0.004138	39.724	0.00402	36.94	0.003396	31.625
	0.919	-17.229	0.004205	32.421	0.004662	44.761	0.004143	39.159
	0.493	-65.771	0.0007026	92.433	0.000247	122.363	0.003339	32.017
	0.00009288	126.781	0.0001156	127.177	0.004027	37	0.0007023	91.549
	0.5	-65.439	0.0006346	83.802	0.003635	35.215	0.0001115	135.037
	0.0001116	112.622	0.003396	31.968	0.0002497	119.582	0.000594	81.707
	0.497	-66.315	0.00332	37.925	0.000113	134.318	0.00009121	118.592
	0.919	-17.204	0.003343	31.983	0.003646	35.178	0.003328	37.856
	0.182	55.719	0.004097	42.992	0.00361	26.868	0.004182	32.988
	0.0001238	127.183	0.0001427	135.932	0.0001643	131.93	0.004093	42.412
	0.499	-65.239	0.0006223	89.479	0.004652	44.991	0.0001657	119.542
	0.0001017	111.821	0.0001222	138.024	0.003594	27.08	0.0006487	90.019
	0.496	-65.838						
168.8	0.174	57.812	0.004287	36.722	0.004151	33.39	0.003498	27.324
	0.922	-16.719	0.004322	28.795	0.004815	42.25	0.004278	36.308
	0.456	-69.081	0.0008225	96.306	0.0002967	119.78	0.003434	27.778
	0.0001249	121.529	0.0001321	107.553	0.004157	33.553	0.000835	94.557
	0.463	-68.739	0.0008052	92.818	0.003753	31.338	0.0001412	127.339
	0.0001571	127.052	0.003499	27.774	0.0002909	117.059	0.0007527	91.828
	0.46	-69.619	0.0034	34.326	0.0001174	134.561	0.00009558	134.302
	0.922	-16.703	0.003447	27.833	0.003737	31.279	0.003417	34.422
	0.162	53.682	0.004253	39.986	0.003721	22.426	0.004301	29.257
	0.0001215	115.253	0.0001521	123.192	0.0001958	126.057	0.00421	39.828
	0.461	-68.582	0.0007838	93.779	0.004803	42.62	0.0001729	117.402
	0.0001203	126.07	0.0001492	124.074	0.003707	22.437	0.0007574	94.9
	0.457	-69.16						
186.15	0.157	55.417	0.004406	34.205	0.00427	30.165	0.00355	23.96
	0.924	-16.411	0.004399	25.681	0.00493	40.389	0.004413	33.862
	0.422	-71.979	0.0009141	98.227	0.000348	124.022	0.003531	24.138
	0.0001545	119.262	0.0001616	100.908	0.004273	30.653	0.0009559	95.858
	0.429	-71.61	0.0009805	94.901	0.003831	28.006	0.0001888	104.395
	0.000165	119.787	0.003578	24.079	0.0003433	121.029	0.000972	97.774
	0.427	-72.509	0.003445	31.308	0.0001432	112.849	0.0001263	138.611
	0.925	-16.398	0.003527	24.55	0.003811	28.279	0.003484	31.216
	0.145	51.293	0.004345	37.841	0.003787	18.163	0.004386	25.679
	0.0001304	106.878	0.000194	109.258	0.0001977	123.745	0.004323	37.419
	0.427	-71.456	0.0009038	94.735	0.004937	40.808	0.0001502	122.29
	0.0001356	121.702	0.0001283	120.93	0.003777	18.34	0.0008478	96.784
	0.424	-72.012						
203.5	0.143	52.621	0.004482	31.615	0.00439	27.682	0.00362	21.026
	0.925	-16.252	0.004459	23.319	0.00505	39.611	0.004492	31.891
	0.392	-74.489	0.001097	97.684	0.0004007	115.863	0.003605	20.842
	0.0001844	105.183	0.0002064	105.768	0.00435	28.29	0.001079	96.743
	0.4	-74.157	0.001146	97.289	0.003873	25.544	0.0002034	110.965
	0.0001574	118.146	0.003633	21.009	0.0004193	120.331	0.001159	100.296
	0.398	-75.025	0.003538	28.553	0.0002274	106.15	0.000144	106.931
	0.926	-16.24	0.003617	20.929	0.003879	25.378	0.003533	29.35
	0.131	48.61	0.004411	35.927	0.003828	14.497	0.004468	22.608
	0.0001695	113.483	0.0002278	113.482	0.0001921	129.304	0.00444	35.858
	0.397	-73.978	0.0009484	96.163	0.005076	39.533	0.0001934	117.106
	0.0001542	111.475	0.00009163	119.213	0.003841	14.271	0.0009598	96.447
	0.394	-74.482						
220.85	0.131	49.372	0.004526	30.113	0.00442	25.631	0.003705	17.731
	0.927	-16.2	0.00452	20.024	0.005142	39.068	0.004529	30.346
	0.367	-76.818	0.001192	97.754	0.0004904	113.636	0.00364	17.386
	0.0002014	122.281	0.0002602	108.914	0.004405	25.433	0.001193	96.923
	0.374	-76.404	0.001338	101.835	0.00397	22.204	0.0002273	110.955
	0.000189	126.591	0.003696	17.263	0.0004387	109.488	0.001313	101.276
	0.373	-77.255	0.003564	26.532	0.0002421	120.041	0.0001144	117.973
	0.927	-16.24	0.00367	17.993	0.003971	22.607	0.003615	26.612
	0.12	45.506	0.004458	34.285	0.00391	10.686	0.004559	20.198
	0.000161	122.784	0.000181	116.924	0.0002309	117.563	0.004487	34.083
	0.371	-76.348	0.001072	97.806	0.005172	38.764	0.0002454	107.63
	0.0002162	113.156	0.0001577	107.749	0.0039	11.354	0.00111	96.018
	0.369	-76.749						
238.2	0.121	45.724	0.004622	28.855	0.004442	23.668	0.003711	14.858
	0.927	-16.211	0.00459	17.818	0.005242	38.197	0.004583	28.982
	0.344	-78.811	0.001367	98.045	0.0005298	112.785	0.003679	14.722
	0.0002006	115.285	0.0002558	104.823	0.00448	24.047	0.001356	97.235
	0.352	-78.395	0.001489	100.222	0.003943	20.491	0.0002224	98.994
	0.0002171	108.798	0.003721	15.282	0.000493	111.949	0.001543	101.136
	0.351	-79.256	0.003612	24.435	0.0002499	119.752	0.0001678	113.85
	0.927	-16.26	0.003733	15.118	0.003979	20.347	0.003635	24.969
	0.109	42.252	0.00451	33.03	0.003933	7.581	0.004582	17.977
	0.0001945	122.273	0.0002534	110.625	0.0002534	115.812	0.004527	33.066
	0.349	-78.386	0.001219	97.711	0.00523	37.794	0.000261	105.755
	0.0002362	106.582	0.0001483	106.128	0.003955	7.916	0.001193	96.768
	0.347	-78.773						
255.55	0.112	41.647	0.004679	27.623	0.004527	22.263	0.003756	12.836
	0.929	-16.326	0.00461	16.247	0.00532	37.599	0.004678	27.981
	0.324	-80.603	0.001462	97.377	0.0005623	109.914	0.003717	12.581
	0.0002273	113.352	0.0002655	101.405	0.004469	22.54	0.001486	97.193
	0.332	-80.161	0.001707	99.764	0.003998	18.804	0.0002552	106.341
	0.0002556	112.985	0.003775	12.51	0.0005347	111.087	0.001696	100.782
	0.332	-80.953	0.00366	22.806	0.0002867	116.151	0.0002096	116.453
	0.929	-16.326	0.003751	12.756	0.004026	18.237	0.00367	23.395
	0.101	38.645	0.004562	32.04	0.003976	4.967	0.004608	15.734
	0.000243	110.308	0.0002544	112.147	0.0002744	113.989	0.004593	31.667
	0.329	-80.236	0.001351	97.459	0.005286	37.682	0.0002915	106.234
	0.0002331	113.587	0.0001686	104.955	0.004002	5.196	0.001345	98.093
	0.327	-80.536						
272.9	0.104	37.131	0.00471	26.253	0.004562	20.868	0.003799	10.825
	0.93	-16.486	0.004603	14.186	0.005375	37.363	0.004718	26.725
	0.307	-82.244	0.00162	96.852	0.0006197	106.519	0.00372	10.415
	0.0002516	107.424	0.0003023	106.761	0.004522	20.885	0.001596	97.515
	0.315	-81.764	0.001902	100.518	0.00403	16.793	0.0002767	107.903
	0.0002809	110.644	0.003798	10.236	0.0006074	109.047	0.001895	100.368
	0.314	-82.505	0.003675	21.23	0.0003032	110.848	0.0002036	112.241
	0.929	-16.524	0.003767	10.561	0.004041	16.464	0.003695	21.727
	0.094	34.749	0.004591	31.052	0.00402	1.927	0.004598	13.693
	0.0002557	107.362	0.0002667	109.845	0.0002574	107.243	0.00459	30.858
	0.312	-81.898	0.001473	96.84	0.005346	37.517	0.0003104	105.277
	0.000252	109.146	0.000219	103.191	0.004021	2.383	0.001486	96.618
	0.31	-82.122						
290.25	0.097	32.154	0.004753	25.268	0.004602	19.34	0.003826	8.465
	0.93	-16.704	0.004604	12.115	0.005415	37.276	0.004741	25.279
	0.291	-83.759	0.001774	97.267	0.0006577	104.369	0.003735	8.625
	0.0002781	101.798	0.0003445	109.124	0.004574	19.315	0.00172	97.46
	0.299	-83.241	0.002076	100.744	0.004052	14.837	0.0002963	105.769
	0.0002806	106.226	0.003808	8.244	0.0006498	108.096	0.002075	100.341
	0.298	-83.923	0.003714	20.127	0.0003338	108.138	0.0002132	109.999
	0.93	-16.797	0.003778	8.442	0.004038	14.752	0.003711	20.03
	0.088	30.615	0.004618	30.048	0.004033	-0.654	0.004602	12.027
	0.0002618	104.543	0.0003129	105.64	0.0002769	104.312	0.004586	30.285
	0.296	-83.407	0.001598	96.48	0.005403	37.143	0.0003238	104.899
	0.0002882	103.998	0.0002368	104.761	0.004029	-0.117	0.001591	95.482
	0.294	-83.585						
307.6	0.091	26.689	0.004804	24.578	0.004641	17.982	0.003842	5.929
	0.93	-17.002	0.004623	10.313	0.005462	37.178	0.004765	24.245
	0.276	-85.142	0.001886	97.45	0.0006861	104.118	0.003754	6.657
	0.000313	102.32	0.0003632	107.77	0.004591	17.991	0.001871	96.508
	0.284	-84.586	0.002245	99.532	0.00408	13.148	0.0003255	103.993
	0.0002792	106.939	0.003841	6.018	0.0006782	106.885	0.00224	99.918
	0.284	-85.169	0.003757	19.028	0.000383	108.993	0.0002424	110.022
	0.931	-17.13	0.003778	6.29	0.004054	13.199	0.003726	18.682
	0.082	26.197	0.004653	29.355	0.004044	-2.96	0.004604	10.636
	0.000282	100.762	0.0003437	101.59	0.000334	107.234	0.004626	29.641
	0.281	-84.8	0.001737	96.204	0.005447	36.742	0.000352	105.416
	0.0003075	105.395	0.0002418	106.389	0.004042	-2.5	0.001705	95.825
	0.28	-84.916						
324.95	0.085	20.759	0.004821	23.765	0.004622	16.924	0.003859	3.683
	0.93	-17.378	0.004626	8.526	0.005525	37.059	0.004775	23.97
	0.263	-86.383	0.002012	96.077	0.000749	104.89	0.003744	3.807
	0.0003402	107.06	0.0003614	109.905	0.004619	16.772	0.002032	95.263
	0.271	-85.761	0.002427	97.854	0.004089	11.55	0.0003526	101.777
	0.0003001	108.857	0.003886	3.759	0.0007645	103.957	0.002451	98.417
	0.271	-86.239	0.003728	17.38	0.0004062	109.239	0.0002319	105.046
	0.931	-17.529	0.00378	4.142	0.004094	11.997	0.003734	17.908
	0.078	21.55	0.004676	29.209	0.004091	-5.908	0.004559	9.207
	0.0003063	103.545	0.0003308	97.809	0.0003577	108.157	0.004675	29.126
	0.269	-86.089	0.001873	95.316	0.005491	36.617	0.0003836	103.687
	0.0003044	105.234	0.000283	103.879	0.004069	-5.366	0.001855	95.657
	0.267	-86.097						
342.3	0.081	14.489	0.004795	23.571	0.004624	15.249	0.00388	2.002
	0.929	-17.789	0.004536	7	0.005559	36.944	0.004813	23.479
	0.251	-87.515	0.0022	95.739	0.00079	104.814	0.003783	2.043
	0.0003187	103.432	0.0004073	100.323	0.004651	15.101	0.002169	95.293
	0.259	-86.765	0.002665	97.867	0.004065	10.018	0.0003538	104.598
	0.0002899	103.048	0.003831	2.694	0.000846	105.616	0.002592	98.448
	0.259	-87.219	0.003677	17.21	0.0003798	102.948	0.0001893	108.088
	0.931	-17.848	0.003816	2.573	0.004085	10.264	0.003725	16.98
	0.075	17.239	0.00466	28.99	0.004068	-8.273	0.004579	7.547
	0.0003346	99.181	0.000405	100.436	0.0003626	102.651	0.004679	28.931
	0.257	-87.25	0.001962	94.461	0.005592	37.159	0.0003334	97.3
	0.0003661	96.755	0.0002452	110.514	0.004106	-7.85	0.001926	95.401
	0.255	-87.203						
359.65	0.078	7.862	0.004843	22.574	0.00461	13.638	0.00383	0.031
	0.93	-18.152	0.004543	5.908	0.005574	37.055	0.004864	22.817
	0.24	-88.523	0.002287	95.002	0.0008393	103.445	0.003783	0.663
	0.0003168	104.486	0.0004132	92.165	0.004614	14.067	0.002235	95.591
	0.248	-87.784	0.002807	97.069	0.004052	8.568	0.0003116	104.942
	0.0003339	104.419	0.003873	0.768	0.0007971	103.776	0.002795	97.676
	0.248	-88.165	0.003674	16.55	0.0003936	104.414	0.0002422	113.996
	0.93	-18.186	0.003834	0.18	0.004086	8.721	0.003698	15.995
	0.071	12.817	0.004656	28.386	0.004095	-10.689	0.004548	6.24
	0.0003505	101.918	0.000385	100.073	0.0003813	105.25	0.004682	28.444
	0.246	-88.298	0.002077	94.275	0.005623	37.693	0.0004282	96.586
	0.0003522	97.846	0.0002687	101.949	0.004093	-10.269	0.002037	94.905
	0.243	-88.07						
377	0.075	0.967	0.00483	22.319	0.004626	13.302	0.003839	-2.142
	0.929	-18.531	0.004529	4.78	0.005604	37.447	0.004801	22.286
	0.231	-89.456	0.00238	94.634	0.0008874	102.015	0.003783	-1.486
	0.0003484	106.699	0.0004392	98.073	0.004629	13.247	0.002399	95.014
	0.238	-88.657	0.002962	96.898	0.004037	7.706	0.0003612	101.686
	0.0003756	106.761	0.003858	-1.593	0.0008419	99.619	0.002985	96.543
	0.238	-89.072	0.003711	14.963	0.0004275	105.578	0.0002454	103.438
	0.929	-18.538	0.003802	-1.762	0.00409	7.403	0.003709	15.33
	0.069	8.313	0.004679	28.278	0.004081	-12.992	0.004538	4.997
	0.0003507	101.283	0.000429	101.013	0.0004182	104.975	0.004645	28.198
	0.235	-89.252	0.002136	95.265	0.005683	37.406	0.000417	97.971
	0.0003296	104.403	0.0003142	99.531	0.004072	-12.433	0.002121	95.222
	0.234	-88.925						
394.35	0.073	-6.05	0.004813	21.963	0.004626	12.531	0.003814	-3.445
	0.929	-18.928	0.004497	4.041	0.005675	38.094	0.004803	21.902
	0.221	-90.349	0.002491	94.721	0.0008962	100.011	0.003759	-3.167
	0.0003599	105.008	0.000471	97.692	0.004629	12.052	0.002523	94.046
	0.229	-89.424	0.003134	96.423	0.004063	6.625	0.0003819	100.777
	0.0003692	100.473	0.003835	-3.379	0.0008844	99.392	0.00315	96.259
	0.229	-89.83	0.003698	14.293	0.0004652	104.262	0.0002886	103.06
	0.929	-18.952	0.003774	-3.027	0.004089	5.99	0.003688	14.365
	0.067	3.755	0.004679	28.167	0.004072	-14.361	0.004515	3.643
	0.0003634	107.112	0.000429	100.461	0.0004411	106.682	0.004665	27.632
	0.226	-90.236	0.002278	95.202	0.005701	37.752	0.0004401	99.033
	0.000384	101.263	0.000326	103.374	0.004065	-14.381	0.002294	94.73
	0.225	-89.749						
411.7	0.071	-13.18	0.004801	21.559	0.004638	11.75	0.003802	-4.637
	0.928	-19.313	0.004491	3.181	0.00573	38.689	0.00483	21.586
	0.213	-91.151	0.002628	94.436	0.0009516	99.007	0.003727	-4.091
	0.0003897	101.554	0.0004842	98.537	0.004628	11.112	0.002648	94.219
	0.221	-90.178	0.003303	96.556	0.00408	5.581	0.00042	102.311
	0.0003886	97.642	0.00383	-4.961	0.0009593	100.579	0.003304	96.504
	0.22	-90.536	0.003693	14	0.0004756	102.773	0.0003131	106.375
	0.929	-19.363	0.003759	-4.38	0.004066	5.146	0.003671	13.59
	0.065	-0.717	0.004644	28.321	0.004076	-15.838	0.004484	2.529
	0.0003975	104.16	0.0004223	102.32	0.0004799	106.226	0.004653	28.011
	0.218	-91.135	0.002414	94.718	0.00573	38.413	0.0004696	100.336
	0.000439	100.47	0.0003375	102.338	0.004076	-16.205	0.002439	94.142
	0.216	-90.504						
429.05	0.07	-20.377	0.004808	21.175	0.004644	11.016	0.003823	-6.203
	0.929	-19.715	0.004488	1.929	0.005759	39.111	0.004845	21.22
	0.205	-91.908	0.002754	94.018	0.001031	98.984	0.003717	-5.081
	0.000421	97.855	0.0005057	98.955	0.00464	10.455	0.00278	94.25
	0.213	-90.883	0.003482	96.608	0.00407	4.759	0.0004502	103.031
	0.0004292	98.266	0.003823	-6.857	0.001051	100.488	0.003487	96.228
	0.212	-91.243	0.003699	13.334	0.0004981	102.776	0.0003478	103.923
	0.929	-19.796	0.003772	-5.856	0.004029	4.518	0.003677	12.915
	0.064	-5.048	0.004629	28.569	0.004089	-17.693	0.004456	1.765
	0.0004231	97.042	0.0004428	102.703	0.0005249	102.038	0.004629	28.505
