!Hittite Microwave Corporation								
!12 Elizabeth Drive								
!Chelmsford, MA 01824								
!Tel: 978-250-3343								
!Fax: 978-250-3373
!Device: HMC232C8, DC - 8 GHz GaAs MMIC High-Isolation SPDT Switch in 8-lead non-hermetic SMT ceramic package
!Misc: Port1=RFC, Port2= RF1, Port3=RF2, RF2 ON, Control: -5VDC								
!
# MHZ S MA R 50

100 0.081 -5.62 352.6e-6 6.601 0.888 -2.531
          131.6e-6 34.604 0.181 179.265 284e-6 68.375
          0.887 -2.527 336e-6 78.414 0.084 -7.013
179 0.073 7.165 295.2e-6 -7.59 0.908 -5.889
          169.3e-6 0.627 0.198 169.745 407.4e-6 67.929
          0.906 -5.875 466.3e-6 50.064 0.062 7.102
258 0.079 3.276 271.6e-6 -37.011 0.895 -7.693
          315e-6 -44.756 0.189 168.501 394.2e-6 67.934
          0.892 -7.64 533.9e-6 75.097 0.071 -0.036
337 0.082 3.665 281.6e-6 -101.537 0.891 -9.798
          312.3e-6 -79.472 0.189 165.412 657.7e-6 77.442
          0.889 -9.746 647e-6 75.376 0.071 0.025
416 0.085 3.664 240.7e-6 -84.801 0.89 -11.918
          278.8e-6 -93.142 0.188 162.137 722.7e-6 88.544
          0.889 -11.866 749.6e-6 87.323 0.072 -0.096
495 0.089 2.997 312.6e-6 -116.03 0.888 -14.047
          252.9e-6 -139.689 0.189 159.067 859.9e-6 88.378
          0.886 -13.993 873.2e-6 90.53 0.072 -0.925
574 0.093 1.715 317e-6 -137.104 0.888 -16.115
          269.9e-6 -127.202 0.188 156.172 1.01e-3 92.722
          0.885 -16.087 1.081e-3 91.754 0.073 -2.417
653 0.097 0.379 394.3e-6 -136.39 0.886 -18.167
          380.3e-6 -139.841 0.188 152.98 1.211e-3 91.258
          0.884 -18.179 1.184e-3 87.962 0.073 -2.489
732 0.101 -1.02 390.3e-6 -149.149 0.886 -20.252
          416.8e-6 -147.338 0.188 149.43 1.352e-3 92.546
          0.883 -20.217 1.343e-3 93.179 0.074 -2.369
811 0.105 -2.362 487.4e-6 -153.706 0.884 -22.347
          544.4e-6 -154.439 0.189 145.796 1.561e-3 91.932
          0.882 -22.314 1.484e-3 91.271 0.074 -1.129
890 0.108 -4.174 551.8e-6 -169.078 0.883 -24.446
          572.8e-6 -162.566 0.191 142.641 1.695e-3 94.39
          0.88 -24.436 1.678e-3 94.103 0.073 -0.41
969 0.11 -6.045 593.7e-6 -175.753 0.883 -26.508
          585.7e-6 -172.406 0.193 139.667 1.822e-3 92.062
          0.881 -26.529 1.826e-3 93.324 0.073 -0.59
1048 0.112 -8.134 713.8e-6 -177.209 0.882 -28.562
          693.5e-6 -176.255 0.195 136.432 2.001e-3 93.4
          0.88 -28.506 1.986e-3 93.933 0.073 -0.775
1127 0.115 -10.346 790.7e-6 179.304 0.881 -30.632
          782.6e-6 -177.441 0.197 133.063 2.159e-3 91.911
          0.878 -30.486 2.247e-3 95.03 0.073 0.369
1206 0.116 -12.679 889.4e-6 171.321 0.88 -32.726
          883.9e-6 172.491 0.201 129.779 2.302e-3 92.811
          0.877 -32.607 2.271e-3 92.756 0.072 1.755
1285 0.118 -14.864 939.1e-6 166.929 0.88 -34.816
          929.4e-6 169.424 0.206 127.043 2.403e-3 94.771
          0.878 -34.709 2.372e-3 92.952 0.07 2.989
1364 0.12 -17.051 1.007e-3 163.762 0.879 -36.881
          1.011e-3 164.666 0.209 124.573 2.629e-3 93.267
          0.877 -36.801 2.62e-3 94.312 0.068 3.705
1443 0.122 -18.795 1.092e-3 164.311 0.878 -38.914
          1.042e-3 161.926 0.212 121.938 2.731e-3 94.349
          0.876 -38.843 2.743e-3 93.989 0.068 4.954
1522 0.123 -20.34 1.237e-3 158.344 0.878 -40.98
          1.216e-3 159.33 0.215 119.047 2.892e-3 93.435
          0.875 -40.852 2.9e-3 92.835 0.069 6.426
1601 0.124 -21.847 1.299e-3 153.958 0.877 -43.028
          1.264e-3 156.062 0.22 116.232 2.968e-3 93.549
          0.874 -42.928 2.93e-3 93.865 0.07 9.114
1680 0.125 -23.104 1.424e-3 152.895 0.877 -45.083
          1.416e-3 152.414 0.226 113.847 3.121e-3 94.644
          0.874 -45.023 3.164e-3 94.067 0.069 11.164
1759 0.126 -24.103 1.534e-3 150.589 0.876 -47.15
          1.511e-3 152.644 0.23 111.758 3.272e-3 93.327
          0.872 -47.08 3.306e-3 92.915 0.069 13.122
1838 0.127 -24.931 1.537e-3 147.867 0.875 -49.176
          1.594e-3 144.371 0.234 109.627 3.376e-3 92.033
          0.872 -49.047 3.44e-3 92.295 0.07 14.158
1917 0.127 -25.877 1.662e-3 144.894 0.875 -51.241
          1.711e-3 145.908 0.239 107.248 3.385e-3 91.672
          0.872 -51.134 3.425e-3 91.253 0.072 14.374
1996 0.127 -27.097 1.874e-3 145.367 0.875 -53.356
          1.835e-3 144.409 0.244 104.954 3.575e-3 92.877
          0.872 -53.227 3.557e-3 93.471 0.072 16.069
2075 0.128 -28.577 1.968e-3 141.259 0.875 -55.448
          2.06e-3 141.136 0.25 102.879 3.738e-3 92.33
          0.872 -55.376 3.737e-3 92.372 0.072 17.481
2154 0.13 -29.978 2.117e-3 138.805 0.875 -57.487
          2.077e-3 137.416 0.255 101.203 3.844e-3 91.312
          0.872 -57.416 3.837e-3 90.828 0.071 19.507
2233 0.131 -31.524 2.172e-3 135.388 0.875 -59.53
          2.204e-3 134.643 0.259 99.578 3.902e-3 89.428
          0.872 -59.458 3.931e-3 90.109 0.07 20.853
2312 0.133 -33.488 2.334e-3 131.051 0.874 -61.62
          2.295e-3 132.732 0.264 97.833 4.046e-3 90.432
          0.872 -61.56 3.961e-3 89.654 0.069 21.962
2391 0.135 -35.989 2.453e-3 130.739 0.873 -63.725
          2.365e-3 129.269 0.269 96.158 4.104e-3 89.857
          0.87 -63.673 4.121e-3 90.58 0.068 24.151
2470 0.139 -38.605 2.603e-3 126.82 0.873 -65.887
          2.549e-3 127.804 0.274 94.614 4.232e-3 88.568
          0.87 -65.786 4.218e-3 88.855 0.067 26.55
2549 0.143 -40.97 2.675e-3 125.519 0.873 -67.923
          2.657e-3 125.089 0.278 93.182 4.238e-3 87.512
          0.87 -67.809 4.308e-3 87.83 0.066 29.162
2628 0.147 -43.409 2.767e-3 124.126 0.872 -69.958
          2.787e-3 123.685 0.283 91.953 4.324e-3 87.531
          0.87 -69.877 4.425e-3 86.803 0.065 31.806
2707 0.151 -45.997 2.894e-3 121.398 0.872 -72.029
          2.964e-3 122.317 0.286 90.658 4.426e-3 86.036
          0.869 -71.974 4.462e-3 86.179 0.064 34.118
2786 0.155 -49.115 3.002e-3 119.096 0.871 -74.12
          2.967e-3 119.308 0.29 89.433 4.532e-3 85.655
          0.869 -74.046 4.534e-3 85.212 0.063 36.695
2865 0.159 -52.269 3.142e-3 118.389 0.871 -76.209
          3.086e-3 118.443 0.293 88.238 4.541e-3 84.216
          0.868 -76.155 4.582e-3 84.216 0.062 39.82
2944 0.164 -55.481 3.287e-3 116.013 0.87 -78.327
          3.273e-3 116.255 0.296 87.052 4.702e-3 83.345
          0.868 -78.243 4.664e-3 83.275 0.062 43.418
3023 0.169 -58.686 3.445e-3 113.988 0.869 -80.428
          3.419e-3 113.269 0.299 85.936 4.732e-3 82.096
          0.868 -80.324 4.774e-3 82.028 0.062 46.571
3102 0.172 -62.266 3.519e-3 111.949 0.869 -82.504
          3.516e-3 111.991 0.301 84.886 4.895e-3 80.713
          0.866 -82.419 4.859e-3 80.865 0.061 49.685
3181 0.175 -66.022 3.644e-3 109.822 0.869 -84.625
          3.648e-3 109.695 0.302 83.777 4.927e-3 79.691
          0.867 -84.512 4.925e-3 79.598 0.06 53.086
3260 0.178 -69.997 3.789e-3 109.431 0.869 -86.767
          3.844e-3 109.105 0.303 82.643 5.001e-3 78.884
          0.866 -86.685 4.959e-3 78.06 0.06 56.788
3339 0.182 -74.074 3.971e-3 105.711 0.868 -88.865
          3.971e-3 106.053 0.304 81.476 5.064e-3 77.484
          0.867 -88.775 5.1e-3 77.199 0.06 60.943
3418 0.185 -78.101 4.144e-3 104.009 0.867 -90.953
          4.121e-3 104.44 0.305 80.332 5.118e-3 75.592
          0.866 -90.875 5.174e-3 75.328 0.06 65.054
3497 0.187 -82.264 4.269e-3 101.256 0.867 -93.066
          4.273e-3 101.067 0.305 79.228 5.251e-3 74.741
          0.865 -92.999 5.201e-3 73.994 0.062 69.154
3576 0.189 -86.31 4.396e-3 100.011 0.867 -95.187
          4.399e-3 100.238 0.304 78.108 5.343e-3 72.507
          0.864 -95.074 5.309e-3 73.197 0.062 73.203
3655 0.191 -90.351 4.508e-3 98.481 0.865 -97.33
          4.532e-3 98.701 0.303 76.848 5.398e-3 71.84
          0.864 -97.204 5.389e-3 71.936 0.064 76.969
3734 0.193 -94.347 4.652e-3 96.343 0.864 -99.439
          4.693e-3 97.244 0.302 75.505 5.512e-3 69.458
          0.863 -99.329 5.507e-3 70.244 0.067 79.583
3813 0.195 -98.242 4.798e-3 94.031 0.864 -101.527
          4.822e-3 94.372 0.301 74.045 5.55e-3 67.745
          0.862 -101.42 5.599e-3 67.635 0.07 81.522
3892 0.196 -101.924 4.915e-3 92.309 0.863 -103.714
          4.944e-3 92.468 0.299 72.605 5.608e-3 66.278
          0.861 -103.522 5.588e-3 66.596 0.073 83.705
3971 0.198 -105.187 5.145e-3 90.934 0.863 -105.83
          5.048e-3 91.356 0.296 70.988 5.755e-3 64.887
          0.861 -105.74 5.725e-3 64.94 0.074 84.325
4050 0.198 -108.103 5.293e-3 88.839 0.862 -107.911
          5.31e-3 90.003 0.293 69.15 5.809e-3 63.219
          0.86 -107.855 5.819e-3 63.673 0.077 83.668
4129 0.197 -110.806 5.487e-3 87.056 0.861 -110.052
          5.494e-3 87.068 0.291 67.155 5.905e-3 61.133
          0.859 -110.017 5.832e-3 61.874 0.08 82.367
4208 0.197 -113.207 5.743e-3 84.338 0.86 -112.192
          5.691e-3 84.107 0.289 65.059 5.964e-3 60.614
          0.858 -112.126 5.935e-3 60.381 0.083 81.017
4287 0.198 -115.118 5.831e-3 81.195 0.859 -114.3
          5.763e-3 80.778 0.287 62.958 6.029e-3 59.203
          0.857 -114.18 6.077e-3 59.072 0.085 79.417
4366 0.197 -116.722 5.912e-3 78.809 0.857 -116.405
          5.928e-3 78.891 0.284 60.654 6.097e-3 57.508
          0.856 -116.307 6.041e-3 57.626 0.086 76.926
4445 0.197 -118.024 5.923e-3 76.176 0.857 -118.489
          5.917e-3 76.232 0.281 58.173 6.199e-3 56.813
          0.856 -118.382 6.161e-3 57.014 0.087 73.89
4524 0.196 -119.043 5.952e-3 74.92 0.857 -120.609
          5.916e-3 74.706 0.279 55.372 6.339e-3 56.478
          0.855 -120.535 6.305e-3 56.536 0.088 70.107
4603 0.197 -119.726 5.977e-3 74.405 0.856 -122.737
          5.948e-3 74.367 0.278 52.443 6.534e-3 54.255
          0.854 -122.677 6.582e-3 54.465 0.089 66.02
4682 0.197 -120.043 6.209e-3 73.96 0.856 -124.853
          6.211e-3 74.253 0.277 49.529 6.532e-3 51.972
          0.854 -124.797 6.581e-3 51.839 0.091 61.705
4761 0.198 -120.145 6.467e-3 72.521 0.856 -127.034
          6.45e-3 72.415 0.277 46.48 6.609e-3 50.863
          0.854 -126.96 6.59e-3 51.079 0.092 56.882
4840 0.198 -120.145 6.712e-3 70.282 0.854 -129.191
          6.647e-3 70.17 0.278 43.321 6.66e-3 50.366
          0.853 -129.116 6.621e-3 50.453 0.092 52.413
4919 0.2 -120.338 6.816e-3 68.273 0.853 -131.305
          6.774e-3 68.162 0.279 40.073 6.769e-3 49.387
          0.852 -131.21 6.79e-3 49.457 0.094 47.464
4998 0.203 -120.761 6.941e-3 66.995 0.853 -133.457
          6.945e-3 67.507 0.282 36.812 6.885e-3 49.212
          0.851 -133.36 6.898e-3 49.011 0.098 42.3
5077 0.206 -121.061 7.175e-3 65.551 0.852 -135.586
          7.155e-3 65.502 0.286 33.685 7.009e-3 47.809
          0.851 -135.547 7.04e-3 47.926 0.102 37.462
5156 0.209 -121.357 7.399e-3 63.301 0.852 -137.746
          7.372e-3 63.272 0.291 30.768 7.123e-3 47.016
          0.851 -137.647 7.142e-3 47.155 0.106 32.905
5235 0.211 -121.962 7.58e-3 61.652 0.851 -139.896
          7.558e-3 61.49 0.296 27.779 7.232e-3 46.102
          0.85 -139.814 7.197e-3 46.33 0.109 28.505
5314 0.215 -122.97 7.709e-3 59.379 0.85 -142.078
          7.748e-3 59.371 0.301 24.722 7.267e-3 45.49
          0.848 -142.016 7.297e-3 45.591 0.113 23.824
5393 0.219 -124.175 7.881e-3 57.789 0.849 -144.254
          7.906e-3 57.947 0.309 21.838 7.391e-3 44.841
          0.847 -144.204 7.356e-3 45.058 0.12 19.749
5472 0.223 -125.257 8.065e-3 55.548 0.847 -146.444
          8.061e-3 55.533 0.317 19.325 7.442e-3 44.454
          0.846 -146.351 7.453e-3 44.732 0.127 16.29
5551 0.227 -126.422 8.195e-3 53.658 0.846 -148.593
          8.235e-3 53.634 0.325 17.131 7.526e-3 43.972
          0.845 -148.521 7.507e-3 44.146 0.133 13.204
5630 0.229 -127.891 8.343e-3 51.46 0.846 -150.773
          8.331e-3 51.414 0.333 15.022 7.664e-3 43.925
          0.844 -150.658 7.661e-3 43.681 0.139 10.489
5709 0.23 -129.823 8.47e-3 49.518 0.845 -152.926
          8.465e-3 49.607 0.341 12.824 7.743e-3 43.376
          0.843 -152.831 7.722e-3 43.236 0.144 7.904
5788 0.232 -132.151 8.484e-3 47.352 0.844 -155.124
          8.554e-3 47.39 0.35 10.748 7.887e-3 42.432
          0.842 -155.036 7.939e-3 42.688 0.15 5.547
5867 0.234 -134.537 8.613e-3 45.644 0.843 -157.301
          8.578e-3 45.802 0.36 9.068 7.928e-3 41.365
          0.841 -157.201 7.897e-3 42.116 0.156 3.948
5946 0.234 -136.929 8.642e-3 44.375 0.841 -159.446
          8.684e-3 44.287 0.369 7.674 8.034e-3 41.538
          0.84 -159.379 8.074e-3 40.954 0.162 2.745
6025 0.233 -139.502 8.709e-3 42.74 0.84 -161.614
          8.717e-3 43.026 0.376 6.352 8.026e-3 40.365
          0.839 -161.549 8.022e-3 40.563 0.166 1.656
6104 0.232 -142.44 8.864e-3 41.448 0.84 -163.819
          8.823e-3 41.195 0.384 4.951 8.035e-3 40.115
          0.838 -163.736 8.055e-3 40.158 0.17 0.785
6183 0.231 -145.516 8.974e-3 40.003 0.838 -166.055
          8.888e-3 39.965 0.392 3.492 8.036e-3 39.538
          0.836 -165.97 8.014e-3 39.734 0.176 -0.05
6262 0.231 -148.552 8.914e-3 38.571 0.836 -168.202
          8.957e-3 38.624 0.402 2.368 8.059e-3 38.899
          0.834 -168.15 8.042e-3 39.209 0.182 -0.809
6341 0.23 -151.598 9.056e-3 37.519 0.835 -170.38
          9.035e-3 37.599 0.41 1.53 7.984e-3 38.869
          0.835 -170.316 8.013e-3 38.944 0.187 -1.122
6420 0.227 -154.786 9.136e-3 36.255 0.834 -172.543
          9.127e-3 36.512 0.416 0.779 7.979e-3 38.486
          0.833 -172.503 7.936e-3 38.485 0.19 -1.174
6499 0.224 -158.216 9.261e-3 34.735 0.833 -174.734
          9.216e-3 34.624 0.422 -0.028 7.846e-3 38.189
          0.832 -174.673 7.891e-3 38.255 0.193 -0.929
6578 0.222 -161.816 9.272e-3 33.038 0.832 -177.008
          9.242e-3 33.223 0.428 -0.929 7.775e-3 38
          0.831 -176.935 7.831e-3 37.922 0.197 -0.961
6657 0.221 -165.363 9.188e-3 32.527 0.831 -179.223
          9.129e-3 32.279 0.434 -1.675 7.652e-3 37.996
          0.83 -179.157 7.601e-3 38.019 0.201 -0.893
6736 0.219 -168.696 9.132e-3 31.704 0.83 178.531
          9.199e-3 31.936 0.439 -2.263 7.544e-3 38.334
          0.829 178.613 7.52e-3 38.596 0.206 -0.57
6815 0.216 -171.937 9.279e-3 31.504 0.828 176.292
          9.223e-3 31.439 0.444 -2.774 7.442e-3 39.041
          0.827 176.389 7.423e-3 38.999 0.21 -0.127
6894 0.213 -175.222 9.4e-3 30.898 0.826 174.123
          9.366e-3 31.197 0.447 -3.319 7.373e-3 39.48
          0.825 174.158 7.374e-3 39.274 0.212 0.296
6973 0.212 -178.51 9.612e-3 29.659 0.826 171.859
          9.579e-3 30.06 0.45 -3.971 7.229e-3 39.649
          0.825 171.975 7.257e-3 39.997 0.214 0.609
7052 0.213 178.04 9.532e-3 28.386 0.824 169.582
          9.516e-3 28.354 0.453 -4.672 7.187e-3 40.041
          0.823 169.685 7.189e-3 40.071 0.218 0.767
7131 0.215 174.435 9.396e-3 28.351 0.822 167.369
          9.435e-3 28.495 0.455 -5.288 7.073e-3 40.372
          0.821 167.435 7.072e-3 40.167 0.222 1.037
7210 0.215 170.708 9.551e-3 28.879 0.822 165.196
          9.567e-3 29.04 0.457 -5.822 6.946e-3 39.995
          0.82 165.234 6.906e-3 40.323 0.224 1.394
7289 0.214 166.684 9.865e-3 29.288 0.821 162.9
          9.815e-3 29.288 0.458 -6.426 6.811e-3 40.908
          0.82 163.012 6.83e-3 40.911 0.226 1.954
7368 0.215 162.52 0.01 28.004 0.821 160.545
          0.01 27.918 0.458 -7.163 6.771e-3 40.831
          0.82 160.644 6.76e-3 40.64 0.229 2.436
7447 0.217 158.486 0.01 25.927 0.819 158.203
          0.01 26.21 0.459 -8.045 6.656e-3 40.727
          0.817 158.291 6.623e-3 40.538 0.232 2.519
7526 0.218 154.404 0.01 25.31 0.817 155.902
          0.01 25.515 0.46 -8.913 6.507e-3 39.997
          0.815 155.966 6.489e-3 39.674 0.237 2.538
7605 0.218 150.195 0.01 25.319 0.814 153.615
          0.01 25.4 0.46 -9.713 6.263e-3 38.901
          0.813 153.687 6.278e-3 39.502 0.241 2.556
7684 0.219 145.573 0.011 24.372 0.813 151.259
          0.011 24.562 0.46 -10.495 6.169e-3 37.694
          0.812 151.35 6.164e-3 37.053 0.246 2.864
7763 0.22 140.849 0.011 21.959 0.81 148.944
          0.011 21.885 0.46 -11.375 5.853e-3 35.868
          0.809 149.005 5.875e-3 36.094 0.25 2.974
7842 0.221 136.164 0.011 19.523 0.809 146.631
          0.011 19.691 0.459 -12.388 5.567e-3 33.896
          0.807 146.732 5.525e-3 34.102 0.254 2.763
7921 0.221 131.343 0.011 17.709 0.807 144.309
          0.011 17.876 0.458 -13.473 5.282e-3 31.004
          0.806 144.429 5.306e-3 31.469 0.258 2.683
8000 0.22 126.247 0.011 16.511 0.805 141.893
          0.011 16.582 0.458 -14.584 4.868e-3 27.025
          0.804 142.033 4.931e-3 25.61 0.263 2.599
