!Hittite Microwave Corporation								
!12 Elizabeth Drive								
!Chelmsford, MA 01824								
!Tel: 978-250-3343								
!Fax: 978-250-3373								
!Device: HMC252QS24, DC-3 GHz GaAS MMIC SP6T Non-Reflective Switch in 24-lead QSOP package								
!Misc: Port 1 = RFCom, Port 2 = RF1, Port 3 = RF2, Port 4 = RF3, Port 5 = RF4, Port 6 = RF5, Port 7 = RF6, RF2 selected, Vdd=+5V							
!
# MHZ S MA R 50

30	0.705	40.938	0.001215	84.103	0.666	-46.9	0.001	86.272
	0.0008812	85.6	0.001127	85.055	0.001224	83.716	0.001196	83.216
	0.915	-20.527	0.001195	86.855	0.00004771	84.124	0.00003076	161.313
	0.00002954	169.742	0.00007332	45.075	0.666	-46.91	0.001134	85.581
	0.704	40.424	0.001043	87.981	0.0009152	91.417	0.001044	85.83
	0.001105	85.769	0.001003	88.342	0.00001865	32.304	0.001073	88.521
	0.916	-20.7	0.00003268	-175.212	0.00007076	168.92	0.00003589	52.453
	0.0009576	84.024	0.00004362	-143.661	0.0009163	87.438	0.00007041	51.145
	0.917	-20.599	0.000538	60.441	0.00006104	-57.831	0.0011	85.894
	0.00006795	27.092	0.001037	89.067	0.00004779	41.932	0.0005404	61.826
	0.918	-20.192	0.0002624	68.612	0.001217	84.238	0.00006252	5.649
	0.001126	87.442	0.00003227	-101.006	0.00004018	162.39	0.0002634	60.13
	0.916	-20.53						
47.35	0.533	51.464	0.001913	74.588	0.795	-34.752	0.001626	75.869
	0.001541	76.875	0.001839	76.45	0.002041	76.311	0.001979	74.524
	0.851	-30.472	0.001871	76.947	0.00006413	65.605	0.00003503	-135.301
	0.00002697	133.349	0.00003869	17.238	0.795	-34.775	0.00184	77.368
	0.531	50.694	0.001749	79.362	0.001501	80.133	0.001699	76.629
	0.001731	75.494	0.001643	76.045	0.0000412	85.196	0.00175	78.996
	0.851	-30.785	0.00004575	117.339	0.00003985	144.1	0.00003467	73.443
	0.001554	76.358	0.00005098	-168.414	0.001482	79.118	0.00004249	59.16
	0.852	-30.662	0.0006723	45.886	0.0000672	28.262	0.001809	76.094
	0.00005275	38.571	0.001685	77.525	0.00007144	67.332	0.0006791	43.23
	0.855	-30.076	0.0003216	58.867	0.002034	77.227	0.00006156	49.751
	0.001758	76.403	0.00003365	-69.459	0.00005389	108.113	0.0003637	55.805
	0.852	-30.503						
64.7	0.417	56.784	0.00257	65.714	0.853	-27.795	0.002145	64.111
	0.002082	66.689	0.002458	67.189	0.002774	68.332	0.002632	64.722
	0.78	-39.025	0.002463	67.741	0.00005729	73.136	0.00004566	-111.261
	0.00002655	106.065	0.00002443	49.374	0.853	-27.816	0.00245	68.642
	0.415	55.793	0.002378	70.875	0.001965	68.863	0.002225	67.639
	0.002289	63.985	0.002193	63.99	0.0000881	81.05	0.002359	70.116
	0.78	-39.425	0.00004811	88.48	0.00001518	-166.976	0.00002767	-168.218
	0.002092	67.162	0.00002922	-177.782	0.001998	69.358	0.00001659	126.511
	0.78	-39.289	0.0006616	36.893	0.00006767	81.753	0.002471	67.66
	0.00005731	134.991	0.002254	66.751	0.00007298	131.284	0.0006696	35.684
	0.784	-38.592	0.0003065	58.674	0.00278	69.413	0.0000226	104.412
	0.002316	64.563	0.00003033	-150.297	0.00005214	82.177	0.000424	53.584
	0.781	-39.111						
82.05	0.339	59.33	0.00315	56.456	0.882	-23.541	0.002577	54.082
	0.002489	57.763	0.00303	59.326	0.003354	61.994	0.003148	56.403
	0.71	-46.328	0.002995	60.143	0.00006011	88.601	0.00005616	-170.106
	0.00002611	161.434	0.00008934	125.733	0.882	-23.534	0.002963	59.73
	0.336	58.176	0.002828	62.941	0.00241	59.74	0.002674	58.249
	0.002751	53.836	0.002638	54.387	0.0001275	126.135	0.002869	62.748
	0.711	-46.855	0.00007098	113.55	0.00001294	-36.836	0.00005191	-139.177
	0.002531	57.822	0.00004376	-163.656	0.002387	60.563	0.00003691	129.174
	0.711	-46.617	0.0006527	32.366	0.0001086	147.875	0.003007	58.69
	0.0000506	128.966	0.002698	58.066	0.00002324	70.484	0.0006127	31.82
	0.715	-45.872	0.0003676	63.31	0.003338	61.225	0.0000507	86.178
	0.002763	53.625	0.00003912	-101.098	0.0001027	113.183	0.0004195	63.452
	0.71	-46.454						
99.4	0.284	60.217	0.003542	49.895	0.9	-20.792	0.002996	46.395
	0.002881	50.773	0.003401	52.029	0.003817	56.234	0.003567	49.184
	0.646	-52.471	0.003394	52.982	0.0001443	123.928	0.00002897	87.232
	0.00005446	138.911	0.00007131	103.523	0.9	-20.82	0.003321	53.459
	0.28	58.875	0.003281	57.567	0.002732	52.596	0.003094	49.93
	0.003118	45.327	0.002987	45.523	0.0001618	119.446	0.003252	56.669
	0.647	-53.001	0.00009173	128.894	0.00002949	93.203	0.0000517	144.891
	0.002889	49.843	0.00007709	159.93	0.002711	51.86	0.0000932	168.493
	0.647	-52.756	0.0004997	36.848	0.0001194	131.819	0.003459	51.703
	0.00007069	129.077	0.003036	50.585	0.00009699	156.389	0.000538	38.678
	0.651	-51.966	0.0004006	73.593	0.003802	56.056	0.00004135	99.219
	0.003045	45.169	0.00002936	-138.378	0.0001085	127.101	0.0003554	66.325
	0.646	-52.606						
116.75	0.243	60.037	0.003835	44.247	0.91	-18.973	0.00324	38.266
	0.003128	43.591	0.003703	45.95	0.004147	52.159	0.003839	44.061
	0.588	-57.587	0.003613	47.526	0.000171	129.769	0.00005405	122.583
	0.00005632	104.399	0.0000766	107.424	0.91	-19.003	0.003585	48.023
	0.239	58.635	0.003523	52.937	0.002945	45.628	0.003294	44.018
	0.003325	38.536	0.003205	38.083	0.0001957	111.983	0.003507	52.082
	0.591	-58.138	0.0001557	142.962	0.00008053	105.07	0.00003541	96.992
	0.003121	43.407	0.00005573	95.396	0.002892	46.312	0.0001813	139.723
	0.59	-57.871	0.0004619	55.004	0.0001765	139.949	0.003684	46.276
	0.00007817	135.365	0.003318	44.035	0.0001184	135.714	0.000444	52.536
	0.594	-57.047	0.0004717	80.769	0.00411	51.924	0.0001036	108.32
	0.003318	38.294	0.00007357	167.666	0.0001434	131.781	0.0004515	76.275
	0.59	-57.674						
134.1	0.211	59.109	0.004036	39.454	0.916	-17.754	0.003375	32.577
	0.003292	38.412	0.003927	42.156	0.004408	48.501	0.004051	39.549
	0.537	-62.015	0.003789	43.578	0.0002021	123.648	0.00007433	133.873
	0.0000962	121.026	0.0001124	106.888	0.916	-17.744	0.003815	43.968
	0.208	57.688	0.003755	49.276	0.003097	40.71	0.003464	38.486
	0.003515	32.442	0.003374	32.465	0.0002296	122.425	0.003717	48.836
	0.541	-62.536	0.0002073	145.789	0.0001208	122.627	0.00006867	100.732
	0.003295	38.275	0.00008286	107.617	0.003076	40.749	0.0002246	133.292
	0.54	-62.3	0.0004482	67.618	0.0002247	131.531	0.003934	41.832
	0.00009668	107.639	0.003509	38.27	0.000141	140.155	0.0004789	70.323
	0.543	-61.461	0.0005338	85.86	0.004405	48.25	0.000145	118.679
	0.003508	32.031	0.000116	122.7	0.0002053	122.905	0.0005205	88.238
	0.539	-62.068						
151.45	0.185	57.575	0.004245	35.474	0.92	-16.943	0.003498	27.557
	0.003434	33.82	0.004124	38.731	0.004593	45.516	0.004229	36.02
	0.493	-65.767	0.003952	40.553	0.0002378	124.067	0.00009524	124.107
	0.0001153	116.278	0.0001254	117.741	0.92	-16.934	0.003969	40.307
	0.182	56.153	0.003914	46.163	0.003235	36.33	0.00363	33.667
	0.003638	26.519	0.00353	27.793	0.0003003	126.758	0.003901	45.895
	0.498	-66.31	0.000237	133.833	0.0001276	122.877	0.00009031	119.459
	0.003427	33.822	0.0001159	120.8	0.003208	36.25	0.000261	125.76
	0.497	-66.084	0.0005491	82.843	0.0002625	129.846	0.004118	37.933
	0.0001404	99.587	0.003663	33.828	0.0001479	131.335	0.0005959	83.941
	0.499	-65.236	0.0006259	89.753	0.004609	45.729	0.0001533	121.481
	0.003655	26.674	0.0001103	121.561	0.0002536	121.993	0.0006167	92.315
	0.496	-65.854						
168.8	0.165	55.538	0.004396	32.17	0.923	-16.43	0.003631	22.868
	0.003542	29.954	0.004266	35.216	0.004736	43.467	0.004387	32.584
	0.455	-69.064	0.004097	37.379	0.00028	121.344	0.0001267	123.484
	0.0001383	106.923	0.0001391	119.893	0.923	-16.44	0.004074	37.137
	0.162	54.168	0.004024	43.507	0.003341	32.322	0.003751	29.546
	0.003741	21.588	0.003659	23.219	0.0003417	123.434	0.004047	43.19
	0.46	-69.581	0.0002705	121.647	0.0001555	124.479	0.0001163	124.068
	0.003532	29.791	0.0001481	115.582	0.003323	32.584	0.0002913	121.107
	0.459	-69.337	0.0007358	94.268	0.0003181	127.634	0.004235	34.878
	0.0001525	110.101	0.003766	30.038	0.0001694	121.279	0.0007357	93.228
	0.461	-68.539	0.0007547	92.217	0.004753	43.837	0.0001347	120.486
	0.003781	22.057	0.0001131	124.628	0.0002957	124.976	0.0007433	93.007
	0.458	-69.161						
186.15	0.148	53.076	0.004462	29.363	0.926	-16.122	0.003732	18.604
	0.003613	26.868	0.004339	32.039	0.004883	41.906	0.004483	29.094
	0.422	-72.009	0.004188	34.395	0.0003313	114.034	0.0001652	133.053
	0.0001728	117.169	0.0001837	109.104	0.926	-16.124	0.004174	34.807
	0.146	51.855	0.004131	41.386	0.003403	29.212	0.003829	26.029
	0.003847	17.89	0.003737	18.729	0.0003425	119.652	0.004159	41.075
	0.427	-72.441	0.0003196	119.421	0.0002044	134.148	0.0001545	116.09
	0.003617	26.236	0.0001564	107.327	0.003427	29.488	0.0003176	123.641
	0.426	-72.226	0.0009176	98.017	0.0003881	118.228	0.004328	32.489
	0.0001385	118.533	0.003836	26.34	0.0002135	121.216	0.0008823	99.904
	0.427	-71.471	0.0008886	93.902	0.004901	41.999	0.0001297	116.808
	0.003867	17.809	0.0001475	110.31	0.0003559	122.397	0.0008638	95.716
	0.424	-72.052						
203.5	0.133	50.222	0.004539	26.94	0.927	-15.933	0.003766	14.532
	0.003689	23.705	0.0044	29.585	0.005039	40.102	0.004481	26.66
	0.392	-74.508	0.0042	33.041	0.0003913	119.18	0.0001881	121.991
	0.0001785	119.293	0.0002352	113.56	0.927	-15.914	0.004275	32.927
	0.132	49.235	0.004239	39.745	0.00345	26.996	0.003918	23.122
	0.003912	14.198	0.003769	14.944	0.0003918	117.004	0.004256	39.621
	0.398	-74.947	0.0003691	121.003	0.0002043	125.102	0.00017	115.379
	0.003685	23.366	0.0001151	108.484	0.003467	27.134	0.0003595	119.787
	0.397	-74.874	0.001056	101.512	0.0004318	114.415	0.004428	29.8
	0.0001801	121.707	0.003936	23.124	0.0002405	110.681	0.001065	102.997
	0.397	-74.017	0.0009893	96.272	0.005062	40.414	0.0001822	105.412
	0.003897	13.799	0.0001581	110.795	0.0004347	116.66	0.0009586	97.804
	0.394	-74.522						
220.85	0.121	46.943	0.004567	24.287	0.928	-15.886	0.003836	11.162
	0.003743	21.006	0.004487	27.904	0.005105	39.173	0.004592	24.275
	0.367	-76.795	0.004288	31.017	0.0004568	115.514	0.0001596	115.32
	0.0002162	108.217	0.0002129	119.413	0.928	-15.876	0.004322	30.817
	0.12	46.242	0.004315	38.543	0.003508	24.227	0.003955	20.294
	0.003986	10.098	0.003843	11.268	0.0004704	115.267	0.0043	38.31
	0.373	-77.17	0.0004372	120.36	0.0002344	125.596	0.0001999	123.122
	0.003757	21.037	0.0001721	131.31	0.003567	23.963	0.0003894	115.753
	0.372	-77.139	0.001301	102.544	0.0004715	113.245	0.004528	27.577
	0.000199	117.654	0.003982	20.058	0.0002461	111.003	0.001296	101.762
	0.372	-76.34	0.001086	96.82	0.005146	39.643	0.0002165	98.742
	0.003963	10.079	0.0001747	105.513	0.0004775	115.251	0.001102	96.735
	0.37	-76.813						
238.2	0.11	43.316	0.004593	22.351	0.929	-15.859	0.003862	8.389
	0.003777	18.185	0.004529	25.731	0.00518	39.078	0.004629	22.192
	0.344	-78.828	0.004339	29.4	0.0004773	111.354	0.0002297	106.904
	0.0001951	108.897	0.0002356	108.567	0.928	-15.891	0.004353	29.621
	0.109	43.022	0.004343	37.685	0.003515	21.658	0.004021	18.169
	0.004025	7.36	0.003848	8.151	0.0005172	114.305	0.004357	37.262
	0.351	-79.149	0.0004781	117.138	0.0002573	118.872	0.0001566	120.477
	0.003775	18.339	0.0001644	108.551	0.003548	21.721	0.0004492	116.778
	0.349	-79.097	0.001458	103.39	0.0005228	113.055	0.004549	25.926
	0.000255	115.29	0.004008	18.205	0.0002365	110.389	0.001499	103.07
	0.349	-78.364	0.001236	97.761	0.00524	38.407	0.0002555	103.278
	0.004021	6.855	0.0001576	117.489	0.0005104	111.201	0.001219	97.441
	0.347	-78.764						
255.55	0.1	39.222	0.004638	20.788	0.93	-15.92	0.003894	5.722
	0.003827	15.958	0.004575	24.643	0.005304	38.473	0.004668	20.549
	0.324	-80.653	0.004364	28.37	0.0005637	110.206	0.0002083	107.266
	0.0002511	109.081	0.0002751	107.599	0.929	-15.931	0.004355	28.457
	0.101	39.49	0.004401	37.005	0.003545	20.118	0.00405	15.792
	0.004074	4.519	0.003906	5.815	0.0005625	111.23	0.004438	36.715
	0.332	-80.896	0.000478	111.837	0.0002805	117.258	0.000216	110.966
	0.0038	16.662	0.0002202	104.367	0.003561	19.873	0.0005094	114.795
	0.33	-80.925	0.001635	102.31	0.0005715	109.632	0.004589	24.448
	0.0002375	116.923	0.004039	15.991	0.0002585	112.437	0.001663	102.712
	0.33	-80.213	0.001324	97.858	0.005252	38.29	0.0002725	105.2
	0.00407	3.904	0.0001979	120.034	0.0005822	109.99	0.001341	97.652
	0.328	-80.53						
272.9	0.092	34.609	0.004663	19.43	0.93	-16.08	0.003942	2.928
	0.003845	14.516	0.004629	23.562	0.005387	38.229	0.00468	19.255
	0.306	-82.255	0.004381	26.999	0.000605	107.685	0.0002197	109.649
	0.0002464	108.046	0.0003335	110.942	0.93	-16.091	0.004375	27.123
	0.093	35.661	0.004473	36.568	0.003572	18.151	0.004082	14.003
	0.004093	1.842	0.003958	2.812	0.0006249	110.027	0.004489	36.308
	0.314	-82.435	0.0005243	111.821	0.0002936	107.706	0.0002059	111.942
	0.003789	14.386	0.0002299	107.2	0.003583	18.125	0.0005476	110.801
	0.312	-82.546	0.001835	101.899	0.0006141	108.006	0.004617	23.229
	0.0002318	104.243	0.00407	13.845	0.000288	112.678	0.001855	103.145
	0.312	-81.888	0.001424	97.429	0.005313	37.894	0.0003266	103.848
	0.00409	1.425	0.0002261	113.635	0.000632	108.684	0.001491	97.091
	0.31	-82.157						
290.25	0.085	29.503	0.0047	18.033	0.93	-16.3	0.003977	0.32
	0.003839	12.675	0.00467	22.109	0.005443	38.108	0.004689	17.872
	0.29	-83.77	0.004398	25.935	0.0006464	104.8	0.0002568	110.602
	0.0002314	106.549	0.000349	108.026	0.93	-16.324	0.004407	26.082
	0.087	31.601	0.004514	36.394	0.003607	15.978	0.004118	12.221
	0.004117	-0.965	0.00397	-0.078	0.0006867	107.727	0.004493	35.941
	0.298	-83.849	0.0005617	112.104	0.0003052	103.225	0.0001911	106.069
	0.003798	12.351	0.0002299	106.3	0.003614	16.23	0.0005825	109.213
	0.296	-83.958	0.002024	101.485	0.0006684	106.725	0.004624	22.013
	0.0002783	97.882	0.004092	11.85	0.0003327	110.912	0.002034	102.721
	0.296	-83.406	0.001561	96.842	0.005384	37.575	0.000355	99.472
	0.004117	-1.072	0.0002382	107.099	0.0006569	105.414	0.001618	95.524
	0.294	-83.629						
307.6	0.078	23.921	0.004738	16.66	0.931	-16.538	0.003972	-1.915
	0.003829	10.591	0.004664	20.629	0.005494	38.042	0.004706	16.523
	0.276	-85.182	0.004412	25.41	0.0007123	102.332	0.0002696	108.391
	0.0002603	107.135	0.0003382	102.069	0.931	-16.62	0.004421	25.339
	0.082	27.299	0.004544	36.231	0.003634	14.496	0.004143	10.063
	0.004143	-3.752	0.003967	-2.439	0.0007322	104.008	0.004514	35.824
	0.284	-85.136	0.0005839	109.694	0.0003326	106.885	0.00022	97.981
	0.003846	10.907	0.0002603	105.576	0.00363	14.451	0.0006223	108.613
	0.282	-85.256	0.002203	100.558	0.000729	105.512	0.004616	20.82
	0.0003205	102.654	0.0041	9.897	0.000367	109.998	0.00219	100.983
	0.281	-84.793	0.001711	95.937	0.005446	37.64	0.0003577	97.953
	0.004157	-3.843	0.0002441	105.343	0.0006833	103.562	0.001727	94.863
	0.28	-84.948						
324.95	0.073	17.859	0.004722	15.428	0.931	-16.808	0.003953	-4.04
	0.003831	9.252	0.004618	19.622	0.005538	38.236	0.004711	15.589
	0.263	-86.383	0.00442	24.976	0.0007614	99.936	0.0002494	104.701
	0.0003073	110.41	0.0003653	103.448	0.931	-16.994	0.004409	24.556
	0.077	22.757	0.004602	35.886	0.003622	13.763	0.00414	7.956
	0.004142	-6.111	0.003982	-4.651	0.0007541	102.168	0.00459	36.001
	0.271	-86.251	0.0006427	107.265	0.0003752	107.501	0.0002518	105.933
	0.003882	9.421	0.0003002	111.357	0.003618	13.18	0.0006589	104.474
	0.27	-86.506	0.002387	99.546	0.000768	105.177	0.004602	19.9
	0.0002949	102.337	0.004101	8.068	0.0003613	110.42	0.002367	99.527
	0.268	-86.067	0.001849	94.787	0.005526	37.707	0.000386	102.515
	0.004178	-6.616	0.0002407	106.909	0.0007206	105.865	0.001854	96.572
	0.267	-86.121						
342.3	0.069	11.293	0.00467	13.881	0.931	-17.204	0.004023	-6.641
	0.003868	7.423	0.004631	18.862	0.005577	38.22	0.004686	14.493
	0.251	-87.514	0.004415	24.758	0.0007736	99.559	0.0002765	107.882
	0.0003007	109.251	0.0003772	103.591	0.931	-17.321	0.004429	24.108
	0.074	18.281	0.00461	35.874	0.003624	11.72	0.004107	6.599
	0.004161	-8.51	0.00397	-6.345	0.0007386	102.24	0.004554	35.616
	0.259	-87.287	0.0007014	106.252	0.000387	104.511	0.00026	101.899
	0.003848	8.035	0.0002932	103.735	0.003651	11.897	0.0006978	101.238
	0.257	-87.555	0.002538	98.142	0.000776	101.228	0.004609	19.131
	0.0003079	99.654	0.004117	6.967	0.0003816	103.724	0.002579	98.708
	0.256	-87.237	0.001994	95.201	0.005591	37.317	0.0003761	97.49
	0.004176	-8.89	0.0002194	110.484	0.0007201	102.269	0.001947	96.016
	0.255	-87.113						
359.65	0.065	4.359	0.004663	13.632	0.93	-17.567	0.003997	-8.998
	0.003841	6.096	0.004663	18.449	0.005576	38.036	0.004678	13.209
	0.24	-88.533	0.004391	23.722	0.0008402	99.978	0.0002409	105.488
	0.0003103	107.196	0.000401	99.876	0.93	-17.616	0.004378	23.601
	0.071	13.746	0.004607	35.494	0.00363	10.602	0.004101	5.147
	0.00419	-10.808	0.003966	-8.55	0.0008209	103.066	0.004645	35.428
	0.248	-88.122	0.000729	100.248	0.0004431	105.154	0.0002481	115.465
	0.003848	6.445	0.0002884	93.395	0.003632	10.363	0.0006888	102.189
	0.246	-88.531	0.002738	98.449	0.0007837	99.979	0.004633	18.549
	0.0003181	105.076	0.004119	5.065	0.0003922	101.479	0.002678	98.273
	0.245	-88.275	0.002046	95.524	0.005628	37.949	0.0003828	99.626
	0.004199	-10.986	0.0002712	118.134	0.0008011	98.259	0.002077	94.958
	0.244	-88.092						
377	0.062	-2.924	0.004641	12.627	0.929	-17.954	0.003961	-11.182
	0.003822	5.006	0.00465	17.474	0.005638	38.373	0.004693	12.13
	0.23	-89.494	0.004352	23.603	0.0008584	102.15	0.000297	99.382
	0.000349	103.079	0.0004206	100.604	0.93	-17.963	0.004354	23.71
	0.068	9.084	0.004593	35.494	0.003598	9.159	0.004106	4.159
	0.004224	-13.311	0.004019	-10.655	0.000884	103.733	0.004614	35.539
	0.238	-89.014	0.0007783	99.882	0.0004518	103.164	0.0003077	114.683
	0.003847	5.036	0.0003113	100.346	0.003614	9.352	0.0007371	101.412
	0.236	-89.475	0.002895	98.273	0.0008308	101.834	0.004655	17.572
	0.0003618	105.966	0.00411	3.946	0.0004458	100.348	0.002859	98.079
	0.236	-89.255	0.002138	94.663	0.00567	37.929	0.0004002	100.097
	0.004216	-13.003	0.0002848	111.936	0.000833	101.763	0.002136	95.681
	0.234	-88.942						
394.35	0.06	-10.447	0.004656	12.001	0.929	-18.316	0.003984	-13.258
	0.003805	3.967	0.004623	17.09	0.005688	38.4	0.004638	11.782
	0.221	-90.389	0.004343	22.882	0.0009046	100.756	0.0003205	102.453
	0.0003855	98.74	0.0004363	98.736	0.929	-18.334	0.004368	23.026
	0.066	4.382	0.004624	35.799	0.003575	7.977	0.004089	2.607
	0.004217	-14.998	0.004022	-12.812	0.0009338	100.231	0.004622	36.336
	0.229	-89.758	0.0008125	101.315	0.0004492	101.838	0.0003228	107.745
	0.003802	3.789	0.0003278	103.149	0.003573	8.294	0.0007704	101.437
	0.227	-90.315	0.003042	98.139	0.0008966	103.083	0.004632	16.694
	0.0003808	102.541	0.004093	2.476	0.0004317	105.715	0.002985	97.371
	0.227	-90.219	0.00226	94.199	0.005682	38.285	0.0004235	100.489
	0.004229	-15.248	0.0003147	106.863	0.0008897	102.262	0.002331	94.918
	0.225	-89.724						
411.7	0.059	-18.011	0.004659	11.096	0.929	-18.654	0.004025	-15.222
	0.003801	2.931	0.004626	16.692	0.005747	38.86	0.004603	11.271
	0.213	-91.236	0.004335	22.838	0.0009489	98.753	0.0003426	102.341
	0.0004186	97.044	0.0004761	100.017	0.93	-18.722	0.004359	22.903
	0.064	-0.168	0.004634	36.074	0.0036	7.359	0.004095	1.303
	0.004213	-16.876	0.004016	-15.241	0.0009628	98.727	0.004629	36.716
	0.22	-90.516	0.0008605	101.472	0.0004774	103.187	0.0003226	103.65
	0.003777	2.846	0.0003398	107.004	0.003559	7.432	0.0008161	101.17
	0.219	-91.086	0.003237	97.523	0.0009607	101.686	0.004628	16.263
	0.0004191	100.979	0.004082	1.213	0.0004609	105.804	0.003191	97.498
	0.218	-91.073	0.002408	93.752	0.00571	38.766	0.0004759	99.623
	0.004239	-17.272	0.0003313	104.046	0.0009882	100.203	0.002479	94.171
	0.216	-90.53						
429.05	0.058	-25.507	0.004641	10.107	0.929	-19.019	0.004038	-16.915
	0.003781	1.846	0.00463	16.234	0.005797	39.553	0.004601	10.433
	0.205	-92.027	0.004319	22.904	0.0009901	98.23	0.0003677	97.852
	0.0004246	99.659	0.0005246	101.707	0.93	-19.143	0.004331	23.079
	0.063	-4.619	0.004643	36.346	0.00363	6.82	0.004107	0.256
	0.004241	-19.086	0.004015	-17.303	0.0009935	98.959	0.004651	36.61
	0.212	-91.274	0.000923	99.636	0.0005075	103.26	0.000341	102.874
	0.00378	1.948	0.0003479	108.193	0.003564	6.764	0.0008775	99.341
	0.211	-91.816	0.003444	96.736	0.001029	99.622	0.004638	15.973
