!Hittite Microwave Corporation								
!12 Elizabeth Drive								
!Chelmsford, MA 01824								
!Tel: 978-250-3343								
!Fax: 978-250-3373
!Device: HMC244G16, DC - 4 GHz GaAs MMIC SP4T Non-Reflective Switch in 16 lead hermetic package
!Misc: Port 1 = RFC, Port 2 = RF1, Port 3 = RF2, Port 4 = RF3, Port 5 = RF4, RF3 Selected, Bias: +5VDC								
!
# MHZ S MA R 50

30	0.598	-51.637	0.001001	78.236	0.0009815	74.466	0.759	36.279
	0.001067	74.271	0.001046	77.71	0.939	-19.561	0.0008272	12.496
	0.0009412	69.995	0.0007685	6.831	0.0009816	77.355	0.0007748	15.774
	0.939	-19.517	0.0009757	70.313	0.0007494	8.874	0.758	36.156
	0.001018	69.336	0.0009755	71.898	0.601	-51.794	0.0009955	69.324
	0.001106	72.581	0.0008225	11.886	0.0008057	7.317	0.001002	67.384
	0.94	-19.562						
59.85	0.354	-65.625	0.00179	73.434	0.001767	70.214	0.884	18.732
	0.00189	70.309	0.001834	73.412	0.828	-35.674	0.0002654	167.326
	0.001658	65.192	0.0001505	-150.96	0.001734	71.515	0.0002231	169.187
	0.829	-35.664	0.001557	70.093	0.0001624	-155.307	0.885	18.672
	0.001646	65.745	0.001572	68.739	0.355	-66.393	0.001729	71.938
	0.001856	67.489	0.0001299	-145.942	0.0001882	-143.351	0.001753	72.217
	0.828	-35.599						
89.7	0.247	-70.112	0.002635	61.166	0.002473	57.763	0.916	11.273
	0.00268	55.1	0.002607	61.261	0.71	-48.246	0.0005598	135.71
	0.002294	52.788	0.0001354	92.152	0.002465	57.751	0.0005339	140.056
	0.71	-48.204	0.002229	57.444	0.0001277	103.948	0.916	11.262
	0.00235	52.601	0.00222	56.874	0.247	-71.179	0.002495	60.983
	0.002639	54.539	0.0002269	96.488	0.0001327	103.745	0.002483	61.002
	0.71	-48.108						
119.55	0.192	-71.305	0.003054	51.324	0.00292	46.547	0.927	6.988
	0.003122	42.835	0.003058	51.427	0.607	-57.731	0.0008187	133.886
	0.002735	40.931	0.0001555	84.288	0.002863	47.017	0.0008506	133.791
	0.606	-57.76	0.002608	45.389	0.0001404	89.557	0.927	6.969
	0.002717	39.938	0.002611	45.757	0.19	-72.728	0.002945	51.691
	0.003071	42.663	0.0001641	90.884	0.0001231	81.209	0.002949	51.576
	0.608	-57.582						
149.4	0.159	-71.599	0.003389	45.728	0.003191	38.819	0.932	4.042
	0.003361	35.834	0.003346	45.857	0.523	-65.087	0.001299	124.96
	0.002951	33.02	0.0002606	81.108	0.003149	40.368	0.001376	126.434
	0.522	-65.189	0.002853	39.936	0.0002364	77.845	0.932	4.013
	0.002934	34.043	0.002894	40.064	0.156	-72.947	0.003235	46.511
	0.003358	35.516	0.0003069	81.564	0.0002152	83.922	0.003225	46.735
	0.525	-64.918						
179.25	0.138	-71.176	0.003541	41.359	0.003319	35.251	0.933	1.799
	0.003481	29.486	0.003534	41.686	0.455	-70.855	0.001791	120.039
	0.003049	27.581	0.0003706	77.907	0.003333	34.763	0.00178	120.098
	0.454	-71.042	0.00305	35.483	0.0002636	83.894	0.933	1.769
	0.003092	27.044	0.003011	34.921	0.134	-72.455	0.003392	43.184
	0.003501	29.787	0.0003744	71.842	0.0003038	82.07	0.003391	43.281
	0.458	-70.697						
209.1	0.124	-70.672	0.00366	38.434	0.003391	30.59	0.933	-0.019
	0.00359	25.694	0.003704	39.136	0.402	-75.625	0.002261	115.497
	0.003188	22.672	0.0003684	80.052	0.003437	30.283	0.00228	116.383
	0.399	-75.935	0.003127	30.886	0.0003456	78.429	0.934	-0.049
	0.003127	22.791	0.003137	30.782	0.119	-71.682	0.003473	41.041
	0.003584	25.755	0.0004594	73.879	0.0003293	75.086	0.003514	40.301
	0.404	-75.416						
238.95	0.113	-70.196	0.003765	36.722	0.00347	26.75	0.932	-1.546
	0.003628	22.463	0.003788	36.329	0.359	-79.622	0.002694	112.964
	0.003218	18.187	0.0004287	81.989	0.003506	26.977	0.00269	112.334
	0.355	-80.02	0.003163	28.7	0.0003642	79.024	0.933	-1.586
	0.003234	18.405	0.00317	27.6	0.108	-70.955	0.003547	39.473
	0.003598	21.424	0.0005002	77.408	0.0003546	84.073	0.003587	39.372
	0.362	-79.39						
268.8	0.106	-69.981	0.003828	35.774	0.0035	25.249	0.932	-2.9
	0.003634	18.666	0.003824	35.164	0.323	-82.89	0.003131	109.671
	0.003263	15.423	0.0005269	77.938	0.003522	25.607	0.003111	109.423
	0.318	-83.452	0.003213	25.976	0.0004158	78.341	0.933	-2.959
	0.003243	15.05	0.00319	25.735	0.101	-70.356	0.003664	38.217
	0.003573	18.85	0.0005317	79.678	0.0003877	78.097	0.00371	38.057
	0.326	-82.684						
298.65	0.1	-69.928	0.003916	34.57	0.003521	22.369	0.934	-4.137
	0.003635	16.314	0.003913	34.833	0.294	-85.784	0.003511	106.693
	0.003302	12.585	0.0005811	79.612	0.003539	23.232	0.003542	106.312
	0.288	-86.546	0.003242	24.622	0.0004524	76.652	0.935	-4.242
	0.003262	12.998	0.003228	25.129	0.095	-69.807	0.003737	38.033
	0.003557	16.66	0.0005696	81.191	0.0004505	78.093	0.003745	38.389
	0.298	-85.579						
328.5	0.096	-69.995	0.003962	33.925	0.003534	21.139	0.935	-5.402
	0.003592	14.048	0.003951	34.386	0.269	-88.262	0.003968	103.774
	0.00327	9.547	0.0006294	78.47	0.00354	21.759	0.00398	103.41
	0.262	-89.266	0.003268	23.56	0.0004727	83.375	0.934	-5.485
	0.003267	10.623	0.003254	23.313	0.091	-69.343	0.003834	37.799
	0.00358	14.706	0.0007069	82.406	0.0004748	81.101	0.003807	37.957
	0.273	-88.149						
358.35	0.093	-70.257	0.004001	34.07	0.003499	19.899	0.933	-6.55
	0.003524	12.779	0.004045	33.447	0.248	-90.501	0.004344	102.403
	0.003201	7.437	0.0006701	76.838	0.003536	20.504	0.004404	101.265
	0.241	-91.601	0.003239	22.917	0.0005427	78.018	0.934	-6.622
	0.003252	8.158	0.003261	22.641	0.087	-69.096	0.003823	38.163
	0.003572	12.671	0.0007586	80.126	0.0005297	80.743	0.003796	37.967
	0.252	-90.397						
388.2	0.09	-70.429	0.004031	33.705	0.003526	19.385	0.932	-7.667
	0.003449	10.528	0.004029	33.862	0.23	-92.397	0.004774	100.028
	0.00323	6.046	0.0008161	79.052	0.003499	19.077	0.004763	100.099
	0.222	-93.697	0.003255	21.954	0.000587	75.334	0.932	-7.693
	0.003214	6.258	0.003259	22.342	0.085	-68.7	0.003825	37.593
	0.00349	11.245	0.0008032	77.764	0.0006064	79.229	0.003872	38.408
	0.234	-92.345						
418.05	0.087	-70.789	0.004013	34.106	0.003503	18.347	0.93	-8.639
	0.003396	9.362	0.004064	34.591	0.214	-94.123	0.005162	98.195
	0.003185	4.079	0.0008395	80.073	0.00345	18.136	0.005134	98.378
	0.205	-95.649	0.00326	21.241	0.0006779	79.054	0.931	-8.685
	0.003193	3.975	0.003247	22.006	0.082	-68.569	0.003875	39.078
	0.003436	9.76	0.0008144	76.571	0.0006162	78.523	0.003897	39.014
	0.219	-94.176						
447.9	0.085	-71.384	0.004042	34.568	0.003444	18.433	0.93	-9.523
	0.003327	9.2	0.004087	34.487	0.2	-95.623	0.005554	97.254
	0.003204	2.788	0.0008762	79.216	0.003451	18.053	0.005572	97.031
	0.19	-97.367	0.003235	20.976	0.0007036	77.537	0.93	-9.582
	0.003152	2.901	0.003205	22.543	0.08	-68.703	0.003887	40.137
	0.003332	9.13	0.0008683	78.004	0.000701	75.639	0.003924	40.207
	0.205	-95.82						
477.75	0.083	-71.988	0.004135	35.753	0.003433	17.532	0.93	-10.473
	0.003276	8.366	0.004096	35.313	0.187	-96.919	0.005985	95.638
	0.003146	1.906	0.0009401	77.672	0.003435	17.952	0.005936	95.559
	0.177	-98.926	0.003232	21.779	0.0007683	76.889	0.931	-10.525
	0.003144	0.801	0.003221	21.573	0.079	-68.68	0.003944	41.298
	0.003312	8.161	0.0009347	76.175	0.0007637	73.975	0.003962	41.272
	0.194	-97.337						
507.6	0.081	-72.457	0.004113	36.101	0.003383	17.037	0.932	-11.443
	0.003177	7.229	0.00412	36.295	0.176	-98.047	0.006371	94.247
	0.003115	-0.048	0.0009996	77.469	0.003373	17.267	0.006311	94.115
	0.166	-100.281	0.003238	22.02	0.0007642	75.437	0.931	-11.477
	0.003099	-0.161	0.003206	21.906	0.078	-68.501	0.004025	42.317
	0.003178	7.241	0.0009786	79.177	0.0007718	78.148	0.004012	42.851
	0.183	-98.515						
537.45	0.079	-72.922	0.004171	36.984	0.003356	17.077	0.932	-12.454
	0.003123	5.92	0.004165	36.742	0.166	-98.909	0.006747	93.283
	0.003058	-1.227	0.001043	76.446	0.003357	16.905	0.006705	92.812
	0.155	-101.482	0.003221	21.492	0.0008359	73.572	0.931	-12.574
	0.003089	-2.257	0.0032	21.946	0.077	-68.636	0.004034	43.252
	0.00311	6.221	0.001041	77.852	0.0008218	79.106	0.004027	43.67
	0.173	-99.77						
567.3	0.078	-73.672	0.004218	37.724	0.003312	17.098	0.931	-13.419
	0.003036	5.956	0.004181	37.193	0.157	-99.856	0.007082	91.965
	0.003024	-3.047	0.001079	73.508	0.003266	17.034	0.007108	91.832
	0.146	-102.56	0.003202	22.372	0.0008804	78.719	0.929	-13.551
	0.002985	-3.495	0.003207	22.067	0.076	-68.887	0.004072	44.606
	0.003013	4.917	0.001122	75.929	0.0008669	78.72	0.004042	45.102
	0.165	-100.894						
597.15	0.076	-74.142	0.004208	38.832	0.003241	17.126	0.929	-14.337
	0.002882	4.5	0.004231	38.794	0.149	-100.485	0.007483	90.962
	0.002962	-3.559	0.00118	74.128	0.003223	17.015	0.007512	90.737
	0.137	-103.471	0.003174	22.993	0.0009111	75.614	0.927	-14.443
	0.002935	-4.438	0.003187	21.866	0.076	-69.285	0.004129	46.094
	0.002902	5.159	0.00115	74.318	0.0009294	77.179	0.004164	45.687
	0.158	-101.68						
627	0.075	-74.341	0.004225	39.998	0.003176	17.44	0.928	-15.203
	0.002735	4.234	0.004272	39.967	0.142	-100.954	0.007886	90.186
	0.002935	-4.594	0.001259	73.481	0.003185	16.662	0.007898	89.892
	0.13	-104.269	0.003167	23.525	0.0009365	75.302	0.927	-15.232
	0.002888	-5.193	0.00321	23.046	0.075	-69.678	0.004142	47.602
	0.002779	4.221	0.001222	76.709	0.0009504	77.111	0.004203	47.701
	0.151	-102.413						
656.85	0.073	-74.562	0.004266	40.652	0.003149	17.17	0.926	-15.998
	0.002649	4.754	0.004289	40.843	0.135	-101.216	0.008225	89.174
	0.002876	-5.805	0.001325	72.597	0.003158	17.036	0.008272	89.196
	0.122	-104.912	0.003191	24.507	0.001024	75.309	0.927	-16.063
	0.002809	-5.951	0.003199	24.142	0.074	-69.747	0.004219	49.768
	0.002661	4.203	0.001304	74.131	0.001014	75.972	0.004233	49.626
	0.144	-103.03						
686.7	0.071	-74.336	0.004366	41.525	0.003113	17.684	0.926	-16.881
	0.002527	3.985	0.004316	41.756	0.128	-101.34	0.008622	88.424
	0.002822	-6.848	0.001325	73.75	0.003087	17.506	0.008651	88.17
	0.115	-105.265	0.003199	24.776	0.001057	73.704	0.927	-16.961
	0.002777	-6.873	0.003233	24.406	0.073	-69.611	0.004314	51.229
	0.00256	4.127	0.001388	74.389	0.001078	73.487	0.004322	51.123
	0.138	-103.534						
716.55	0.069	-74.168	0.004382	42.824	0.003037	18.529	0.925	-17.618
	0.002404	3.754	0.004408	42.384	0.122	-101.136	0.008983	87.711
	0.002763	-7.71	0.001405	73.488	0.003012	17.797	0.00906	87.251
	0.108	-105.432	0.003218	25.26	0.001114	71.7	0.928	-17.736
	0.002754	-7.399	0.003268	25.385	0.072	-69.367	0.004344	52.612
	0.002452	3.842	0.001416	74.315	0.001119	72.955	0.004404	52.598
	0.133	-103.844						
746.4	0.067	-73.675	0.004397	44.131	0.002942	17.944	0.927	-18.419
	0.002259	4.272	0.00441	43.907	0.116	-100.933	0.009372	86.814
	0.002698	-8.581	0.001462	73.009	0.002935	18.58	0.009387	86.551
	0.103	-105.49	0.003167	25.828	0.001145	69.992	0.927	-18.579
	0.002712	-9.215	0.003126	25.692	0.072	-69.053	0.004458	53.962
	0.00228	4.528	0.001467	74.505	0.001105	71.783	0.00443	54.045
	0.127	-104.214						
776.25	0.065	-73.034	0.004467	45.471	0.002826	19.788	0.928	-19.339
	0.002118	4.876	0.004498	45.455	0.111	-100.613	0.00977	85.76
	0.00262	-9.474	0.001519	72.977	0.002833	19.77	0.009709	85.503
	0.097	-105.432	0.003141	26.858	0.001172	71.036	0.926	-19.502
	0.002587	-10.464	0.003113	27.057	0.071	-68.454	0.004517	55.314
	0.002149	4.304	0.001528	74.19	0.001177	72.293	0.004506	55.818
	0.123	-104.405						
806.1	0.063	-72.136	0.004532	46.187	0.002779	21.33	0.928	-20.296
	0.002003	4.228	0.004558	46.396	0.106	-99.987	0.01	84.796
	0.002548	-9.681	0.001596	72.062	0.002789	21.347	0.01	84.994
	0.092	-104.88	0.003146	28.544	0.001216	72.662	0.926	-20.412
	0.002528	-10.64	0.003143	29.115	0.07	-67.675	0.004592	57.591
	0.002037	4.27	0.0016	72.517	0.001223	72.608	0.004613	56.996
	0.119	-104.277						
835.95	0.061	-70.999	0.004606	47.093	0.002736	22.921	0.926	-21.234
	0.001879	4.666	0.004607	47.601	0.101	-99.247	0.011	83.968
	0.002449	-10.776	0.001656	72.193	0.002722	22.334	0.011	84.15
	0.087	-104.272	0.003192	29.836	0.001259	71.56	0.924	-21.305
	0.002447	-11.902	0.003113	30.376	0.07	-67.154	0.004674	58.676
	0.001883	4.462	0.001629	71.527	0.001282	71.977	0.004677	58.439
	0.114	-104.263						
865.8	0.06	-69.542	0.004651	48.185	0.002679	23.335	0.924	-22.052
	0.001716	6.228	0.004657	48.602	0.097	-98.465	0.011	83.281
	0.002371	-11.301	0.001691	71.66	0.002678	23.757	0.011	83.312
	0.083	-103.377	0.003199	30.921	0.001291	70.598	0.922	-22.133
	0.002353	-12.534	0.003132	31.356	0.07	-66.678	0.004777	59.847
	0.001714	5.752	0.001663	71.708	0.00133	69.76	0.004764	59.766
	0.111	-104.195						
895.65	0.058	-67.75	0.004691	49.725	0.002601	23.93	0.921	-22.806
	0.001526	8.846	0.004724	49.97	0.093	-97.265	0.011	82.811
	0.002294	-11.98	0.001769	70.055	0.002621	25.275	0.011	82.67
	0.079	-102.198	0.003143	32.507	0.001322	69.586	0.921	-22.797
	0.002291	-11.907	0.003124	33.124	0.069	-66.133	0.004851	61.591
	0.001518	8.806	0.00175	71.279	0.001366	70.858	0.004838	61.387
	0.107	-103.871						
925.5	0.057	-65.638	0.004783	51.404	0.002557	26.547	0.92	-23.468
	0.00138	12.645	0.004759	51.134	0.089	-95.942	0.012	82.23
	0.002216	-13.758	0.001809	70.735	0.002562	26.516	0.012	82.218
	0.074	-100.725	0.003188	34.516	0.001389	68.313	0.922	-23.481
	0.002202	-11.791	0.003145	34.999	0.069	-65.263	0.004967	63.308
	0.001409	10.556	0.001837	69.272	0.001388	70.727	0.004988	62.868
	0.103	-103.367						
955.35	0.056	-62.982	0.004899	52.713	0.002496	28.493	0.921	-24.165
	0.001261	14.158	0.004843	52.048	0.086	-94.366	0.012	81.511
	0.00213	-13.165	0.00186	69.977	0.002488	27.923	0.012	81.464
	0.071	-98.898	0.003254	36.211	0.001442	70.559	0.922	-24.315
	0.002162	-12.122	0.003228	35.973	0.068	-64.379	0.005074	64.713
	0.001266	13.573	0.001889	69.471	0.001432	69.983	0.005081	64.491
	0.1	-102.87						
985.2	0.056	-59.933	0.004932	53.695	0.002423	29.164	0.923	-25.007
	0.001126	17.495	0.004949	53.091	0.083	-92.616	0.012	80.662
	0.002077	-12.859	0.001939	69.423	0.002415	29.924	0.012	80.542
	0.068	-96.794	0.003264	37.431	0.001522	69.673	0.922	-25.187
	0.00203	-12.72	0.003294	36.762	0.067	-62.941	0.005207	66.041
	0.00108	17.437	0.001974	69.551	0.001521	68.857	0.005204	65.909
	0.098	-102.114						
1015.05	0.056	-56.471	0.004991	54.658	0.00233	32.075	0.923	-25.963
	0.0009391	21.53	0.005047	54.5	0.08	-90.617	0.013	80.019
	0.001986	-13.074	0.002003	69.612	0.002334	32.405	0.013	80.008
	0.065	-94.449	0.003291	38.663	0.001541	66.939	0.922	-26.047
	0.001937	-13.264	0.003338	38.223	0.067	-61.034	0.005337	67.085
	0.0009541	22.299	0.002021	69.295	0.001549	68.206	0.005353	67.23
	0.095	-101.378						
1044.9	0.056	-52.813	0.005086	55.109	0.002291	34.692	0.922	-26.896
	0.000769	29.221	0.005102	55.703	0.077	-88.414	0.013	79.321
	0.001886	-12.876	0.002073	68.289	0.002285	34.542	0.013	79.286
	0.062	-91.736	0.00336	40.033	0.001601	67.47	0.922	-26.975
	0.001871	-13.472	0.003402	39.708	0.067	-58.732	0.005479	68.738
	0.0008159	29.707	0.002098	68.032	0.0016	67.755	0.005492	68.498
	0.092	-100.577						
1074.75	0.056	-49.019	0.005158	55.998	0.00229	36.942	0.92	-27.757
	0.0006641	44.283	0.005187	56.439	0.075	-86.097	0.013	78.642
	0.001785	-12.289	0.002149	67.317	0.002272	36.652	0.014	78.601
	0.06	-88.715	0.003455	41.102	0.001656	66.272	0.92	-27.78
	0.001796	-13.74	0.003487	41.065	0.068	-56.451	0.005577	69.961
	0.0006757	42.413	0.002168	67.214	0.001682	67.884	0.005604	69.715
	0.09	-99.445						
1104.6	0.057	-45.226	0.005232	57.815	0.00221	39.5	0.918	-28.442
	0.0005836	63.315	0.005276	57.407	0.073	-83.386	0.014	78.206
	0.001705	-12.45	0.002208	67.464	0.002223	40.055	0.014	78.009
	0.058	-85.13	0.003518	42.709	0.001698	65.597	0.919	-28.562
	0.00173	-13.856	0.003567	42.232	0.068	-54.249	0.005721	71.127
	0.0005981	55.419	0.0022	67.261	0.001699	66.917	0.005757	71.125
	0.087	-98.124						
1134.45	0.059	-41.718	0.005339	58.967	0.002127	42.404	0.918	-29.224
	0.0005876	82.701	0.005362	58.647	0.072	-80.521	0.014	77.598
	0.001612	-12.594	0.002253	67.297	0.002153	42.7	0.014	77.41
	0.057	-81.275	0.003608	43.665	0.001761	66.334	0.918	-29.336
	0.001635	-13.389	0.003639	43.271	0.07	-52.066	0.005912	72.156
	0.000603	76.539	0.002257	66.298	0.001752	65.199	0.005925	72.346
	0.085	-96.867						
1164.3	0.061	-38.362	0.005395	60.001	0.002092	46.906	0.917	-30.018
	0.0006193	100.216	0.005446	59.773	0.07	-77.388	0.015	77.014
	0.001484	-12.795	0.002314	67.116	0.002084	46.52	0.015	76.912
	0.057	-77.175	0.003702	44.389	0.001807	65.844	0.917	-30.128
	0.001515	-12.591	0.003752	44.114	0.072	-50.027	0.006057	73.499
	0.0006579	98.058	0.002315	65.483	0.001772	64.884	0.006066	73.331
	0.084	-95.36						
1194.15	0.064	-35.314	0.005485	61.171	0.002033	51.124	0.915	-30.794
	0.0007546	113.564	0.005546	60.83	0.07	-74.054	0.015	76.523
	0.001422	-11.668	0.002375	66.495	0.002065	51.304	0.015	76.276
	0.056	-72.849	0.003767	44.921	0.001828	64.856	0.917	-30.898
	0.001418	-12.078	0.00378	44.686	0.074	-48.224	0.006222	74.757
	0.0007877	114.912	0.002389	64.923	0.001813	64.638	0.006245	74.49
	0.082	-93.755						
1224	0.066	-32.776	0.005628	61.875	0.001992	55.017	0.915	-31.515
	0.0009552	122.49	0.005609	61.828	0.069	-70.664	0.015	75.938
	0.001309	-9.03	0.002432	65.567	0.00206	55.128	0.015	75.701
	0.057	-68.39	0.003818	45.917	0.001845	64.019	0.916	-31.643
	0.001345	-11.007	0.003815	46.068	0.075	-46.471	0.00637	75.692
	0.0009678	124.505	0.002458	64.457	0.001884	63.121	0.006408	75.688
	0.081	-92.031						
1253.85	0.07	-30.514	0.005737	62.83	0.002003	59.916	0.917	-32.273
	0.001167	129.779	0.005691	62.774	0.069	-67.183	0.016	75.308
	0.001194	-7.945	0.002492	64.437	0.002017	59.659	0.016	75.3
	0.057	-64.143	0.003882	47.957	0.001889	63.352	0.916	-32.381
	0.001224	-10.053	0.003903	48.275	0.077	-44.621	0.006566	76.458
	0.001176	130.208	0.002519	64.347	0.001929	61.854	0.006548	76.523
	0.079	-90.198						
1283.7	0.074	-28.468	0.005811	63.813	0.002003	64.389	0.918	-33.121
	0.001421	135.06	0.005827	63.928	0.069	-63.692	0.016	74.773
	0.001111	-6.981	0.00257	63.316	0.002019	64.788	0.016	74.614
	0.058	-60.034	0.004035	49.085	0.001974	61.863	0.917	-33.179
	0.001138	-8.431	0.004053	48.922	0.079	-42.435	0.006792	77.349
	0.001405	133.848	0.002595	64.022	0.001982	61.75	0.006757	77.269
	0.078	-88.151						
1313.55	0.079	-26.69	0.005908	64.757	0.002	69.11	0.919	-34.044
	0.00168	136.301	0.005962	64.667	0.07	-60.285	0.017	73.977
	0.001028	-3.466	0.002627	62.726	0.002034	70.322	0.017	73.768
	0.06	-56.065	0.004196	49.316	0.002054	59.539	0.918	-34.123
	0.001081	-4.647	0.004184	48.771	0.083	-40.151	0.00699	77.972
	0.00168	136.381	0.002624	62.826	0.002062	60.413	0.006978	78.079
	0.077	-86.01						
1343.4	0.084	-25.151	0.006042	65.799	0.002042	75.969	0.918	-35.06
	0.00192	136.81	0.006082	65.635	0.071	-56.839	0.017	73.078
	0.0009627	-1.192	0.002654	61.524	0.002063	76.457	0.017	72.928
	0.062	-52.338	0.004307	50.228	0.002043	59.592	0.918	-35.116
	0.001025	-1.731	0.00428	50.014	0.087	-38.215	0.007151	78.455
	0.001921	138.217	0.002627	61.602	0.002065	58.682	0.007194	78.799
	0.077	-83.693						
1373.25	0.089	-23.883	0.006122	66.849	0.002187	83.03	0.914	-35.98
	0.002148	138.899	0.006161	66.849	0.072	-53.506	0.017	72.304
	0.0008682	-0.411	0.002697	60.496	0.002193	82.819	0.017	72.201
	0.065	-49.017	0.004464	50.78	0.002049	59.969	0.915	-36
	0.0008973	-0.408	0.004453	50.887	0.091	-36.581	0.007295	79.312
	0.002146	139.533	0.002661	61.32	0.002083	59.793	0.007361	79.226
	0.076	-81.23						
1403.1	0.094	-22.847	0.006237	67.97	0.002433	86.658	0.91	-36.756
	0.002385	140.525	0.00624	67.964	0.073	-50.396	0.018	71.645
	0.0007384	3.771	0.002721	60.681	0.002406	87.155	0.018	71.54
	0.068	-46.276	0.004639	50.807	0.002094	59.136	0.911	-36.782
	0.000748	5.88	0.004654	50.743	0.095	-35.152	0.007442	79.994
	0.002403	141.138	0.002714	60.853	0.002156	59.597	0.007461	79.629
	0.076	-78.856						
1432.95	0.098	-21.942	0.006396	69.072	0.002578	88.538	0.907	-37.364
	0.002665	141.913	0.006379	69.022	0.075	-47.458	0.018	70.945
	0.0006657	12.712	0.002783	60.849	0.002579	89.499	0.018	70.912
	0.071	-43.672	0.004798	50.782	0.002157	57.809	0.908	-37.399
	0.0006603	13.33	0.004811	50.237	0.1	-34.046	0.007606	80.939
	0.002695	142.511	0.002778	60.08	0.002206	58.119	0.007606	80.7
	0.075	-76.413						
1462.8	0.103	-21.184	0.006556	69.814	0.002695	91.978	0.908	-37.944
