!Hittite Microwave Corporation								
!12 Elizabeth Drive								
!Chelmsford, MA 01824								
!Tel: 978-250-3343								
!Fax: 978-250-3373
!Device: HMC232, DC - 15 GHz GaAs MMIC Non-Reflective SPDT Switch 
!Misc: Port1=RFC, Port2= RF1, Port3=RF2, RF1 ON, Control: -5VDC								
!
# MHZ S MA R 50

150 0.056 -1.287 0.918 -7.876 301.5e-6 -32.909
          0.916 -7.865 0.055 -0.306 462.8e-6 -26.055
          420.9e-6 -33.369 478.6e-6 -35.749 0.196 170.392
224.25 0.064 -9.539 0.904 -10.793 280.4e-6 -36.045
          0.902 -10.732 0.062 -9.768 507e-6 -32.091
          368.7e-6 -36.851 291.6e-6 -63.727 0.188 169.119
298.5 0.066 -15.29 0.899 -13.943 297.3e-6 -33.381
          0.897 -13.908 0.063 -15.962 311.6e-6 -71.026
          236.7e-6 -47.297 263.3e-6 -50.831 0.187 167.099
372.75 0.067 -19.726 0.896 -17.174 115.2e-6 -2.637
          0.895 -17.136 0.063 -20.655 210.1e-6 -104.217
          45.2e-6 98.892 229.6e-6 -91.613 0.186 164.686
447 0.069 -24.979 0.895 -20.419 50.47e-6 -110.809
          0.894 -20.353 0.064 -26.327 146.5e-6 -99.865
          61.23e-6 -88.862 106.1e-6 -98.389 0.185 162.259
521.25 0.072 -29.875 0.894 -23.633 69.56e-6 -22.992
          0.893 -23.588 0.066 -31.659 138.2e-6 -71.22
          97.3e-6 24.25 162e-6 -110.517 0.183 159.541
595.5 0.073 -34.735 0.893 -26.893 105.8e-6 57.646
          0.892 -26.895 0.067 -36.317 181.7e-6 -101.671
          45.67e-6 -83.283 120e-6 -90.298 0.181 156.552
669.75 0.074 -39.406 0.891 -30.196 53.64e-6 146.844
          0.89 -30.155 0.069 -41.111 102e-6 -114.202
          41.98e-6 102.904 113.6e-6 -87.287 0.181 153.515
744 0.074 -44.218 0.89 -33.403 18.69e-6 38.453
          0.889 -33.362 0.073 -46.277 133.7e-6 -125.51
          38.67e-6 39.746 123.7e-6 -135.391 0.18 150.977
818.25 0.075 -49.149 0.889 -36.635 17.4e-6 161.426
          0.888 -36.578 0.075 -50.914 191.6e-6 -113.737
          10.56e-6 69.234 170.8e-6 -140.812 0.18 148.622
892.5 0.077 -53.353 0.889 -39.901 92.56e-6 98.269
          0.887 -39.85 0.076 -54.891 177.3e-6 -121.395
          64.62e-6 97.992 134e-6 -139.785 0.177 146.043
966.75 0.08 -56.624 0.888 -43.182 83.25e-6 77.875
          0.887 -43.123 0.076 -58.287 211.5e-6 -131.932
          90.47e-6 62.963 181.1e-6 -153.001 0.174 142.936
1041 0.082 -59.512 0.888 -46.398 131.7e-6 84.686
          0.886 -46.33 0.077 -62.023 154.6e-6 -155.953
          54.28e-6 64.309 165.8e-6 -157.574 0.172 139.4
1115.25 0.083 -63.298 0.887 -49.642 115.3e-6 90.917
          0.885 -49.523 0.078 -66.08 168e-6 -167.163
          92.72e-6 69.145 151.1e-6 -158.934 0.173 136.041
1189.5 0.083 -68.445 0.886 -52.944 119.1e-6 64.625
          0.884 -52.79 0.081 -70.512 161.1e-6 -149.233
          123.5e-6 74.103 191.3e-6 -168.314 0.173 133.189
1263.75 0.085 -73 0.885 -56.209 94.76e-6 73.313
          0.883 -56.122 0.082 -75.122 179.7e-6 -157.78
          165.1e-6 76.418 184.6e-6 -172.393 0.173 130.74
1338 0.089 -76.472 0.884 -59.423 170.7e-6 78.691
          0.883 -59.385 0.083 -79.414 198.8e-6 -160.314
          122.2e-6 68.221 181.1e-6 -171.878 0.171 128.132
1412.25 0.091 -79.507 0.884 -62.669 167.8e-6 80.133
          0.883 -62.591 0.082 -83.646 213.5e-6 -172.504
          184.1e-6 61.332 227.7e-6 -173.577 0.168 124.97
1486.5 0.093 -83.183 0.884 -65.941 244.6e-6 73.185
          0.882 -65.867 0.084 -87.604 217.8e-6 178.198
          197.4e-6 69.423 232.2e-6 176.155 0.167 121.427
1560.75 0.094 -87.512 0.883 -69.203 235.9e-6 66.843
          0.881 -69.141 0.086 -91.909 256.5e-6 165.202
          204.8e-6 69.009 240.3e-6 172.144 0.168 118.07
1635 0.095 -92.127 0.881 -72.437 221.2e-6 63.577
          0.88 -72.377 0.088 -96.192 227.8e-6 167.215
          242e-6 66.326 239.2e-6 160.501 0.169 115.377
1709.25 0.098 -96.233 0.881 -75.642 252.9e-6 66.725
          0.879 -75.582 0.089 -100.335 252.3e-6 164.274
          250.8e-6 59.753 225.9e-6 159.261 0.168 112.985
1783.5 0.101 -99.437 0.88 -78.904 270.1e-6 63.303
          0.878 -78.86 0.089 -104.8 242.1e-6 158.191
          291.6e-6 67.528 263.6e-6 150.945 0.166 110.29
1857.75 0.104 -101.976 0.88 -82.184 275.6e-6 62.911
          0.878 -82.151 0.088 -108.606 287.4e-6 154.738
          283.8e-6 67.185 249.8e-6 145.843 0.163 106.89
1932 0.106 -105.009 0.88 -85.441 254.2e-6 58.416
          0.877 -85.357 0.089 -112.805 290.5e-6 146.239
          320.4e-6 63.147 282.9e-6 143.573 0.163 103.263
2006.25 0.106 -109.308 0.879 -88.662 286.6e-6 58.637
          0.877 -88.6 0.092 -116.982 278.7e-6 141.76
          260.6e-6 62.789 322.5e-6 153.985 0.164 100.012
2080.5 0.107 -113.673 0.878 -91.951 287.8e-6 52.94
          0.876 -91.863 0.094 -120.936 299.2e-6 131.021
          333.4e-6 54.459 341.7e-6 145.296 0.165 97.49
2154.75 0.11 -117.473 0.878 -95.233 362.4e-6 60.411
          0.876 -95.149 0.095 -125.346 307.3e-6 133.829
          427.3e-6 55.709 344.8e-6 137.677 0.164 95.299
2229 0.112 -121.052 0.878 -98.469 402.4e-6 54.116
          0.875 -98.412 0.096 -129.802 394.1e-6 132.541
          406.4e-6 57.652 359.7e-6 130.361 0.162 92.741
2303.25 0.114 -124.672 0.877 -101.686 432.2e-6 52.527
          0.874 -101.644 0.096 -134.46 319e-6 128.744
          367e-6 49.984 317.7e-6 118.81 0.159 89.386
2377.5 0.115 -128.54 0.876 -104.954 383.9e-6 52.005
          0.874 -104.899 0.098 -138.769 352.7e-6 124.119
          404.6e-6 44.631 319.8e-6 118.436 0.158 85.51
2451.75 0.115 -132.594 0.875 -108.276 474e-6 46.233
          0.873 -108.164 0.1 -142.098 377.4e-6 122.427
          447.1e-6 55.233 362.3e-6 122.178 0.159 82.104
2526 0.115 -136.505 0.874 -111.522 493.3e-6 44.449
          0.873 -111.414 0.102 -145.333 387.8e-6 117.56
          481.9e-6 55.707 411e-6 119.561 0.16 79.522
2600.25 0.116 -140.332 0.873 -114.73 433.1e-6 41.314
          0.872 -114.623 0.104 -149.154 399.4e-6 114.577
          454.4e-6 40.961 412.5e-6 108.283 0.159 77.319
2674.5 0.118 -144.015 0.873 -117.981 511.1e-6 38.542
          0.871 -117.885 0.104 -153.748 451.3e-6 106.075
          484.4e-6 40.906 428.6e-6 107.029 0.157 74.754
2748.75 0.12 -147.936 0.872 -121.248 579.9e-6 39.094
          0.87 -121.179 0.105 -158.393 462.6e-6 107.49
          546.7e-6 43.53 390.6e-6 104.413 0.154 71.357
2823 0.121 -151.81 0.87 -124.435 540.6e-6 42.485
          0.869 -124.411 0.106 -162.495 453.9e-6 103.457
          556.5e-6 38.799 493.3e-6 93.675 0.153 67.493
2897.25 0.12 -155.42 0.87 -127.669 608.3e-6 39.882
          0.868 -127.637 0.108 -165.663 498e-6 98.758
          574.3e-6 36.328 496.5e-6 94.497 0.154 63.89
2971.5 0.119 -159.114 0.87 -130.94 595e-6 34.892
          0.868 -130.907 0.109 -168.442 506.3e-6 91.024
          577.1e-6 34.334 527.9e-6 96.212 0.156 61.073
3045.75 0.119 -163.034 0.868 -134.251 614.6e-6 31.303
          0.868 -134.186 0.109 -172.254 559.2e-6 88.979
          620.2e-6 33.158 548e-6 97.951 0.155 58.783
3120 0.121 -167.133 0.868 -137.507 650.9e-6 28.794
          0.866 -137.427 0.11 -177.219 573.1e-6 87.807
          644e-6 26.734 544e-6 90.915 0.153 56.321
3194.25 0.124 -170.778 0.867 -140.706 726.8e-6 23.719
          0.865 -140.654 0.11 177.751 596.4e-6 85.154
          661.5e-6 26.304 568.3e-6 92.455 0.15 53.13
3268.5 0.124 -174.145 0.866 -143.98 733.9e-6 22.575
          0.864 -143.94 0.111 173.6 639.5e-6 79.773
          711.2e-6 24.174 588.9e-6 85.017 0.149 49.254
3342.75 0.122 -177.573 0.865 -147.244 747e-6 22.767
          0.863 -147.19 0.111 170.848 668.7e-6 73.204
          735.9e-6 23.218 622.4e-6 80.348 0.15 45.415
3417 0.121 178.154 0.864 -150.48 830.9e-6 21.516
          0.863 -150.42 0.112 167.469 666.6e-6 71.662
          734.6e-6 17.642 666.7e-6 75.558 0.152 42.383
3491.25 0.122 173.482 0.863 -153.707 862.7e-6 18.179
          0.862 -153.641 0.113 162.895 636.2e-6 70.16
          764.4e-6 15.837 669e-6 71.692 0.152 40.097
3565.5 0.125 169.064 0.862 -156.966 786.5e-6 15.042
          0.86 -156.869 0.114 157.451 674.8e-6 65.456
          803.1e-6 15.978 695.5e-6 70.385 0.151 37.776
3639.75 0.127 165.268 0.861 -160.252 773e-6 14.156
          0.859 -160.149 0.115 152.141 720.5e-6 63.719
          853.9e-6 14.238 679.2e-6 69.999 0.148 34.793
3714 0.127 162.022 0.86 -163.455 865.6e-6 7.869
          0.858 -163.382 0.115 148.212 712.3e-6 62.441
          881.2e-6 10.718 714.6e-6 65.063 0.147 30.993
3788.25 0.125 158.538 0.859 -166.626 873e-6 6.516
          0.857 -166.566 0.115 145.035 747.6e-6 59.051
          911.7e-6 8.039 754.4e-6 58.594 0.147 27.125
3862.5 0.124 154.44 0.858 -169.91 909.6e-6 6.829
          0.857 -169.797 0.116 141.364 797.9e-6 53.878
          919.7e-6 6.135 780.3e-6 57.121 0.149 23.949
3936.75 0.125 149.861 0.857 -173.215 994e-6 2.287
          0.856 -173.101 0.117 136.709 837.5e-6 51.274
          995.7e-6 3.093 779.6e-6 54.393 0.151 21.443
4011 0.126 145.786 0.856 -176.412 992.2e-6 0.378
          0.854 -176.39 0.118 131.991 850.2e-6 48.786
          1.016e-3 1.87 852.1e-6 48.91 0.15 19.276
4085.25 0.127 142.265 0.855 -179.584 968.6e-6 -2.481
          0.853 -179.566 0.118 127.736 841.6e-6 42.464
          1.006e-3 3.14 852.8e-6 45.215 0.148 16.651
4159.5 0.126 138.651 0.854 177.149 1.075e-3 -5.971
          0.852 177.195 0.118 123.798 893.3e-6 40.139
          1.037e-3 -1.354 875.7e-6 40.741 0.146 13.006
4233.75 0.124 134.943 0.854 173.881 1.085e-3 -6.883
          0.852 173.944 0.118 120.049 923.6e-6 37.495
          1.039e-3 -3.236 920.6e-6 39.397 0.147 9.146
4308 0.123 130.531 0.853 170.671 1.089e-3 -9.542
          0.851 170.766 0.119 116.042 944.7e-6 34.675
          1.073e-3 -6.675 958.5e-6 37.809 0.15 6.082
4382.25 0.124 125.429 0.851 167.46 1.154e-3 -11.271
          0.85 167.545 0.121 111.926 1.001e-3 33.499
          1.122e-3 -7.657 984.9e-6 34.412 0.151 3.95
4456.5 0.124 121.003 0.85 164.208 1.21e-3 -11.307
          0.849 164.278 0.122 108.061 1.012e-3 30.475
          1.154e-3 -10.14 1.017e-3 30.249 0.15 2.004
4530.75 0.124 117.292 0.849 160.933 1.236e-3 -14.246
          0.848 160.991 0.122 104.016 1.039e-3 27.446
          1.174e-3 -14.172 1.004e-3 26.573 0.147 -0.723
4605 0.124 113.631 0.849 157.699 1.224e-3 -16.924
          0.847 157.755 0.121 99.64 1.074e-3 24.385
          1.211e-3 -16.97 1.005e-3 24.007 0.145 -4.419
4679.25 0.124 109.738 0.848 154.492 1.242e-3 -19.345
          0.846 154.558 0.122 95.095 1.073e-3 20.642
          1.258e-3 -19.211 1.066e-3 21.371 0.146 -8.329
4753.5 0.124 105.424 0.847 151.231 1.291e-3 -22.522
          0.844 151.283 0.123 90.686 1.09e-3 18.458
          1.254e-3 -22.272 1.106e-3 17.51 0.149 -11.55
4827.75 0.124 100.715 0.846 147.96 1.304e-3 -24.642
          0.844 148.012 0.125 86.525 1.103e-3 14.655
          1.255e-3 -25.788 1.137e-3 14.805 0.15 -13.78
4902 0.125 96.435 0.844 144.753 1.336e-3 -26.651
          0.843 144.807 0.126 82.623 1.156e-3 11.913
          1.33e-3 -27.561 1.169e-3 12.253 0.15 -15.731
4976.25 0.126 93.18 0.844 141.555 1.346e-3 -29.667
          0.842 141.623 0.125 78.278 1.207e-3 9.547
          1.365e-3 -29.742 1.171e-3 9.093 0.147 -18.369
5050.5 0.126 90.088 0.843 138.325 1.385e-3 -32.826
          0.841 138.376 0.125 73.423 1.207e-3 6.146
          1.375e-3 -33.128 1.174e-3 5.424 0.146 -21.902
5124.75 0.126 86.332 0.842 135.089 1.418e-3 -35.716
          0.84 135.136 0.126 68.946 1.233e-3 2.695
          1.419e-3 -35.308 1.23e-3 2.621 0.148 -25.438
5199 0.125 81.597 0.841 131.869 1.418e-3 -37.512
          0.839 131.924 0.128 65.395 1.279e-3 -0.094
          1.461e-3 -37.131 1.297e-3 -0.472 0.15 -28.08
5273.25 0.125 76.368 0.84 128.67 1.441e-3 -39.335
          0.838 128.715 0.13 62.215 1.314e-3 -3.059
          1.486e-3 -39.335 1.285e-3 -2.805 0.151 -29.944
5347.5 0.126 72.01 0.839 125.451 1.488e-3 -41.478
          0.837 125.485 0.13 58.478 1.341e-3 -5.787
          1.521e-3 -42.158 1.309e-3 -6.638 0.15 -31.783
5421.75 0.128 68.805 0.838 122.2 1.557e-3 -43.375
          0.836 122.224 0.13 53.669 1.357e-3 -8.821
          1.529e-3 -43.869 1.365e-3 -9.428 0.148 -34.441
5496 0.13 65.952 0.837 118.979 1.59e-3 -47.211
          0.835 118.994 0.13 48.475 1.386e-3 -11.727
          1.547e-3 -45.929 1.38e-3 -11.771 0.147 -37.89
5570.25 0.13 62.273 0.836 115.773 1.61e-3 -49.694
          0.834 115.817 0.131 44.281 1.407e-3 -14.935
          1.601e-3 -48.607 1.413e-3 -15.168 0.148 -41.231
5644.5 0.129 57.44 0.835 112.538 1.597e-3 -51.525
          0.834 112.608 0.133 41.082 1.441e-3 -18.88
          1.615e-3 -51.361 1.464e-3 -16.883 0.151 -43.737
5718.75 0.129 52.599 0.834 109.283 1.637e-3 -54.062
          0.833 109.337 0.134 38 1.475e-3 -21.492
          1.656e-3 -54.221 1.495e-3 -19.671 0.152 -45.487
5793 0.131 49.013 0.833 106.062 1.698e-3 -55.76
          0.832 106.113 0.134 33.899 1.534e-3 -23.508
          1.67e-3 -56.92 1.522e-3 -24.263 0.151 -47.113
5867.25 0.134 46.612 0.833 102.888 1.705e-3 -57.932
          0.831 102.938 0.134 28.688 1.559e-3 -26.735
          1.668e-3 -59.903 1.536e-3 -26.43 0.148 -49.342
5941.5 0.135 43.966 0.832 99.68 1.752e-3 -61.764
          0.83 99.715 0.134 23.745 1.566e-3 -28.912
          1.735e-3 -62.388 1.559e-3 -29.697 0.147 -52.393
6015.75 0.134 40.024 0.831 96.425 1.777e-3 -64.419
          0.83 96.471 0.136 20.267 1.612e-3 -31.112
          1.767e-3 -64.778 1.603e-3 -33.044 0.147 -55.561
6090 0.133 35.372 0.83 93.195 1.778e-3 -66.288
          0.829 93.26 0.138 17.928 1.637e-3 -36.071
          1.776e-3 -67.063 1.642e-3 -34.706 0.148 -58.075
6164.25 0.134 31.489 0.829 89.998 1.819e-3 -68.587
          0.828 90.068 0.138 15.085 1.64e-3 -40.082
          1.804e-3 -68.505 1.663e-3 -37.928 0.149 -59.788
6238.5 0.136 29.054 0.829 86.774 1.845e-3 -71.601
          0.828 86.844 0.137 10.745 1.673e-3 -42.608
          1.838e-3 -70.751 1.655e-3 -41.639 0.147 -61.293
6312.75 0.137 27.162 0.828 83.526 1.879e-3 -75.148
          0.827 83.575 0.136 5.753 1.72e-3 -44.528
          1.849e-3 -73.808 1.68e-3 -45.408 0.144 -63.4
6387 0.136 24.308 0.827 80.322 1.93e-3 -77.065
          0.826 80.347 0.137 1.971 1.767e-3 -46.304
          1.893e-3 -76.901 1.727e-3 -48.41 0.142 -66.37
6461.25 0.134 20.118 0.827 77.147 1.938e-3 -78.724
          0.825 77.177 0.139 -0.182 1.81e-3 -49.304
          1.941e-3 -79.517 1.76e-3 -50.625 0.141 -69.729
6535.5 0.134 15.66 0.826 73.906 1.926e-3 -82.006
          0.824 73.961 0.139 -2.205 1.818e-3 -52.38
          1.92e-3 -81.38 1.79e-3 -53.809 0.142 -72.595
6609.75 0.135 12.279 0.826 70.656 1.973e-3 -84.526
          0.824 70.706 0.139 -5.5 1.819e-3 -55.831
          1.962e-3 -83.861 1.81e-3 -56.558 0.144 -74.392
6684 0.137 10.258 0.824 67.454 2.008e-3 -86.13
          0.823 67.494 0.139 -9.87 1.85e-3 -59.108
          2.018e-3 -86.953 1.836e-3 -58.525 0.143 -75.432
6758.25 0.138 8.72 0.824 64.24 2.028e-3 -89.121
          0.822 64.309 0.138 -13.969 1.908e-3 -62.041
          2.02e-3 -88.909 1.898e-3 -61.371 0.14 -76.723
6832.5 0.135 6.408 0.823 61.013 2.071e-3 -91.965
          0.821 61.074 0.137 -16.93 1.958e-3 -64.457
          2.034e-3 -91.76 1.935e-3 -64.372 0.135 -79.181
6906.75 0.133 2.905 0.823 57.762 2.073e-3 -93.915
          0.821 57.821 0.136 -19.038 1.968e-3 -66.56
          2.059e-3 -94.747 1.945e-3 -66.825 0.133 -82.612
6981 0.132 -0.716 0.823 54.514 2.086e-3 -96.864
          0.821 54.595 0.136 -21.425 1.997e-3 -69.129
          2.08e-3 -96.387 1.952e-3 -69.313 0.133 -85.848
7055.25 0.133 -3.479 0.822 51.308 2.083e-3 -99.564
          0.82 51.369 0.136 -24.798 2.046e-3 -72.097
          2.11e-3 -99.101 1.975e-3 -72.316 0.134 -87.893
7129.5 0.135 -5.607 0.821 48.093 2.072e-3 -100.966
          0.82 48.134 0.136 -28.597 2.061e-3 -74.921
          2.131e-3 -101.102 2.053e-3 -75.36 0.134 -88.789
7203.75 0.135 -7.597 0.821 44.86 2.13e-3 -103.41
          0.819 44.89 0.136 -31.744 2.08e-3 -76.922
          2.152e-3 -102.463 2.076e-3 -78.369 0.13 -89.772
7278 0.132 -9.821 0.82 41.628 2.177e-3 -106.535
          0.818 41.663 0.134 -33.692 2.107e-3 -79.678
          2.165e-3 -105.156 2.078e-3 -81.26 0.125 -92.068
7352.25 0.129 -12.484 0.82 38.414 2.175e-3 -109.289
          0.819 38.445 0.132 -35.233 2.126e-3 -82.844
          2.161e-3 -108.452 2.132e-3 -84.016 0.122 -95.599
7426.5 0.127 -15.302 0.82 35.172 2.17e-3 -111.411
          0.818 35.215 0.131 -37.586 2.166e-3 -85.888
          2.186e-3 -110.998 2.194e-3 -86.448 0.122 -99.022
7500.75 0.127 -17.799 0.82 31.899 2.191e-3 -113.055
          0.817 31.951 0.131 -40.585 2.22e-3 -88.319
          2.211e-3 -113.123 2.196e-3 -88.316 0.123 -100.996
7575 0.128 -19.678 0.819 28.675 2.244e-3 -115.031
          0.816 28.7 0.13 -43.564 2.234e-3 -91.187
          2.217e-3 -115.432 2.205e-3 -91.242 0.122 -101.482
7649.25 0.128 -21.029 0.818 25.472 2.258e-3 -117.742
          0.816 25.509 0.127 -46.204 2.263e-3 -94.718
          2.208e-3 -117.835 2.258e-3 -93.903 0.118 -101.927
7723.5 0.126 -22.057 0.818 22.224 2.275e-3 -120.636
          0.816 22.288 0.124 -48.366 2.319e-3 -96.702
          2.259e-3 -119.94 2.281e-3 -96.459 0.112 -103.884
7797.75 0.123 -23.511 0.818 18.928 2.29e-3 -122.662
          0.815 19.002 0.121 -50.47 2.341e-3 -99.173
          2.301e-3 -122.792 2.339e-3 -99.436 0.107 -107.572
7872 0.122 -25.903 0.817 15.682 2.297e-3 -124.626
          0.815 15.753 0.12 -52.568 2.346e-3 -102.092
          2.292e-3 -125.271 2.384e-3 -102.175 0.106 -111.325
7946.25 0.121 -28.667 0.817 12.477 2.331e-3 -126.503
          0.815 12.537 0.121 -54.337 2.396e-3 -104.148
          2.285e-3 -127.073 2.413e-3 -104.537 0.106 -113.432
8020.5 0.12 -30.6 0.816 9.228 2.333e-3 -129.023
          0.814 9.288 0.12 -55.753 2.445e-3 -107.418
          2.33e-3 -129.14 2.437e-3 -106.706 0.105 -114.096
8094.75 0.119 -30.99 0.815 5.946 2.317e-3 -131.698
          0.813 6.01 0.117 -56.883 2.492e-3 -109.491
          2.316e-3 -130.917 2.469e-3 -109.928 0.1 -114.878
8169 0.116 -30.214 0.815 2.685 2.346e-3 -133.959
          0.813 2.743 0.11 -58.097 2.511e-3 -112.559
          2.313e-3 -133.277 2.513e-3 -112.671 0.094 -117.441
8243.25 0.113 -29.97 0.814 -0.547 2.371e-3 -135.502
          0.813 -0.507 0.105 -59.728 2.516e-3 -115.569
          2.338e-3 -135.433 2.562e-3 -114.565 0.09 -121.86
8317.5 0.11 -31.666 0.814 -3.832 2.385e-3 -137.522
          0.813 -3.768 0.105 -61.258 2.556e-3 -118.195
          2.36e-3 -137.182 2.597e-3 -117.365 0.09 -125.762
8391.75 0.108 -34.909 0.814 -7.135 2.426e-3 -139.168
          0.813 -7.039 0.107 -62.594 2.62e-3 -121.027
          2.398e-3 -140.157 2.61e-3 -120.565 0.09 -127.201
8466 0.109 -37.53 0.813 -10.368 2.421e-3 -141.402
          0.811 -10.285 0.108 -63.906 2.71e-3 -123.048
          2.418e-3 -141.824 2.656e-3 -123.046 0.088 -126.6
8540.25 0.11 -37.54 0.812 -13.581 2.424e-3 -143.8
          0.811 -13.503 0.105 -64.91 2.735e-3 -125.498
          2.451e-3 -142.97 2.711e-3 -126.124 0.082 -126.398
8614.5 0.11 -35.944 0.812 -16.821 2.44e-3 -145.759
          0.811 -16.75 0.1 -66.111 2.741e-3 -128.381
          2.473e-3 -145.214 2.732e-3 -128.636 0.075 -128.967
8688.75 0.109 -34.917 0.811 -20.117 2.483e-3 -147.302
          0.811 -20.062 0.097 -67.073 2.79e-3 -131.554
          2.503e-3 -147.95 2.779e-3 -131.521 0.07 -134.376
8763 0.104 -35.734 0.811 -23.426 2.506e-3 -149.686
          0.81 -23.346 0.098 -66.985 2.811e-3 -134.3
          2.536e-3 -149.798 2.808e-3 -134.118 0.069 -139.544
8837.25 0.1 -37.668 0.811 -26.658 2.513e-3 -151.603
          0.809 -26.592 0.101 -66.309 2.86e-3 -136.54
          2.52e-3 -151.255 2.863e-3 -136.048 0.069 -141.247
8911.5 0.099 -38.91 0.811 -29.895 2.573e-3 -153.417
          0.809 -29.851 0.101 -65.843 2.916e-3 -138.883
          2.544e-3 -153.395 2.932e-3 -138.715 0.068 -140.178
8985.75 0.102 -38.607 0.81 -33.195 2.582e-3 -155.145
          0.808 -33.145 0.097 -66.437 2.934e-3 -141.804
