!Hittite Microwave Corporation								
!12 Elizabeth Drive								
!Chelmsford, MA 01824								
!Tel: 978-250-3343								
!Fax: 978-250-3373							
!Device: HMC234C8, DC-8 GHz GaAs MMIC HIGH ISOLATION SPDT SWITCH in 8-lead ceramic package,							
!Misc: Port1 = RFC, Port2 = RF1, Port3 = RF2, RF1 ON, Vctl=-5V, Room							
!
# MHZ S MA R 50

200 0.079 -9.471 0.891 -8.53 189.4e-6 -30.06
          0.89 -8.491 0.077 -9.79 440.4e-6 68.603
          288.9e-6 -72.277 383.4e-6 53.34 0.189 170.37
241.058 0.082 -11.894 0.886 -9.992 333.5e-6 -67.028
          0.885 -9.946 0.079 -12.602 524.1e-6 54.557
          288.1e-6 -58.077 594.7e-6 54.59 0.185 169.222
282.116 0.082 -13.385 0.885 -11.58 261.2e-6 -62.234
          0.884 -11.546 0.08 -14.556 579.2e-6 71.722
          337.7e-6 -72.797 591.1e-6 76.1 0.184 167.612
323.175 0.083 -14.597 0.883 -13.044 423.8e-6 -79.421
          0.883 -13.023 0.08 -15.908 709.6e-6 73.234
          458.6e-6 -76.547 570.3e-6 71.604 0.183 165.885
364.233 0.083 -15.922 0.883 -14.642 362.7e-6 -91.026
          0.882 -14.595 0.081 -16.993 757.3e-6 73.572
          367.5e-6 -87.483 694.1e-6 73.247 0.181 163.97
405.291 0.083 -17.209 0.882 -16.214 298.3e-6 -107.829
          0.881 -16.117 0.081 -18.643 795.6e-6 76.341
          422.7e-6 -94.338 799e-6 72.914 0.18 162.193
446.349 0.084 -18.979 0.881 -17.742 483.6e-6 -124.366
          0.88 -17.671 0.082 -20.092 950.6e-6 79.96
          488.1e-6 -109.819 891.8e-6 81.686 0.179 160.436
487.407 0.084 -20.621 0.88 -19.346 424.2e-6 -123.59
          0.879 -19.287 0.082 -22.106 970e-6 79.933
          462.6e-6 -115.456 960.5e-6 78.959 0.178 158.628
528.466 0.085 -22.447 0.88 -20.817 511.9e-6 -136.801
          0.879 -20.797 0.083 -24.124 1.087e-3 79.263
          539.4e-6 -127.608 1.107e-3 81.498 0.177 157.009
569.524 0.085 -24.115 0.879 -22.438 554.3e-6 -126.315
          0.878 -22.418 0.084 -25.688 1.165e-3 79.693
          524e-6 -121.545 1.145e-3 80.331 0.175 155.278
610.582 0.085 -25.693 0.878 -23.96 574.7e-6 -127.067
          0.877 -23.953 0.084 -27.168 1.224e-3 77.737
          571.4e-6 -129.883 1.284e-3 83.525 0.173 153.449
651.64 0.086 -26.498 0.876 -25.48 644.2e-6 -133.031
          0.876 -25.484 0.085 -27.937 1.346e-3 77.605
          628.7e-6 -132.407 1.391e-3 80.614 0.17 151.467
692.698 0.087 -27.037 0.875 -27.073 596.2e-6 -142.152
          0.875 -27.043 0.086 -28.443 1.533e-3 80.376
          591.5e-6 -140.56 1.498e-3 78.525 0.168 149.217
733.757 0.087 -26.903 0.874 -28.566 689e-6 -148.305
          0.874 -28.538 0.086 -28.375 1.721e-3 78.779
          664e-6 -143.692 1.635e-3 79.323 0.166 146.872
774.815 0.088 -26.566 0.874 -30.13 768e-6 -148.892
          0.873 -30.102 0.086 -28.182 1.693e-3 77.069
          734.8e-6 -144.378 1.689e-3 78.416 0.165 144.324
815.873 0.089 -26.49 0.874 -31.655 759.2e-6 -153.502
          0.873 -31.602 0.087 -28.214 1.83e-3 77.145
          723.7e-6 -152.085 1.831e-3 78.404 0.163 141.948
856.931 0.089 -26.569 0.873 -33.195 787.6e-6 -157.231
          0.872 -33.156 0.087 -28.098 1.972e-3 75.216
          778.5e-6 -156.096 1.986e-3 77.099 0.162 139.58
897.989 0.09 -26.591 0.872 -34.732 848.3e-6 -158.158
          0.871 -34.749 0.087 -27.758 2.041e-3 74.893
          826.6e-6 -159.636 2.031e-3 76.444 0.162 137.248
939.048 0.091 -26.839 0.872 -36.252 914.4e-6 -161.209
          0.871 -36.274 0.087 -27.979 2.171e-3 75.232
          880.3e-6 -163.854 2.144e-3 75.58 0.161 134.912
980.106 0.091 -26.731 0.871 -37.82 988.4e-6 -164.566
          0.871 -37.822 0.087 -27.78 2.301e-3 73.585
          916.3e-6 -165.101 2.277e-3 73.696 0.16 132.322
1021.164 0.093 -26.674 0.872 -39.345 1.053e-3 -168.224
          0.871 -39.3 0.088 -27.57 2.38e-3 72.48
          1.017e-3 -168.32 2.381e-3 72.939 0.159 129.749
1062.222 0.095 -26.276 0.871 -40.907 1.024e-3 -171.109
          0.87 -40.808 0.088 -26.868 2.465e-3 71.367
          1.044e-3 -172.247 2.465e-3 72.689 0.157 126.973
1103.28 0.096 -25.378 0.87 -42.42 1.09e-3 -174.432
          0.869 -42.3 0.089 -25.472 2.615e-3 70.044
          1.112e-3 -173.523 2.567e-3 71.461 0.157 124.007
1144.339 0.099 -24.325 0.87 -43.939 1.165e-3 -179.164
          0.868 -43.82 0.09 -24.024 2.664e-3 69.656
          1.175e-3 -177.706 2.625e-3 69.508 0.156 121.034
1185.397 0.101 -23.363 0.869 -45.498 1.207e-3 -179.459
          0.867 -45.405 0.091 -22.59 2.74e-3 68.24
          1.2e-3 -178.55 2.727e-3 68.56 0.157 118.081
1226.455 0.103 -22.588 0.868 -47.003 1.306e-3 179.152
          0.866 -46.917 0.092 -21.317 2.854e-3 66.096
          1.282e-3 179.467 2.811e-3 66.32 0.157 115.259
1267.513 0.106 -21.928 0.867 -48.53 1.341e-3 174.464
          0.866 -48.446 0.094 -20.158 2.907e-3 66.37
          1.308e-3 174.525 2.865e-3 66.153 0.158 112.565
1308.571 0.109 -21.615 0.866 -50.037 1.372e-3 171.619
          0.865 -49.97 0.096 -19.246 2.943e-3 66.165
          1.301e-3 173.408 2.932e-3 65.559 0.159 109.989
1349.63 0.112 -21.254 0.865 -51.577 1.445e-3 169.792
          0.865 -51.525 0.097 -18.162 3.031e-3 65.218
          1.393e-3 171.716 2.989e-3 64.969 0.16 107.219
1390.688 0.115 -20.913 0.865 -53.146 1.482e-3 166.948
          0.864 -53.052 0.099 -17.271 3.072e-3 65.226
          1.477e-3 169.023 3.058e-3 65.142 0.16 104.422
1431.746 0.118 -20.435 0.864 -54.667 1.554e-3 166.147
          0.863 -54.572 0.102 -16.289 3.137e-3 65.147
          1.535e-3 166.941 3.138e-3 64.862 0.161 101.536
1472.804 0.122 -19.674 0.863 -56.202 1.612e-3 164.635
          0.862 -56.104 0.105 -15.182 3.356e-3 65.218
          1.622e-3 165.266 3.346e-3 64.884 0.162 98.45
1513.862 0.126 -18.838 0.862 -57.664 1.716e-3 162.429
          0.861 -57.58 0.109 -13.967 3.548e-3 62.777
          1.705e-3 162.691 3.509e-3 62.671 0.164 95.518
1554.921 0.131 -18.141 0.861 -59.199 1.751e-3 159.729
          0.86 -59.119 0.113 -12.375 3.597e-3 60.403
          1.798e-3 160.753 3.529e-3 61.01 0.167 92.535
1595.979 0.136 -17.661 0.859 -60.67 1.851e-3 156.531
          0.859 -60.626 0.117 -11.152 3.614e-3 58.885
          1.88e-3 158.544 3.553e-3 58.96 0.169 89.765
1637.037 0.14 -17.269 0.858 -62.195 2.025e-3 153.577
          0.858 -62.118 0.121 -10.34 3.617e-3 57.413
          2.01e-3 155.092 3.539e-3 57.876 0.172 87.222
1678.095 0.145 -17.311 0.858 -63.733 2.134e-3 148.779
          0.856 -63.682 0.125 -9.731 3.633e-3 57.548
          2.104e-3 149.221 3.574e-3 56.963 0.175 84.724
1719.153 0.149 -17.429 0.858 -65.173 2.138e-3 147.226
          0.856 -65.103 0.129 -9.519 3.65e-3 56.315
          2.098e-3 145.653 3.576e-3 56.478 0.178 82.444
1760.212 0.154 -17.354 0.857 -66.712 2.03e-3 142.984
          0.855 -66.672 0.133 -9.128 3.647e-3 56.98
          2.056e-3 142.059 3.643e-3 57.413 0.181 80.121
1801.27 0.159 -17.532 0.856 -68.196 2.066e-3 141.898
          0.855 -68.155 0.137 -8.759 3.727e-3 55.843
          2.097e-3 142.252 3.706e-3 56.371 0.185 77.72
1842.328 0.164 -17.794 0.855 -69.686 2.088e-3 142.472
          0.853 -69.633 0.142 -8.622 3.696e-3 56.568
          2.11e-3 142.196 3.627e-3 56.526 0.188 75.288
1883.386 0.169 -18.031 0.854 -71.217 2.281e-3 141.081
          0.852 -71.218 0.147 -8.533 3.798e-3 57.714
          2.235e-3 141.231 3.721e-3 58.658 0.193 72.869
1924.444 0.174 -18.12 0.853 -72.679 2.39e-3 139.373
          0.851 -72.611 0.152 -8.302 3.854e-3 58.331
          2.363e-3 138.941 3.81e-3 58.554 0.197 70.635
1965.503 0.18 -18.486 0.852 -74.199 2.423e-3 135.848
          0.85 -74.095 0.156 -8.255 3.854e-3 58.551
          2.41e-3 137.088 3.818e-3 59.022 0.201 68.496
2006.561 0.185 -18.772 0.851 -75.658 2.496e-3 134.99
          0.85 -75.578 0.161 -8.256 4.022e-3 60.165
          2.5e-3 135.58 3.951e-3 58.998 0.206 66.536
2047.619 0.19 -19.313 0.85 -77.139 2.611e-3 134.477
          0.849 -77.064 0.165 -8.441 4.206e-3 60.589
          2.648e-3 134.54 4.226e-3 59.934 0.211 64.526
2088.677 0.194 -20.034 0.849 -78.632 2.767e-3 132.259
          0.849 -78.569 0.169 -8.651 4.405e-3 59.769
          2.756e-3 133.031 4.475e-3 59.756 0.216 62.58
2129.735 0.199 -20.681 0.849 -80.079 2.908e-3 130.85
          0.847 -80.009 0.173 -8.74 4.588e-3 58.176
          2.832e-3 131.392 4.666e-3 58.03 0.22 60.782
2170.794 0.203 -21.416 0.848 -81.589 3.041e-3 128.58
          0.846 -81.523 0.178 -9.224 4.756e-3 55.739
          2.935e-3 129.606 4.819e-3 56.086 0.225 58.946
2211.852 0.207 -22.186 0.848 -83.053 3.145e-3 124.85
          0.845 -83.008 0.182 -9.701 4.809e-3 53.401
          3.137e-3 125.284 4.853e-3 53.639 0.229 57.186
2252.91 0.212 -22.91 0.846 -84.512 3.166e-3 121.839
          0.844 -84.483 0.185 -10.239 4.825e-3 51.716
          3.229e-3 121.993 4.868e-3 52.203 0.234 55.547
2293.968 0.216 -23.679 0.845 -85.958 3.234e-3 119.104
          0.844 -85.946 0.189 -10.733 4.836e-3 52.219
          3.246e-3 119.231 4.864e-3 52.513 0.238 53.955
2335.026 0.22 -24.489 0.844 -87.409 3.241e-3 116.372
          0.843 -87.399 0.192 -11.08 4.846e-3 52.376
          3.247e-3 117.23 4.814e-3 51.867 0.243 52.477
2376.085 0.224 -25.349 0.843 -88.877 3.277e-3 114.919
          0.841 -88.837 0.196 -11.493 4.96e-3 51.841
          3.227e-3 115.111 4.912e-3 51.089 0.248 51.16
2417.143 0.227 -26.33 0.843 -90.324 3.362e-3 114.022
          0.842 -90.257 0.199 -12.025 5.072e-3 51.547
          3.305e-3 113.94 5.053e-3 51.131 0.254 49.814
2458.201 0.231 -27.425 0.843 -91.826 3.426e-3 113.365
          0.843 -91.73 0.201 -12.659 5.035e-3 50.679
          3.43e-3 113.277 5.019e-3 50.468 0.259 48.454
2499.259 0.234 -28.467 0.843 -93.257 3.502e-3 112.617
          0.842 -93.157 0.203 -13.198 5.097e-3 51.422
          3.554e-3 112.112 5.072e-3 51.331 0.265 47.218
2540.317 0.236 -29.491 0.843 -94.684 3.678e-3 111.556
          0.842 -94.597 0.206 -13.731 5.25e-3 51.336
          3.689e-3 110.755 5.25e-3 51.593 0.27 46.082
2581.376 0.238 -30.661 0.842 -96.141 3.788e-3 109.6
          0.842 -96.047 0.208 -14.308 5.354e-3 51.677
          3.788e-3 109.677 5.412e-3 52.118 0.275 44.884
2622.434 0.24 -31.813 0.842 -97.556 3.915e-3 108.166
          0.841 -97.485 0.21 -14.973 5.58e-3 51.905
          3.979e-3 107.764 5.634e-3 52.387 0.28 43.745
2663.492 0.242 -33.043 0.842 -98.997 4.12e-3 105.455
          0.84 -98.93 0.211 -15.692 5.793e-3 51.259
          4.108e-3 104.63 5.795e-3 51.493 0.285 42.693
2704.55 0.244 -34.295 0.842 -100.39 4.288e-3 102.201
          0.841 -100.343 0.212 -16.536 5.966e-3 48.995
          4.277e-3 101.888 5.944e-3 49.624 0.29 41.641
2745.608 0.245 -35.552 0.841 -101.867 4.335e-3 98.526
          0.84 -101.827 0.213 -17.279 5.976e-3 48.771
          4.27e-3 98.841 5.975e-3 48.663 0.295 40.6
2786.667 0.245 -36.756 0.841 -103.317 4.421e-3 96.28
          0.84 -103.286 0.213 -17.86 6.16e-3 47.746
          4.374e-3 96.645 6.159e-3 47.372 0.3 39.639
2827.725 0.245 -38.028 0.841 -104.732 4.489e-3 93.655
          0.84 -104.702 0.212 -18.58 6.267e-3 46.525
          4.415e-3 94.62 6.333e-3 47.066 0.305 38.77
2868.783 0.245 -39.421 0.841 -106.211 4.477e-3 91.465
          0.84 -106.171 0.211 -19.387 6.385e-3 46.277
          4.395e-3 91.164 6.423e-3 46.193 0.309 37.921
2909.841 0.244 -40.779 0.842 -107.598 4.406e-3 90.776
          0.84 -107.596 0.211 -20.209 6.65e-3 45.287
          4.528e-3 90.573 6.634e-3 44.872 0.314 37.051
2950.899 0.244 -42.373 0.841 -109.097 4.551e-3 89.007
          0.841 -109.097 0.209 -21 6.769e-3 41.928
          4.575e-3 90.142 6.783e-3 42.131 0.318 36.142
2991.958 0.242 -43.844 0.842 -110.572 4.505e-3 87.687
          0.842 -110.512 0.207 -21.91 6.81e-3 40.966
          4.571e-3 88.205 6.809e-3 40.686 0.322 35.429
3033.016 0.241 -45.249 0.843 -112.003 4.674e-3 86.831
          0.842 -111.943 0.205 -22.59 6.833e-3 39.883
          4.65e-3 87.406 6.767e-3 40.095 0.326 34.727
3074.074 0.238 -46.85 0.842 -113.511 4.817e-3 85.757
          0.842 -113.451 0.203 -23.552 6.875e-3 38.202
          4.797e-3 86.294 6.888e-3 38.733 0.33 33.837
3115.132 0.235 -48.347 0.843 -114.938 4.969e-3 84.181
          0.842 -114.879 0.199 -24.301 6.79e-3 37.314
          4.963e-3 83.762 6.87e-3 37.467 0.333 33.156
3156.19 0.232 -50.016 0.844 -116.429 4.971e-3 82.421
          0.843 -116.376 0.196 -24.933 6.791e-3 36.874
          4.97e-3 82.098 6.764e-3 37.164 0.337 32.534
3197.249 0.229 -51.693 0.844 -117.899 5.058e-3 80.781
          0.843 -117.836 0.192 -25.822 6.831e-3 36.359
          5.064e-3 81.107 6.762e-3 37.156 0.341 31.862
3238.307 0.225 -53.3 0.845 -119.361 5.193e-3 79.426
          0.844 -119.329 0.187 -26.621 6.887e-3 36.439
          5.201e-3 78.886 6.797e-3 36.917 0.344 31.262
3279.365 0.22 -55.053 0.846 -120.883 5.309e-3 77.167
          0.846 -120.836 0.182 -27.582 6.962e-3 36.513
          5.337e-3 77.492 6.941e-3 36.847 0.347 30.645
3320.423 0.216 -56.903 0.847 -122.351 5.407e-3 75.764
          0.847 -122.278 0.177 -28.616 7.001e-3 36.424
          5.436e-3 75.892 6.962e-3 36.701 0.351 30.005
3361.481 0.211 -58.782 0.85 -123.893 5.538e-3 73.97
          0.849 -123.819 0.172 -29.56 7.085e-3 36.867
          5.481e-3 74.998 7.071e-3 37.344 0.354 29.297
3402.54 0.205 -60.605 0.851 -125.384 5.682e-3 72.053
          0.85 -125.328 0.165 -30.175 7.289e-3 36.374
          5.629e-3 72.719 7.311e-3 36.959 0.357 28.744
3443.598 0.199 -62.708 0.851 -126.911 5.796e-3 70.65
          0.85 -126.861 0.158 -30.933 7.409e-3 36.651
          5.773e-3 70.659 7.408e-3 37.098 0.359 28.203
3484.656 0.192 -64.931 0.852 -128.448 5.865e-3 69.605
          0.851 -128.398 0.151 -31.608 7.718e-3 37.203
          5.886e-3 69.263 7.652e-3 37.392 0.362 27.65
3525.714 0.185 -67.164 0.853 -129.966 5.978e-3 67.811
          0.852 -129.898 0.143 -32.359 8.003e-3 36.731
          5.988e-3 67.462 7.992e-3 36.465 0.364 27.114
3566.772 0.179 -69.671 0.854 -131.522 6.117e-3 65.889
          0.853 -131.441 0.135 -33.202 8.229e-3 35.458
          6.114e-3 65.607 8.262e-3 35.432 0.366 26.487
3607.831 0.172 -72.158 0.855 -133.073 6.267e-3 63.89
          0.854 -132.987 0.128 -33.811 8.51e-3 33.988
          6.234e-3 63.886 8.508e-3 34.281 0.368 25.874
3648.889 0.165 -74.688 0.855 -134.677 6.373e-3 62.093
          0.855 -134.582 0.12 -34.297 8.78e-3 32.514
          6.393e-3 62.637 8.771e-3 32.57 0.369 25.269
3689.947 0.158 -77.456 0.856 -136.245 6.47e-3 60.245
          0.855 -136.177 0.111 -34.73 9.003e-3 30.668
          6.502e-3 60.552 8.991e-3 30.669 0.37 24.706
3731.005 0.15 -80.379 0.857 -137.796 6.571e-3 58.266
          0.856 -137.77 0.103 -34.981 9.106e-3 28.999
          6.558e-3 58.485 9.054e-3 28.866 0.372 24.127
3772.063 0.141 -83.478 0.857 -139.356 6.641e-3 56.335
          0.857 -139.358 0.094 -35.177 9.188e-3 27.474
          6.693e-3 56.38 9.168e-3 27.419 0.373 23.562
3813.122 0.132 -86.878 0.857 -140.947 6.771e-3 54.479
          0.857 -140.91 0.084 -34.817 9.289e-3 26.336
          6.768e-3 54.319 9.319e-3 26.466 0.374 23.063
3854.18 0.124 -90.727 0.858 -142.627 6.834e-3 52.717
          0.858 -142.575 0.074 -34.101 9.438e-3 25.045
          6.788e-3 52.108 9.453e-3 25.186 0.375 22.496
3895.238 0.116 -95.099 0.859 -144.249 6.969e-3 50.584
          0.858 -144.111 0.064 -33.168 9.596e-3 23.91
          6.913e-3 51.009 9.604e-3 24.077 0.375 21.915
3936.296 0.109 -100.224 0.859 -145.87 7.074e-3 48.654
          0.858 -145.769 0.055 -32.1 9.762e-3 22.44
          7.015e-3 49.059 9.721e-3 22.548 0.374 21.293
3977.354 0.102 -105.532 0.86 -147.529 7.162e-3 47.112
          0.859 -147.384 0.047 -28.927 9.857e-3 20.93
          7.061e-3 47.113 9.867e-3 20.942 0.374 20.711
4018.413 0.096 -111.057 0.861 -149.116 7.202e-3 45.4
          0.86 -149.04 0.038 -22.396 0.01 19.76
          7.204e-3 45.45 9.99e-3 19.672 0.373 20.118
4059.471 0.09 -116.923 0.861 -150.783 7.29e-3 43.199
          0.86 -150.758 0.032 -14.283 0.01 18.329
          7.287e-3 43.642 0.01 18.194 0.373 19.35
4100.529 0.085 -123.328 0.861 -152.342 7.392e-3 41.458
          0.86 -152.313 0.026 -1.072 0.01 16.698
          7.375e-3 41.721 0.01 16.747 0.373 18.743
4141.587 0.081 -130.762 0.86 -154.028 7.461e-3 40.069
          0.859 -154.026 0.023 17.906 0.01 15.276
          7.469e-3 39.59 0.01 14.924 0.372 18.008
4182.646 0.077 -138.291 0.859 -155.703 7.57e-3 37.823
          0.859 -155.644 0.023 40.652 0.01 13.82
          7.496e-3 37.907 0.01 14.017 0.372 17.38
4223.704 0.074 -146.677 0.86 -157.295 7.609e-3 36.233
          0.859 -157.255 0.027 61.57 0.011 12.073
          7.595e-3 36.253 0.011 12.36 0.371 16.76
4264.762 0.071 -156.089 0.859 -158.992 7.719e-3 33.943
          0.859 -158.939 0.033 74.239 0.011 10.784
          7.69e-3 34.414 0.011 10.76 0.37 16.08
4305.82 0.071 -165.279 0.859 -160.601 7.712e-3 31.989
          0.858 -160.466 0.04 82.22 0.011 9.149
          7.726e-3 32.715 0.011 9.148 0.368 15.425
4346.878 0.073 -174.318 0.858 -162.258 7.768e-3 30.44
          0.857 -162.178 0.048 86.284 0.011 7.941
          7.698e-3 30.905 0.011 7.99 0.366 14.653
4387.937 0.076 177.91 0.856 -163.908 7.772e-3 28.769
          0.855 -163.832 0.056 88.897 0.011 6.47
          7.771e-3 29.09 0.011 6.517 0.363 13.939
4428.995 0.08 171.057 0.856 -165.528 7.846e-3 27.519
          0.855 -165.468 0.063 89.53 0.011 4.844
          7.811e-3 27.358 0.011 5.015 0.361 13.183
4470.053 0.084 165.249 0.855 -167.204 7.926e-3 25.978
          0.854 -167.104 0.07 89.766 0.011 3.569
          7.882e-3 25.907 0.011 3.563 0.358 12.312
4511.111 0.087 159.375 0.855 -168.771 7.971e-3 24.458
          0.854 -168.718 0.076 90.129 0.011 2.147
          7.974e-3 24.309 0.011 2.149 0.356 11.457
4552.169 0.092 153.845 0.855 -170.452 8.042e-3 22.514
          0.853 -170.419 0.083 90.465 0.011 0.423
          8.057e-3 22.709 0.011 0.228 0.353 10.49
4593.228 0.096 148.64 0.854 -172.093 8.073e-3 20.957
          0.852 -172.056 0.09 90.524 0.011 -1.33
          8.116e-3 20.983 0.011 -1.38 0.351 9.573
4634.286 0.102 144.061 0.852 -173.706 8.124e-3 19.396
          0.85 -173.67 0.097 90.454 0.011 -2.8
          8.118e-3 19.452 0.011 -2.673 0.348 8.686
4675.344 0.107 139.977 0.851 -175.334 8.173e-3 17.934
          0.85 -175.284 0.103 90.178 0.011 -4.148
          8.184e-3 18.027 0.011 -3.984 0.345 7.761
4716.402 0.113 136.393 0.849 -176.935 8.273e-3 16.41
          0.848 -176.889 0.109 89.565 0.011 -5.852
          8.255e-3 16.438 0.011 -5.662 0.341 6.818
4757.46 0.118 133.245 0.848 -178.602 8.348e-3 14.561
          0.847 -178.558 0.114 88.598 0.011 -7.276
          8.293e-3 15.071 0.011 -7.089 0.337 5.764
4798.519 0.123 130.61 0.846 179.781 8.33e-3 13.12
          0.846 179.836 0.119 87.415 0.011 -8.577
          8.342e-3 13.432 0.011 -8.38 0.334 4.685
4839.577 0.128 128.4 0.845 178.164 8.359e-3 11.737
          0.844 178.224 0.122 86.335 0.011 -10.175
          8.399e-3 11.771 0.011 -9.933 0.33 3.524
4880.635 0.132 126.449 0.844 176.564 8.413e-3 10.459
          0.843 176.63 0.126 85.198 0.011 -11.713
          8.406e-3 10.462 0.011 -11.491 0.326 2.324
4921.693 0.136 124.521 0.842 174.966 8.445e-3 9.27
          0.842 175.03 0.128 83.746 0.011 -13.003
          8.417e-3 9.317 0.011 -12.828 0.322 1.113
4962.751 0.139 122.608 0.841 173.354 8.53e-3 7.93
          0.84 173.396 0.131 82.225 0.011 -14.341
          8.529e-3 7.977 0.011 -14.228 0.318 -0.179
5003.81 0.142 120.797 0.841 171.77 8.601e-3 6.465
          0.84 171.813 0.133 80.905 0.011 -15.681
          8.612e-3 6.67 0.011 -15.876 0.315 -1.598
5044.868 0.145 119.054 0.84 170.157 8.693e-3 4.915
          0.84 170.181 0.135 79.644 0.011 -17.13
          8.712e-3 5.082 0.011 -17.055 0.311 -3.06
5085.926 0.148 117.468 0.839 168.567 8.816e-3 3.59
          0.838 168.591 0.136 78.322 0.011 -18.159
          8.788e-3 3.2 0.011 -17.874 0.307 -4.455
5126.984 0.151 116.264 0.838 166.96 8.867e-3 1.727
