!Hittite Microwave Corporation								
!12 Elizabeth Drive								
!Chelmsford, MA 01824								
!Tel: 978-250-3343								
!Fax: 978-250-3373
!Device: HMC244G16, DC - 4 GHz GaAs MMIC SP4T Non-Reflective Switch in 16 lead hermetic package
!Misc: Port 1 = RFC, Port 2 = RF1, Port 3 = RF2, Port 4 = RF3, Port 5 = RF4, RF1 Selected, Bias: +5VDC								
!
# MHZ S MA R 50

30	0.588	-52.627	0.768	35.361	0.001009	72.824	0.0009853	79.341
	0.001015	81.474	0.768	35.327	0.588	-52.657	0.0009417	74.493
	0.0009635	72.943	0.0009869	69.24	0.001035	75.711	0.0009269	75.043
	0.94	-19.529	0.0006559	22.652	0.0006554	18.954	0.0009825	77.95
	0.0009371	73.461	0.0006706	21.542	0.94	-19.431	0.0007177	24.985
	0.00105	81.151	0.0009916	70.697	0.0006993	14.623	0.000726	20.071
	0.939	-19.572						
59.85	0.345	-66.639	0.888	18.142	0.001762	64.553	0.001792	72.322
	0.001861	74.933	0.888	18.161	0.344	-66.909	0.001749	77.499
	0.001613	68.643	0.001709	64.994	0.001731	67.303	0.00172	75.595
	0.83	-35.612	0.00009456	165.655	0.0001451	-142.199	0.001764	73.937
	0.001602	67.228	0.00007449	156.629	0.83	-35.524	0.0001836	-177.763
	0.001879	74.304	0.001694	65.653	0.000146	-120.877	0.0002087	165.452
	0.829	-35.611						
89.7	0.24	-71.252	0.917	10.885	0.00239	50.4	0.002553	58.98
	0.00258	63.359	0.918	10.924	0.239	-71.541	0.002445	66.742
	0.002199	54.257	0.002356	51.856	0.00242	49.42	0.002389	65.484
	0.711	-48.171	0.0001973	83.962	0.00015	99.882	0.002479	59.235
	0.002235	54.52	0.0002117	100.396	0.714	-48.047	0.0004485	137.893
	0.002628	62.664	0.002367	50.869	0.0001302	101.746	0.0004943	136.794
	0.711	-48.119						
119.55	0.185	-72.45	0.928	6.757	0.002815	36.849	0.002964	48.697
	0.003135	53.011	0.928	6.768	0.185	-72.919	0.002905	58.698
	0.002618	45.571	0.002725	39.869	0.002818	36.43	0.002917	58.606
	0.607	-57.718	0.000224	94.186	0.0001496	86.59	0.002956	48.201
	0.00262	44.1	0.000232	80.317	0.611	-57.552	0.0007735	134.095
	0.003122	52.685	0.002776	39.467	0.0001456	87.688	0.0007919	132.615
	0.608	-57.603						
149.4	0.153	-72.552	0.933	3.929	0.0031	26.656	0.003224	42.286
	0.003396	47.623	0.932	3.882	0.152	-72.988	0.003211	54.144
	0.002868	37.545	0.002988	31.28	0.00307	26.665	0.00327	55.046
	0.523	-65.137	0.0003338	79.06	0.0001939	73.767	0.003194	41.497
	0.002861	37.712	0.0003232	79.826	0.527	-64.929	0.001201	123.562
	0.003417	47.433	0.002944	31.744	0.0002171	75.535	0.001226	122.443
	0.525	-64.877						
179.25	0.132	-71.985	0.934	1.781	0.003222	19.537	0.003329	37.167
	0.003636	43.559	0.934	1.797	0.131	-72.47	0.003428	51.825
	0.003027	32.782	0.003083	25.972	0.003215	19.363	0.003489	52.15
	0.455	-70.949	0.0004025	85.035	0.0002494	68.915	0.003344	37.641
	0.002975	32.14	0.000471	86.579	0.46	-70.779	0.001659	119.491
	0.003606	44.135	0.003073	26.326	0.000298	69.152	0.00162	118.562
	0.459	-70.705						
209.1	0.118	-71.219	0.933	0.065	0.003308	13.014	0.003483	34.036
	0.003781	41.061	0.932	0.009959	0.118	-71.873	0.003592	50.223
	0.003065	28.073	0.00322	20.668	0.00332	12.137	0.003625	50.839
	0.401	-75.77	0.0005095	88.912	0.0002803	78.05	0.00348	34.191
	0.003095	27.904	0.0004841	85.458	0.406	-75.532	0.002062	115.116
	0.003767	41.558	0.003208	21.072	0.0003527	85.808	0.002059	114.887
	0.405	-75.447						
238.95	0.108	-70.554	0.933	-1.408	0.003391	6.989	0.003534	30.549
	0.003844	39.5	0.933	-1.413	0.108	-71.145	0.00381	49.078
	0.003108	24.404	0.003243	16.722	0.003351	6.424	0.003794	50.108
	0.356	-79.801	0.0005496	85.986	0.0003404	75.206	0.003557	31.289
	0.00312	24.641	0.0005806	85.51	0.362	-79.507	0.002418	110.946
	0.003896	38.993	0.003266	16.677	0.0003595	76.878	0.002428	110.313
	0.362	-79.372						
268.8	0.101	-69.904	0.933	-2.683	0.003361	2.967	0.003576	29.244
	0.003954	38.563	0.932	-2.738	0.1	-70.62	0.003937	49.913
	0.00318	22.662	0.003234	13.383	0.003397	2.744	0.00396	49.929
	0.32	-83.169	0.0006506	86.738	0.0004337	83.472	0.003606	28.711
	0.003173	21.333	0.0006677	82.331	0.326	-82.869	0.00281	108.202
	0.003925	37.982	0.003297	13.773	0.0004217	83.251	0.002817	107.605
	0.327	-82.692						
298.65	0.096	-69.628	0.934	-3.884	0.003421	-1.538	0.003648	27.959
	0.004039	38.223	0.935	-3.999	0.095	-70.294	0.004077	50.242
	0.003215	20.025	0.003346	10.472	0.003395	-2.467	0.004102	50.196
	0.29	-86.132	0.0007747	85.794	0.0004666	81.429	0.003623	27.227
	0.003208	20.351	0.0007753	83.625	0.296	-85.8	0.003208	105.46
	0.004023	37.985	0.003244	10.142	0.0004622	76.774	0.003216	104.933
	0.298	-85.647						
328.5	0.092	-69.497	0.934	-5.091	0.003429	-6.399	0.003617	26.499
	0.004119	37.485	0.934	-5.149	0.091	-69.813	0.00423	51.031
	0.003238	18.085	0.003318	7.917	0.003365	-5.826	0.004236	51.133
	0.265	-88.704	0.0008042	82.145	0.0005082	77.066	0.003628	26.129
	0.003221	18.814	0.0008424	79.118	0.271	-88.336	0.003579	102.757
	0.004093	38.15	0.003246	7.483	0.0004857	82.592	0.003595	102.102
	0.273	-88.109						
358.35	0.089	-69.293	0.933	-6.17	0.003404	-9.734	0.003619	24.924
	0.004167	37.531	0.934	-6.273	0.089	-69.582	0.004369	51.099
	0.003232	17.111	0.003244	5.182	0.00334	-10.195	0.00436	51.396
	0.243	-91.003	0.0008917	81.017	0.0005306	80.023	0.003656	25.198
	0.003205	16.321	0.0008995	82.464	0.25	-90.571	0.003913	100.772
	0.00416	37.804	0.00326	5.201	0.0004983	82.404	0.003959	100.447
	0.253	-90.315						
388.2	0.086	-69.319	0.931	-7.225	0.003314	-13.666	0.003647	24.807
	0.004169	37.54	0.932	-7.265	0.087	-69.497	0.00447	52.225
	0.003204	16.313	0.003252	2.891	0.003344	-13.858	0.004465	52.212
	0.225	-93.039	0.0009677	81.735	0.0005955	79.234	0.003652	24.942
	0.003207	16.095	0.0009603	82.964	0.232	-92.503	0.004243	99.668
	0.004181	37.749	0.003259	3.407	0.0005871	78.254	0.004319	99.266
	0.235	-92.259						
418.05	0.085	-69.652	0.929	-8.128	0.003322	-16.933	0.003649	25.116
	0.004242	38.675	0.931	-8.192	0.085	-69.465	0.004633	53.141
	0.003152	14.93	0.003198	1.949	0.003355	-17.508	0.004629	53.227
	0.208	-94.688	0.001053	82.111	0.0006372	78.018	0.003634	24.79
	0.003199	15.399	0.001066	82.676	0.215	-94.307	0.004646	97.572
	0.004266	38.572	0.003208	1.048	0.0006208	79.12	0.004633	97.446
	0.219	-94.071						
447.9	0.083	-70.11	0.93	-8.968	0.003308	-19.977	0.003663	24.67
	0.004251	39.554	0.931	-9.046	0.083	-69.649	0.004769	54.516
	0.003152	15.152	0.003151	-0.004222	0.003303	-21.304	0.004774	54.451
	0.194	-96.259	0.001159	81.743	0.0006896	79.974	0.003589	24.325
	0.003189	14.308	0.001144	82.386	0.201	-95.907	0.005013	96.532
	0.004322	39.023	0.003213	-0.38	0.000644	80.604	0.00499	96.871
	0.205	-95.678						
477.75	0.082	-70.376	0.93	-9.878	0.00325	-23.15	0.003649	24.836
	0.004332	40.003	0.931	-9.949	0.082	-69.809	0.00493	55.9
	0.003164	14.748	0.003148	-1.654	0.003268	-23.862	0.004903	55.543
	0.18	-97.576	0.001196	80.912	0.0007425	78.287	0.003615	24.407
	0.003163	14.076	0.001225	82.789	0.189	-97.245	0.005345	95.41
	0.004382	39.898	0.003167	-1.665	0.0007069	78.727	0.005373	95.009
	0.193	-97.119						
507.6	0.08	-70.775	0.931	-10.775	0.003216	-27.453	0.003616	24.822
	0.004396	40.658	0.932	-10.861	0.081	-70.114	0.005083	56.81
	0.003157	13.875	0.003098	-3.966	0.003232	-27.725	0.005077	56.759
	0.169	-98.775	0.001336	79.621	0.0007602	76.518	0.003605	24.567
	0.003126	13.606	0.001302	82.213	0.177	-98.528	0.005712	93.968
	0.004424	40.333	0.003121	-3.93	0.0007673	78.366	0.005752	93.71
	0.182	-98.425						
537.45	0.079	-71.051	0.932	-11.762	0.003221	-31.032	0.003619	24.59
	0.004454	41.44	0.93	-11.877	0.08	-69.997	0.005212	57.913
	0.003141	12.67	0.003062	-5.698	0.003193	-31.145	0.005211	57.8
	0.158	-99.867	0.00135	79.539	0.0008542	78.842	0.003618	24.44
	0.003119	12.449	0.001357	81.553	0.167	-99.722	0.006074	92.884
	0.004459	41.29	0.003123	-6.096	0.0008413	77.155	0.006105	92.668
	0.173	-99.693						
567.3	0.078	-71.573	0.931	-12.645	0.003181	-34.195	0.003605	24.787
	0.004505	42.56	0.929	-12.773	0.079	-70.459	0.005388	59.011
	0.003067	13.653	0.003071	-7.163	0.003205	-34.438	0.005358	58.608
	0.149	-100.789	0.001435	79.516	0.0009074	75.333	0.003613	24.753
	0.003091	12.32	0.001479	80.865	0.159	-100.679	0.006385	91.489
	0.004508	42.073	0.003063	-7.158	0.0008477	77.812	0.006409	91.358
	0.165	-100.812						
597.15	0.077	-71.663	0.93	-13.471	0.003158	-37.597	0.00357	25.684
	0.004583	43.482	0.927	-13.625	0.078	-70.698	0.00554	60.416
	0.003037	13.625	0.003025	-8.388	0.00318	-38.113	0.005553	59.597
	0.14	-101.444	0.001577	79.175	0.000899	75.665	0.003583	25.685
	0.003089	12.093	0.001563	78.007	0.151	-101.506	0.00673	90.513
	0.0046	43.211	0.002986	-7.912	0.0009161	77.135	0.006722	90.676
	0.157	-101.675						
627	0.076	-71.996	0.929	-14.326	0.003113	-41.236	0.003555	26.17
	0.004635	44.323	0.926	-14.454	0.078	-70.803	0.005691	61.428
	0.003018	12.903	0.002946	-10.332	0.00314	-41.929	0.005713	61.12
	0.132	-101.982	0.001627	76.495	0.0009425	75.571	0.003532	26.353
	0.003007	12.389	0.001606	77.375	0.143	-102.157	0.007087	89.921
	0.004622	44.674	0.002907	-10.038	0.0009591	74.589	0.00711	89.889
	0.15	-102.45						
656.85	0.075	-72.311	0.927	-15.107	0.003077	-44.337	0.003513	26.847
	0.0047	46.009	0.927	-15.212	0.077	-70.927	0.005879	62.332
	0.003001	12.606	0.002875	-10.736	0.003107	-45.283	0.005916	62.207
	0.125	-102.251	0.001729	77.727	0.0009775	76.295	0.003516	27.401
	0.002978	12.773	0.001736	76.823	0.136	-102.589	0.007427	89.119
	0.004683	45.643	0.002875	-11.774	0.001002	73.3	0.007474	89.097
	0.144	-103.024						
686.7	0.074	-72.641	0.927	-15.877	0.003083	-48.178	0.00351	27.597
	0.004772	47.018	0.927	-16.031	0.076	-70.89	0.006121	63.092
	0.002985	12.688	0.002837	-12.416	0.003041	-48.687	0.006064	63.127
	0.118	-102.367	0.001805	75.968	0.00108	75.068	0.003547	27.945
	0.002954	13.563	0.001806	75.945	0.13	-102.775	0.007808	88.273
	0.004794	46.901	0.002813	-12.314	0.001033	73.898	0.007799	88.289
	0.138	-103.499						
716.55	0.073	-72.676	0.925	-16.628	0.003055	-52.506	0.003539	28.909
	0.004849	48.097	0.928	-16.737	0.075	-70.764	0.006281	64.041
	0.002929	13.064	0.002754	-14.035	0.003017	-52.51	0.006288	64.168
	0.111	-102.21	0.00187	74.143	0.001131	73.629	0.003518	28.515
	0.002901	13.473	0.001896	74.451	0.123	-102.856	0.008111	87.259
	0.004866	48.12	0.002776	-14.166	0.001105	73.89	0.008083	87.432
	0.132	-103.821						
746.4	0.072	-72.575	0.926	-17.39	0.003045	-56.867	0.003526	29.358
	0.004928	48.857	0.927	-17.518	0.075	-70.487	0.006484	64.91
	0.002875	13.707	0.002699	-15.658	0.003018	-56.441	0.006487	65.091
	0.105	-101.856	0.001885	73.221	0.001149	72.903	0.003496	29.232
	0.002898	12.705	0.001949	72.178	0.118	-102.981	0.008453	86.719
	0.004927	49.247	0.002673	-15.852	0.00116	71.455	0.008409	86.66
	0.127	-104.027						
776.25	0.07	-72.365	0.927	-18.323	0.003035	-61.122	0.003479	30.284
	0.004996	49.886	0.927	-18.337	0.074	-69.942	0.00668	65.942
	0.002815	14.769	0.002628	-16.69	0.003022	-60.42	0.006649	65.987
	0.099	-101.357	0.001982	74.683	0.001162	73.042	0.00346	30.468
	0.002842	14.313	0.002004	73.928	0.112	-102.835	0.008797	86.216
	0.005059	50.234	0.002606	-16.577	0.001192	73.115	0.008769	86.022
	0.122	-104.154						
806.1	0.069	-71.934	0.928	-19.202	0.002982	-65.059	0.00347	31.917
	0.005112	51.141	0.926	-19.172	0.073	-69.183	0.006875	66.517
	0.002785	15.255	0.002559	-18.575	0.003013	-64.695	0.006889	66.653
	0.094	-100.62	0.002082	73.446	0.001213	71.981	0.003454	31.834
	0.002788	14.953	0.002094	72.429	0.107	-102.488	0.009153	85.222
	0.005147	51.186	0.002571	-18.05	0.001251	71.894	0.009148	85.24
	0.118	-104.239						
835.95	0.068	-71.277	0.925	-20.037	0.002966	-69.36	0.003447	32.585
	0.005221	52.095	0.924	-20.057	0.072	-68.593	0.007055	67.395
	0.002793	15.879	0.002505	-19.484	0.002971	-69.434	0.007099	67.383
	0.089	-99.614	0.002131	71.736	0.001288	72.004	0.003445	32.658
	0.00279	15.554	0.002166	71.724	0.103	-102.181	0.009471	84.564
	0.005191	52.076	0.002505	-19.369	0.001267	72.246	0.009463	84.584
	0.114	-104.317						
865.8	0.066	-70.382	0.923	-20.792	0.003003	-73.635	0.003458	33.337
	0.005262	53.306	0.922	-20.896	0.071	-68.033	0.007249	68.425
	0.002738	16.84	0.002393	-20.26	0.002993	-73.955	0.007251	68.414
	0.085	-98.278	0.002162	70.452	0.001304	71.996	0.003406	33.791
	0.002745	16.037	0.002154	71.206	0.098	-101.775	0.009795	83.92
	0.005262	53.063	0.002433	-20.355	0.001314	71.636	0.009776	83.846
	0.11	-104.271						
895.65	0.065	-69.259	0.921	-21.531	0.002957	-76.842	0.003426	34.905
	0.005371	54.578	0.922	-21.541	0.07	-67.157	0.007486	69.264
	0.002691	18.274	0.002293	-21.498	0.002973	-77.693	0.007456	69.447
	0.08	-96.845	0.002246	72.204	0.001353	71.118	0.003382	35.348
	0.002714	17.615	0.00224	71.936	0.094	-101.241	0.01	83.403
	0.005351	54.652	0.002309	-22	0.001376	71.68	0.01	83.366
	0.106	-104.094						
925.5	0.065	-67.984	0.919	-22.159	0.002929	-81.052	0.003421	36.774
	0.005458	55.616	0.922	-22.161	0.069	-65.845	0.007748	70.355
	0.002701	18.951	0.002241	-22.651	0.002984	-81.93	0.007725	70.253
	0.076	-95.013	0.002345	72.165	0.001417	71.367	0.003393	36.978
	0.002725	18.549	0.002357	72.5	0.091	-100.309	0.01	83.003
	0.005473	55.942	0.002244	-23.549	0.001411	70.894	0.01	82.91
	0.103	-103.891						
955.35	0.064	-66.585	0.921	-22.752	0.002986	-85.91	0.003396	38.32
	0.005551	56.463	0.922	-22.956	0.069	-64.544	0.007972	70.931
	0.002683	19.53	0.002146	-23.89	0.003005	-86.683	0.007986	70.536
	0.073	-92.79	0.002456	71.779	0.001447	70.668	0.00342	38.523
	0.002666	19.164	0.002488	71.973	0.088	-98.96	0.011	82.307
	0.00559	56.61	0.002177	-25.579	0.001433	69.995	0.011	82.17
	0.1	-103.385						
985.2	0.063	-64.758	0.923	-23.574	0.003061	-90.203	0.003404	39.933
	0.005681	57.602	0.923	-23.729	0.068	-62.926	0.00822	71.201
	0.002686	20.474	0.002048	-25.89	0.003036	-90.777	0.008222	70.939
	0.069	-90.134	0.002572	70.514	0.001479	69.252	0.003419	39.753
	0.002635	20.219	0.002604	69.425	0.084	-97.678	0.011	81.631
	0.005689	57.062	0.002062	-26.257	0.001477	69.572	0.011	81.349
	0.098	-102.645						
1015.05	0.062	-62.504	0.923	-24.473	0.0031	-94.719	0.00342	40.706
	0.005793	58.301	0.924	-24.53	0.068	-60.986	0.008453	71.634
	0.002608	21.828	0.001967	-26.924	0.003098	-95.31	0.008495	71.618
	0.067	-87.141	0.002668	68.853	0.001543	69.636	0.003438	40.967
	0.002612	22.297	0.002648	67.456	0.082	-96.029	0.012	80.878
	0.005814	58.361	0.001981	-27.032	0.001533	68.964	0.012	80.781
	0.095	-101.619						
1044.9	0.062	-59.723	0.923	-25.354	0.003149	-98.961	0.003406	42.755
	0.005928	59.009	0.923	-25.387	0.068	-58.894	0.00872	72.021
	0.002597	23.107	0.001886	-28.229	0.003162	-99.224	0.008697	72.176
	0.064	-83.864	0.002719	68.027	0.001622	68.424	0.003436	42.244
	0.002619	23.511	0.002721	66.966	0.079	-93.988	0.012	80.168
	0.005922	59.335	0.001865	-27.992	0.001604	67.568	0.012	80.086
	0.093	-100.608						
1074.75	0.061	-57.082	0.922	-26.115	0.003217	-103.851	0.003416	44.046
	0.006026	60.11	0.922	-26.165	0.068	-56.694	0.008952	72.592
	0.002592	25	0.001786	-30.484	0.003228	-104.197	0.008953	72.658
	0.062	-80.257	0.002776	67.813	0.001629	68.928	0.003463	44.059
	0.002587	24.138	0.00283	67.058	0.077	-91.875	0.012	79.446
	0.006011	60.136	0.001752	-29.71	0.001632	67.48	0.012	79.357
	0.09	-99.47						
1104.6	0.061	-54.501	0.919	-26.892	0.003299	-108.305	0.003419	45.811
	0.006143	61.171	0.921	-26.894	0.068	-54.443	0.009175	73.09
	0.002573	26.693	0.001698	-32.375	0.003311	-108.52	0.009217	73.157
	0.061	-76.354	0.002905	66.832	0.001657	68.139	0.003427	46.003
	0.002569	26.141	0.002923	66.75	0.075	-89.651	0.012	78.819
	0.006118	60.847	0.00168	-32.394	0.001644	67.159	0.013	78.81
	0.088	-98.259						
1134.45	0.062	-51.623	0.918	-27.611	0.0034	-112.336	0.00344	47.513
	0.006264	62.094	0.92	-27.656	0.069	-52.044	0.009429	73.548
	0.002587	28.718	0.001612	-32.748	0.00338	-112.502	0.009466	73.605
	0.06	-72.192	0.003008	65.85	0.001734	67.066	0.003479	47.59
	0.002569	27.742	0.003006	65.469	0.073	-87.28	0.013	78.347
	0.00625	61.639	0.001578	-33.74	0.001736	65.67	0.013	78.292
	0.086	-96.925						
1164.3	0.063	-48.531	0.917	-28.333	0.003527	-116.885	0.003477	49.684
	0.006384	62.92	0.918	-28.41	0.07	-49.592	0.009684	74.003
	0.002589	29.929	0.001507	-34.189	0.003479	-117.077	0.00969	73.898
	0.059	-67.826	0.003069	65	0.001784	66.549	0.003517	49.184
	0.0026	29.475	0.003114	64.221	0.071	-84.684	0.013	77.732
	0.00637	62.647	0.001459	-35.121	0.001795	65.36	0.013	77.798
	0.084	-95.49						
1194.15	0.064	-45.491	0.916	-29.044	0.003614	-120.792	0.003515	51.518
	0.006497	63.655	0.918	-29.15	0.071	-47.115	0.009931	74.287
	0.002606	31.204	0.001404	-36.911	0.003597	-121.583	0.009941	74.203
	0.059	-63.457	0.003184	63.973	0.001831	66.036	0.003524	50.987
	0.002574	31.62	0.003217	63.219	0.07	-81.909	0.013	77.4
	0.006497	63.505	0.001375	-37.955	0.001805	64.792	0.014	77.147
	0.082	-93.959						
1224	0.066	-42.788	0.916	-29.766	0.003712	-124.765	0.00357	52.904
	0.00661	64.303	0.917	-29.848	0.073	-44.632	0.01	74.647
	0.002571	33.298	0.001289	-39.457	0.00372	-125.321	0.01	74.604
	0.06	-59.069	0.003281	62.33	0.001864	65.076	0.003557	52.812
	0.002567	34.142	0.003293	61.553	0.069	-78.898	0.014	76.899
	0.006657	64.257	0.001275	-40.205	0.001841	63.768	0.014	76.625
	0.081	-92.253						
1253.85	0.068	-40.154	0.917	-30.417	0.003859	-128.911	0.003601	55.325
	0.006749	65.004	0.918	-30.543	0.075	-42.197	0.01	75.058
	0.002571	34.687	0.00118	-40.738	0.00387	-129.041	0.01	75.116
	0.061	-54.826	0.003337	61.401	0.001897	64.667	0.003599	54.251
	0.002623	35.604	0.003348	60.89	0.069	-75.825	0.014	76.259
	0.006772	65.173	0.001153	-42.504	0.001919	63.51	0.014	76.211
	0.08	-90.394						
1283.7	0.07	-37.458	0.918	-31.188	0.00402	-132.778	0.003666	57.041
	0.006908	65.708	0.918	-31.276	0.078	-39.848	0.011	75.378
	0.002625	36.632	0.001066	-43.307	0.004025	-132.599	0.011	75.484
	0.063	-50.831	0.003432	60.35	0.001995	64.109	0.003676	56.393
	0.002651	36.906	0.003473	60.453	0.069	-72.674	0.015	75.582
	0.006895	65.923	0.001056	-44.265	0.001977	63.253	0.015	75.624
	0.079	-88.483						
1313.55	0.073	-34.67	0.92	-32.085	0.004182	-136.783	0.003745	58.146
	0.007051	66.359	0.92	-32.111	0.081	-37.619	0.011	75.642
	0.002673	38.601	0.0009644	-46.785	0.004181	-136.227	0.011	75.783
	0.065	-47.069	0.003537	58.284	0.002062	63.15	0.003713	58.58
	0.002675	38.765	0.003591	58.583	0.069	-69.358	0.015	74.851
	0.007048	66.35	0.0009403	-46.303	0.002048	62.183	0.015	74.834
	0.078	-86.33						
1343.4	0.077	-32.34	0.919	-32.99	0.004351	-140.231	0.003802	59.417
	0.007184	66.874	0.92	-33.02	0.084	-35.691	0.011	75.973
	0.002708	41.132	0.0008157	-50.897	0.004358	-139.807	0.011	75.749
	0.067	-43.496	0.003634	56.863	0.002063	61.381	0.003783	60.03
	0.002714	40.603	0.003634	56.722	0.07	-65.922	0.015	74.093
	0.007188	67.163	0.0008184	-50.262	0.002112	61.041	0.015	74.175
	0.078	-83.904						
1373.25	0.08	-30.554	0.915	-33.887	0.004486	-143.124	0.00384	61.142
	0.007277	67.535	0.916	-33.911	0.088	-34.075	0.012	76.188
	0.002755	42.437	0.0006821	-56.814	0.004507	-143.294	0.012	75.768
	0.07	-40.273	0.003707	56.422	0.002097	60.141	0.003878	61.319
	0.002759	42.624	0.003692	56.019	0.071	-62.538	0.015	73.493
	0.007309	67.811	0.0006659	-55.604	0.00212	59.905	0.016	73.588
	0.077	-81.384						
1403.1	0.084	-28.842	0.911	-34.616	0.004663	-146.535	0.0039	63.112
	0.007381	68.555	0.911	-34.652	0.091	-32.452	0.012	76.22
	0.002773	44.084	0.0005864	-62.98	0.004669	-146.697	0.012	75.866
	0.073	-37.46	0.003872	55.002	0.002177	59.505	0.003943	62.886
	0.002777	44.785	0.003901	54.526	0.072	-59.11	0.016	72.833
	0.007408	68.238	0.0005611	-62.552	0.002153	59.35	0.016	72.833
	0.077	-78.87						
1432.95	0.088	-27.344	0.91	-35.176	0.004869	-149.89	0.004024	65.207
	0.007571	69.173	0.91	-35.199	0.095	-30.996	0.012	76.371
	0.002796	46.655	0.0004991	-70.814	0.004862	-149.554	0.012	76.126
	0.077	-34.853	0.004103	50.927	0.002213	58.685	0.004032	65.059
	0.002845	46.693	0.004082	50.877	0.074	-55.787	0.016	72.128
	0.007557	68.992	0.0004868	-73.569	0.002204	58.466	0.016	72.08
	0.076	-76.315						
