!Hittite Microwave Corporation								
!12 Elizabeth Drive								
!Chelmsford, MA 01824								
!Tel: 978-250-3343								
!Fax: 978-250-3373								
!Device: HMC270MS8G, DC-8 GHz GaAS MMIC SPDT non-reflective switch in 8-lead MSOP grounded base package								
!Misc: Port1 = RFCom, Port2 = RF1, Port3 = RF2, RF1 selected, Vctl=-5V								
!
# MHZ S MA R 50

10 0.125 -90.014 0.066 103.284 1.028 149.183
          0.096 -174.547 0.181 137.708 0.077 135.526
          1.333 -158.375 0.09 147.672 0.181 149.914
69.82 0.091 -5.656 1.061e-3 146.604 0.956 -1.081
          973.5e-6 -41.008 0.05 0.397 1.3e-3 45.549
          0.943 -0.764 1.541e-3 -66.315 0.086 10.24
129.641 0.058 14.469 598.6e-6 11.597 0.953 -1.333
          411e-6 -62.916 0.049 5.882 432.6e-6 67.534
          0.955 -1.431 604e-6 94.832 0.084 10.572
189.461 0.087 -2.637 598.9e-6 113.825 0.943 -2.085
          451e-6 58.854 0.053 10.659 176e-6 -144.321
          0.936 -1.838 328.1e-6 -9.781 0.087 9.791
249.281 0.077 20.926 551.3e-6 94.578 0.94 -2.494
          585.3e-6 37.777 0.053 14.961 38.38e-6 32.813
          0.941 -2.363 651.1e-6 69.594 0.086 12.02
309.102 0.079 5.02 773.3e-6 155.819 0.943 -2.869
          1.027e-3 104.095 0.057 17.535 510.7e-6 0.291
          0.934 -3.054 348.2e-6 118.358 0.088 13.324
368.922 0.082 21.066 1.163e-3 119.25 0.933 -2.905
          425.6e-6 91.408 0.058 21.047 723.1e-6 63.021
          0.933 -2.997 528.4e-6 176.222 0.089 16.264
428.743 0.079 12.54 502.4e-6 87.479 0.933 -3.503
          607.3e-6 93.912 0.061 23.425 651.4e-6 63.04
          0.925 -3.77 686.6e-6 130.608 0.09 18.834
488.563 0.088 22.89 958.5e-6 76.584 0.932 -3.871
          1.259e-3 105.898 0.063 26.488 1.012e-3 102.323
          0.931 -3.457 231.9e-6 111.505 0.092 22.087
548.383 0.083 20.6 1.139e-3 77.359 0.927 -4.113
          719.7e-6 52.861 0.064 28.172 506.8e-6 100.552
          0.922 -4.305 699.8e-6 97.51 0.092 24.573
608.204 0.095 27.867 877.5e-6 87.377 0.929 -4.41
          937.7e-6 97.661 0.067 30.23 827.1e-6 98.349
          0.925 -4.048 834.9e-6 103.465 0.096 27.107
668.024 0.088 27.228 1.31e-3 83.505 0.927 -4.437
          1.145e-3 78.86 0.068 32.869 705.5e-6 106.709
          0.918 -4.87 1.346e-3 102.784 0.099 30.58
727.844 0.106 29.124 1.279e-3 81.192 0.926 -5.181
          1.315e-3 93.183 0.072 33.159 896.3e-6 107.607
          0.922 -4.879 901.5e-6 124.573 0.104 32.691
787.665 0.101 33.385 1.412e-3 93.392 0.925 -4.858
          1.241e-3 95.387 0.074 36.741 701.7e-6 136.259
          0.915 -5.22 779.9e-6 120.942 0.109 36.001
847.485 0.117 31.547 1.476e-3 86.732 0.92 -5.532
          1.575e-3 84.479 0.075 36.235 749e-6 129.907
          0.917 -5.213 1.013e-3 111.067 0.114 36.884
907.305 0.118 37.28 1.496e-3 91.767 0.921 -5.802
          1.7e-3 77.384 0.078 39.076 1.114e-3 134.5
          0.915 -6.226 867e-6 130.859 0.121 39.189
967.126 0.129 33.265 1.477e-3 96.994 0.923 -5.885
          1.285e-3 95.113 0.079 38.656 1.083e-3 130.401
          0.918 -5.526 1.356e-3 129.045 0.127 39.783
1026.946 0.135 36.865 1.577e-3 99.886 0.916 -6.295
          1.509e-3 92.017 0.083 41.26 1.177e-3 127.89
          0.899 -6.692 1.377e-3 139.201 0.137 40.946
1086.766 0.146 33.205 1.802e-3 92.781 0.919 -6.658
          1.715e-3 97.753 0.083 40.945 1.414e-3 137.921
          0.918 -5.802 1.391e-3 131.355 0.142 41.156
1146.587 0.157 36.447 1.557e-3 95.278 0.914 -6.562
          1.709e-3 95.13 0.088 41.691 1.585e-3 139.766
          0.913 -6.934 1.597e-3 138.471 0.152 40.827
1206.407 0.163 33.529 1.937e-3 95.663 0.917 -7.118
          1.837e-3 97.642 0.089 42.873 1.729e-3 135.088
          0.918 -6.619 1.736e-3 142.356 0.16 40.724
1266.228 0.175 33.823 1.795e-3 94.345 0.917 -7.381
          1.871e-3 94.704 0.093 42.312 1.868e-3 140.854
          0.908 -8.367 1.924e-3 139.003 0.169 39.638
1326.048 0.18 31.564 1.972e-3 96.311 0.912 -7.479
          1.917e-3 101.47 0.096 44.098 1.973e-3 139.112
          0.904 -6.336 2.039e-3 141.161 0.177 39.088
1385.868 0.195 30.226 2.119e-3 97.873 0.918 -7.885
          2.083e-3 99.081 0.098 43.698 2.083e-3 146.115
          0.917 -8.494 2.116e-3 143.313 0.186 37.65
1445.689 0.202 30.338 2.068e-3 99.708 0.904 -8.462
          2.199e-3 98.566 0.102 45.023 2.085e-3 146.263
          0.915 -6.567 2.207e-3 144.53 0.194 36.538
1505.509 0.206 27.801 2.196e-3 99.467 0.921 -8.849
          2.185e-3 95.813 0.103 44.851 2.505e-3 147.395
          0.925 -10.172 2.49e-3 145.419 0.201 34.985
1565.329 0.217 26.398 2.334e-3 99.91 0.9 -8.469
          2.122e-3 99.128 0.108 45.252 2.585e-3 147.131
          0.895 -7.505 2.562e-3 143.887 0.209 32.936
1625.15 0.222 24.144 2.208e-3 101.061 0.901 -9.352
          2.317e-3 97.601 0.108 45.943 2.706e-3 148.457
          0.923 -10.507 2.792e-3 145.909 0.213 31.51
1684.97 0.232 22.353 2.301e-3 103.278 0.909 -8.884
          2.39e-3 104.03 0.113 45.771 2.915e-3 147.126
          0.912 -8.402 2.868e-3 150.272 0.219 30.078
1744.79 0.231 20.844 2.414e-3 104.119 0.915 -9.381
          2.423e-3 101.73 0.114 46.588 3.13e-3 148.821
          0.92 -10.922 3.094e-3 148.29 0.225 28.883
1804.611 0.242 18.745 2.551e-3 102.395 0.9 -10.482
          2.444e-3 98.609 0.118 45.841 3.207e-3 149.66
          0.902 -11.076 3.205e-3 147.148 0.233 26.603
1864.431 0.237 17.416 2.446e-3 108.926 0.907 -9.381
          2.615e-3 102.637 0.12 46.885 3.531e-3 154.264
          0.902 -11.294 3.69e-3 149.609 0.237 24.856
1924.251 0.246 14.308 2.556e-3 105.931 0.891 -11.134
          2.719e-3 101.137 0.122 46.576 3.457e-3 152.192
          0.89 -11.114 3.479e-3 148.29 0.241 22.478
1984.072 0.245 13.989 2.666e-3 105.573 0.911 -10.694
          2.791e-3 105.751 0.126 47.034 3.854e-3 151.444
          0.901 -11.41 3.782e-3 152.207 0.244 20.803
2043.892 0.247 11.621 2.701e-3 105.277 0.901 -10.539
          2.93e-3 104.182 0.127 46.947 3.976e-3 153.332
          0.891 -11.566 3.924e-3 155.026 0.246 18.378
2103.713 0.246 10.969 3.02e-3 105.663 0.886 -10.62
          2.929e-3 106.031 0.131 46.955 4.061e-3 155.167
          0.871 -12.896 4.172e-3 153.195 0.25 16.063
2163.533 0.238 7.781 3.236e-3 105.319 0.909 -11.674
          2.918e-3 103.836 0.133 47.916 4.493e-3 154.28
          0.883 -11.658 4.375e-3 153.476 0.249 14.389
2223.353 0.244 5.952 3.035e-3 103.947 0.897 -11.153
          2.961e-3 108.827 0.135 47.374 4.654e-3 155.578
          0.865 -10.212 4.457e-3 155.266 0.248 11.719
2283.174 0.237 6.331 2.948e-3 109.009 0.912 -12.248
          3.209e-3 111.05 0.137 48.427 4.886e-3 155.087
          0.895 -11.281 4.742e-3 156.532 0.246 10.358
2342.994 0.234 4.328 3.136e-3 106.075 0.886 -12.08
          3.143e-3 106.873 0.139 47.632 4.851e-3 159.461
          0.893 -11.808 4.776e-3 158.449 0.244 7.459
2402.814 0.225 3.821 3.44e-3 108.596 0.897 -12.208
          3.344e-3 109.285 0.142 48.608 5.694e-3 161.045
          0.882 -12.548 5.57e-3 162.528 0.238 5.857
2462.635 0.222 0.349 3.389e-3 102.19 0.883 -12.661
          3.371e-3 103.54 0.142 48.24 5.872e-3 155.264
          0.89 -11.29 5.857e-3 155.996 0.232 4.194
2522.455 0.213 1.987 3.269e-3 103.077 0.906 -12.646
          3.053e-3 106.493 0.145 48.485 5.973e-3 156.896
          0.891 -11.017 5.876e-3 156.323 0.229 2.704
2582.275 0.204 0.781 2.922e-3 106.311 0.896 -11.777
          3.078e-3 105.888 0.145 48.874 5.826e-3 160.507
          0.923 -12.517 6.129e-3 158.485 0.222 0.752
2642.096 0.197 2.024 3.243e-3 107.926 0.896 -12.603
          3.234e-3 105.313 0.147 48.824 6.15e-3 160.995
          0.904 -13.928 6.174e-3 159.005 0.218 -1.231
2701.916 0.187 1.482 3.23e-3 106.161 0.903 -13.784
          3.302e-3 107.343 0.149 49.499 6.503e-3 158.729
          0.919 -14.435 6.69e-3 156.584 0.209 -2.49
2761.737 0.18 2.371 3.148e-3 108.675 0.916 -13.411
          3.302e-3 108.589 0.149 49.457 6.759e-3 159.476
          0.888 -13.555 6.58e-3 158.799 0.2 -4.815
2821.557 0.17 3.825 3.369e-3 105.5 0.902 -14.208
          3.22e-3 104.574 0.151 50.034 6.96e-3 160.612
          0.911 -14.821 6.842e-3 160.367 0.191 -5.834
2881.377 0.167 4.624 3.341e-3 108.278 0.914 -14.242
          3.232e-3 109.816 0.15 50.213 7.223e-3 162.515
          0.902 -15.327 7.175e-3 160.181 0.18 -7.647
2941.198 0.162 9.656 3.3e-3 107.165 0.895 -14.573
          3.402e-3 107.669 0.152 50.529 7.402e-3 162.146
          0.91 -16.141 7.329e-3 159.331 0.171 -8.595
3001.018 0.151 10.605 3.202e-3 109.171 0.913 -16.013
          3.249e-3 109.17 0.151 50.681 7.653e-3 161.453
          0.891 -15.825 7.475e-3 160.727 0.16 -9.837
3060.838 0.151 14.485 3.191e-3 107.184 0.916 -15.516
          3.229e-3 111.544 0.153 50.813 7.957e-3 162.981
          0.894 -16.158 7.797e-3 162.69 0.149 -9.569
3120.659 0.148 16.254 3.074e-3 106.999 0.902 -16.333
          3.394e-3 104.175 0.153 51.347 8.043e-3 163.012
          0.89 -16.879 7.865e-3 163.378 0.138 -9.469
3180.479 0.157 20.739 3.158e-3 108.07 0.902 -16.643
          3.482e-3 104.393 0.154 51.259 8.264e-3 164.256
          0.898 -17.865 8.292e-3 163.394 0.131 -8.135
3240.299 0.151 23.805 3.2e-3 107.181 0.886 -17.804
          3.131e-3 107.02 0.155 51.588 8.414e-3 163.784
          0.878 -17.009 8.506e-3 162.474 0.121 -7.44
3300.12 0.157 24.359 3.237e-3 105.575 0.906 -17.208
          2.983e-3 107.57 0.156 51.222 8.79e-3 165.461
          0.874 -17.335 8.704e-3 164.465 0.115 -5.458
3359.94 0.156 26.519 3.127e-3 106.365 0.887 -17.002
          2.859e-3 107.939 0.156 50.845 8.861e-3 166.477
          0.876 -16.16 9.201e-3 166.406 0.109 -4.039
3419.76 0.163 26.457 2.952e-3 108.016 0.896 -17.328
          3.074e-3 104.127 0.155 50.615 9.336e-3 167.354
          0.897 -17.847 9.266e-3 166.673 0.105 -2.154
3479.581 0.165 29.254 2.969e-3 108.122 0.888 -17.86
          3.036e-3 109.61 0.155 49.827 9.475e-3 167.548
          0.905 -17.247 9.413e-3 168.11 0.101 -1.138
3539.401 0.161 29.606 2.742e-3 108.273 0.908 -17.826
          2.814e-3 108.667 0.154 49.734 9.938e-3 168.835
          0.885 -18.404 9.583e-3 167.541 0.096 0.05
3599.222 0.165 29.389 2.885e-3 108.211 0.899 -19.024
          2.69e-3 106.251 0.153 48.978 0.01 168.696
          0.885 -18.39 9.896e-3 168.218 0.093 0.96
3659.042 0.161 31.164 2.632e-3 109.068 0.915 -17.773
          2.451e-3 107.513 0.151 49.214 0.011 169.937
          0.901 -18.266 0.01 170.063 0.088 3.951
3718.862 0.167 28.077 2.526e-3 107.392 0.881 -20.084
          2.533e-3 110.356 0.149 48.644 0.011 168.157
          0.912 -19.21 0.011 169.857 0.087 3.836
3778.683 0.169 30.462 2.346e-3 110.647 0.922 -19.906
          2.467e-3 112.539 0.148 48.535 0.011 168.592
          0.917 -19.725 0.011 171.481 0.085 7.155
3838.503 0.166 28.689 2.225e-3 112.886 0.901 -20.146
          2.268e-3 112.063 0.146 48.342 0.011 169.94
          0.894 -21.008 0.011 168.692 0.082 6.732
3898.323 0.162 29.651 2.081e-3 111.883 0.913 -20.82
          2.541e-3 111.836 0.143 47.969 0.012 171.103
          0.902 -21.137 0.012 169.844 0.082 7.618
3958.144 0.157 25.769 2.117e-3 108.81 0.902 -21.004
          1.976e-3 116.45 0.142 47.685 0.012 170.737
          0.907 -21.513 0.012 169.947 0.081 8.546
4017.964 0.159 25.131 1.922e-3 111.738 0.895 -22.043
          1.812e-3 110.81 0.14 47.385 0.012 171.836
          0.908 -21.851 0.012 172.336 0.08 7.731
4077.784 0.151 23.463 1.776e-3 125.26 0.91 -22.974
          1.863e-3 115.092 0.138 47.254 0.013 170.957
          0.898 -22.974 0.013 171.281 0.08 6.62
4137.605 0.146 22.125 1.754e-3 126.185 0.9 -22.013
          1.796e-3 128.133 0.135 46.629 0.013 173.021
          0.896 -23.057 0.013 171.831 0.077 5.549
4197.425 0.134 20.823 1.379e-3 124.487 0.895 -22.972
          1.628e-3 129.861 0.132 46.498 0.013 172.092
          0.897 -23.874 0.013 172.323 0.075 3.425
4257.246 0.128 16.537 1.281e-3 125.37 0.892 -23.136
          1.463e-3 140.999 0.129 45.299 0.013 172.679
          0.901 -23.684 0.013 173.816 0.074 0.298
4317.066 0.118 16.729 1.369e-3 131.215 0.909 -24.035
          1.38e-3 149.251 0.127 44.736 0.014 173.163
          0.891 -24.468 0.014 172.268 0.074 -2.255
4376.886 0.108 10.288 1.312e-3 144.483 0.902 -24.516
          1.263e-3 149.108 0.124 43.546 0.014 173.805
          0.89 -24.912 0.014 174.049 0.073 -6.665
4436.707 0.1 12.375 1.259e-3 160.921 0.913 -24.441
          1.017e-3 158.061 0.122 42.992 0.015 175.724
          0.89 -25.267 0.014 173.776 0.072 -8.847
4496.527 0.081 4.815 1.271e-3 166.046 0.887 -25.82
          1.072e-3 147.862 0.12 41.896 0.014 174.726
          0.894 -25.606 0.014 174.871 0.07 -14.497
4556.347 0.074 4.077 1.298e-3 174.869 0.908 -26.18
          988.5e-6 174.03 0.118 41.281 0.015 175.937
          0.897 -25.785 0.015 175.932 0.069 -17.647
4616.168 0.056 -6.397 1.18e-3 177.192 0.892 -26.638
          1.388e-3 -178.823 0.115 40.247 0.015 176.574
          0.887 -26.665 0.015 176.151 0.068 -23.847
4675.988 0.049 -7.28 1.328e-3 -172.675 0.908 -26.655
          1.368e-3 -176.497 0.112 39.238 0.016 177.548
          0.89 -27.324 0.015 177.056 0.067 -28.623
4735.808 0.026 -18.911 1.256e-3 -164.168 0.89 -27.234
          1.182e-3 -163.12 0.11 38.191 0.016 177.751
          0.892 -27.4 0.016 178.092 0.066 -34.437
4795.629 0.021 -53.909 1.583e-3 -157.532 0.898 -28.437
          1.544e-3 -163.972 0.107 36.688 0.017 177.325
          0.896 -27.812 0.016 178.899 0.068 -40.345
4855.449 0.018 -101.207 1.859e-3 -154.335 0.901 -29.09
          1.79e-3 -154.707 0.106 35.661 0.017 178.131
          0.894 -28.636 0.017 178.703 0.069 -44.878
4915.269 0.029 -128.697 1.884e-3 -151.8 0.895 -29.192
          1.773e-3 -145.658 0.103 34.34 0.017 178.933
          0.89 -29.531 0.017 178.459 0.069 -51.045
4975.09 0.036 -153.623 1.858e-3 -147.355 0.888 -30.086
          1.736e-3 -146.012 0.102 33.213 0.018 178.895
          0.889 -30.353 0.018 178.446 0.071 -55.675
5034.91 0.057 -161.716 1.858e-3 -144.057 0.882 -30.577
          1.879e-3 -146.675 0.099 32.038 0.018 179.409
          0.896 -30.402 0.018 -179.27 0.07 -60.566
5094.731 0.068 -167.002 2.171e-3 -141.762 0.885 -31.507
          2.305e-3 -143.18 0.098 30.792 0.018 178.704
          0.885 -31.024 0.018 179.724 0.072 -65.56
5154.551 0.087 -170.259 2.448e-3 -139.107 0.884 -31.64
          2.665e-3 -141.013 0.095 29.115 0.019 -179.607
          0.885 -32.664 0.019 -179.742 0.074 -70.097
5214.371 0.095 -173.189 2.515e-3 -133.905 0.877 -31.874
          2.35e-3 -142.253 0.094 27.917 0.019 -178.668
          0.878 -33.311 0.019 179.98 0.074 -74.635
5274.192 0.113 -178.172 2.667e-3 -133.207 0.868 -33.077
          2.529e-3 -137.392 0.092 26.142 0.019 -179.662
          0.873 -33.686 0.019 -178.93 0.077 -78.535
5334.012 0.124 179.571 2.795e-3 -134.412 0.873 -33.531
          2.845e-3 -132.064 0.091 25.062 0.02 -179.113
          0.866 -33.42 0.02 -178.31 0.077 -80.405
5393.832 0.14 175.761 2.75e-3 -129.603 0.866 -34.014
          2.739e-3 -129.416 0.09 23.195 0.02 -178.424
          0.855 -34.306 0.02 -178.933 0.078 -82.997
5453.653 0.153 175.559 3.024e-3 -127.886 0.862 -34.06
          2.673e-3 -130.986 0.089 22.513 0.02 -177.705
          0.851 -35.659 0.021 -178.389 0.077 -85.196
5513.473 0.161 172.699 3.006e-3 -130.379 0.85 -34.613
          3.027e-3 -130.955 0.088 20.627 0.021 -177.165
          0.85 -35.333 0.021 -177.905 0.077 -87.062
5573.293 0.173 170.437 3.158e-3 -125.759 0.851 -35.426
          3.294e-3 -125.625 0.088 19.608 0.021 -176.855
          0.838 -34.949 0.021 -177.258 0.076 -88.101
5633.114 0.181 167.792 3.336e-3 -123.575 0.854 -35.475
          3.141e-3 -122.842 0.087 17.569 0.022 -175.912
          0.841 -35.049 0.021 -176.372 0.076 -87.556
5692.934 0.196 166.61 3.345e-3 -122.18 0.847 -35.648
          3.538e-3 -122.848 0.087 15.945 0.022 -175.103
          0.834 -36.257 0.022 -175.527 0.076 -87.276
5752.754 0.199 166.383 3.515e-3 -119.221 0.845 -36.148
          3.771e-3 -119.605 0.089 13.863 0.023 -174.403
          0.844 -36.349 0.023 -174.886 0.076 -85.368
5812.575 0.206 164.247 3.763e-3 -116.271 0.84 -37.044
          3.436e-3 -116.369 0.09 13.074 0.023 -174.259
          0.841 -36.338 0.023 -174.57 0.075 -83.548
5872.395 0.21 162.896 3.7e-3 -114.419 0.847 -37.349
          3.513e-3 -113.326 0.092 12.234 0.024 -173.938
          0.834 -36.032 0.023 -173.769 0.075 -80.189
5932.216 0.219 160.466 3.726e-3 -114.1 0.838 -37.49
          3.915e-3 -112.704 0.093 11.693 0.024 -173.299
          0.84 -37.582 0.024 -173.22 0.074 -77.922
5992.036 0.227 160.796 4.27e-3 -110.342 0.835 -37.919
          4.114e-3 -111.212 0.094 10.545 0.025 -172.661
          0.843 -38.382 0.025 -172.956 0.076 -75.154
6051.856 0.228 159.799 4.339e-3 -109.199 0.829 -38.525
          4.69e-3 -108.74 0.095 9.576 0.025 -172.538
          0.844 -39.074 0.026 -171.791 0.077 -72.166
6111.677 0.232 158.271 4.677e-3 -109.581 0.837 -39.036
          4.708e-3 -107.166 0.096 8.757 0.026 -172.062
          0.829 -38.482 0.026 -172.135 0.079 -68.765
6171.497 0.236 156.748 4.905e-3 -104.099 0.834 -39.287
          4.726e-3 -103.867 0.098 8.161 0.027 -171.569
          0.828 -39.673 0.026 -171.96 0.083 -65.657
6231.317 0.244 155.483 5.343e-3 -102.164 0.831 -39.551
          5.307e-3 -102.322 0.099 7.896 0.027 -171.271
          0.835 -40.494 0.027 -171.038 0.087 -62.405
6291.138 0.248 155.236 5.744e-3 -101.114 0.825 -40.41
          5.51e-3 -99.649 0.101 7.203 0.027 -171.444
          0.835 -41.036 0.028 -170.381 0.092 -59.781
6350.958 0.252 153.981 5.744e-3 -99.658 0.83 -40.866
          5.435e-3 -99.415 0.103 7.437 0.028 -170.727
          0.82 -41.345 0.028 -170.873 0.096 -56.734
6410.778 0.254 153.337 6.008e-3 -97.566 0.827 -41.257
          5.755e-3 -97.299 0.104 7.467 0.029 -170.255
          0.816 -41.326 0.029 -170.921 0.101 -54.487
6470.599 0.258 151.092 6.324e-3 -97.732 0.827 -41.785
          6.212e-3 -98.932 0.105 7.545 0.029 -170.075
          0.813 -42.051 0.03 -170.698 0.105 -53.547
6530.419 0.265 150.342 6.472e-3 -95.904 0.822 -42.248
          6.654e-3 -97.134 0.106 7.449 0.03 -170.273
          0.822 -42.523 0.03 -170.375 0.112 -52.637
6590.24 0.269 149.38 7.091e-3 -95.226 0.822 -42.91
          6.674e-3 -95.203 0.108 7.216 0.031 -170.11
          0.816 -42.859 0.031 -169.949 0.119 -51.67
6650.06 0.275 149.109 7.688e-3 -94.142 0.821 -43.314
          7.237e-3 -95.272 0.111 8.196 0.031 -169.426
          0.811 -43.364 0.031 -169.52 0.125 -50.292
6709.88 0.272 148.323 7.842e-3 -93.811 0.819 -43.872
          7.884e-3 -95.286 0.112 8.853 0.032 -169.582
          0.811 -43.866 0.032 -169.508 0.13 -49.67
6769.701 0.278 145.889 8.26e-3 -95.409 0.817 -44.49
          8.287e-3 -95.602 0.115 10.036 0.033 -169.58
          0.81 -44.48 0.033 -169.078 0.136 -49.116
6829.521 0.284 145.074 8.68e-3 -94.274 0.816 -44.942
          8.653e-3 -95.892 0.117 12.277 0.034 -169.146
          0.81 -45.011 0.033 -169.168 0.139 -48.802
6889.341 0.286 143.99 9.139e-3 -93.703 0.815 -45.492
          9.171e-3 -94.347 0.118 13.914 0.034 -168.557
          0.81 -45.555 0.034 -168.676 0.143 -49.251
6949.162 0.286 143.443 9.398e-3 -95.507 0.813 -46.096
          9.362e-3 -95.193 0.12 15.292 0.035 -168.542
          0.812 -45.826 0.035 -168.322 0.147 -49.407
7008.982 0.283 141.252 9.721e-3 -95.718 0.812 -46.833
          9.739e-3 -96.174 0.123 16.061 0.035 -168.634
          0.806 -46.639 0.036 -168.304 0.151 -50.007
7068.802 0.289 139.415 0.01 -94.96 0.81 -47.191
          9.871e-3 -94.218 0.126 16.891 0.036 -167.927
          0.8 -47.202 0.036 -168.149 0.154 -50.552
7128.623 0.288 138.022 0.011 -93.921 0.804 -47.838
          9.836e-3 -94.857 0.129 17.436 0.037 -168.134
          0.799 -47.72 0.037 -168.242 0.158 -51.071
7188.443 0.291 136.584 0.011 -94.136 0.805 -48.321
          0.01 -95.236 0.132 18.693 0.038 -168.281
          0.807 -47.867 0.038 -168.131 0.161 -51.299
