! Hittite Microwave Corporation
! 20 Alpha Road
! Chelmsford, MA 01824
! Tel: 978-250-3343
! Fax: 978-250-3373
! Device: HMC276QS24, 0.7-3.0 GHz, GaAS MMIC 4x2 Switch Matrix in 24-lead QSOP package
! Misc: Data was de-embedded to package pins.
!       Port 1 = OP1
!       Port 2 = VL
!       Port 3 = VH
!       Port 4 = HH
!       Port 5 = HL
!       Port 6 = OP2
!          Vdd = +5 V
!         Vctl = 0 V[Logic 0] / +5 V[Logic 1]
!
!  State 15,  HH to OP1,  HL to OP2
!  Control Lines (Logic)
!    HV 1 = 1, Tone 1 = 1
!    HV 2 = 1, Tone 2 = 0
!
!  Data reformated to new Touchstone file format - Wed Jan 10 16:00:54 2007
!
# MHz S DB R 50
! 6 Port Network Data
! freq  dbS11  angS11  dbS12  angS12  dbS13  angS13  dbS14  angS14  
!       dbS15  angS15  dbS16  angS16  
!       dbS21  angS21  dbS22  angS22  
!       dbS23  angS23  dbS24  angS24  dbS25  angS25  dbS26  angS26  
!       dbS31  angS31  dbS32  angS32  dbS33  angS33  dbS34  angS34  
!       dbS35  angS35  dbS36  angS36  
!       dbS41  angS41  dbS42  angS42  
!       dbS43  angS43  dbS44  angS44  dbS45  angS45  dbS46  angS46  
!       dbS51  angS51  dbS52  angS52  dbS53  angS53  dbS54  angS54  
!       dbS55  angS55  dbS56  angS56  
!       dbS61  angS61  dbS62  angS62  
!       dbS63  angS63  dbS64  angS64  dbS65  angS65  dbS66  angS66  
!     
                10         -10.75204            -16.074        -44.3950943             50.608        -41.9197623             16.417        -2.70977838              4.114
                      -50.2092674           -140.988        -45.7335499             15.328
                      -51.6738483            -13.501      -0.0610150301             -3.783        -48.9199136             25.236        -46.0693776             82.688
                      -51.9238678           -117.198        -46.9106933            154.477
                              -40           -176.807          -45.27207            -45.082      -0.0785269103             -3.874        -52.7352839            -41.029
                      -45.8061226           -160.615        -43.7377249           -111.678
                      -2.75737241              4.688        -47.3084395            147.184         -46.480769            141.931        -11.5023673            -10.988
                      -42.5966056            -99.859        -40.6837409             -5.983
                      -42.3301782            133.618        -41.7939166            -163.87        -44.7060187             85.852        -47.4424461           -120.326
                      -11.1504046            -12.061        -2.78126759              1.982
                      -42.5650396             10.487         -46.326454             42.763        -50.9704119           -172.691        -42.5161639            -18.936
                      -2.60363584               2.96        -10.9642713            -10.365

             29.95       -11.5023673            -13.091        -63.1067294             12.924        -62.7693118           -154.137        -2.69792051             -0.566
                      -64.2126169             42.491        -57.4449497             53.087
                      -59.5431878           -116.981       -0.282492854             -12.58        -63.5018706            -87.194          -66.51932             -6.887
                      -59.5514326           -110.679        -73.0690288             33.126
                      -57.3740441             12.395        -57.4126481            -92.801       -0.273524459            -12.544        -85.8485965             54.812
                      -61.1044264            140.358        -62.5545431             60.204
                      -2.70977838             -0.455        -58.6585829             39.524        -64.3577171           -119.801        -11.6339742            -16.391
                      -61.5891857             82.169        -57.6479462           -103.193
                      -72.8527394            121.917        -61.5382297             79.384        -57.8897963             16.417        -60.6396857             45.644
                      -11.8352007            -15.951        -2.59192189             -0.541
                      -56.9054359             70.835        -62.6967356            155.583        -59.6010664             27.742        -64.8202491            -80.432
                      -2.60363584             -0.561        -11.7340047            -13.469

              49.9       -11.9033257            -13.934         -65.225974             96.415        -74.0623105            -85.774        -2.61536561             -3.885
                      -66.1395386           -143.105        -63.4862858             35.553
                      -72.8451135              2.896        -0.63968572            -20.323        -65.5374568            -43.483        -81.1608317            -24.685
                      -72.9024715             64.276        -72.4429516             79.721
                      -68.5216912            -147.16        -68.7422524            146.776       -0.658405317            -20.235        -70.2346277            122.069
                      -67.3407366           -163.131        -63.4953735             82.424
                      -2.62711123             -3.766        -63.5644907            -28.706        -69.4165279             -13.86        -12.2878745            -18.751
                      -65.0782191            108.232        -73.1318281             13.765
                      -72.6827557            -94.323        -76.2721757             -33.81        -70.3197007            142.459        -63.2242771              98.17
                      -12.3236927            -19.421        -2.51036365             -3.689
                      -58.0271255              51.25         -65.867351            104.277        -77.3740441            107.761        -62.7717016             92.554
                      -2.52196804             -3.638        -12.1812979            -14.856

             69.85       -12.0411998            -17.577        -62.2454041             40.929        -81.6100702           -179.169         -2.7335428             -5.638
                      -72.9756731             -77.12         -60.766833             71.624
                      -65.4069866             66.825         -1.0906283            -27.327        -72.4502323            -94.379        -75.0209277             74.669
                      -65.8707652            163.996        -64.5932712              35.36
                      -70.0586413            -32.836         -68.941771             72.595         -1.0906283            -27.238         -67.377215              75.78
                      -73.5887664             -22.61        -85.8451909             36.722
                       -2.7335428             -5.567         -67.300384            108.091        -75.6292899           -121.968        -12.3596591            -24.477
                      -58.5992427             87.687        -71.8182526             23.725
                      -69.1062396           -108.762        -61.7672613             60.018        -67.5577928            112.501        -60.2824929             77.175
                       -12.432042            -25.342        -2.62711123             -5.394
                      -58.1035924             90.852        -68.0900756             29.152         -78.532966            -66.843        -72.2986045            126.261
                      -2.62711123             -5.274        -12.3596591                -19

              89.8       -12.2522035            -21.043        -64.8126876             72.347        -72.3272826             22.528        -2.82925605             -7.446
                      -71.6805118            -37.334        -58.6734815             93.565
                      -71.3246033            130.051        -1.59753347            -33.553        -79.7855227             -136.6        -70.0780202             12.443
                       -68.941771             61.299        -84.2451246            -82.295
                      -68.0067044             50.594        -69.1111973             81.458        -1.61843815            -33.424        -83.2242771             84.851
                       -71.882832            119.104         -67.377215             18.764
                      -2.84129471             -7.318        -70.2008304             50.912        -79.5102866             36.879        -12.5417599             -29.45
                      -59.2914052             88.019        -71.6174138            101.483
                      -76.5596238            -17.963        -66.5839543             92.423        -70.6685786            107.076         -58.438117             69.793
                      -12.6156829            -30.802         -2.7335428                 -7
                      -58.2018978             77.125        -72.2522035             31.287        -66.0327687             68.133        -75.9121734            128.811
                       -2.7335428             -6.911        -12.5050331            -22.734

            109.75        -12.432042            -24.038        -68.7019465            118.612         -67.752801            109.532        -2.96260799             -8.911
                      -79.7179936                -41        -55.9393423             86.941
                      -62.6979205             93.459        -2.18040806            -39.032        -69.3653138             91.293         -74.803346             35.056
                      -73.0261162            -21.564        -70.4056153             74.578
                      -66.4168952             17.499        -77.8966114            123.334        -2.19157962            -38.896        -74.1815088             47.812
                      -76.2834928             116.36        -66.9357497             71.267
                      -2.97483303              -8.85        -70.0172601             86.879        -75.0651058              67.05        -12.7654433            -34.705
                      -57.8151806             75.414        -74.0710841            -49.197
                      -70.1867869             16.902        -70.0724789             74.508        -74.9380883             45.223        -57.2846297             90.951
                      -12.8032904            -36.028        -2.85335007             -8.375
                      -57.8829865             91.835        -68.1787079             49.211        -69.1884057             60.823        -68.7327518             -6.866
                      -2.87751112             -8.354        -12.6902403            -26.151

             129.7       -12.6528816            -26.776        -65.7706044             90.179        -67.4424461             58.885        -3.08563964            -10.274
                      -78.0548538           -178.201        -54.9623709             90.071
                          -68.971             62.995        -2.75737241            -43.795        -72.2735885             59.046        -69.5772383             47.934
                      -78.5183062             -6.237         -69.775706            116.759
                      -69.5824724             65.715         -67.160608            144.486        -2.79323987            -43.722        -69.5172725            -14.162
                      -71.7777116             60.453        -67.0719255             61.935
                      -3.08563964            -10.195         -69.613943             39.687        -69.7864194             49.151        -13.0339027            -39.086
                      -56.8993554             68.902        -70.6212439             -76.35
                      -67.9284526            -19.506        -74.1106755             50.707        -68.0988982             73.194        -57.0526578             70.993
                      -13.0339027            -40.915        -2.97483303             -9.639
                      -55.7137221             93.199        -70.4604707             45.515        -67.8723727              60.33        -75.6555869            -36.561
                       -2.9870753             -9.571        -12.8794829            -29.271

            149.65       -12.8413031             -29.28         -63.900864             86.671        -69.0543538             89.495        -3.21043905            -11.509
                      -77.1647354            -74.678        -54.2350155             86.033
                      -67.7104927             90.946        -3.33705776            -47.886        -66.1501118            134.734        -65.9393339             15.206
                      -70.6035597              45.58        -65.5079297             78.208
                      -76.6241596            107.397        -68.4363878             88.149        -3.38822663            -47.827        -68.4777821             69.951
                      -71.6638626             62.948        -68.6783243              27.66
                      -3.22301819            -11.449        -80.9888088             81.115        -68.6547662             42.312         -13.310925            -43.171
                      -56.0875411              84.35        -70.9950178             -78.74
                      -71.0630458            -27.054        -71.4567719             52.842        -70.4662651             64.141        -55.6819637             71.632
                      -13.2708053            -45.261        -3.11045649            -10.736
                       -53.310925             91.641        -68.6641818             55.417        -67.7846681             39.185        -72.2807286            -36.183
                      -3.11045649            -10.734        -13.0729405            -32.011

             169.6       -13.0339027            -31.291        -66.1766013              92.72        -68.9783227               7.67        -3.32431251             -12.62
                      -72.2950264            -27.853        -52.4684609             82.619
                      -63.9554752             81.198        -3.91721135            -51.435        -71.1472695            120.369         -77.139704             84.003
                      -74.7747426              9.796        -64.6628238             69.181
                      -80.8545604              3.484        -67.7974477            105.799         -3.9719258            -51.438         -73.424256             72.397
                      -72.1671859             74.144         -66.878036              51.91
                      -3.34982175            -12.558        -71.4860557              3.881        -68.6289258             61.966        -13.5970743            -47.212
                      -54.6190858             74.809        -65.7520574            -67.445
                      -67.6369453            -70.783        -69.2134587              8.398        -73.4161117             11.182        -54.1548786             76.627
                      -13.5143509            -49.477        -3.23561556             -11.72
                      -52.5050331             76.193        -67.6411313             58.194        -72.9950396             41.392        -67.1348955            -50.026
                      -3.24823124             -11.69        -13.2708053            -34.693

            189.55       -13.2308701            -33.136        -65.6415995             92.016        -74.6753661             11.147        -3.45261454            -13.572
                      -67.9457811            -74.846        -52.0411998              84.56
                      -65.1157055             94.904        -4.45146355            -54.445        -66.6099433            133.101        -76.9664754               42.1
                      -69.6008164             64.533        -67.4240503              77.16
                      -71.7979585             38.252         -66.146586            115.715        -4.55356587            -54.575        -71.1253552            101.561
                      -74.9138734             54.101        -67.3934769             57.715
                      -3.47850395            -13.471        -69.3067885              5.995        -69.8213295             92.006        -13.8500792            -50.853
                      -53.9360789             78.499        -66.1342569            -62.465
                      -66.5303661              -56.1        -71.7608752             29.694        -71.9033257             51.002        -54.4478157             76.647
                      -13.7226556            -53.406        -3.36260451            -12.566
                       -51.961655              82.95        -64.5579686             53.146        -66.2977106             40.951        -66.1606979            -67.968
                      -3.37540612            -12.535        -13.4324079            -36.923

             209.5       -13.4324079            -34.687        -65.2736638             79.738        -71.9547724             37.769        -3.58284021            -14.421
                      -66.3138671            -56.766        -51.0166054             82.848
                      -62.3097568             75.702        -4.97441792            -57.032        -63.7030666            131.278        -71.7072171             -8.166
                      -69.6191992             44.841        -67.6767937             53.412
                      -69.1884057             45.506        -63.7043971            120.833        -5.09850417            -57.203        -71.4146467             76.039
                      -76.5537806              7.998        -69.3245588             47.691
                      -3.59597081            -14.299        -71.8250279             -5.347        -70.4431105            106.442        -14.1548786            -54.196
                      -53.7564529              75.64        -66.0484393            -63.029
                      -65.9066963            -73.098        -79.0857188             -0.816        -71.1944157             11.808        -53.2308701              74.67
                      -13.9360789            -56.809        -3.47850395            -13.304
                      -50.9000557             85.437        -70.0503493              64.97        -67.7147143             40.647        -64.2224977            -65.772
                      -3.49147764            -13.254        -13.5970743            -38.918

            229.45       -13.5970743            -36.034        -63.1553063             89.249        -68.9612461             61.736        -3.68844503            -15.188
                      -65.5670847            -83.414        -50.5215061             82.694
                      -63.8101525             89.633        -5.48176735            -59.276        -61.4947898             126.99         -73.659638             11.294
                      -73.2588055             43.266        -65.7706044             64.335
                      -69.0740833             67.731        -62.1280933            133.283        -5.61337426            -59.482        -73.3270249             98.845
                      -73.8201794             30.621        -69.8888612             43.919
                      -3.71504809            -15.032        -75.7615783            -26.879        -70.2346277             68.179        -14.4707639            -57.223
                      -52.3488536             74.826        -62.4433622            -67.338
                      -63.9966602            -87.009        -68.8138398             60.473        -67.4752463             69.487        -52.8833101             69.507
                      -14.1548786            -60.035        -3.59597081            -13.917
