! Hittite Microwave Corporation
! 20 Alpha Road
! Chelmsford, MA 01824
! Tel: 978-250-3343
! Fax: 978-250-3373
! Device: HMC276QS24, 0.7-3.0 GHz, GaAS MMIC 4x2 Switch Matrix in 24-lead QSOP package
! Misc: Data was de-embedded to package pins.
!       Port 1 = OP1
!       Port 2 = VL
!       Port 3 = VH
!       Port 4 = HH
!       Port 5 = HL
!       Port 6 = OP2
!          Vdd = +5 V
!         Vctl = 0 V[Logic 0] / +5 V[Logic 1]
!
!  State 09,  HL to OP1,  VL to OP2
!  Control Lines (Logic)
!    HV 1 = 1, Tone 1 = 0
!    HV 2 = 0, Tone 2 = 0
!
!  Data reformated to new Touchstone file format - Wed Jan 10 15:20:20 2007
!
# MHz S DB R 50
! 6 Port Network Data
! freq  dbS11  angS11  dbS12  angS12  dbS13  angS13  dbS14  angS14  
!       dbS15  angS15  dbS16  angS16  
!       dbS21  angS21  dbS22  angS22  
!       dbS23  angS23  dbS24  angS24  dbS25  angS25  dbS26  angS26  
!       dbS31  angS31  dbS32  angS32  dbS33  angS33  dbS34  angS34  
!       dbS35  angS35  dbS36  angS36  
!       dbS41  angS41  dbS42  angS42  
!       dbS43  angS43  dbS44  angS44  dbS45  angS45  dbS46  angS46  
!       dbS51  angS51  dbS52  angS52  dbS53  angS53  dbS54  angS54  
!       dbS55  angS55  dbS56  angS56  
!       dbS61  angS61  dbS62  angS62  
!       dbS63  angS63  dbS64  angS64  dbS65  angS65  dbS66  angS66  
!     
                10       -10.3425283            -11.835         -41.472122            -93.917        -52.3165172            145.127        -45.8434886             -4.805
                      -2.86542219              2.554        -45.5951596            110.565
                      -53.5225879             -28.62        -11.2133461              -11.3        -43.3103143            -95.392         -40.822991            -122.58
                      -45.8520034            -83.397        -2.67425322              2.833
                      -52.0099868             41.794        -48.6172055           -162.041                  0             -3.906        -44.6390837            156.027
                      -43.6341622             167.07        -40.0130386               85.9
                      -49.0691467              3.385        -46.4387419            -64.372        -52.0342539            148.161       0.0173544306             -3.999
                      -49.8025143           -172.694        -45.5194005             44.932
                      -2.84129471              3.694        -52.6342623           -179.887        -54.9187109            -61.488        -51.1066154            -31.588
                      -10.9642713              -8.88        -41.2086166              -7.93
                       -40.517138           -158.997         -2.7335428              4.001         -48.563495            177.502         -40.559648             13.523
                              -40            114.908        -11.4373041            -12.323

             29.95       -11.4049544             -12.96         -55.179037             -99.46          -59.25147             140.28        -55.9994147            -75.585
                      -2.70977838             -0.594        -57.6082845            173.924
                      -61.9284341             66.473        -11.6671899            -15.944        -63.0485468              96.72        -67.1784537            -83.476
                        -60.72991                 64        -2.65065024              -0.72
                      -60.1533488             54.244        -54.6942075             70.057       -0.282492854            -12.543        -57.8693829           -117.259
                      -59.0078877           -131.188        -68.0154427             23.048
                      -59.3637546            -46.638        -66.4041766              33.34        -56.2439472            130.336       -0.282492854            -12.655
                      -61.9632082              28.81        -68.2840198           -166.601
                       -2.7335428             -0.424        -66.1131618             -0.033        -76.8811396           -151.064        -57.1085158            -39.256
                      -11.6339742            -15.807                -60            -49.964
                      -59.0622962              90.31        -2.67425322              -0.65        -54.7130899            -37.418        -54.6989242             51.553
                      -55.9067498            -61.948        -11.9375896            -14.166

              49.9       -11.8352007            -13.962        -67.8659252             61.048        -63.8492994             41.691        -68.6665372              8.494
                      -2.63887276             -3.738        -64.8870756           -118.001
                      -63.5370388            127.376        -12.1460609            -18.769        -62.6848955             68.378        -64.6183643            127.223
                      -66.6434724             93.527        -2.55687455             -3.757
                      -68.4020426             -41.68        -60.8010557             133.74       -0.649040476            -20.198        -74.8081224             -0.987
                      -76.3061714              -9.24        -69.5850906             67.834
                      -62.9321205             92.735        -64.6925904            -93.179        -75.6083095             60.434       -0.649040476            -20.535
                      -73.7184402              73.04        -74.2216079              7.654
                      -2.63887276             -3.638        -64.4225106             40.248        -76.5071761            -13.972         -66.874202             49.931
                      -12.2878745            -18.535        -67.8551899            102.684
                      -65.5374568            -171.49        -2.58022372             -3.627        -61.9915649            151.255        -70.9000557             -71.11
                      -62.0090614            121.505         -12.432042            -14.709

             69.85       -11.9375896            -17.766        -63.0646009             55.455        -79.2196536            -86.284        -72.6902403             27.056
                      -2.75737241             -5.486        -67.4506346             48.171
                      -60.6696565             70.039        -12.3236927            -24.767        -66.6285546             52.389        -73.9924387             57.083
                      -74.1548786             35.639        -2.67425322             -5.482
                      -64.1269856             92.873        -69.3653138             28.624        -1.10048183            -27.239         -68.320164            104.014
                      -72.4940452             43.287        -65.9066963             74.607
                      -70.4604707              62.39        -64.3648925             19.427        -67.4199676            -67.576        -1.08078593            -27.618
                      -68.5240084              52.92        -73.5102353            127.214
                      -2.74544943             -5.395        -71.0816917             12.591        -70.0807921            138.387        -72.4830713             46.127
                      -12.3236927            -24.372        -62.1625634             95.477
                      -69.8970004             80.829         -2.6860788             -5.372        -69.5955713             86.206        -67.2903251            111.064
                      -62.8859834             70.477        -12.5786428            -18.582

              89.8       -12.1460609            -21.289        -61.0572096              78.76        -69.9705986             31.471        -66.6416063             86.207
                      -2.86542219             -7.127        -71.7575119               79.7
                      -60.9112903             84.417        -12.5050331             -30.12        -70.7610301            112.899        -66.2494208            102.753
                      -66.1272195             73.446        -2.78126759             -7.126
                      -73.2988696            112.518        -69.2764094             93.145        -1.61843815            -33.439        -71.9961502             -46.05
                      -68.3906243             64.796        -65.4736078             54.282
                      -72.8986359             48.795        -67.0582114             25.435        -78.1385739            166.343        -1.60797952              -33.9
                      -66.4496859             59.287        -72.5749474             60.581
                      -2.85335007             -7.018        -73.4732828            114.076        -70.4952955             47.346        -65.7858087            109.448
                      -12.4684609            -29.555        -59.6343138             69.316
                      -64.2550424             66.362        -2.79323987             -7.007        -64.7224594             17.443        -70.8332875             57.686
                      -61.3272177             85.839        -12.7654433            -22.055

            109.75       -12.3236927            -24.437        -58.5109856             86.028        -72.7692206             92.081         -67.056254             38.699
                       -2.9870753             -8.563        -69.9842965             56.357
                      -59.5596852             85.687        -12.7277604            -35.092         -67.530879             62.357        -74.1062675              74.27
                       -77.233946            121.747        -2.90173955             -8.503
                      -67.5061094            103.968        -63.6222917             80.688        -2.19157962            -38.908        -81.2176056            126.327
                       -66.682754            160.966        -75.0897466            129.526
                       -64.826303             48.437        -68.0067044             44.942        -69.7063891           -177.059        -2.18040806            -39.399
                      -66.9126182             71.319        -65.3264269              48.08
                       -2.9870753             -8.501        -76.1542277            162.007        -74.5399746             52.821        -67.6243995             76.553
                      -12.6902403            -34.772        -60.6659045             95.346
                      -65.4573115             73.127        -2.91387916             -8.422        -64.2140278             -1.077        -70.2713904            141.197
                      -62.6224111             84.145        -12.9563496            -25.212

             129.7       -12.5050331             -27.34        -61.6152992             74.684        -69.9350846             48.636        -66.9938495             63.784
                       -3.0980392             -9.864        -66.0501823             54.162
                      -58.0617997             88.364        -12.9563496            -39.922        -64.1032708             63.163        -72.5050331             23.537
                      -73.3633591              9.275        -3.02390598             -9.786
                      -67.3975471             56.673        -66.8073798             99.896        -2.79323987            -43.664        -79.4938827             35.142
                      -70.3425283             89.305        -68.3473712             37.996
                      -72.0134494             18.199        -67.1230538              32.54        -75.3147175            179.548        -2.76931178            -44.191
                      -66.2280445             96.436        -69.2385843             76.798
                      -3.11045649             -9.756        -75.5093387             78.645        -69.3755325             10.185        -67.5370825             65.326
                      -12.9563496            -39.256        -58.4163751             81.314
                      -64.3290744             67.959        -3.04854682             -9.698        -68.4409774              53.49        -72.8374943             79.389
                      -57.7144541             78.019        -13.1515464            -28.106

            149.65       -12.6902403            -29.945        -58.8924334             68.598        -70.6271466             61.334        -68.9466357              5.227
                      -3.22301819            -10.988        -64.7389312             61.353
                       -58.532966             79.616        -13.2308701            -44.247        -68.1787079             91.648        -74.0754743             39.018
                       -75.055269             90.487        -3.14781521            -10.913
                      -68.0724571             55.465        -66.5821009              64.87        -3.38822663            -47.787        -78.1455871            177.989
                      -74.8560315             27.382        -71.4114147             39.936
                      -70.4807682             13.195        -72.0446749              62.34        -81.8636057            157.155        -3.34982175            -48.313
                      -65.9582856              92.78        -66.9550732             60.466
                      -3.23561556            -10.937         -69.064213             91.958         -73.183189             45.865        -65.4069866             78.777
                      -13.1911177            -43.567        -57.5556824             79.229
                      -67.6516051             68.314        -3.16030391            -10.873        -64.3778233             11.587        -72.6977314            119.378
                      -58.9154018             78.736        -13.3512308            -30.582

             169.6       -12.8794829            -32.176        -56.7546877              71.14        -66.9899641              68.31        -67.7549219             23.047
                      -3.34982175            -12.009        -66.4972699             48.788
                      -56.8327502             73.875        -13.4732828            -48.416        -62.7824641             93.196        -76.6713977            -24.774
                      -75.8419294             48.257        -3.27351769             -11.92
                       -69.483561             87.784        -62.7848575             66.781        -3.98565843            -51.365        -76.2778324            123.129
                      -68.9783227             40.324        -68.7708166             27.497
                      -68.1165704             -1.835        -79.5102866             94.218        -77.5622403            152.631        -3.94452549            -51.913
                      -64.0685133             79.775        -67.5910323             73.738
                      -3.36260451            -11.937         -69.797146              35.59        -76.1765709             86.059        -65.9772787              80.64
                      -13.4324079            -47.617        -57.0279469             75.091
                      -64.8157114             56.827        -3.29887797            -11.878        -70.4315562              6.651        -71.2545041             59.466
                      -56.5479414             77.957        -13.5556141            -33.008

            189.55       -13.0339027            -34.149        -56.4550433              80.55        -66.8397721               91.5        -73.2229051             -7.607
                      -3.49147764            -12.889        -67.6139585             65.007
                      -56.3974825             78.114        -13.7226556            -52.148        -62.9528403             82.484        -72.4429516              3.019
                      -75.5145197             54.125        -3.40106608            -12.796
                      -66.5488074             62.073        -63.5605636             90.278        -4.55356587            -54.456        -71.7709732           -172.954
                       -71.917015             62.529        -65.7402753               24.3
                      -64.9069186             15.945        -83.3052296            -19.393        -70.3654161            121.184        -4.49507481            -55.007
                       -62.533588             98.787        -68.1542437             53.843
                      -3.49147764            -12.769        -68.7708166             60.709        -70.1615657             54.622        -63.0140692             85.483
                      -13.6805931            -51.394        -55.3147175             69.057
                      -66.8512335             38.808        -3.42680207            -12.706        -65.8758892             16.714        -72.0065256             68.913
                        -56.03786              77.51        -13.7226556            -35.083

             209.5       -13.2308701            -35.885        -55.2692548             74.065        -72.3704782             74.476        -67.2462036             15.833
                      -3.60912129            -13.645        -64.0588061             53.974
                      -54.4112242             77.101        -13.9360789            -55.555        -63.1916044            112.333        -73.1436537             52.107
                      -74.1062675             73.743        -3.53051542            -13.547
                      -65.8895677             82.095          -61.83459             92.385        -5.12980471            -57.081        -72.3776984            114.456
                      -70.8181842             31.409        -67.3447822              5.488
                      -69.4165279              23.27        -72.4977063             53.493        -70.1924016            171.281        -5.03623946            -57.641
                       -63.052249             81.271        -69.0003278             61.581
                      -3.62229171            -13.524        -77.9307676              49.68        -74.0974583            103.769        -62.2150868            102.076
                      -13.9360789            -54.743        -55.1491714             73.368
                       -65.360171             52.706        -3.54356709            -13.448         -69.231039              4.836         -69.396006              63.49
                      -56.0543888             71.063        -13.8929726            -36.816

            229.45       -13.3512308            -37.404         -54.230544             71.525        -68.4318006             52.978        -66.6958874              -0.68
                      -3.72838023             -14.32        -66.2209307             41.986
                      -54.6190858             80.113        -14.1548786            -58.578        -63.5880901             92.532        -71.7608752             74.964
                       -74.972103             81.974        -3.63548213            -14.181
                      -69.5276716             66.779         -61.396307             79.681        -5.64658994            -59.376        -76.5071761            115.952
                      -68.5379243             47.422        -64.8111761             -3.473
                      -67.8551899              9.159        -77.6280927             61.259         -69.218478            136.565        -5.54732155            -59.899
                      -61.6278617              90.73        -70.2346277             75.293
                      -3.72838023            -14.183        -72.9293688              82.22        -70.4633674             50.705        -61.5475666             97.684
                      -14.1993078            -57.839        -55.3400778              73.39
