!Hittite Microwave Corporation								
!12 Elizabeth Drive								
!Chelmsford, MA 01824								
!Tel: 978-250-3343								
!Fax: 978-250-3373
!Device: HMC232C8, DC - 8 GHz GaAs MMIC High-Isolation SPDT Switch in 8-lead non-hermetic SMT ceramic package
!Misc: Port1=RFC, Port2= RF1, Port3=RF2, RF1 ON, Control: -5VDC								
!
# MHZ S MA R 50

100 0.087 -7.109 0.89 -2.487 213.5e-6 -44.683
          0.888 -2.489 0.085 -6.635 220.5e-6 115.69
          242.6e-6 13.046 249.4e-6 94.618 0.179 179.448
179 0.064 5.754 0.909 -5.848 301.8e-6 4.119
          0.908 -5.838 0.063 6.801 377.2e-6 68.132
          240e-6 7.014 517.9e-6 55.041 0.196 169.775
258 0.073 -0.65 0.896 -7.644 226.6e-6 -45.963
          0.893 -7.625 0.071 -0.432 438.5e-6 60.242
          259.6e-6 -75.964 508.7e-6 55.1 0.187 168.523
337 0.074 -0.732 0.892 -9.695 352.8e-6 -108.557
          0.891 -9.659 0.072 -0.027 600.1e-6 84.511
          290.7e-6 -92.959 562.2e-6 84.768 0.186 165.395
416 0.076 -1.302 0.891 -11.813 358.5e-6 -103.225
          0.889 -11.728 0.072 -0.184 744.2e-6 86.419
          342.6e-6 -108.417 694.5e-6 88.851 0.186 161.999
495 0.077 -2.331 0.889 -13.898 411.1e-6 -124.451
          0.887 -13.852 0.073 -1.248 883.7e-6 86.393
          433.5e-6 -119.344 986.6e-6 91.101 0.187 158.93
574 0.078 -3.671 0.888 -15.942 368.6e-6 -139.909
          0.886 -15.932 0.073 -2.584 1.071e-3 91.056
          395e-6 -126.421 1.037e-3 89.387 0.187 155.987
653 0.079 -4.555 0.886 -17.991 441e-6 -140.524
          0.884 -17.978 0.074 -2.767 1.237e-3 91.115
          428.8e-6 -138.025 1.22e-3 91.709 0.186 152.832
732 0.081 -4.604 0.886 -20.023 529.6e-6 -138.367
          0.884 -20.02 0.075 -2.312 1.344e-3 91.55
          507.6e-6 -139.202 1.357e-3 90.046 0.186 149.338
811 0.084 -4.335 0.884 -22.083 621e-6 -141.725
          0.882 -22.084 0.075 -1.207 1.55e-3 94.432
          534.6e-6 -147.264 1.586e-3 92.778 0.188 145.816
890 0.085 -4.824 0.884 -24.151 647.2e-6 -153.2
          0.882 -24.194 0.074 0.094 1.719e-3 92.784
          627.3e-6 -151.072 1.697e-3 92.75 0.19 142.753
969 0.086 -5.328 0.883 -26.193 636.2e-6 -156.184
          0.881 -26.227 0.074 0.179 1.875e-3 92.927
          665.5e-6 -155.694 1.82e-3 90.996 0.192 139.816
1048 0.088 -6.185 0.882 -28.221 761.8e-6 -161.336
          0.88 -28.164 0.074 0.341 2.02e-3 92.981
          775.9e-6 -158.715 2.05e-3 93.355 0.193 136.679
1127 0.09 -6.49 0.882 -30.285 782.3e-6 -167.028
          0.879 -30.131 0.075 1.743 2.14e-3 93.062
          827.2e-6 -161.949 2.187e-3 93.798 0.195 133.38
1206 0.093 -7.314 0.881 -32.356 860.9e-6 -172.173
          0.878 -32.249 0.073 3.59 2.312e-3 93.452
          879.7e-6 -172.434 2.256e-3 92.056 0.199 130.147
1285 0.097 -8.659 0.88 -34.416 975.6e-6 -175.065
          0.878 -34.347 0.071 5.439 2.497e-3 93.632
          989.8e-6 -175.283 2.473e-3 93.497 0.203 127.382
1364 0.1 -10.675 0.88 -36.466 973.6e-6 178.507
          0.878 -36.397 0.069 6.708 2.584e-3 93.387
          989.7e-6 -175.924 2.585e-3 93.98 0.206 124.919
1443 0.104 -11.645 0.879 -38.486 1.027e-3 179.63
          0.877 -38.416 0.069 8.21 2.737e-3 93.042
          1.092e-3 177.299 2.713e-3 93.701 0.208 122.224
1522 0.106 -12.262 0.878 -40.511 1.157e-3 174.774
          0.876 -40.402 0.07 10.221 2.902e-3 93.558
          1.11e-3 174.816 2.884e-3 93.346 0.211 119.244
1601 0.111 -13.363 0.877 -42.535 1.156e-3 169.79
          0.876 -42.465 0.071 13.349 2.965e-3 94.027
          1.272e-3 171.323 3.045e-3 92.943 0.215 116.336
1680 0.115 -14.828 0.876 -44.593 1.327e-3 166.657
          0.875 -44.563 0.07 15.816 3.127e-3 93.088
          1.331e-3 166.472 3.098e-3 93.29 0.22 113.865
1759 0.118 -16.415 0.876 -46.621 1.443e-3 165.568
          0.873 -46.581 0.07 18.255 3.309e-3 91.67
          1.427e-3 164.411 3.282e-3 92.175 0.224 111.653
1838 0.121 -17.661 0.875 -48.628 1.398e-3 159.912
          0.873 -48.568 0.071 19.559 3.36e-3 91.266
          1.533e-3 161.318 3.319e-3 92.289 0.227 109.329
1917 0.124 -18.987 0.875 -50.662 1.624e-3 162.032
          0.873 -50.585 0.073 20.254 3.395e-3 91.301
          1.521e-3 159.466 3.388e-3 90.446 0.231 106.849
1996 0.126 -20.589 0.875 -52.765 1.674e-3 156.529
          0.873 -52.655 0.073 22.199 3.606e-3 93.488
          1.704e-3 155.745 3.619e-3 92.697 0.236 104.337
2075 0.129 -23.3 0.875 -54.823 1.751e-3 152.602
          0.872 -54.734 0.073 24.264 3.692e-3 92.255
          1.737e-3 153.066 3.693e-3 92.416 0.241 102.169
2154 0.132 -26.014 0.875 -56.836 1.846e-3 148.443
          0.872 -56.784 0.072 26.566 3.815e-3 90.72
          1.826e-3 149.84 3.884e-3 91.388 0.246 100.298
2233 0.134 -28.813 0.874 -58.87 1.961e-3 146.058
          0.872 -58.793 0.071 28.648 3.934e-3 90.798
          1.889e-3 144.954 3.901e-3 90.524 0.25 98.457
2312 0.136 -31.608 0.873 -60.9 1.955e-3 143.892
          0.871 -60.881 0.07 30.512 4.055e-3 89.544
          1.93e-3 145.127 3.979e-3 90.278 0.254 96.53
2391 0.139 -35.248 0.872 -62.991 2.091e-3 141.742
          0.87 -62.959 0.069 33.19 4.093e-3 89.384
          2.06e-3 140.051 4.047e-3 90.271 0.259 94.65
2470 0.143 -38.914 0.872 -65.105 2.065e-3 138.608
          0.87 -65.014 0.067 36.592 4.206e-3 89.087
          1.995e-3 140.004 4.221e-3 88.547 0.264 92.893
2549 0.147 -42.228 0.872 -67.14 2.209e-3 136.611
          0.87 -67.039 0.066 40.163 4.297e-3 87.857
          2.176e-3 136.192 4.366e-3 87.773 0.268 91.265
2628 0.15 -45.701 0.872 -69.143 2.301e-3 134.343
          0.87 -69.089 0.066 43.475 4.403e-3 86.757
          2.237e-3 134.433 4.416e-3 86.95 0.272 89.705
2707 0.152 -49.25 0.871 -71.15 2.323e-3 133.816
          0.869 -71.125 0.065 46.526 4.472e-3 86.012
          2.315e-3 133.332 4.487e-3 85.504 0.276 88.194
2786 0.155 -53.121 0.87 -73.286 2.483e-3 133.236
          0.869 -73.231 0.064 50.173 4.545e-3 84.152
          2.438e-3 131.311 4.535e-3 84.73 0.28 86.716
2865 0.157 -56.816 0.87 -75.381 2.657e-3 129.689
          0.868 -75.321 0.063 53.945 4.622e-3 83.166
          2.646e-3 128.496 4.624e-3 82.972 0.283 85.277
2944 0.16 -60.486 0.87 -77.447 2.647e-3 124.81
          0.868 -77.391 0.063 57.902 4.722e-3 82.275
          2.697e-3 125.848 4.672e-3 83.133 0.286 83.824
3023 0.163 -63.885 0.869 -79.522 2.706e-3 122.164
          0.868 -79.444 0.063 61.667 4.814e-3 81.828
          2.703e-3 123.594 4.74e-3 81.632 0.29 82.48
3102 0.164 -67.48 0.869 -81.577 2.836e-3 121.267
          0.867 -81.523 0.063 65.349 4.872e-3 80.243
          2.803e-3 122.013 4.882e-3 79.757 0.293 81.202
3181 0.166 -71.506 0.869 -83.706 2.904e-3 119.238
          0.867 -83.596 0.062 69.431 4.913e-3 78.787
          2.853e-3 120.087 4.883e-3 79.004 0.295 79.913
3260 0.167 -75.418 0.868 -85.815 2.991e-3 118.376
          0.866 -85.76 0.062 73.695 4.978e-3 76.596
          2.953e-3 119.674 4.949e-3 77.274 0.297 78.603
3339 0.169 -79.467 0.867 -87.859 3.137e-3 117.392
          0.866 -87.802 0.062 78.114 5.044e-3 75.866
          3.156e-3 117.476 5.062e-3 75.593 0.299 77.243
3418 0.171 -83.341 0.866 -89.926 3.169e-3 114.702
          0.865 -89.888 0.063 82.187 5.093e-3 74.225
          3.149e-3 114.491 5.153e-3 74.144 0.301 75.966
3497 0.172 -87.293 0.866 -92.003 3.303e-3 112.406
          0.864 -91.98 0.065 86.062 5.187e-3 73.138
          3.318e-3 112.573 5.142e-3 73.385 0.302 74.752
3576 0.173 -91.227 0.865 -94.119 3.479e-3 111.488
          0.863 -94.025 0.066 89.946 5.292e-3 71.929
          3.391e-3 111.224 5.259e-3 71.599 0.303 73.472
3655 0.174 -95.027 0.864 -96.215 3.596e-3 109.294
          0.862 -96.125 0.068 93.256 5.377e-3 69.556
          3.594e-3 109.153 5.359e-3 69.817 0.303 72.157
3734 0.176 -98.798 0.863 -98.298 3.76e-3 107.68
          0.862 -98.211 0.071 95.281 5.494e-3 68.289
          3.736e-3 107.795 5.43e-3 68.032 0.303 70.757
3813 0.178 -102.414 0.863 -100.346 3.831e-3 105.229
          0.861 -100.283 0.073 96.708 5.573e-3 65.719
          3.826e-3 104.774 5.476e-3 66.325 0.303 69.289
3892 0.179 -105.857 0.862 -102.507 4.068e-3 103.675
          0.861 -102.352 0.075 98.468 5.519e-3 63.931
          4.112e-3 103.63 5.467e-3 64.445 0.303 67.816
3971 0.181 -108.681 0.861 -104.601 4.303e-3 100.462
          0.86 -104.475 0.075 99.167 5.558e-3 63.563
          4.227e-3 100.687 5.539e-3 63.487 0.301 66.206
4050 0.18 -111.257 0.861 -106.654 4.486e-3 97.757
          0.86 -106.622 0.076 98.293 5.619e-3 61.849
          4.473e-3 97.388 5.612e-3 62.149 0.3 64.486
4129 0.18 -113.695 0.86 -108.77 4.623e-3 94.167
          0.859 -108.77 0.077 96.795 5.696e-3 60.606
          4.577e-3 93.8 5.712e-3 60.654 0.299 62.61
4208 0.181 -115.683 0.86 -110.901 4.79e-3 90.205
          0.858 -110.825 0.079 94.935 5.742e-3 59.333
          4.701e-3 90.886 5.756e-3 58.934 0.299 60.681
4287 0.181 -117.257 0.858 -112.996 4.808e-3 86.703
          0.857 -112.874 0.079 92.754 5.897e-3 58.341
          4.809e-3 86.671 5.876e-3 57.998 0.298 58.805
4366 0.182 -118.863 0.858 -115.08 4.882e-3 83.489
          0.856 -115.016 0.079 89.748 5.968e-3 56.994
          4.864e-3 83.729 5.926e-3 57.334 0.297 56.757
4445 0.182 -120.151 0.857 -117.153 4.893e-3 81.225
          0.856 -117.054 0.078 86.034 6.072e-3 56.303
          4.881e-3 81.077 6.048e-3 56.029 0.295 54.626
4524 0.181 -120.9 0.857 -119.276 4.909e-3 79.42
          0.855 -119.212 0.076 81.061 6.24e-3 55.805
          4.847e-3 79.282 6.178e-3 55.758 0.294 52.243
4603 0.181 -121.466 0.857 -121.405 4.976e-3 79.272
          0.855 -121.36 0.076 75.344 6.436e-3 53.3
          4.937e-3 79.131 6.452e-3 53.611 0.294 49.777
4682 0.183 -121.449 0.856 -123.503 5.193e-3 77.447
          0.855 -123.475 0.075 69.06 6.394e-3 51.462
          5.201e-3 77.46 6.394e-3 51.233 0.294 47.329
4761 0.183 -121.344 0.855 -125.682 5.41e-3 75.277
          0.854 -125.627 0.075 62.075 6.448e-3 50.601
          5.391e-3 75.348 6.48e-3 50.395 0.294 44.805
4840 0.183 -121.164 0.855 -127.837 5.558e-3 71.975
          0.854 -127.777 0.075 55.387 6.506e-3 50.055
          5.517e-3 72.595 6.543e-3 49.862 0.295 42.181
4919 0.184 -121.157 0.853 -129.936 5.645e-3 69.732
          0.852 -129.876 0.077 47.862 6.688e-3 48.752
          5.619e-3 69.998 6.691e-3 48.93 0.296 39.468
4998 0.188 -121.267 0.852 -132.079 5.769e-3 67.478
          0.851 -131.998 0.082 40.361 6.798e-3 48.136
          5.792e-3 67.153 6.795e-3 48.51 0.298 36.701
5077 0.191 -121.416 0.852 -134.203 5.935e-3 65.244
          0.851 -134.17 0.088 33.717 6.902e-3 46.995
          5.914e-3 65.139 6.899e-3 46.686 0.301 34.051
5156 0.193 -121.441 0.851 -136.354 6.09e-3 61.953
          0.85 -136.289 0.093 27.79 7.031e-3 45.831
          6.072e-3 62.203 7.011e-3 46.125 0.304 31.519
5235 0.195 -121.715 0.851 -138.493 6.22e-3 59.854
          0.849 -138.431 0.099 22.433 7.048e-3 45.277
          6.207e-3 60.331 7.029e-3 45.271 0.307 28.898
5314 0.197 -122.248 0.85 -140.66 6.343e-3 57.218
          0.848 -140.629 0.106 17.185 7.114e-3 44.764
          6.313e-3 57.035 7.128e-3 44.878 0.311 26.13
5393 0.202 -122.775 0.848 -142.834 6.402e-3 54.554
          0.846 -142.802 0.115 12.955 7.19e-3 44.08
          6.393e-3 54.562 7.203e-3 43.986 0.316 23.459
5472 0.207 -123.547 0.847 -145.023 6.496e-3 52
          0.846 -144.951 0.125 9.736 7.364e-3 43.678
          6.496e-3 52.261 7.313e-3 43.952 0.322 21.049
5551 0.212 -124.36 0.845 -147.168 6.612e-3 49.636
          0.844 -147.108 0.134 7.01 7.387e-3 42.844
          6.616e-3 49.818 7.399e-3 42.837 0.328 18.903
5630 0.215 -125.467 0.844 -149.327 6.746e-3 47.146
          0.843 -149.235 0.142 4.623 7.528e-3 42.824
          6.689e-3 47.04 7.511e-3 42.438 0.334 16.812
5709 0.217 -126.975 0.843 -151.466 6.781e-3 44.108
          0.842 -151.403 0.15 2.574 7.634e-3 42.175
          6.775e-3 44.057 7.621e-3 41.737 0.339 14.592
5788 0.22 -128.76 0.841 -153.665 6.783e-3 41.659
          0.84 -153.592 0.159 0.748 7.734e-3 40.697
          6.789e-3 41.633 7.688e-3 40.9 0.346 12.414
5867 0.224 -130.91 0.84 -155.82 6.829e-3 40.238
          0.839 -155.747 0.168 -0.289 7.79e-3 40.104
          6.802e-3 40.133 7.772e-3 40.161 0.353 10.557
5946 0.228 -133.194 0.838 -157.935 6.892e-3 37.973
          0.837 -157.888 0.176 -0.925 7.796e-3 39.45
          6.898e-3 37.87 7.801e-3 39.578 0.36 8.937
6025 0.229 -135.671 0.837 -160.084 6.999e-3 35.404
          0.836 -160.031 0.182 -1.603 7.839e-3 38.249
          6.964e-3 35.807 7.79e-3 38.613 0.366 7.406
6104 0.23 -138.407 0.836 -162.249 7.045e-3 32.909
          0.835 -162.198 0.188 -2.032 7.794e-3 37.861
          7.073e-3 33.138 7.798e-3 38.08 0.372 5.791
6183 0.232 -141.333 0.834 -164.478 7.049e-3 30.641
          0.833 -164.436 0.195 -2.472 7.75e-3 37.227
          7.029e-3 30.655 7.718e-3 37.536 0.379 4.107
6262 0.236 -144.619 0.832 -166.635 7.006e-3 28.994
          0.831 -166.598 0.203 -2.631 7.677e-3 36.74
          6.992e-3 28.501 7.732e-3 37.128 0.386 2.647
6341 0.239 -148.044 0.83 -168.762 6.946e-3 26.727
          0.83 -168.723 0.21 -2.371 7.602e-3 36.222
          7.008e-3 26.593 7.594e-3 36.516 0.392 1.465
6420 0.239 -151.66 0.829 -170.895 7.007e-3 25.27
          0.829 -170.87 0.214 -1.951 7.48e-3 35.41
          6.96e-3 25.549 7.522e-3 35.689 0.398 0.383
6499 0.239 -155.549 0.828 -173.063 7e-3 23.209
          0.828 -173.015 0.219 -1.355 7.332e-3 35.507
          7.047e-3 23.239 7.319e-3 35.645 0.403 -0.737
6578 0.24 -159.508 0.827 -175.295 7.013e-3 20.91
          0.826 -175.233 0.224 -0.981 7.188e-3 35.563
          7.032e-3 21.093 7.166e-3 35.944 0.407 -2.005
6657 0.242 -163.681 0.826 -177.462 6.855e-3 19.075
          0.825 -177.427 0.229 -0.45 6.992e-3 36.017
          6.811e-3 19.023 6.991e-3 36.265 0.412 -3.142
6736 0.242 -167.841 0.823 -179.669 6.744e-3 18.118
          0.823 -179.625 0.234 0.36 6.797e-3 36.454
          6.764e-3 18.144 6.784e-3 36.671 0.417 -4.108
6815 0.241 -172.059 0.822 178.143 6.634e-3 17.233
          0.821 178.212 0.239 1.271 6.695e-3 37.87
          6.658e-3 17.47 6.671e-3 37.663 0.421 -5.011
6894 0.24 -176.233 0.82 176.003 6.681e-3 17.05
          0.819 176.028 0.242 2.167 6.519e-3 38.51
          6.688e-3 17.298 6.572e-3 38.956 0.424 -5.944
6973 0.239 179.542 0.819 173.834 6.732e-3 15.751
          0.818 173.925 0.245 2.787 6.38e-3 39.261
          6.704e-3 15.849 6.432e-3 39.337 0.427 -6.99
7052 0.241 175.193 0.818 171.647 6.605e-3 13.858
          0.818 171.727 0.249 3.252 6.242e-3 40.164
          6.629e-3 14.008 6.246e-3 40.322 0.43 -8.085
7131 0.242 170.681 0.817 169.471 6.432e-3 14.291
          0.817 169.524 0.251 3.974 6.145e-3 41.038
          6.433e-3 14.563 6.12e-3 41.301 0.432 -9.059
7210 0.242 165.91 0.817 167.239 6.41e-3 16.018
          0.816 167.27 0.254 4.907 5.94e-3 42.237
          6.402e-3 15.988 5.948e-3 42.829 0.434 -9.988
7289 0.24 161.024 0.816 164.94 6.647e-3 16.503
          0.815 165.018 0.256 5.864 5.832e-3 43.749
          6.603e-3 16.647 5.878e-3 43.5 0.436 -10.915
7368 0.239 156.184 0.815 162.629 6.86e-3 15.247
          0.814 162.717 0.259 6.542 5.756e-3 43.503
          6.893e-3 15.442 5.766e-3 44.136 0.438 -12.005
7447 0.239 151.595 0.813 160.382 6.823e-3 13.415
          0.813 160.44 0.263 6.817 5.548e-3 44.721
          6.864e-3 13.624 5.535e-3 45.487 0.439 -13.192
7526 0.238 146.953 0.811 158.117 6.788e-3 13.036
          0.81 158.149 0.266 7.105 5.419e-3 45.645
          6.813e-3 12.98 5.412e-3 45.601 0.441 -14.368
7605 0.236 142.179 0.809 155.851 6.953e-3 13.679
          0.809 155.902 0.269 7.506 5.228e-3 46.352
          6.93e-3 13.789 5.261e-3 46.393 0.443 -15.429
7684 0.234 137.305 0.807 153.529 7.195e-3 11.994
          0.806 153.581 0.273 8.053 5.071e-3 45.751
          7.188e-3 12.268 5.05e-3 45.943 0.444 -16.459
7763 0.232 132.338 0.806 151.202 7.38e-3 9.078
          0.805 151.262 0.276 8.405 4.762e-3 45.341
          7.446e-3 8.689 4.77e-3 45.549 0.445 -17.559
7842 0.231 127.626 0.804 148.896 7.176e-3 6.319
          0.803 148.967 0.279 8.378 4.343e-3 44.852
          7.077e-3 6.288 4.361e-3 44.891 0.446 -18.751
7921 0.228 122.995 0.801 146.597 6.821e-3 6.288
          0.8 146.706 0.283 8.285 3.975e-3 46.035
          6.876e-3 6.348 3.921e-3 45.991 0.447 -19.986
8000 0.225 117.783 0.798 144.306 6.808e-3 7.995
          0.797 144.356 0.286 8.246 3.493e-3 44.819
          6.734e-3 7.159 3.517e-3 45.616 0.447 -21.216
