!Hittite Microwave Corporation								
!12 Elizabeth Drive								
!Chelmsford, MA 01824								
!Tel: 978-250-3343								
!Fax: 978-250-3373							
!Device: HMC241QS16, DC-3.5 GHz GaAs MMIC SP4T Non-Reflective Switch in 16 lead QSOP package								
!Misc: Port 1 = RFC, Port 2 = RF1, Port 3 = RF2. Port 4 = RF3, Port 5 = RF 4, RF1 Selected, Bias: +5VDC, DEEMBEDDED TO THE PINS OF THE DEVICE							
!
# MHZ S MA R 50

0.01	0.999	-0.208	0.001767	120.879	0.00003042	80.718	0.00002768	-30.81
	0.0000988	77.522	0.001791	121.619	0.998	-0.188	0.00002646	-101.166
	0.00003325	134.527	0.00006554	149.037	0.00004097	103.548	0.00005988	70.598
	0.998	-0.244	0.0000357	108.786	0.00001844	133.486	0.00001653	-29.757
	0.00002142	-153.267	0.00005142	108.845	0.997	-0.224	0.0000321	177.119
	0.00001788	90.917	0.00005743	106.514	0.0000702	90.668	0.00004849	162.556
	0.997	-0.224						
19.105	0.448	-57.401	0.815	29.207	0.0005988	84.846	0.0005672	86.199
	0.0006971	88.034	0.815	29.216	0.448	-57.018	0.0006085	95.945
	0.0005305	92.425	0.000642	87.925	0.0006355	88.725	0.000615	85.268
	0.966	-12.321	0.0002995	39.023	0.0002709	34.738	0.0005818	84.562
	0.0004867	91.833	0.0002081	40.478	0.966	-12.31	0.0003843	56.701
	0.0006819	86.335	0.0006755	86.357	0.000252	38.537	0.0003559	54.222
	0.965	-12.291						
38.201	0.246	-66.952	0.913	13.505	0.001206	72.702	0.001111	79.904
	0.001312	81.759	0.913	13.511	0.247	-66.192	0.001183	81.124
	0.00102	76.794	0.001171	74.619	0.001264	74.832	0.001171	80.057
	0.909	-23.296	0.0003238	-53.277	0.0003284	-69.051	0.001149	81.909
	0.001067	75.98	0.0002939	-44.006	0.909	-23.313	0.000279	-30.621
	0.001331	82.628	0.001165	73.163	0.000352	-74.626	0.0002727	-28.172
	0.909	-23.23						
57.296	0.166	-67.472	0.93	8.539	0.001822	67.088	0.001755	73.358
	0.002076	77.086	0.931	8.549	0.167	-66.33	0.001756	75.94
	0.001612	69.679	0.00181	66.318	0.001835	67.635	0.001756	76.043
	0.838	-32.842	0.00008543	-119.727	0.0001973	-127.057	0.001765	73.521
	0.001612	69.899	0.0001145	-116.829	0.839	-32.828	0.0001835	44.289
	0.002041	76.138	0.001801	65.358	0.0001973	-131.64	0.00017	62.638
	0.838	-32.704						
76.392	0.127	-65.553	0.935	6	0.002354	58.85	0.002307	65.01
	0.002693	69.18	0.935	5.986	0.127	-64.227	0.002287	68.532
	0.002061	61.358	0.002296	56.681	0.002328	58.979	0.002295	69.608
	0.764	-40.946	0.00002347	151.992	0.00004533	-149.277	0.002303	64.164
	0.002075	61.256	0.00009012	-179.332	0.764	-40.95	0.0002241	80.729
	0.002674	69.607	0.002323	57.088	0.0001065	-161.172	0.0002102	79.718
	0.763	-40.763						
95.487	0.104	-62.673	0.937	4.426	0.002735	50.093	0.002706	57.48
	0.003125	63.083	0.938	4.399	0.104	-61.126	0.002671	63.691
	0.002425	54.144	0.002711	48.59	0.002727	50.461	0.002682	63.567
	0.693	-47.788	0.00008707	133.929	0.00008619	167.959	0.002697	57.416
	0.002404	52.593	0.00008724	141.077	0.693	-47.798	0.0003109	100.596
	0.003131	64.214	0.002688	49.146	0.0001073	171.234	0.0002864	102.679
	0.692	-47.537						
114.583	0.089	-59.569	0.938	3.273	0.003055	42.983	0.003014	51.472
	0.003506	58.43	0.939	3.271	0.089	-57.614	0.002999	58.321
	0.002675	47.191	0.003046	41.704	0.003078	43.448	0.002956	57.915
	0.628	-53.564	0.0001542	146.256	0.00008228	156.027	0.003001	51.315
	0.002625	46.402	0.000147	134.854	0.628	-53.497	0.0004191	109.302
	0.003506	58.698	0.003018	42.169	0.00009535	140.242	0.0003977	113.185
	0.628	-53.201						
133.678	0.078	-56.192	0.939	2.415	0.003283	37.773	0.003209	46.937
	0.003775	55.436	0.94	2.412	0.079	-53.794	0.003228	54.581
	0.002865	41.756	0.003251	35.913	0.003272	37.036	0.003227	55.152
	0.57	-58.398	0.0002142	135.094	0.000115	162.085	0.003207	46.769
	0.002836	41.805	0.0001995	137.789	0.571	-58.336	0.000597	120.25
	0.003765	55.186	0.003231	36.461	0.0001282	134.439	0.0005905	120.355
	0.571	-57.996						
152.773	0.07	-52.8	0.939	1.738	0.003468	31.929	0.003351	43.062
	0.003969	52.894	0.94	1.722	0.071	-49.958	0.003409	52.014
	0.002995	37.08	0.003353	30.851	0.003452	31.81	0.003415	52.156
	0.52	-62.547	0.0002387	123.819	0.0001815	145.058	0.003332	42.841
	0.003028	37.543	0.0002691	138.058	0.521	-62.471	0.0008011	124.442
	0.003952	52.478	0.003364	31.223	0.0002016	141.073	0.0008023	123.835
	0.521	-62.03						
171.869	0.065	-49.591	0.939	1.159	0.003561	27.399	0.003484	39.841
	0.004105	51.111	0.94	1.117	0.066	-46.213	0.003529	50.318
	0.003089	33.503	0.003446	26.67	0.003554	27.725	0.00356	50.089
	0.476	-66.161	0.0003015	121.064	0.0002224	136.318	0.003446	39.395
	0.003166	33.458	0.0003145	128.498	0.477	-66.016	0.001015	123.189
	0.004139	50.901	0.003458	26.907	0.0002391	134.934	0.001025	122.409
	0.477	-65.506						
190.964	0.06	-46.474	0.938	0.651	0.003615	24.062	0.00358	37.229
	0.004267	50.029	0.939	0.606	0.062	-42.506	0.003628	49.244
	0.003157	30.242	0.003548	23.665	0.003593	24.101	0.003676	49.306
	0.437	-69.31	0.0003736	118.256	0.0002659	132.965	0.003558	36.99
	0.003233	30.491	0.0003763	121.237	0.439	-69.063	0.001247	120.872
	0.004273	49.689	0.003546	23.136	0.0002759	129.092	0.001237	121.15
	0.439	-68.563						
210.06	0.057	-43.532	0.938	0.211	0.003678	20.752	0.003647	35.073
	0.004401	49.421	0.939	0.186	0.059	-38.954	0.003741	48.586
	0.003212	27.77	0.003618	20.509	0.003663	20.941	0.003739	48.709
	0.404	-72.056	0.0004155	118.608	0.0003029	127.874	0.003631	35.407
	0.003254	28.382	0.0004178	117.524	0.406	-71.752	0.001448	118.463
	0.004369	48.96	0.003622	19.713	0.0003284	130.121	0.001424	120.052
	0.406	-71.227						
229.155	0.054	-40.892	0.938	-0.181	0.003728	17.791	0.003696	33.445
	0.004467	49.016	0.939	-0.185	0.057	-35.721	0.003818	48.307
	0.00327	26.071	0.003669	17.079	0.003731	17.963	0.00382	48.108
	0.374	-74.52	0.0004674	119.567	0.0003317	127.425	0.003697	33.676
	0.003276	26.215	0.0004282	113.126	0.376	-74.182	0.001639	117.396
	0.004486	49.038	0.003674	17.239	0.000352	129.997	0.00164	118.077
	0.377	-73.55						
248.251	0.051	-38.544	0.939	-0.541	0.003766	15.248	0.003711	32.166
	0.004575	48.785	0.939	-0.535	0.056	-32.782	0.003873	47.96
	0.003315	23.987	0.003713	14.754	0.003764	15.02	0.003918	47.493
	0.349	-76.771	0.0005327	115.955	0.0003821	122.897	0.003772	31.814
	0.003289	23.979	0.0004855	112.599	0.351	-76.333	0.001857	117.009
	0.004589	48.722	0.003715	14.853	0.0003648	130.365	0.001876	116.926
	0.351	-75.643						
267.346	0.049	-36.541	0.939	-0.856	0.003776	13.171	0.003736	31.059
	0.004692	49.225	0.939	-0.864	0.055	-30.131	0.00395	47.851
	0.003332	22.485	0.003733	12.767	0.00379	12.657	0.003971	47.694
	0.326	-78.765	0.0005824	114.079	0.0004141	123.385	0.003803	30.725
	0.003289	21.928	0.0005375	111.465	0.328	-78.239	0.002042	116.272
	0.004681	48.531	0.003735	11.985	0.0003996	127.623	0.002059	116.284
	0.328	-77.549						
286.441	0.047	-34.907	0.938	-1.149	0.003797	10.539	0.00379	30.136
	0.004773	49.211	0.939	-1.159	0.055	-27.887	0.004011	48.421
	0.003333	20.816	0.003765	10.436	0.0038	10.333	0.00405	48.3
	0.305	-80.592	0.0006159	114.229	0.0004346	123.178	0.003799	29.674
	0.003345	20.371	0.0006114	113.662	0.307	-80.005	0.002234	114.678
	0.004793	48.603	0.003748	9.93	0.0004554	121.067	0.002233	115.583
	0.308	-79.261						
305.537	0.046	-33.765	0.938	-1.425	0.003809	7.95	0.003797	29.12
	0.004822	49.335	0.939	-1.525	0.055	-26.092	0.004066	48.888
	0.003358	19.579	0.003798	8.334	0.003805	8.088	0.004113	48.69
	0.287	-82.296	0.000693	115.803	0.0004645	119.317	0.003767	28.831
	0.003384	18.953	0.0006981	112.641	0.289	-81.691	0.002435	114.692
	0.004882	48.614	0.003754	7.856	0.0005198	115.311	0.002434	114.021
	0.29	-80.885						
324.632	0.044	-32.788	0.938	-1.669	0.003788	6.487	0.003849	28.439
	0.004907	49.463	0.939	-1.772	0.055	-24.682	0.004083	48.992
	0.003417	18.436	0.003799	6.39	0.00381	5.882	0.004134	48.847
	0.27	-83.965	0.0007361	111.911	0.0005192	118.169	0.003816	28.195
	0.003364	18.27	0.0007588	110.396	0.272	-83.232	0.00262	113.325
	0.004873	49.168	0.003799	6.348	0.0005393	115.979	0.002665	113.173
	0.273	-82.293						
343.728	0.043	-32.253	0.938	-1.94	0.003817	4.952	0.003856	28.109
	0.00498	49.995	0.939	-2.056	0.055	-23.545	0.004176	48.901
	0.003407	16.678	0.003806	4.636	0.003801	4.314	0.004147	49.413
	0.255	-85.412	0.0008133	111.252	0.0005313	115.609	0.00381	27.498
	0.003368	17.291	0.0007823	110.223	0.257	-84.707	0.002857	112.784
	0.004944	49.959	0.003784	4.683	0.0005916	115.28	0.002879	112.673
	0.258	-83.668						
362.823	0.042	-32.012	0.938	-2.242	0.003746	2.565	0.003828	27.785
	0.005057	50.901	0.938	-2.326	0.056	-22.528	0.004206	50.156
	0.003376	15.752	0.0038	2.709	0.003785	3.068	0.004211	50.077
	0.242	-86.802	0.0008344	110.777	0.0005392	114.872	0.003814	27.089
	0.003368	15.999	0.0008131	109.747	0.243	-86.059	0.003061	111.746
	0.005013	50.468	0.00381	2.517	0.0006095	115.326	0.003039	112.057
	0.244	-85.001						
381.919	0.041	-31.394	0.938	-2.481	0.003758	0.151	0.003805	26.923
	0.005104	51.416	0.938	-2.631	0.056	-21.848	0.00424	51.303
	0.003362	14.951	0.003846	1.518	0.00378	0.752	0.00424	50.988
	0.23	-88.013	0.0008939	109.293	0.000574	116.342	0.003849	27.005
	0.003343	14.577	0.0008816	108.054	0.23	-87.454	0.003208	111.573
	0.005098	51.47	0.003793	0.76	0.0006544	115.912	0.003183	111.333
	0.232	-86.255						
401.014	0.04	-30.819	0.937	-2.806	0.003749	-0.466	0.003786	26.021
	0.00514	52.086	0.938	-2.852	0.056	-21.167	0.004303	51.51
	0.003356	13.731	0.003821	-0.258	0.003763	-0.881	0.004321	51.379
	0.218	-89.231	0.0008931	108.541	0.0006157	111.759	0.003843	26.398
	0.003351	13.385	0.0009183	109.635	0.219	-88.691	0.00336	111.03
	0.005156	52.046	0.003809	-1.114	0.000656	110.532	0.003369	110.667
	0.221	-87.506						
420.109	0.039	-30.322	0.937	-3.041	0.003641	-1.74	0.003767	26.928
	0.005239	53.055	0.937	-3.09	0.057	-20.545	0.004329	52.303
	0.003305	13.784	0.003752	-2.516	0.003704	-1.158	0.004363	51.802
	0.208	-90.299	0.0009985	109.659	0.0006982	112.815	0.003796	26.643
	0.003301	13.598	0.0009887	109.845	0.208	-89.915	0.003581	111.018
	0.005215	52.667	0.003818	-2.547	0.0006748	110.889	0.003571	109.839
	0.21	-88.614						
439.205	0.038	-29.663	0.937	-3.296	0.003682	-3.273	0.003749	26.819
	0.005288	53.753	0.938	-3.355	0.057	-20.108	0.004381	53.222
	0.003277	12.76	0.003751	-3.463	0.00366	-3.563	0.004386	53.129
	0.198	-91.389	0.001044	108.311	0.000708	113.359	0.003778	26.551
	0.003309	12.293	0.001057	106.896	0.199	-91.137	0.003757	110.586
	0.005346	53.789	0.003777	-3.546	0.0007174	110.401	0.003737	110.013
	0.201	-89.802						
458.3	0.037	-28.7	0.937	-3.531	0.003657	-4.859	0.00372	26.779
	0.005374	54.638	0.937	-3.559	0.057	-19.436	0.004391	54.253
	0.003274	12.259	0.003711	-4.373	0.003669	-5.176	0.004431	54.306
	0.189	-92.436	0.001079	108.344	0.0007699	111.025	0.003778	26.883
	0.003303	11.551	0.001092	108.214	0.19	-92.367	0.003916	109.886
	0.005389	54.514	0.003714	-5.141	0.0007718	111.698	0.003945	109.883
	0.192	-90.973						
477.396	0.036	-27.39	0.937	-3.746	0.003645	-6.102	0.003747	27.389
	0.005443	55.582	0.937	-3.773	0.057	-18.693	0.004449	55.447
	0.003272	11.463	0.003748	-6.031	0.003666	-6.599	0.004439	55.582
	0.18	-93.45	0.001122	106.726	0.0007883	109.552	0.003767	26.827
	0.003293	11.189	0.001128	107.517	0.181	-93.647	0.004075	110.44
	0.005452	55.514	0.003729	-6.112	0.0008093	112.005	0.004096	110.153
	0.183	-92.107						
496.491	0.035	-25.771	0.937	-3.908	0.003619	-7.381	0.003772	27.298
	0.005544	56.439	0.936	-4.001	0.056	-17.873	0.00452	56.358
	0.003257	11.356	0.003743	-6.975	0.003646	-7.975	0.004511	56.16
	0.172	-94.436	0.001179	105.935	0.0008453	110.609	0.00377	27.26
	0.003278	10.825	0.001212	106.032	0.174	-94.807	0.004253	110.057
	0.005534	56.352	0.003723	-7.222	0.000856	112.402	0.004278	109.923
	0.176	-93.188						
515.587	0.035	-24.004	0.936	-4.104	0.003613	-8.705	0.003759	26.992
	0.005589	57.516	0.936	-4.191	0.056	-16.983	0.004533	57.411
	0.00328	10.421	0.003702	-8.393	0.003586	-8.82	0.004526	57.134
	0.164	-95.43	0.001231	105.016	0.0008605	110.782	0.003755	27.355
	0.00323	10.139	0.001279	105.034	0.166	-96.051	0.004478	109.484
	0.005583	57.39	0.003715	-8.824	0.0008824	109.894	0.004458	109.734
	0.169	-94.258						
534.682	0.034	-21.818	0.936	-4.3	0.00358	-10.364	0.003756	26.783
	0.005653	58.895	0.936	-4.424	0.056	-16.01	0.004554	58.809
	0.003288	9.757	0.003682	-9.99	0.003559	-10.421	0.004562	58.577
	0.157	-96.42	0.001268	105.026	0.0008737	109.268	0.003738	27.059
	0.003227	9.5	0.001315	105.008	0.16	-97.288	0.004638	109.481
	0.005669	58.241	0.003714	-9.972	0.0008989	108.143	0.004626	109.302
	0.162	-95.406						
553.777	0.034	-19.859	0.935	-4.548	0.00356	-12.004	0.003714	27.083
	0.005729	59.631	0.935	-4.631	0.056	-14.729	0.004566	59.841
	0.00323	9.289	0.003679	-11.263	0.003564	-12.633	0.004592	59.807
	0.15	-97.524	0.001317	104.904	0.0008955	108.935	0.003697	26.428
	0.003197	9.215	0.001327	103.979	0.154	-98.49	0.004804	109.859
	0.005762	59.317	0.003688	-10.771	0.0009396	109.854	0.004833	109.184
	0.156	-96.561						
572.873	0.034	-17.597	0.935	-4.814	0.003526	-13.385	0.003648	27.77
	0.005792	60.336	0.936	-4.874	0.056	-13.629	0.004612	60.8
	0.003176	8.459	0.003672	-12.754	0.003527	-13.961	0.004614	61.032
	0.144	-98.684	0.001379	104.643	0.0009335	108.91	0.003654	27.214
	0.00318	9.3	0.001351	104.486	0.148	-99.762	0.00499	109.741
	0.005829	60.278	0.00368	-12.525	0.0009737	109.617	0.005022	109.126
	0.151	-97.699						
591.968	0.034	-15.017	0.934	-5.058	0.003457	-14.635	0.003615	28.477
	0.005862	61.318	0.936	-5.113	0.056	-12.635	0.004689	61.955
	0.003167	7.953	0.003641	-14.091	0.003485	-14.864	0.004667	62.166
	0.138	-99.803	0.001421	105.09	0.000982	108.625	0.003645	28.213
	0.003173	8.949	0.001407	105.576	0.143	-101.062	0.005179	109.501
	0.005887	61.327	0.003673	-14.262	0.0009939	108.533	0.005194	109.391
	0.145	-98.861						
611.064	0.033	-12.757	0.934	-5.262	0.003413	-16.345	0.003618	28.624
	0.005936	62.356	0.935	-5.31	0.056	-11.44	0.004724	63.247
	0.003154	7.638	0.003619	-15.086	0.003467	-16.278	0.004706	63.091
	0.132	-100.945	0.001462	104.872	0.001022	108.823	0.003652	28.101
	0.003128	8.087	0.00147	104.734	0.138	-102.322	0.005363	109.368
	0.005953	62.397	0.003639	-14.837	0.001012	110.001	0.005383	109.584
	0.141	-99.999						
630.159	0.033	-10.606	0.934	-5.462	0.003391	-18.165	0.003621	28.452
	0.006016	63.472	0.935	-5.561	0.057	-10.354	0.004751	64.538
	0.003095	7.211	0.003629	-16.282	0.003426	-17.764	0.004728	64.255
	0.127	-102.119	0.001527	103.861	0.001051	108.904	0.003651	28.6
	0.003106	7.383	0.001515	104.882	0.133	-103.524	0.005521	109.047
	0.006044	63.085	0.003608	-15.71	0.00103	110.142	0.005553	109.149
	0.137	-101.101						
649.255	0.033	-8.676	0.934	-5.725	0.003362	-19.138	0.003604	28.823
	0.0061	64.224	0.934	-5.794	0.057	-9.427	0.004814	65.586
	0.003033	7.205	0.003623	-17.355	0.003379	-19.201	0.004781	65.479
	0.122	-103.301	0.001587	104.404	0.001064	109.237	0.003628	28.909
	0.003076	6.57	0.001558	105.565	0.129	-104.7	0.005696	109.301
	0.006126	64.1	0.003569	-17.535	0.001069	108.967	0.005741	109.355
	0.132	-102.213						
668.35	0.034	-7.679	0.934	-5.894	0.003345	-20.558	0.003599	29.029
	0.006169	65.232	0.933	-5.984	0.059	-9	0.004866	67.077
	0.003031	6.795	0.003593	-18.776	0.003327	-20.808	0.004827	66.702
	0.117	-104.501	0.001627	105.891	0.001097	109.515	0.003583	28.352
	0.003014	6.029	0.001644	104.765	0.126	-105.933	0.005872	109.513
	0.006162	64.891	0.003562	-19.023	0.0011	109.316	0.005938	109.5
	0.129	-103.228						
687.445	0.034	-8.675	0.934	-5.983	0.003316	-21.904	0.003571	29.955
	0.00625	66.24	0.931	-6.063	0.06	-9.455	0.004893	68.355
	0.002998	6.315	0.003559	-20.645	0.003252	-22.598	0.004868	68.397
	0.112	-105.411	0.001665	105.912	0.001142	109.546	0.003535	29.209
	0.002994	5.879	0.001725	105.98	0.122	-106.988	0.006064	109.254
	0.006241	66.258	0.003534	-19.903	0.001129	109.3	0.006105	109.713
	0.125	-104.15						
706.541	0.033	-11.302	0.934	-6.024	0.003247	-22.492	0.003518	30.688
	0.006335	67.783	0.929	-6.062	0.061	-10.809	0.004942	69.983
	0.00298	5.47	0.003564	-21.179	0.00323	-23.463	0.004907	69.778
	0.108	-105.741	0.001754	104.901	0.001178	109.116	0.003497	30.392
	0.002962	4.828	0.001729	104.703	0.12	-108.073	0.006248	109.495
	0.006314	67.391	0.003542	-21.659	0.001172	109.822	0.006277	109.12
	0.122	-105.165						
725.636	0.03	-12.006	0.934	-6.161	0.003224	-25.071	0.003473	31.016
	0.006435	68.285	0.932	-6.195	0.06	-11.324	0.004991	71.041
	0.002923	5.354	0.003541	-22.62	0.003181	-24.994	0.004955	71.195
	0.106	-106.121	0.001798	105.379	0.001207	106.591	0.003426	30.638
	0.002849	4.902	0.00183	104.248	0.116	-109.032	0.006443	109.602
	0.006384	68.271	0.003552	-22.856	0.001214	108.662	0.006434	109.319
	0.119	-106.111						
744.732	0.028	-11.225	0.934	-6.299	0.003186	-25.903	0.003479	31.745
	0.006505	69.404	0.933	-6.372	0.06	-11.434	0.005006	72.518
	0.002895	5.402	0.003537	-24.291	0.003154	-26.48	0.005004	72.273
	0.103	-106.942	0.001889	104.973	0.001255	110.079	0.003479	32.198
	0.002899	4.849	0.001892	104.623	0.114	-110.089	0.00658	109.413
	0.006459	69.513	0.003501	-23.635	0.001249	109.338	0.006626	109.192
	0.116	-106.95						
763.827	0.026	-9.733	0.934	-6.464	0.003138	-27.549	0.003454	33.027
	0.006589	70.083	0.934	-6.584	0.061	-11.398	0.005093	73.756
	0.002851	4.508	0.003497	-25.347	0.003127	-27.747	0.005058	73.964
	0.101	-108.155	0.001971	103.362	0.00128	107.65	0.00345	32.978
	0.002825	3.845	0.001989	104.171	0.111	-110.94	0.00674	109.711
	0.006528	70.672	0.003542	-25.541	0.001273	108.429	0.006803	109.481
	0.113	-107.605						
782.923	0.025	-9.009	0.934	-6.648	0.003134	-30.175	0.003455	32.73
	0.006681	70.996	0.935	-6.739	0.061	-11.532	0.005205	74.763
	0.002803	4.731	0.003471	-26.958	0.003083	-29.274	0.005135	75.44
	0.097	-109.087	0.002015	101.713	0.001369	109.447	0.003488	32.692
	0.002762	4.192	0.002018	101.498	0.108	-111.671	0.00692	109.648
	0.006634	71.439	0.003409	-26.4	0.00132	108.641	0.006961	109.428
	0.111	-108.514						
802.018	0.023	-6.461	0.934	-6.822	0.003083	-31.56	0.003389	33.107
	0.00674	72.427	0.935	-6.939	0.061	-11.543	0.005232	75.775
	0.00277	3.804	0.00349	-28.37	0.003065	-31.01	0.005224	76.432
	0.094	-109.859	0.002053	102.286	0.001351	108.701	0.003371	32.952
	0.002743	4.701	0.002032	103.338	0.105	-112.307	0.007098	110.072
	0.006694	72.311	0.003444	-28.088	0.001388	110.356	0.007124	109.861
	0.108	-109.1						
821.113	0.022	-4.92	0.934	-7.047	0.003081	-33.43	0.00333	33.375
	0.006864	73.098	0.936	-7.235	0.062	-11.166	0.005274	76.785
	0.002708	3.429	0.003483	-29.756	0.003054	-33.475	0.005274	77.428
	0.091	-110.694	0.002104	101.337	0.001429	109.775	0.003323	33.818
	0.002657	2.889	0.002082	100.49	0.103	-113.043	0.007279	110.072
	0.00679	73.404	0.003433	-28.854	0.00144	108.309	0.007254	109.548
	0.106	-109.927						
840.209	0.021	-2.232	0.934	-7.309	0.003053	-35.583	0.003279	34.519
	0.006927	74.081	0.936	-7.509	0.063	-11.301	0.0053	78.339
	0.00263	3.264	0.003467	-31.322	0.003013	-35.997	0.005334	78.673
	0.088	-111.426	0.002078	100.929	0.001438	109.267	0.003281	34.706
	0.00267	3.031	0.002074	99.743	0.101	-113.722	0.007452	110.092
	0.006873	74.265	0.003418	-30.9	0.001442	107.55	0.007438	109.799
	0.103	-110.562						
859.304	0.021	0.245	0.934	-7.607	0.002975	-37.638	0.003211	35.428
	0.007002	75.022	0.936	-7.627	0.064	-10.827	0.005368	79.528
	0.002613	2.275	0.003405	-32.138	0.002983	-36.863	0.005379	80.079
	0.085	-111.988	0.00208	101.805	0.001457	108.68	0.003234	35.747
	0.00262	2.723	0.002084	101.217	0.099	-114.577	0.007652	110.132
	0.006972	75.493	0.003411	-32.227	0.001477	107.021	0.00763	109.995
	0.101	-111.111						
878.4	0.021	2.466	0.934	-7.879	0.002939	-39.486	0.003222	36.352
	0.007068	75.995	0.936	-7.86	0.065	-10.788	0.005445	81.209
	0.002524	3.028	0.003387	-33.273	0.002937	-39.29	0.005384	81.136
	0.082	-112.817	0.002151	102.235	0.001491	108.261	0.003211	36.94
	0.002593	2.281	0.002165	101.964	0.096	-115.307	0.00782	110.497
	0.007077	76.237	0.00343	-33.514	0.001504	107.577	0.007787	110.002
	0.099	-111.691						
