!Hittite Microwave Corporation								
!12 Elizabeth Drive								
!Chelmsford Massachusetts 01824								
!Tel: 978 250-3343								
!Fax: 978 250-3373								
!Device: HMC226, DC - 2.0 GHz SP2T switch in SOT26 package							
!Misc: Port 1 = RFC, Port 2 = RF1, Port 3 = RF2, RF2 Selected, Vctl= 0/+3VDC							
!
# MHZ S MA R 50

30 0.023 -24.812 4.172e-3 106.951 0.965 0.589
          4.151e-3 106.348 0.995 -1.219 3.897e-3 105.434
          0.967 0.563 3.915e-3 104.78 0.023 -25.075
59.85 0.023 -16.11 7.629e-3 92.863 0.971 -0.168
          7.574e-3 93.616 0.994 -2.404 7.052e-3 93.428
          0.97 -0.159 7.042e-3 92.504 0.024 -14.314
89.7 0.023 -15.228 0.012 93.903 0.972 -0.441
          0.012 93.908 0.995 -3.517 0.011 93.845
          0.971 -0.451 0.011 93.651 0.024 -12.311
119.55 0.024 -16.963 0.016 92.085 0.971 -0.663
          0.016 92.12 0.995 -4.625 0.015 92.058
          0.97 -0.644 0.015 91.769 0.024 -13.643
149.4 0.024 -20.476 0.02 91.134 0.971 -0.824
          0.02 91.176 0.996 -5.737 0.019 91.188
          0.97 -0.861 0.019 91.061 0.025 -15.256
179.25 0.026 -24.159 0.024 90.043 0.968 -1.05
          0.024 90.338 0.995 -6.909 0.023 90.276
          0.968 -1.042 0.023 89.929 0.026 -17.882
209.1 0.027 -27.08 0.028 89.407 0.967 -1.155
          0.028 89.671 0.996 -8.029 0.026 89.461
          0.969 -1.173 0.026 89.082 0.026 -20.067
238.95 0.028 -29.855 0.032 89.284 0.967 -1.332
          0.032 89.506 0.996 -9.183 0.03 89.058
          0.969 -1.324 0.03 88.732 0.027 -22.984
268.8 0.029 -32.961 0.036 88.953 0.968 -1.395
          0.036 88.732 0.996 -10.293 0.034 88.583
          0.968 -1.458 0.034 88.544 0.028 -25.596
298.65 0.03 -35.749 0.04 88.679 0.968 -1.528
          0.04 88.21 0.996 -11.442 0.037 88.162
          0.968 -1.598 0.038 88.467 0.029 -28.083
328.5 0.031 -38.102 0.044 88.289 0.967 -1.666
          0.044 87.707 0.996 -12.6 0.041 87.622
          0.967 -1.709 0.042 87.825 0.03 -30.427
358.35 0.032 -40.693 0.049 87.272 0.966 -1.844
          0.048 87.406 0.995 -13.642 0.045 87.202
          0.967 -1.892 0.046 86.887 0.031 -32.794
388.2 0.033 -43.064 0.052 86.27 0.966 -1.983
          0.052 87.043 0.994 -14.795 0.049 86.713
          0.966 -1.963 0.049 86.001 0.032 -34.705
418.05 0.034 -45.323 0.056 85.937 0.964 -2.087
          0.056 86.737 0.997 -15.829 0.052 86.281
          0.964 -2.066 0.052 85.653 0.033 -36.193
447.9 0.035 -47.549 0.059 86.189 0.964 -2.189
          0.06 86.332 0.995 -16.915 0.056 85.976
          0.964 -2.169 0.055 85.915 0.033 -37.911
477.75 0.036 -49.59 0.063 86.684 0.963 -2.283
          0.063 86.105 0.995 -17.997 0.06 85.735
          0.963 -2.263 0.059 86.271 0.034 -39.566
507.6 0.036 -51.454 0.068 86.397 0.963 -2.349
          0.067 85.7 0.994 -19.044 0.063 85.3
          0.963 -2.379 0.064 85.939 0.034 -41.285
537.45 0.037 -53.234 0.073 85.318 0.964 -2.423
          0.071 85.179 0.993 -20.182 0.067 85.081
          0.963 -2.521 0.068 85.021 0.035 -42.987
567.3 0.037 -54.864 0.076 84.352 0.962 -2.636
          0.075 84.88 0.993 -21.268 0.07 84.724
          0.963 -2.721 0.071 84.134 0.035 -44.607
597.15 0.037 -56.206 0.079 83.92 0.961 -2.809
          0.079 84.487 0.992 -22.369 0.074 84.488
          0.962 -2.873 0.075 83.612 0.036 -45.891
627 0.037 -56.108 0.083 83.666 0.96 -2.946
          0.083 84.101 0.991 -23.476 0.078 84.091
          0.96 -2.983 0.078 83.42 0.038 -47.428
656.85 0.039 -55.093 0.086 83.66 0.959 -2.906
          0.086 84.076 0.988 -24.441 0.081 83.517
          0.958 -2.951 0.081 83.206 0.039 -51.694
686.7 0.042 -58.119 0.089 83.922 0.958 -2.936
          0.089 84.211 0.988 -25.403 0.084 83.27
          0.958 -2.908 0.084 83.321 0.038 -54.742
716.55 0.042 -61.533 0.093 84.317 0.958 -3.05
          0.093 83.944 0.989 -26.424 0.087 83.197
          0.958 -3 0.087 83.615 0.037 -55.047
746.4 0.042 -63.785 0.097 84.806 0.958 -3.084
          0.097 83.555 0.99 -27.459 0.091 83.293
          0.958 -3.118 0.092 83.873 0.037 -54.785
776.25 0.042 -65.537 0.103 84.697 0.958 -3.113
          0.101 83.406 0.991 -28.381 0.095 83.068
          0.958 -3.225 0.096 83.677 0.036 -54.732
806.1 0.041 -67.062 0.108 83.53 0.958 -3.217
          0.105 83.275 0.988 -29.358 0.098 82.815
          0.958 -3.391 0.101 82.583 0.036 -54.879
835.95 0.041 -68.43 0.112 81.891 0.958 -3.36
          0.109 83.121 0.987 -30.353 0.102 82.521
          0.958 -3.535 0.104 81.265 0.035 -55.632
865.8 0.041 -69.725 0.112 80.987 0.958 -3.502
          0.112 82.932 0.985 -31.298 0.105 82.225
          0.957 -3.651 0.105 80.696 0.035 -56.401
895.65 0.04 -70.867 0.113 81.438 0.956 -3.643
          0.116 82.614 0.983 -32.4 0.108 82.116
          0.956 -3.713 0.107 81.362 0.034 -56.994
925.5 0.039 -71.972 0.116 82.888 0.955 -3.792
          0.12 82.526 0.982 -33.392 0.112 81.895
          0.955 -3.783 0.109 82.499 0.034 -57.59
955.35 0.039 -73.249 0.122 84.23 0.955 -3.848
          0.123 82.365 0.982 -34.316 0.116 81.707
          0.955 -3.887 0.115 83.293 0.033 -58.19
985.2 0.038 -74.444 0.13 84.06 0.955 -3.925
          0.127 82.271 0.982 -35.277 0.119 81.674
          0.955 -3.975 0.121 82.96 0.033 -58.57
1015.05 0.037 -75.799 0.135 82.627 0.954 -4.02
          0.131 82.002 0.98 -36.271 0.122 81.522
          0.955 -4.146 0.126 81.687 0.032 -58.673
1044.9 0.036 -77.199 0.138 81.024 0.954 -4.189
          0.135 81.811 0.979 -37.247 0.126 81.46
          0.955 -4.306 0.13 80.681 0.031 -58.655
1074.75 0.035 -78.735 0.14 80.388 0.953 -4.289
          0.138 81.655 0.978 -38.179 0.13 81.238
          0.954 -4.398 0.131 80.186 0.031 -58.407
1104.6 0.034 -80.502 0.142 80.549 0.953 -4.375
          0.142 81.521 0.977 -39.156 0.133 81.052
          0.953 -4.431 0.134 80.071 0.03 -58.281
1134.45 0.033 -82.302 0.144 80.877 0.952 -4.474
          0.146 81.553 0.975 -40.087 0.137 80.896
          0.952 -4.526 0.137 80.035 0.029 -58.161
1164.3 0.031 -84.304 0.148 81.178 0.952 -4.611
          0.15 81.382 0.973 -41.029 0.14 80.783
          0.951 -4.663 0.139 80.16 0.027 -58.165
1194.15 0.03 -86.482 0.151 81.692 0.952 -4.75
          0.154 81.155 0.972 -42 0.143 80.669
          0.951 -4.803 0.142 80.692 0.026 -58.225
1224 0.028 -88.838 0.156 82.465 0.951 -4.809
          0.158 80.972 0.97 -42.969 0.147 80.562
          0.951 -4.899 0.146 81.732 0.025 -58.39
1253.85 0.027 -91.73 0.164 82.76 0.951 -4.886
          0.161 80.764 0.969 -43.932 0.151 80.458
          0.951 -5.002 0.153 82.218 0.024 -58.369
1283.7 0.026 -94.95 0.172 81.67 0.95 -5.02
          0.165 80.686 0.968 -44.834 0.155 80.152
          0.95 -5.163 0.162 81.059 0.023 -57.865
1313.55 0.024 -98.671 0.177 79.45 0.948 -5.142
          0.169 80.527 0.966 -45.757 0.159 80.067
          0.948 -5.258 0.167 78.746 0.021 -57.37
1343.4 0.023 -103.291 0.176 77.598 0.947 -5.255
          0.173 80.349 0.964 -46.636 0.162 79.967
          0.947 -5.336 0.166 76.923 0.02 -56.58
1373.25 0.022 -108.9 0.172 77.645 0.945 -5.342
          0.176 80.261 0.961 -47.575 0.166 79.707
          0.945 -5.433 0.163 77.074 0.018 -56.103
1403.1 0.021 -115.927 0.172 79.572 0.944 -5.443
          0.181 80.136 0.96 -48.533 0.17 79.544
          0.945 -5.5 0.163 79.263 0.016 -56.589
1432.95 0.02 -124.186 0.178 81.817 0.945 -5.558
          0.185 79.959 0.959 -49.496 0.173 79.339
          0.947 -5.631 0.17 81.412 0.014 -57.811
1462.8 0.019 -133.049 0.19 82.371 0.945 -5.709
          0.189 79.716 0.957 -50.514 0.177 79.195
          0.947 -5.866 0.182 81.371 0.012 -59.676
1492.65 0.019 -142.061 0.2 80.891 0.944 -5.919
          0.193 79.433 0.955 -51.544 0.181 79.118
          0.945 -6.042 0.191 79.258 9.249e-3 -63.188
1522.5 0.02 -150.853 0.204 78.963 0.943 -6.081
          0.197 79.153 0.953 -52.569 0.185 78.923
          0.942 -6.131 0.193 77.059 7.214e-3 -70.726
1552.35 0.021 -159.676 0.206 77.808 0.942 -6.204
          0.2 78.994 0.95 -53.593 0.189 78.584
          0.941 -6.198 0.192 76.21 5.287e-3 -85.563
1582.2 0.023 -168.168 0.207 77.343 0.941 -6.335
          0.204 78.863 0.948 -54.671 0.193 78.231
          0.94 -6.284 0.192 76.462 3.821e-3 -113.224
1612.05 0.025 -175.37 0.209 77.056 0.938 -6.347
          0.209 78.599 0.946 -55.689 0.197 78.103
          0.94 -6.448 0.194 77.031 3.7e-3 -154.434
1641.9 0.028 178.242 0.208 77.144 0.935 -6.345
          0.213 78.331 0.942 -56.639 0.2 78.047
          0.94 -6.631 0.198 77.562 5.24e-3 173.321
1671.75 0.032 172.226 0.208 78.372 0.936 -6.414
          0.218 78.012 0.94 -57.647 0.204 77.897
          0.939 -6.816 0.203 78.233 7.97e-3 156.052
1701.6 0.036 167.067 0.215 80.443 0.938 -6.525
          0.221 77.622 0.937 -58.683 0.209 77.675
          0.938 -7.018 0.211 78.706 0.011 146.936
1731.45 0.039 162.348 0.229 81.15 0.939 -6.861
          0.225 77.311 0.932 -59.766 0.213 77.221
          0.936 -7.224 0.221 77.956 0.015 140.894
1761.3 0.043 158.384 0.245 78.76 0.936 -7.242
          0.228 77.118 0.928 -60.914 0.217 76.636
          0.932 -7.338 0.227 75.748 0.019 137.295
1791.15 0.048 155.234 0.249 74.758 0.931 -7.443
          0.231 77.017 0.923 -62.059 0.22 76.224
          0.927 -7.291 0.226 73.395 0.023 135.526
1821 0.052 152.416 0.24 72.305 0.925 -7.405
          0.236 76.956 0.917 -63.057 0.222 76.16
          0.926 -7.202 0.221 72.781 0.028 134.587
1850.85 0.057 149.71 0.229 73.062 0.924 -7.254
          0.24 76.901 0.911 -64.004 0.226 76.072
          0.928 -7.105 0.217 74.367 0.032 133.429
1880.7 0.062 146.947 0.227 76.431 0.927 -7.19
          0.244 76.702 0.909 -65.065 0.231 75.929
          0.93 -7.213 0.223 76.57 0.037 131.77
1910.55 0.066 144.382 0.239 79.589 0.929 -7.232
          0.249 76.245 0.909 -65.953 0.236 75.893
          0.93 -7.605 0.236 77.207 0.04 130.034
1940.4 0.07 142.441 0.258 79.546 0.932 -7.542
          0.252 75.851 0.909 -67.036 0.24 75.566
          0.926 -7.834 0.246 75.682 0.044 128.656
1970.25 0.075 141.399 0.271 77.116 0.931 -7.813
          0.256 75.666 0.91 -68.185 0.245 75.274
          0.922 -7.736 0.248 73.77 0.047 128.138
2000.1 0.079 140.387 0.273 74.744 0.927 -7.953
          0.259 75.545 0.908 -69.196 0.249 74.97
          0.921 -7.816 0.246 73.474 0.051 127.454
2029.95 0.085 139.454 0.271 73.802 0.924 -8.028
          0.265 75.348 0.906 -70.389 0.253 74.68
          0.924 -7.924 0.248 74.52 0.056 126.688
2059.8 0.09 138.415 0.272 73.816 0.924 -8.156
          0.271 74.969 0.905 -71.553 0.257 74.47
          0.926 -8.213 0.258 75.027 0.061 126.027
2089.65 0.096 137.35 0.275 73.661 0.922 -8.333
          0.275 74.518 0.902 -72.741 0.261 74.142
          0.925 -8.645 0.269 73.67 0.066 125.52
2119.5 0.101 136.589 0.277 73.138 0.919 -8.469
          0.279 74.143 0.9 -73.998 0.265 73.852
          0.921 -8.759 0.271 71.276 0.071 125.602
2149.35 0.107 136.018 0.276 73.244 0.918 -8.451
          0.282 74.085 0.896 -75.37 0.269 73.444
          0.917 -8.537 0.265 70.08 0.076 126.046
2179.2 0.114 135.29 0.278 74.378 0.92 -8.478
          0.287 73.925 0.895 -76.796 0.274 73.097
          0.918 -8.419 0.258 71.173 0.082 126.171
2209.05 0.121 134.289 0.289 75.496 0.922 -8.742
          0.293 73.618 0.893 -78.105 0.279 72.66
          0.923 -8.583 0.261 73.757 0.088 125.61
2238.9 0.127 133.158 0.304 74.951 0.923 -9.213
          0.298 72.922 0.891 -79.693 0.284 71.901
          0.926 -8.99 0.276 75.521 0.093 124.588
2268.75 0.132 132.13 0.315 72.619 0.918 -9.66
          0.302 72.017 0.891 -81.201 0.287 71.349
          0.92 -9.514 0.295 74.488 0.097 123.741
2298.6 0.138 131.319 0.315 70.227 0.911 -9.848
          0.304 71.226 0.887 -82.616 0.29 70.936
          0.913 -9.946 0.306 71.538 0.102 123.19
2328.45 0.144 130.712 0.309 69.46 0.907 -9.822
          0.306 70.862 0.884 -84.016 0.294 70.528
          0.907 -10.084 0.307 68.684 0.107 122.738
2358.3 0.15 129.975 0.309 69.96 0.906 -9.861
          0.308 70.737 0.879 -85.335 0.298 70.127
          0.903 -10.116 0.302 67.037 0.113 122.146
2388.15 0.156 129.242 0.316 69.991 0.903 -10.105
          0.312 70.651 0.875 -86.74 0.301 69.541
          0.901 -10.175 0.295 66.507 0.119 121.368
2418 0.162 128.567 0.32 68.638 0.901 -10.289
          0.317 70.451 0.873 -88.221 0.305 69.148
          0.899 -10.011 0.289 66.862 0.125 120.778
2447.85 0.17 127.882 0.314 67.634 0.899 -10.274
          0.322 70.275 0.87 -89.8 0.307 68.862
          0.901 -9.921 0.284 68.601 0.131 120.288
2477.7 0.177 126.83 0.306 69.113 0.898 -10.228
          0.328 69.856 0.866 -91.412 0.311 68.858
          0.908 -10.089 0.29 71.681 0.138 119.554
2507.55 0.184 125.501 0.313 72.403 0.904 -10.488
          0.334 68.926 0.863 -92.932 0.317 68.547
          0.912 -10.747 0.311 73.879 0.144 118.414
2537.4 0.189 124.092 0.34 73.977 0.905 -11.101
          0.337 67.84 0.86 -94.464 0.323 67.477
          0.907 -11.623 0.343 72.348 0.149 117.357
2567.25 0.193 123.197 0.374 70.693 0.899 -11.814
          0.336 66.918 0.859 -96.187 0.325 66.421
          0.893 -12.251 0.361 66.879 0.153 116.647
2597.1 0.198 122.747 0.38 64.376 0.885 -11.99
          0.333 66.924 0.854 -97.767 0.324 65.834
          0.874 -11.929 0.348 61.255 0.157 116.173
2626.95 0.203 122.263 0.353 60.028 0.872 -11.663
          0.335 67.505 0.847 -99.065 0.323 65.839
          0.868 -11.039 0.318 59.512 0.162 115.699
2656.8 0.209 121.528 0.321 60.739 0.866 -11.094
          0.342 68.043 0.841 -100.285 0.325 66.174
          0.875 -10.392 0.294 63.072 0.168 114.853
2686.65 0.216 120.347 0.31 65.51 0.873 -10.796
          0.353 67.576 0.842 -101.86 0.331 66.337
          0.887 -10.708 0.297 69.037 0.174 113.48
2716.5 0.22 119.104 0.324 69.767 0.879 -11.102
          0.359 66.061 0.837 -103.609 0.337 65.868
          0.893 -11.644 0.327 71.985 0.179 111.941
2746.35 0.224 118.148 0.352 70.271 0.879 -11.759
          0.359 64.902 0.834 -105.201 0.341 65.05
          0.885 -12.493 0.36 69.591 0.183 110.922
2776.2 0.227 117.269 0.372 67.771 0.873 -12.336
          0.356 64.002 0.832 -107.149 0.343 64.393
          0.869 -12.887 0.367 64.931 0.187 110.03
2806.05 0.231 116.639 0.377 65.241 0.867 -12.411
          0.355 64.207 0.827 -108.911 0.345 63.926
          0.86 -12.601 0.357 62.243 0.191 109.349
2835.9 0.236 116.056 0.378 63.496 0.86 -12.531
          0.358 64.327 0.818 -110.498 0.346 63.42
          0.858 -12.189 0.346 62.411 0.195 108.592
2865.75 0.24 115.14 0.378 61.45 0.853 -12.622
          0.362 64.042 0.815 -112.163 0.346 63.153
          0.858 -12.247 0.348 63.302 0.199 107.488
2895.6 0.243 114.355 0.369 59.251 0.846 -12.37
          0.365 63.707 0.815 -113.728 0.347 63.203
          0.856 -12.353 0.353 63.002 0.202 106.636
2925.45 0.246 113.592 0.348 58.917 0.842 -11.942
          0.367 63.236 0.81 -115.291 0.35 63.665
          0.851 -12.297 0.352 62.301 0.205 105.708
2955.3 0.249 112.807 0.332 62.038 0.845 -11.6
          0.37 63.259 0.807 -116.829 0.357 63.759
          0.852 -12.135 0.346 63.138 0.208 104.814
2985.15 0.252 111.758 0.34 67.072 0.853 -11.739
          0.375 62.632 0.807 -118.475 0.365 63.428
          0.854 -12.322 0.352 65.33 0.212 103.357
3015 0.253 110.863 0.375 69.042 0.853 -12.555
          0.379 61.89 0.802 -119.993 0.37 62.271
          0.853 -12.956 0.375 65.929 0.212 102.119
3044.85 0.254 110.406 0.412 65.531 0.845 -13.231
          0.376 61.268 0.799 -121.556 0.37 61.226
          0.842 -13.446 0.395 62.902 0.213 101.517
3074.7 0.256 110.283 0.414 59.17 0.829 -13.248
          0.372 60.889 0.793 -123.642 0.366 61.012
          0.828 -13.366 0.389 58.894 0.215 100.79
3104.55 0.26 109.83 0.383 55.585 0.82 -12.731
          0.373 61.734 0.788 -125.062 0.367 61.192
          0.824 -12.482 0.368 57.994 0.217 100.051
3134.4 0.263 109.163 0.352 57.3 0.822 -12.194
          0.377 61.91 0.781 -126.525 0.371 61.586
          0.829 -11.913 0.353 60.719 0.218 99.338
3164.25 0.265 108.3 0.346 62.06 0.827 -12.071
          0.384 61.446 0.778 -128.244 0.377 61.419
          0.838 -12.34 0.364 64.221 0.219 98.344
3194.1 0.266 107.606 0.366 65.158 0.83 -12.649
          0.386 60.711 0.771 -129.645 0.379 60.703
          0.837 -13.325 0.392 64.888 0.219 97.14
3223.95 0.267 106.926 0.393 64.428 0.825 -12.912
          0.385 60.204 0.768 -131.132 0.382 60.732
          0.824 -13.8 0.413 62.067 0.217 95.916
3253.8 0.267 106.524 0.403 61.415 0.819 -13.092
          0.383 60.298 0.768 -132.6 0.385 60.732
          0.811 -13.663 0.409 58.438 0.215 95.123
3283.65 0.269 106.211 0.393 59.881 0.809 -12.883
          0.383 60.854 0.76 -134.039 0.387 60.717
          0.807 -12.958 0.392 57.445 0.213 94.427
3313.5 0.271 105.816 0.388 60.23 0.81 -12.972
          0.39 61.155 0.76 -135.402 0.393 60.504
          0.81 -12.665 0.384 59.577 0.212 93.428
3343.35 0.272 105.269 0.392 60.92 0.806 -12.966
          0.396 60.842 0.756 -136.682 0.399 60.27
          0.811 -12.928 0.395 61.331 0.209 92.677
3373.2 0.273 104.897 0.397 60.281 0.801 -12.916
          0.397 60.197 0.752 -138.342 0.402 59.905
          0.805 -13.277 0.414 60.719 0.206 92.62
3403.05 0.275 104.545 0.393 59.376 0.797 -12.852
          0.398 60.237 0.75 -139.736 0.407 59.439
          0.796 -13.388 0.42 58.402 0.203 93.057
3432.9 0.277 104.205 0.386 60.235 0.793 -12.433
          0.4 60.395 0.744 -141.119 0.411 59.124
          0.791 -12.902 0.41 57.223 0.203 93.578
3462.75 0.279 103.589 0.387 62.689 0.795 -12.345
          0.407 60.47 0.744 -142.532 0.417 58.433
          0.793 -12.429 0.405 58.528 0.203 93.769
3492.6 0.281 102.957 0.409 64.41 0.797 -12.439
          0.413 60.014 0.74 -143.774 0.419 57.93
          0.797 -12.646 0.416 60.288 0.203 93.619
3522.45 0.282 102.416 0.439 62.877 0.791 -12.746
          0.415 59.199 0.739 -145.114 0.419 57.277
          0.795 -13.251 0.441 59.592 0.201 93.34
3552.3 0.283 101.893 0.449 58.716 0.782 -12.649
          0.413 59.005 0.739 -146.562 0.42 57.071
          0.78 -13.172 0.454 56.404 0.199 93.492
3582.15 0.284 101.172 0.429 55.429 0.777 -12.155
          0.415 59.287 0.735 -147.955 0.422 57.07
          0.773 -12.607 0.442 53.406 0.199 93.341
3612 0.285 100.462 0.402 56.339 0.78 -11.618
          0.42 59.656 0.732 -149.095 0.427 57.141
          0.775 -11.68 0.421 53.701 0.198 93.012
3641.85 0.285 99.674 0.397 60.102 0.786 -11.502
          0.429 59.333 0.732 -150.226 0.433 56.895
          0.784 -11.521 0.418 55.936 0.196 92.814
3671.7 0.284 99.06 0.419 62.735 0.789 -11.747
          0.434 58.537 0.732 -151.547 0.438 56.294
          0.788 -11.987 0.433 57.368 0.195 92.822
3701.55 0.284 98.662 0.448 61.657 0.786 -12.134
          0.435 57.873 0.73 -152.915 0.441 55.671
          0.784 -12.282 0.449 56.3 0.194 93.239
3731.4 0.285 98.22 0.457 58.595 0.781 -12.183
          0.435 57.57 0.729 -154.513 0.443 55.266
          0.779 -12.127 0.45 54.65 0.194 93.563
3761.25 0.286 97.599 0.447 57.032 0.779 -12.031
          0.439 57.652 0.725 -155.884 0.445 54.777
          0.782 -11.898 0.443 54.753 0.194 93.769
3791.1 0.286 97.063 0.442 57.888 0.78 -11.963
          0.444 57.236 0.722 -157.096 0.448 54.485
          0.787 -12.214 0.45 56.1 0.193 93.842
3820.95 0.286 96.578 0.454 58.509 0.78 -12.115
          0.446 56.392 0.72 -158.375 0.451 54.07
          0.782 -12.967 0.475 55.845 0.191 93.955
3850.8 0.286 96.209 0.469 56.681 0.776 -12.339
          0.442 55.824 0.719 -159.744 0.452 53.633
          0.768 -13.238 0.493 52.356 0.189 94.302
3880.65 0.286 96.021 0.462 53.922 0.771 -12.145
          0.441 56.365 0.713 -161.023 0.454 53.439
          0.757 -12.358 0.479 48.175 0.189 94.544
3910.5 0.288 95.791 0.44 53.608 0.77 -11.642
          0.445 57.256 0.707 -161.983 0.457 53.459
          0.759 -11.079 0.443 47.494 0.189 94.535
3940.35 0.291 95.049 0.428 56.484 0.775 -11.592
