!Hittite Microwave Corporation								
!12 Elizabeth Drive								
!Chelmsford, MA 01824								
!Tel: 978-250-3343								
!Fax: 978-250-3373							
!Device: HMC245QS16, DC-3.5 GHz GaAs MMIC SP3T Non-Reflective Switch in 16 lead QSOP package								
!Misc: Port 1 = RFC, Port 2 = RF1, Port 3 = RF2. Port 4 = RF3, RF2 Selected, Bias: +5VDC, DEEMBEDDED TO THE PINS OF THE DEVICE							
!
# MHZ S MA R 50

19.9 0.038 15.492 1.803e-3 109.536 0.963 -2.01 1.977e-3 42.501
          3.501e-3 118.644 0.961 -11.876 630.1e-6 -100.811 1.035e-3 114.162
          0.968 -1.772 1.897e-3 -81.697 0.035 33.914 1.368e-3 150.456
          275.3e-6 169.77 639.4e-6 74.361 1.385e-3 47.502 0.961 -12.088
39.801 0.033 -4.581 2.116e-3 72.689 0.965 -2.746 1.44e-3 96.634
          2.221e-3 103.2 0.912 -22.523 1.287e-3 56.527 1.543e-3 5.812
          0.971 -2.286 2.2e-3 64.707 0.023 1.986 1.527e-3 66.68
          1.818e-3 83.767 1.241e-3 -34.785 1.36e-3 42.607 0.911 -22.909
59.701 0.032 -12.274 2.38e-3 67.17 0.966 -3.319 1.639e-3 74.896
          2.849e-3 68.462 0.848 -31.761 2.402e-3 66.91 660.4e-6 -178.863
          0.969 -3.23 2.118e-3 67.745 0.021 -7.263 1.834e-3 71.652
          2.473e-3 65.569 882.1e-6 -158.81 1.986e-3 75.02 0.845 -32.243
79.602 0.032 -19.97 3.467e-3 59.416 0.964 -4.233 3.09e-3 58.579
          3.335e-3 60.654 0.777 -39.825 3.174e-3 60.578 339.8e-6 128.338
          0.968 -4.083 2.941e-3 58.696 0.023 -13.011 2.622e-3 56.083
          3.042e-3 57.943 340.2e-6 -69.767 2.573e-3 65.332 0.774 -40.36
99.502 0.034 -26.83 3.998e-3 50.222 0.964 -5.051 3.308e-3 47.25
          3.814e-3 54.593 0.709 -46.622 3.476e-3 52.507 129.9e-6 135.986
          0.967 -4.931 3.534e-3 57.181 0.023 -20.799 2.661e-3 49.933
          3.108e-3 48.911 43.07e-6 -23.84 2.981e-3 47.217 0.705 -47.188
119.402 0.036 -33.245 4.358e-3 46.113 0.962 -5.882 4e-3 42.577
          4.498e-3 46.364 0.646 -52.34 3.844e-3 42.628 42.44e-6 -141.217
          0.965 -5.742 4.164e-3 45.599 0.025 -30.343 3.362e-3 43.203
          3.564e-3 42.91 298e-6 98.872 3.384e-3 43.787 0.642 -52.916
139.303 0.037 -38.855 4.818e-3 42.452 0.962 -6.727 3.752e-3 39.839
          4.679e-3 37.75 0.59 -57.2 4.164e-3 41.398 209.7e-6 178.897
          0.966 -6.677 4.097e-3 43.933 0.026 -34.898 3.563e-3 36.919
          3.806e-3 40.581 225.1e-6 -163.416 3.764e-3 38.513 0.586 -57.743
159.203 0.039 -43.114 4.636e-3 38.431 0.962 -7.697 4.09e-3 31.996
          4.929e-3 37.328 0.542 -61.361 4.671e-3 36.14 202.8e-6 173.188
          0.965 -7.557 4.515e-3 35.927 0.027 -38.484 3.846e-3 31.576
          4.005e-3 31.528 139.3e-6 167.852 3.691e-3 29.268 0.537 -61.883
179.104 0.041 -47.577 5.193e-3 31.69 0.961 -8.6 4.41e-3 30.187
          5.083e-3 34.616 0.499 -64.994 4.673e-3 30.572 112.4e-6 158.572
          0.964 -8.461 4.66e-3 29.378 0.029 -43.342 3.933e-3 29.779
          4.132e-3 29.817 233.8e-6 87.556 3.957e-3 31.358 0.495 -65.496
199.004 0.043 -51.77 5.499e-3 28.399 0.96 -9.47 4.401e-3 25.78
          5.471e-3 29.502 0.463 -68.074 4.688e-3 25.452 357.8e-6 103.003
          0.964 -9.35 4.731e-3 29.051 0.031 -48.574 3.98e-3 24.72
          4.337e-3 28.154 241.3e-6 143.736 3.918e-3 23.537 0.459 -68.533
218.905 0.046 -55.723 5.151e-3 25.085 0.96 -10.391 4.397e-3 21.264
          5.271e-3 25.158 0.431 -70.818 4.762e-3 25.94 274.5e-6 144.538
          0.963 -10.251 4.767e-3 25.53 0.033 -51.162 3.93e-3 20.083
          4.54e-3 23.125 147e-6 95.135 4.245e-3 19.151 0.426 -71.229
238.805 0.048 -59.434 5.275e-3 22.833 0.96 -11.254 4.588e-3 20.687
          5.45e-3 24.493 0.403 -73.171 4.809e-3 23.237 261.1e-6 100.094
          0.963 -11.144 4.665e-3 23.492 0.035 -55.834 4.164e-3 16.591
          4.425e-3 20.746 318e-6 104.75 4.252e-3 19.185 0.399 -73.582
258.706 0.051 -62.025 5.502e-3 21.399 0.959 -12.167 4.751e-3 17.945
          5.451e-3 20.583 0.379 -75.291 5.041e-3 20.11 115e-6 174.031
          0.963 -12.057 4.859e-3 21.35 0.038 -58.877 4.074e-3 15.189
          4.431e-3 17.534 325.4e-6 117.679 4.045e-3 13.26 0.374 -75.676
278.606 0.053 -65.159 5.447e-3 20.332 0.959 -12.994 4.365e-3 16.983
          5.504e-3 18.247 0.357 -77.226 4.927e-3 19.607 344.5e-6 91.635
          0.962 -12.985 4.764e-3 17.826 0.041 -61.319 4.095e-3 11.79
          4.654e-3 15.595 293.9e-6 132.763 3.924e-3 11.649 0.352 -77.574
298.507 0.056 -67.819 5.304e-3 17.967 0.958 -13.932 4.608e-3 13.55
          5.51e-3 17.037 0.339 -78.961 5.074e-3 17.119 333.8e-6 121.776
          0.961 -13.823 4.886e-3 18.717 0.043 -64.14 4.108e-3 9.962
          4.608e-3 13.396 324.3e-6 117.463 4.254e-3 10.13 0.334 -79.323
318.407 0.059 -70.382 5.404e-3 16.676 0.957 -14.835 4.613e-3 12.419
          5.438e-3 16.084 0.322 -80.56 4.981e-3 16.948 376.4e-6 102.734
          0.961 -14.695 4.916e-3 15.538 0.045 -66.089 4.238e-3 8.525
          4.457e-3 12.376 270.7e-6 103.924 4.307e-3 8.163 0.316 -80.91
338.308 0.061 -72.598 5.451e-3 15.508 0.957 -15.721 4.655e-3 9.905
          5.416e-3 14.905 0.307 -81.933 4.927e-3 13.798 427.8e-6 107.83
          0.96 -15.641 4.996e-3 15.382 0.048 -68.585 4.179e-3 5.447
          4.578e-3 8.726 471.9e-6 94.378 4.314e-3 6.642 0.301 -82.395
358.209 0.064 -74.76 5.345e-3 13.405 0.956 -16.588 4.57e-3 9.172
          5.341e-3 13.863 0.294 -83.214 4.92e-3 12.561 382.2e-6 104.828
          0.96 -16.528 4.883e-3 13.752 0.051 -69.641 4.267e-3 4.86
          4.573e-3 7.669 465.6e-6 100.305 4.153e-3 5.55 0.288 -83.743
378.109 0.066 -76.757 5.458e-3 12.751 0.956 -17.504 4.496e-3 6.785
          5.409e-3 12.908 0.282 -84.328 4.937e-3 11.656 472.9e-6 91.462
          0.96 -17.414 4.983e-3 11.985 0.053 -71.595 4.287e-3 3.153
          4.441e-3 7.584 426.6e-6 94.827 4.15e-3 2.949 0.275 -84.962
398.01 0.069 -78.699 5.401e-3 11.324 0.957 -18.427 4.493e-3 4.602
          5.568e-3 12.241 0.271 -85.407 4.768e-3 10.223 335.5e-6 90.925
          0.959 -18.287 4.86e-3 11.325 0.056 -72.791 4.112e-3 -0.371
          4.537e-3 4.681 376.7e-6 98.919 4.19e-3 1.294 0.264 -86.172
417.91 0.071 -80.421 5.429e-3 11.452 0.956 -19.298 4.504e-3 4.398
          5.384e-3 11.111 0.261 -86.304 4.792e-3 9.802 413e-6 111.102
          0.959 -19.168 4.802e-3 9.594 0.059 -74.585 4.083e-3 -1.51
          4.683e-3 5.157 380e-6 114.863 4.172e-3 -1.133 0.254 -87.271
437.811 0.073 -82.046 5.458e-3 9.502 0.955 -20.185 4.508e-3 2.965
          5.416e-3 10.596 0.252 -87.142 4.831e-3 9.082 530.1e-6 99.969
          0.958 -20.065 4.821e-3 8.929 0.062 -75.994 4.066e-3 -1.971
          4.462e-3 3.506 436.8e-6 102.361 4.127e-3 -2.071 0.245 -88.31
457.711 0.076 -83.708 5.364e-3 7.708 0.954 -21.067 4.448e-3 1.752
          5.337e-3 9.909 0.245 -87.906 4.732e-3 8.004 495.5e-6 86.775
          0.957 -20.947 4.796e-3 8.433 0.064 -77.555 4.113e-3 -3.9
          4.472e-3 2.257 396.5e-6 90.702 4.185e-3 -2.865 0.237 -89.323
477.612 0.078 -85.205 5.28e-3 8.418 0.954 -21.922 4.472e-3 -0.113
          5.263e-3 8.968 0.237 -88.605 4.729e-3 8.304 541.2e-6 95.414
          0.956 -21.842 4.757e-3 8.573 0.066 -78.252 4.077e-3 -4.446
          4.485e-3 1.743 447.3e-6 85.879 4.052e-3 -4.675 0.229 -90.23
497.512 0.08 -86.581 5.275e-3 7.438 0.953 -22.813 4.439e-3 0.648
          5.301e-3 8.014 0.231 -89.172 4.632e-3 6.919 499.8e-6 94.685
          0.956 -22.712 4.649e-3 6.996 0.069 -79.154 4.024e-3 -6.314
          4.444e-3 0.366 618.6e-6 94.05 3.947e-3 -6.059 0.223 -91.124
517.413 0.082 -87.915 5.204e-3 7.527 0.953 -23.696 4.364e-3 -0.364
          5.183e-3 9.053 0.224 -89.773 4.638e-3 6.736 566.9e-6 99.933
          0.955 -23.586 4.656e-3 7.452 0.071 -79.855 4.044e-3 -7.169
          4.39e-3 -0.977 511.5e-6 79.607 3.978e-3 -8.491 0.217 -91.974
537.313 0.084 -89.169 5.165e-3 6.632 0.952 -24.603 4.299e-3 -3.398
          5.213e-3 7.985 0.218 -90.22 4.543e-3 5.615 615e-6 89.712
          0.956 -24.473 4.575e-3 5.118 0.073 -80.688 3.887e-3 -8.188
          4.354e-3 -2.267 627.3e-6 89.116 3.908e-3 -7.996 0.211 -92.689
557.214 0.086 -90.326 5.148e-3 6.274 0.951 -25.473 4.286e-3 -3.44
          5.17e-3 5.578 0.213 -90.631 4.49e-3 5.781 561.8e-6 82.466
          0.955 -25.363 4.467e-3 4.682 0.075 -81.21 3.877e-3 -10.205
          4.29e-3 -3.788 644.2e-6 91.69 3.869e-3 -9.872 0.206 -93.4
577.114 0.087 -91.465 5.113e-3 5.214 0.952 -26.374 4.252e-3 -4.043
          5.143e-3 5.691 0.208 -91.003 4.478e-3 3.958 609.2e-6 85.91
          0.955 -26.244 4.443e-3 4.358 0.077 -81.513 3.807e-3 -10.586
          4.237e-3 -3.805 598.2e-6 87.282 3.901e-3 -10.174 0.202 -94.073
597.015 0.089 -92.558 5.091e-3 5.677 0.952 -27.248 4.195e-3 -4.541
          5.079e-3 6.098 0.204 -91.302 4.443e-3 4.281 682.3e-6 92.051
          0.954 -27.178 4.313e-3 4.417 0.079 -81.835 3.735e-3 -11.104
          4.195e-3 -4.982 634.7e-6 90.402 3.879e-3 -11.267 0.198 -94.623
616.915 0.09 -93.568 4.986e-3 3.954 0.951 -28.095 4.106e-3 -5.648
          5.051e-3 5.452 0.199 -91.579 4.304e-3 3.756 656.8e-6 88.113
          0.954 -28.025 4.326e-3 4.227 0.081 -82.396 3.835e-3 -13.218
          4.124e-3 -6.854 785.6e-6 87.978 3.814e-3 -13.401 0.194 -95.135
636.815 0.091 -94.507 4.909e-3 5.815 0.95 -28.994 4.184e-3 -5.629
          5e-3 4.998 0.195 -91.787 4.241e-3 4.112 765.5e-6 84.501
          0.953 -28.904 4.3e-3 4.099 0.082 -82.906 3.701e-3 -13.966
          4.073e-3 -6.906 700.6e-6 86.042 3.751e-3 -12.737 0.191 -95.562
656.716 0.092 -95.593 4.961e-3 5.201 0.949 -29.863 4.066e-3 -6.48
          4.951e-3 5.394 0.191 -91.962 4.226e-3 2.946 749.7e-6 84.289
          0.952 -29.793 4.155e-3 4 0.084 -83.224 3.698e-3 -14.449
          4.094e-3 -6.832 629.2e-6 85.998 3.631e-3 -14.482 0.188 -95.886
676.616 0.093 -96.4 4.894e-3 4.689 0.949 -30.745 3.941e-3 -8.198
          4.877e-3 4.846 0.188 -92.133 4.081e-3 3.502 736.8e-6 88.396
          0.951 -30.685 4.118e-3 3.648 0.085 -83.359 3.55e-3 -14.627
          4.061e-3 -8.09 650.6e-6 79.649 3.517e-3 -14.669 0.185 -96.225
696.517 0.094 -97.237 4.867e-3 4.638 0.948 -31.618 3.997e-3 -9.728
          4.828e-3 4.262 0.184 -92.257 4.054e-3 3.497 696.8e-6 81.572
          0.951 -31.568 4.096e-3 3.461 0.086 -83.591 3.506e-3 -16.72
          3.993e-3 -9.097 738.5e-6 81.922 3.633e-3 -16.634 0.182 -96.448
716.417 0.094 -98.164 4.785e-3 4.476 0.948 -32.502 3.891e-3 -8.65
          4.841e-3 4.845 0.181 -92.336 4.012e-3 2.643 775.4e-6 85.629
          0.951 -32.412 4.06e-3 3.68 0.087 -83.693 3.562e-3 -17.427
          3.964e-3 -7.303 790.8e-6 80.987 3.489e-3 -17.343 0.179 -96.614
736.318 0.094 -98.978 4.748e-3 3.429 0.948 -33.387 3.891e-3 -9.59
          4.678e-3 4.967 0.178 -92.368 3.913e-3 2.895 753.8e-6 86.331
          0.95 -33.287 4.014e-3 2.054 0.088 -83.985 3.576e-3 -17.679
          3.864e-3 -10.434 782.5e-6 80.406 3.44e-3 -17.498 0.177 -96.697
756.218 0.095 -99.804 4.696e-3 4.792 0.947 -34.265 3.83e-3 -10.713
          4.647e-3 4.568 0.175 -92.349 3.937e-3 2.925 798.2e-6 80.952
          0.95 -34.155 3.803e-3 2.388 0.089 -84.071 3.381e-3 -19.273
          3.808e-3 -10.607 803.6e-6 78.463 3.433e-3 -18.831 0.174 -96.724
776.119 0.095 -100.568 4.685e-3 4.539 0.947 -35.133 3.762e-3 -12.095
          4.697e-3 4.592 0.172 -92.392 3.768e-3 1.426 845.8e-6 81.608
          0.949 -35.023 3.875e-3 3.387 0.09 -84.085 3.406e-3 -20.807
          3.753e-3 -11.969 848.5e-6 75.81 3.394e-3 -20.579 0.172 -96.729
796.019 0.095 -101.225 4.592e-3 5.666 0.946 -36.031 3.666e-3 -12.177
          4.549e-3 4.744 0.169 -92.374 3.715e-3 3.396 817.8e-6 81.168
          0.948 -35.891 3.761e-3 2.593 0.091 -84.042 3.278e-3 -23.134
          3.715e-3 -11.96 882.4e-6 75.93 3.317e-3 -21.055 0.17 -96.7
815.92 0.095 -101.859 4.555e-3 4.709 0.945 -36.899 3.555e-3 -12.755
          4.591e-3 4.946 0.166 -92.336 3.658e-3 4.439 922.7e-6 77.312
          0.947 -36.789 3.645e-3 3.384 0.092 -84.022 3.179e-3 -23.172
          3.579e-3 -12.671 892.5e-6 82.396 3.276e-3 -22.404 0.167 -96.611
835.82 0.095 -102.59 4.566e-3 5.055 0.945 -37.78 3.47e-3 -12.545
          4.457e-3 4.945 0.164 -92.22 3.551e-3 4.13 933.6e-6 79.654
          0.947 -37.68 3.568e-3 4.727 0.092 -84.139 3.145e-3 -22.028
          3.499e-3 -13.591 931.5e-6 80.13 3.155e-3 -23.827 0.165 -96.477
855.721 0.095 -103.228 4.444e-3 5.656 0.944 -38.632 3.378e-3 -12.219
          4.372e-3 4.628 0.161 -92.135 3.508e-3 4.058 931.8e-6 77.187
          0.946 -38.512 3.499e-3 3.708 0.093 -84.328 3.094e-3 -22.967
          3.432e-3 -12.488 950e-6 77.439 3.063e-3 -22.867 0.163 -96.333
875.621 0.095 -103.969 4.369e-3 5.626 0.944 -39.475 3.351e-3 -13.117
          4.399e-3 5.56 0.159 -91.976 3.35e-3 3.01 990.3e-6 75.808
          0.945 -39.375 3.358e-3 4.041 0.093 -84.779 3.067e-3 -23.597
          3.381e-3 -13.551 979.1e-6 75.66 2.97e-3 -23.418 0.161 -96.179
895.522 0.096 -104.654 4.366e-3 7.312 0.943 -40.357 3.306e-3 -13.037
          4.36e-3 6.306 0.157 -91.889 3.335e-3 3.626 1.016e-3 77.165
          0.946 -40.257 3.274e-3 3.972 0.094 -84.985 2.883e-3 -23.954
          3.266e-3 -12.773 1.015e-3 74.432 2.882e-3 -25.293 0.159 -96.034
915.422 0.096 -105.297 4.282e-3 7.302 0.944 -41.2 3.195e-3 -13.979
          4.262e-3 7.557 0.154 -91.754 3.258e-3 5.769 1.023e-3 76.026
          0.945 -41.11 3.227e-3 4.671 0.094 -85.093 2.796e-3 -25.348
          3.166e-3 -14.53 1.037e-3 77.456 2.9e-3 -26.255 0.157 -95.811
935.323 0.095 -106.026 4.228e-3 6.472 0.943 -42.074 3.197e-3 -13.98
          4.233e-3 6.944 0.152 -91.565 3.215e-3 5.947 1.067e-3 75.178
          0.945 -41.974 3.185e-3 5.766 0.095 -85.409 2.831e-3 -26.405
          3.135e-3 -12.98 1.096e-3 76.675 2.818e-3 -26.074 0.155 -95.554
955.223 0.095 -106.71 4.191e-3 7.991 0.943 -42.949 3.117e-3 -15.196
          4.215e-3 8.048 0.15 -91.402 3.015e-3 5.845 1.077e-3 71.758
          0.944 -42.859 3.057e-3 5.674 0.095 -85.466 2.765e-3 -27.023
          3.067e-3 -15.306 999.1e-6 73.632 2.696e-3 -26.533 0.152 -95.326
975.124 0.095 -107.252 4.125e-3 8.589 0.942 -43.804 2.99e-3 -13.624
          4.115e-3 7.662 0.148 -91.14 2.973e-3 6.963 1.114e-3 71.056
          0.944 -43.654 3.01e-3 7.321 0.095 -85.757 2.688e-3 -28.961
          2.951e-3 -15.014 1.084e-3 75.33 2.638e-3 -28.29 0.15 -95.108
995.024 0.094 -107.882 4.088e-3 9.303 0.942 -44.689 2.945e-3 -13.949
          4.107e-3 9.562 0.146 -90.887 2.863e-3 8.221 1.105e-3 73.621
          0.944 -44.589 2.953e-3 8.354 0.095 -85.822 2.535e-3 -26.539
          2.885e-3 -15.165 1.122e-3 71.911 2.579e-3 -27.655 0.148 -94.803
1014.925 0.094 -108.35 4.066e-3 9.962 0.941 -45.546 2.833e-3 -14.468
          4.06e-3 9.989 0.144 -90.709 2.842e-3 10.321 1.118e-3 73.721
          0.943 -45.416 2.924e-3 9.267 0.095 -85.906 2.475e-3 -27.478
          2.827e-3 -14.053 1.111e-3 72.551 2.503e-3 -27.473 0.146 -94.647
1034.825 0.093 -108.691 4.042e-3 10.696 0.941 -46.432 2.76e-3 -14.341
          4.056e-3 11.091 0.143 -90.556 2.779e-3 11.76 1.146e-3 73.915
          0.943 -46.412 2.785e-3 10.827 0.095 -85.809 2.487e-3 -27.685
          2.761e-3 -13.729 1.198e-3 69.597 2.501e-3 -28.376 0.144 -94.407
1054.726 0.092 -109.137 3.983e-3 11.1 0.94 -47.327 2.659e-3 -14.302
          3.983e-3 11.343 0.141 -90.234 2.72e-3 11.652 1.138e-3 70.064
          0.942 -47.257 2.702e-3 11.849 0.095 -85.509 2.394e-3 -29.287
          2.686e-3 -13.029 1.163e-3 69.395 2.4e-3 -27.319 0.142 -94.125
1074.626 0.091 -109.479 3.871e-3 11.652 0.94 -48.195 2.539e-3 -12.457
          3.875e-3 12.262 0.139 -89.836 2.664e-3 14.387 1.189e-3 69.757
          0.942 -48.075 2.614e-3 12.439 0.095 -85.615 2.405e-3 -28.969
          2.604e-3 -12.89 1.196e-3 72.243 2.385e-3 -30.707 0.14 -93.733
1094.527 0.091 -109.686 3.893e-3 12.884 0.94 -49.063 2.524e-3 -12.997
          3.921e-3 12.752 0.137 -89.584 2.56e-3 14.024 1.243e-3 68.176
          0.942 -48.982 2.561e-3 15.883 0.094 -85.483 2.261e-3 -29.976
          2.519e-3 -11.664 1.244e-3 71.773 2.292e-3 -29.375 0.138 -93.475
1114.427 0.09 -109.841 3.872e-3 14.035 0.939 -49.96 2.432e-3 -11.415
          3.793e-3 14.138 0.136 -89.248 2.51e-3 16.963 1.269e-3 71.164
          0.941 -49.82 2.436e-3 16.777 0.094 -85.306 2.276e-3 -30.584
          2.437e-3 -12.472 1.263e-3 69.784 2.223e-3 -30.891 0.136 -93.189
1134.328 0.089 -109.952 3.789e-3 14.749 0.939 -50.837 2.337e-3 -11.267
          3.776e-3 15.176 0.134 -88.897 2.407e-3 18.506 1.285e-3 70.396
          0.941 -50.757 2.421e-3 18.577 0.094 -85.179 2.112e-3 -32.317
          2.297e-3 -11.67 1.285e-3 69.079 2.089e-3 -30.872 0.134 -92.815
1154.228 0.088 -110.083 3.807e-3 16.399 0.938 -51.726 2.24e-3 -10.676
          3.772e-3 16.123 0.132 -88.514 2.355e-3 20.98 1.315e-3 70.064
          0.94 -51.596 2.354e-3 19.728 0.094 -85.184 1.993e-3 -31.854
          2.267e-3 -10.163 1.265e-3 68.874 2.022e-3 -33.617 0.132 -92.6
1174.129 0.087 -110.104 3.803e-3 17.778 0.938 -52.604 2.177e-3 -8.404
          3.769e-3 18.069 0.131 -88.207 2.359e-3 22.92 1.306e-3 70.144
          0.94 -52.444 2.338e-3 23.816 0.094 -85.352 1.98e-3 -33.271
          2.259e-3 -10.598 1.304e-3 70.25 1.928e-3 -32.918 0.13 -92.331
1194.029 0.086 -110.059 3.741e-3 18.256 0.938 -53.492 2.178e-3 -9.005
          3.754e-3 18.71 0.13 -87.704 2.265e-3 25.307 1.425e-3 68.593
          0.94 -53.372 2.296e-3 24.62 0.094 -85.107 1.876e-3 -33.568
          2.147e-3 -7.708 1.343e-3 69.731 1.868e-3 -35.953 0.129 -91.884
1213.93 0.085 -109.887 3.717e-3 20.986 0.937 -54.33 2.073e-3 -8.239
          3.724e-3 19.854 0.129 -87.178 2.201e-3 27.394 1.38e-3 69.505
          0.939 -54.19 2.207e-3 26.485 0.093 -84.771 1.745e-3 -34.695
          2.085e-3 -7.892 1.473e-3 67.527 1.691e-3 -35.447 0.127 -91.604
1233.83 0.085 -109.729 3.703e-3 21.924 0.937 -55.18 1.986e-3 -8.262
          3.661e-3 21.203 0.128 -86.703 2.143e-3 30.054 1.531e-3 66.193
          0.939 -55.05 2.138e-3 30.503 0.093 -84.994 1.697e-3 -36.401
          1.943e-3 -7.891 1.462e-3 65.223 1.645e-3 -34.934 0.125 -91.399
1253.731 0.084 -109.277 3.686e-3 22.499 0.936 -56.049 1.923e-3 -3.145
          3.682e-3 22.69 0.126 -86.171 2.175e-3 34.037 1.476e-3 61.985
          0.938 -55.939 2.136e-3 33.456 0.092 -84.665 1.51e-3 -34.515
          1.884e-3 -6.589 1.415e-3 64.804 1.469e-3 -32.538 0.124 -91.037
1273.631 0.083 -108.989 3.669e-3 24.931 0.935 -56.888 1.765e-3 -2.78
          3.703e-3 24.247 0.125 -85.588 2.163e-3 37.533 1.457e-3 63.789
          0.937 -56.788 2.069e-3 37.512 0.092 -84.927 1.444e-3 -34.913
          1.778e-3 -3.369 1.507e-3 65.282 1.378e-3 -33.587 0.122 -90.891
1293.532 0.083 -108.605 3.67e-3 25.7 0.934 -57.747 1.696e-3 0.127
          3.712e-3 25.012 0.124 -85.084 2.141e-3 40.144 1.525e-3 63.963
          0.936 -57.647 2.13e-3 40.572 0.092 -84.655 1.356e-3 -33.03
          1.756e-3 -0.065 1.512e-3 64 1.336e-3 -35.173 0.121 -90.723
1313.432 0.082 -108.138 3.76e-3 27.665 0.933 -58.607 1.659e-3 2.705
          3.683e-3 28.118 0.123 -84.514 2.091e-3 42.366 1.55e-3 65.017
          0.935 -58.467 2.097e-3 43.415 0.091 -84.644 1.197e-3 -35.938
          1.633e-3 3.939 1.548e-3 63.465 1.237e-3 -38.111 0.119 -90.542
1333.333 0.081 -107.584 3.717e-3 28.46 0.932 -59.447 1.632e-3 8.125
          3.734e-3 28.903 0.122 -83.816 2.12e-3 45.966 1.615e-3 64.642
          0.934 -59.317 2.135e-3 47.086 0.091 -84.546 1.116e-3 -36.006
          1.569e-3 6.786 1.595e-3 61.555 1.143e-3 -38.035 0.118 -90.247
1353.233 0.081 -106.92 3.764e-3 30.254 0.932 -60.275 1.55e-3 9.948
          3.726e-3 30.313 0.121 -83.104 2.033e-3 49.536 1.655e-3 61.418
          0.935 -60.135 2.066e-3 49.386 0.09 -84.497 1.037e-3 -35.568
          1.551e-3 10.773 1.682e-3 61.471 950e-6 -37.905 0.117 -90.028
1373.134 0.08 -106.308 3.748e-3 31.526 0.931 -61.106 1.537e-3 15.353
          3.752e-3 32.361 0.121 -82.526 2.137e-3 53.939 1.669e-3 61.254
          0.934 -60.996 2.12e-3 53.162 0.09 -84.65 870e-6 -34.661
          1.524e-3 14 1.727e-3 62.877 817.3e-6 -32.766 0.116 -89.757
