! Hittite Microwave Corporation					
! 20 Alpha Road
! Chelmsford, MA 01824
! Tel: 978-250-3343
! Fax: 978-250-3373
! Device: HMC182S14, DC-2 GHz GaAS MMIC SP4T Non-Reflective Switch in 14-lead SOIC package
! Misc: Port 1 = RFCom
!       Port 2 = RF1
!       Port 3 = RF2
!       Port 4 = RF3
!       Port 5 = RF4
!  
!  RF3 selected, Vctl=0/-5V
!
!  Data reformated to new Touchstone file format - Tue Jan 09 08:10:08 2007
!
!# MHz S MA R 50
! 5 Port Network Data 
!! Created Tue Jan 09 
# mhz S db R 50
! 5 Port Network Data from SP1.SP block
! freq  dbS11  angS11  dbS12  angS12  dbS13  angS13  dbS14  angS14  
!       dbS15  angS15  
!       dbS21  angS21  dbS22  angS22  dbS23  angS23  
!       dbS24  angS24  dbS25  angS25  
!       dbS31  angS31  dbS32  angS32  
!       dbS33  angS33  dbS34  angS34  dbS35  angS35  
!       dbS41  angS41  
!       dbS42  angS42  dbS43  angS43  dbS44  angS44  dbS45  angS45  
!       dbS51  angS51  dbS52  angS52  dbS53  angS53  dbS54  angS54  
!       dbS55  angS55  
!     
             10       -5.56379         -57.555        -54.0448          82.975         -55.189           84.37       -0.714807          13.958
                   -53.4569          78.518
                   -54.1151          81.635        -0.14893         -21.342        -63.4643          -0.515        -51.1818          57.431
                   -122.672          42.386
                   -55.3198          84.837        -62.6802          -1.906       -0.184346         -21.751        -52.2486          58.121
                   -92.8871          44.007
                  -0.762091          13.938         -51.634           57.61        -52.3669          59.546         -12.076         -75.161
                   -50.9123          56.348
                   -53.6179           78.08        -94.3385        -161.683         -87.639          83.032        -50.8727          55.864
                  -0.184346         -21.433

          39.95       -6.68838          -62.65        -52.1496          73.331         -53.207          73.394       -0.686561          10.723
                   -51.6705          69.786
                   -52.2202          72.343        -0.97325         -29.426        -65.0378           5.725        -50.2657          49.064
                   -97.8626          46.869
                   -53.3109          73.718        -64.3563           4.953        -1.02196         -29.845        -51.3502          50.373
                   -98.1737          93.579
                   -0.73369          10.712        -50.5683          49.242        -51.4308          51.473        -13.1122         -75.203
                   -49.9569          48.417
                   -51.8047          69.508        -113.914        -148.989        -88.1454          77.821        -49.9542          48.034
                   -1.00245         -29.497

           69.9        -7.9588         -67.746        -50.6006          63.742        -51.5976          62.475        -0.64904           7.499
                   -50.1952          61.108
                   -50.6715          63.109        -1.90569          -37.48        -66.9822          12.023        -49.4526          40.716
                   -92.1145          51.347
                   -51.6838          62.657         -66.457          11.871        -1.95994         -37.908        -50.5507          42.642
                   -114.289          142.25
                  -0.695966           7.499        -49.6376          40.894        -50.6036          43.416         -14.244         -75.348
                   -49.1162          40.505
                   -50.3083          60.994        -96.4032          43.239        -88.7019          72.643        -49.1435          40.223
                   -1.92735          -37.53

          99.85       -9.47321         -72.849        -49.2967          54.197        -50.2516          51.599       -0.621006           4.283
                   -48.9442          52.476
                   -49.3653          53.921        -2.93821         -45.501        -69.4784          18.367         -48.709          32.384
                   -88.6996          55.871
                   -50.3226          51.639        -69.2185          18.834        -2.99933         -45.938        -49.8213          34.924
                   -101.475          12.927
                  -0.677165           4.293        -48.7995          32.562        -49.8537          35.374        -15.5978         -75.656
                   -48.3519           32.61
                   -49.0445          52.525        -89.8483          55.827        -89.2992           67.48        -48.3998           32.43
                   -2.93821         -45.531

          129.8       -11.2767         -77.959        -48.1676          44.714        -49.0914          40.782       -0.593062            1.08
                   -47.8573          43.904
                   -48.2368          44.795        -4.11024         -53.463        -72.9563          25.046        -48.0286          24.091
                   -86.2852          60.557
                    -49.151          40.683        -73.2309          26.133        -4.18023         -53.909        -49.1535          27.242
                   -94.5771           62.06
                  -0.639686             1.1        -48.0395          24.268        -49.1659          27.373        -17.2024         -76.219
                   -47.6516          24.751
                   -47.9479          44.112        -86.2032          68.393         -89.916          62.726        -47.7211           24.67
                   -4.09631         -53.472

         159.75       -12.6902         -81.806        -47.4979          37.947        -48.4364          32.459       -0.583768           -1.37
                   -47.2382          37.815
                   -47.5578          38.121        -5.20855         -59.628        -75.0799          61.813         -47.614          17.967
                   -85.6449          75.519
                   -48.4571          32.513        -74.6754           63.71        -5.27207         -60.062        -48.7328          21.469
                   -89.2638          62.662
                  -0.639686           -1.35        -47.6558          18.022        -48.7827          21.741        -18.2728         -76.715
                   -47.2863          18.698
                   -47.3266          37.668        -85.9756          72.508        -88.5565          97.059        -47.3266          18.628
                   -5.17697         -59.617

          189.7       -13.8074         -85.029        -47.1034          32.741        -48.0067          25.998       -0.583768          -3.416
                   -46.8723          33.253
                   -47.1349          32.748        -6.19608         -64.499        -71.1222          93.997        -47.3833          12.685
                   -84.2084           78.97
                   -48.0593          26.197        -71.0848          95.185        -6.28517         -64.911        -48.5171          17.131
                    -88.809          76.669
                  -0.630341          -3.396        -47.4241          12.631        -48.5565          17.128        -18.8619         -77.158
                   -47.0641          13.794
                   -46.9126          33.244        -83.1329          73.915         -88.336          86.297        -47.0935          13.747
                    -6.1607         -64.467

         219.65       -14.7036         -87.815        -46.8245           28.73        -47.7549          20.653       -0.565208           -5.23
                    -46.584          29.804
                   -46.8953           28.72        -7.09155         -68.346        -67.0935         104.326        -47.2322            8.42
                   -81.9219          80.856
                   -47.8338          20.646        -67.2182         103.573        -7.17052         -68.736        -48.3906          13.536
                   -88.6313          86.987
                  -0.621006          -5.209        -47.2803           8.334        -48.4203          13.524        -19.3315         -77.399
                   -46.8915           9.686
                    -46.636          29.786        -81.7417           76.36        -89.3602          67.412        -46.9415           9.748
                    -7.0328         -68.263

          249.6       -15.4938         -90.364        -46.6903          25.577        -47.6244          16.216       -0.574483          -6.914
                   -46.4224          26.958
                   -46.7486          25.527        -7.91548         -71.504        -64.5126         105.421        -47.1884           4.434
                   -80.7668           79.85
                   -47.6852          16.334        -64.5638          104.98        -8.00234          -71.86        -48.3519          10.606
                   -86.3085          75.953
                  -0.630341          -6.858        -47.2083           4.645        -48.3815          10.491        -19.4939         -77.957
                   -46.8417           6.086
                   -46.4973          26.954        -79.5514          76.623        -86.1854          82.665        -46.9011           6.241
                    -7.8509         -71.362

         279.55        -16.082         -92.693        -46.5691          22.908        -47.5102          12.339       -0.583768          -8.521
                   -46.2977           24.71
                   -46.6099          23.235        -8.63597         -74.189        -62.5487         104.154        -47.1448           1.333
                   -79.7096           85.12
                   -47.5599          12.583        -62.5243         104.091        -8.70668         -74.504        -48.2795            7.94
                   -85.0223          73.431
                  -0.611682          -8.395        -47.1685           1.431        -48.3224           8.158        -19.6593         -78.574
                   -46.8321            3.23
                   -46.3193          25.011        -80.4282          83.769        -85.3489          84.398        -46.8704           3.359
                   -8.54257         -74.001

          309.5       -16.7129         -94.757        -46.4881          20.955        -47.4547           9.098       -0.583768          -9.995
                   -46.1766          23.198
                   -46.5304          21.027        -9.31948         -76.341        -60.8335         102.842        -47.1034           -1.53
                   -78.2373          83.331
                    -47.504           9.217        -60.8565         102.755        -9.39601         -76.634        -48.2818           5.784
                   -84.1298          77.709
                  -0.630341          -9.914        -47.1527           -1.51        -48.3315           5.809        -19.7433         -79.245
                   -46.8417            0.57
                   -46.2174          23.246        -78.3947          84.772        -83.9418           70.38        -46.8742           0.619
                   -9.21848         -76.128

         339.45       -17.1397         -96.559        -46.4406          19.264        -47.4281           6.122       -0.593062         -11.432
                   -46.0974          21.823
                   -46.4899          19.299          -9.897          -78.21        -59.4939         100.734        -47.1132          -4.312
                   -77.3612          79.866
                   -47.4752            6.35        -59.5267         100.731        -9.95146         -78.471        -48.3021           3.869
                   -83.6368          74.858
                  -0.639686         -11.341        -47.1448          -4.169         -48.361           3.988        -19.6593         -80.552
                    -46.836          -1.881
                   -46.1466          21.856        -77.5295          80.768        -84.0325          75.856        -46.8876          -1.906
                   -9.76233         -77.989

          369.4       -17.5885         -98.274        -46.4169          17.822        -47.4302           3.479       -0.602367         -12.824
                    -46.045          20.609
                    -46.457          17.895        -10.3999           -79.8        -58.3659          98.907        -47.1349          -6.734
                   -76.4493          82.587
                   -47.4527           3.583        -58.3587          99.312        -10.4866         -80.027        -48.3383           2.185
                   -82.5138          80.587
                  -0.639686         -12.723        -47.1745          -6.623        -48.3792           2.387        -19.5762         -81.313
                    -46.878          -4.122
                   -46.0956          20.779        -76.6537          81.765        -83.2457          76.069        -46.9377          -4.124
                   -10.2572         -79.558

         399.35       -17.9926         -99.631        -46.3824          16.678        -47.4302           0.909       -0.602367         -14.196
                   -45.9877          19.738
                   -46.4224          16.727        -10.9031         -81.142         -57.342          97.291        -47.1428          -9.136
                   -75.7616           79.44
                   -47.4609           1.093        -57.3869          97.523        -10.9643         -81.328        -48.3542           0.757
                   -82.6283           76.33
                  -0.639686         -14.086        -47.1844          -9.061        -48.3952           0.852        -19.4939         -81.963
                   -46.9184          -6.266
                   -46.0432          19.816        -75.8527          78.534          -82.02          75.281        -46.9648          -6.116
                   -10.7221         -80.834

          429.3       -18.2728        -100.744        -46.3897          15.713        -47.4609          -1.277       -0.611682         -15.532
                   -45.9652          18.892
                   -46.4333          15.825        -11.3086         -82.267         -56.455          95.708        -47.1765          -11.36
                   -75.1492           80.14
                   -47.4938          -1.175         -56.513           95.86        -11.3727         -82.399        -48.3929          -0.662
                   -82.0014          75.449
                   -0.64904         -15.422        -47.2242         -11.274         -48.441          -0.525        -19.2515         -82.953
                   -46.9803          -8.334
                    -46.005           19.02        -75.4835          77.798        -81.7237          76.206        -47.0114          -8.165
                   -11.1191         -81.864

         459.25       -18.6363        -101.888        -46.3915          14.928        -47.4876          -3.337       -0.621006         -16.842
                   -45.9445           18.22
                   -46.4387          15.028        -11.7005         -83.262        -55.6872          93.976        -47.2402          -13.45
                    -74.503          80.184
                   -47.5267           -3.25        -55.7243          94.013         -11.734         -83.317         -48.464          -1.924
                    -80.763          76.785
                  -0.658405         -16.732        -47.2682         -13.303        -48.4939          -1.793        -19.1721         -83.742
                   -47.0426           -10.2
                   -45.9842          18.338         -74.832          78.361        -80.6743           75.12        -47.0817         -10.041
                   -11.5024         -82.764

          489.2       -18.9384        -102.612        -46.4005          14.206        -47.5267          -5.434       -0.630341         -18.134
                   -45.9256          17.689
                   -46.4333          14.331         -12.076         -84.171        -54.9818          92.515        -47.2984         -15.324
                   -74.0011          78.605
                   -47.5682           -5.35         -55.016          92.639        -12.1461         -84.142        -48.5286          -2.874
                   -80.7517          77.108
                   -0.66778         -18.024        -47.3246         -15.195        -48.5635          -2.765        -19.1721         -84.802
                   -47.1112         -11.918
                   -45.9635          17.818        -73.9059          79.893        -80.3899          74.792        -47.1547         -11.847
                   -11.8352         -83.605

         519.15       -19.1721        -103.457        -46.3987          13.731        -47.5765          -7.359       -0.621006         -19.413
                   -45.9118          17.181
                   -46.4406          13.761        -12.3958         -84.948         -54.393          91.187        -47.3306         -17.179
                   -73.3958          78.332
                   -47.6265           -7.26         -54.393           91.19         -12.432          -84.83        -48.5612          -3.749
                   -80.0331          75.788
                  -0.658405         -19.301        -47.3772         -16.989        -48.6078          -3.599        -19.0156         -85.803
                   -47.1924         -13.603
                   -45.9514          17.372        -73.3512              79        -79.7433          74.045        -47.2402         -13.569
                   -12.1461         -84.365

          549.1       -19.3315        -103.903        -46.4042          13.162        -47.6307          -9.263       -0.630341         -20.677
                   -45.9033          16.807
                   -46.4552          13.276        -12.6902         -85.614        -53.7819          89.576        -47.3711         -19.058
                   -72.8147          77.845
                   -47.6705          -9.072        -53.7946          89.711        -12.7278         -85.419        -48.6125          -4.734
                   -79.2994          74.722
                   -0.66778         -20.559        -47.4016         -18.962         -48.643          -4.616         -18.786         -87.145
                   -47.2722         -15.368
                   -45.9445          16.933        -72.8109          79.036        -79.3396          75.717        -47.3145         -15.262
                   -12.3958         -85.021

         579.05       -19.6593        -104.229        -46.4169          12.718        -47.6978         -11.023       -0.630341         -21.937
                   -45.8964          16.506
                   -46.4643          12.862        -12.9563         -86.223        -53.1753          88.282        -47.4179          -20.89
                   -72.4575          76.795
                   -47.7401         -10.862        -53.2149           88.42         -12.995         -85.954        -48.6548          -5.701
                   -78.8543          73.574
                   -0.66778         -21.825        -47.4506         -20.816        -48.6807          -5.608        -18.7108         -88.097
                   -47.3448         -16.994
                   -45.9428          16.597        -72.2914          76.592        -78.8163          75.235        -47.3935         -16.915
                   -12.6157         -85.586

            609        -19.828        -104.742        -46.4387          12.503        -47.7698         -12.571       -0.639686         -23.187
                   -45.9101          16.264
