!Hittite Microwave Corporation								
!12 Elizabeth Drive								
!Chelmsford Massachusetts 01824								
!Tel: 978 250-3343								
!Fax: 978 250-3373								
!Device: HMC286, 2.3-2.5 GHz, Low Noise Amplifier								
!Misc: Room Temp  Vdd=+3V Idd= 7.5 mA , DEEMBEDDED TO THE PINS OF THE DEVICE
!
# MHZ S MA R 50

1000 0.893 -70.196 1.016 124.187 4.079e-3 70.347 0.897 -97.014
1020 0.891 -71.637 1.102 122.602 4.218e-3 66.486 0.889 -99.472
1040 0.889 -73.078 1.188 121.018 4.357e-3 62.626 0.881 -101.931
1060 0.886 -74.52 1.266 119.039 4.428e-3 60.339 0.872 -104.334
1080 0.882 -75.963 1.339 116.666 4.432e-3 59.626 0.863 -106.68
1100 0.879 -77.405 1.411 114.292 4.436e-3 58.912 0.854 -109.027
1120 0.876 -78.906 1.508 111.802 4.66e-3 56.25 0.843 -111.66
1140 0.873 -80.405 1.605 109.312 4.883e-3 53.588 0.833 -114.296
1160 0.87 -81.892 1.709 106.955 4.982e-3 51.509 0.822 -116.904
1180 0.867 -83.366 1.82 104.732 4.957e-3 50.014 0.81 -119.487
1200 0.864 -84.839 1.93 102.509 4.932e-3 48.519 0.798 -122.071
1220 0.861 -86.414 2.069 99.517 5.15e-3 45.343 0.782 -124.894
1240 0.858 -87.987 2.208 96.525 5.368e-3 42.167 0.765 -127.72
1260 0.855 -89.542 2.332 93.125 5.489e-3 40.359 0.749 -130.385
1280 0.852 -91.078 2.439 89.317 5.514e-3 39.919 0.734 -132.889
1300 0.848 -92.612 2.547 85.51 5.54e-3 39.48 0.719 -135.395
1320 0.845 -94.249 2.692 82.313 5.644e-3 33.619 0.697 -138.145
1340 0.841 -95.885 2.837 79.117 5.747e-3 27.759 0.675 -140.897
1360 0.838 -97.479 2.953 75.898 5.657e-3 23.778 0.654 -143.131
1380 0.833 -99.033 3.039 72.657 5.371e-3 21.677 0.634 -144.848
1400 0.828 -100.585 3.125 69.416 5.085e-3 19.576 0.614 -146.567
1420 0.825 -102.159 3.25 66.606 5.113e-3 20.746 0.603 -149.151
1440 0.821 -103.732 3.375 63.796 5.141e-3 21.916 0.592 -151.738
1460 0.817 -105.332 3.506 60.96 5.224e-3 22.522 0.578 -154.278
1480 0.813 -106.958 3.643 58.099 5.364e-3 22.565 0.56 -156.769
1500 0.808 -108.584 3.781 55.238 5.503e-3 22.608 0.543 -159.263
1520 0.807 -110.267 3.947 52.285 5.929e-3 19.911 0.53 -162.256
1540 0.805 -111.95 4.114 49.333 6.355e-3 17.215 0.517 -165.252
1560 0.802 -113.757 4.262 46.027 6.671e-3 13.297 0.497 -167.979
1580 0.797 -115.688 4.392 42.368 6.877e-3 8.158 0.47 -170.439
1600 0.792 -117.617 4.521 38.71 7.084e-3 3.02 0.443 -172.904
1620 0.786 -119.473 4.639 35.492 6.99e-3 -0.99 0.426 -174.43
1640 0.78 -121.328 4.757 32.275 6.896e-3 -4.999 0.41 -175.96
1660 0.774 -123.148 4.884 29.394 6.807e-3 -8.004 0.395 -177.661
1680 0.768 -124.934 5.022 26.848 6.723e-3 -10.006 0.384 -179.531
1700 0.762 -126.718 5.159 24.303 6.639e-3 -12.007 0.372 178.596
1720 0.756 -128.677 5.304 21.274 6.728e-3 -13.632 0.359 175.681
1740 0.75 -130.634 5.448 18.245 6.818e-3 -15.257 0.346 172.761
1760 0.744 -132.629 5.621 15.182 6.983e-3 -16.894 0.33 169.727
1780 0.737 -134.661 5.823 12.084 7.223e-3 -18.544 0.312 166.576
1800 0.73 -136.693 6.024 8.987 7.463e-3 -20.193 0.293 163.415
1820 0.722 -138.949 6.191 5.655 7.774e-3 -23.273 0.273 160.221
1840 0.714 -141.205 6.357 2.324 8.084e-3 -26.352 0.253 157.011
1860 0.704 -143.455 6.529 -1.088 8.335e-3 -29.558 0.232 154.132
1880 0.694 -145.697 6.708 -4.581 8.527e-3 -32.891 0.209 151.568
1900 0.684 -147.94 6.886 -8.074 8.719e-3 -36.224 0.186 148.955
1920 0.673 -150.408 7.033 -11.543 8.996e-3 -39.037 0.167 147.551
1940 0.663 -152.877 7.181 -15.014 9.272e-3 -41.852 0.148 146.076
1960 0.65 -155.367 7.335 -18.541 9.615e-3 -45.203 0.129 145.471
1980 0.635 -157.877 7.494 -22.125 0.01 -49.091 0.11 145.68
2000 0.62 -160.387 7.654 -25.711 0.01 -52.981 0.091 145.624
2020 0.606 -163.009 7.797 -29.25 0.011 -55.244 0.075 147.733
2040 0.591 -165.634 7.939 -32.792 0.011 -57.51 0.059 149.275
2060 0.573 -168.4 8.08 -36.572 0.012 -60.82 0.046 163.955
2080 0.552 -171.307 8.219 -40.589 0.012 -65.173 0.035 -165.727
2100 0.531 -174.21 8.357 -44.605 0.013 -69.525 0.026 -131.397
2120 0.51 -176.821 8.423 -48.431 0.013 -73.527 0.042 -119.908
2140 0.488 -179.431 8.488 -52.255 0.013 -77.527 0.058 -109.837
2160 0.466 177.854 8.552 -56.188 0.014 -81.106 0.075 -104.705
2180 0.443 175.034 8.615 -60.228 0.014 -84.262 0.092 -104.005
2200 0.419 172.217 8.677 -64.271 0.015 -87.421 0.109 -103.246
2220 0.394 169.564 8.656 -68.172 0.015 -91.17 0.125 -106.211
2240 0.368 166.92 8.648 -72.075 0.016 -94.921 0.142 -109.109
2260 0.343 164.313 8.625 -75.868 0.016 -98.398 0.156 -112.029
2280 0.316 161.747 8.591 -79.549 0.017 -101.599 0.168 -114.988
2300 0.29 159.198 8.557 -83.232 0.017 -104.802 0.18 -117.928
2320 0.262 157.18 8.472 -86.898 0.018 -108.488 0.192 -121.158
2340 0.234 155.198 8.387 -90.564 0.018 -112.174 0.203 -124.374
2360 0.207 153.713 8.31 -94.2 0.018 -115.59 0.212 -127.517
2380 0.181 152.72 8.241 -97.809 0.019 -118.739 0.22 -130.588
2400 0.155 151.816 8.172 -101.419 0.019 -121.889 0.229 -133.645
2420 0.132 153.392 8.016 -104.809 0.02 -124.979 0.235 -136.873
2440 0.109 155.485 7.862 -108.202 0.02 -128.072 0.241 -140.097
2460 0.089 160.838 7.7 -111.388 0.02 -131.112 0.244 -143.349
2480 0.071 169.362 7.53 -114.368 0.021 -134.1 0.247 -146.567
2500 0.054 179.043 7.361 -117.352 0.021 -137.092 0.25 -149.725
2520 0.051 -158.562 7.242 -120.243 0.021 -139.527 0.251 -152.737
2540 0.049 -137.773 7.124 -123.137 0.022 -141.965 0.251 -155.741
2560 0.054 -123.826 6.996 -125.825 0.022 -144.395 0.251 -158.591
2580 0.068 -114.204 6.857 -128.311 0.022 -146.821 0.25 -161.288
2600 0.082 -103.41 6.718 -130.803 0.023 -149.253 0.248 -164.055
2620 0.099 -100.247 6.583 -133.412 0.023 -151.374 0.246 -166.694
2640 0.115 -96.958 6.453 -136.015 0.023 -153.489 0.245 -169.213
2660 0.13 -95.403 6.332 -138.546 0.024 -155.666 0.243 -171.682
2680 0.145 -95.706 6.21 -141.008 0.024 -157.908 0.239 -174.105
2700 0.159 -95.988 6.087 -143.469 0.024 -160.149 0.236 -176.523
2720 0.171 -96.804 5.952 -145.616 0.024 -162.08 0.233 -178.805
2740 0.184 -97.586 5.817 -147.764 0.025 -164.012 0.229 178.858
2760 0.197 -98.592 5.69 -149.75 0.025 -165.814 0.224 176.441
2780 0.209 -99.983 5.573 -151.568 0.025 -167.48 0.22 174.23
2800 0.222 -101.378 5.456 -153.385 0.025 -169.145 0.215 172.024
2820 0.231 -102.551 5.356 -155.515 0.026 -170.847 0.21 169.981
2840 0.241 -103.726 5.257 -157.644 0.026 -172.548 0.205 167.942
2860 0.25 -104.981 5.164 -159.607 0.027 -174.235 0.199 165.925
2880 0.258 -106.303 5.077 -161.408 0.027 -175.912 0.193 163.924
2900 0.266 -107.522 4.989 -163.216 0.027 -177.596 0.188 161.893
2920 0.275 -108.883 4.889 -165.04 0.028 -179.4 0.182 159.868
2940 0.284 -110.258 4.791 -166.873 0.028 178.787 0.176 158.078
2960 0.292 -111.627 4.706 -168.605 0.028 177.211 0.17 156.344
2980 0.298 -112.992 4.635 -170.24 0.028 175.868 0.164 154.662
3000 0.304 -114.362 4.565 -171.876 0.029 174.524 0.158 152.979
