!Hittite Microwave Corporation								
!12 Elizabeth Drive								
!Chelmsford, MA 01824								
!Tel: 978-250-3343								
!Fax: 978-250-3373								
!Device: HMC283LM1, 17-40 GHz SMT Medium Power GaAs MMIC Amplifier in Leadless Chip Carrier Package								
!Misc: Vdd=+3.5V, Room								
!
# MHZ S MA R 50

0 0.266 -175.701 0.048 178.929 807.2e-6 -36.261 0.966 -0.072
200 0.268 -179.01 0.035 153.146 831.7e-6 -59.576 0.967 -6.509
400 0.269 177.678 0.022 127.366 856e-6 -82.887 0.968 -12.941
600 0.27 174.36 8.876e-3 101.592 881.9e-6 -106.193 0.971 -19.361
800 0.271 171.033 4.335e-3 -104.173 905.9e-6 -129.489 0.972 -25.761
1000 0.271 167.69 0.018 -129.93 929.7e-6 -152.777 0.973 -32.141
1200 0.272 164.329 0.031 -155.675 953.3e-6 -176.054 0.974 -38.495
1400 0.272 160.971 0.042 179.269 1.016e-3 163.831 0.975 -44.822
1600 0.27 157.709 0.05 155.717 1.14e-3 149.414 0.975 -51.127
1800 0.268 154.582 0.06 132.444 1.229e-3 134.953 0.972 -57.359
2000 0.265 151.93 0.065 108.665 1.418e-3 128.212 0.968 -63.57
2200 0.262 149.254 0.068 85.279 1.573e-3 119.811 0.961 -69.715
2400 0.261 146.669 0.069 63.103 1.758e-3 120.158 0.95 -75.806
2600 0.261 144.052 0.07 41.73 1.687e-3 107.714 0.94 -81.696
2800 0.261 141.33 0.07 21.713 1.801e-3 104.98 0.93 -87.486
3000 0.26 138.531 0.071 2.791 1.965e-3 103.524 0.922 -93.284
3200 0.26 135.675 0.072 -15.398 2.14e-3 102.325 0.912 -99.168
3400 0.258 132.908 0.073 -32.691 2.238e-3 98.739 0.901 -104.92
3600 0.257 129.999 0.075 -48.791 2.416e-3 95.255 0.89 -110.389
3800 0.257 127.048 0.078 -63.478 2.595e-3 91.346 0.881 -115.685
4000 0.255 124.104 0.083 -76.844 2.833e-3 87.971 0.874 -121.066
4200 0.254 121.183 0.088 -89.141 3.111e-3 86.814 0.864 -126.548
4400 0.253 118.202 0.095 -100.336 3.278e-3 84.635 0.849 -131.882
4600 0.252 115.168 0.104 -110.326 3.723e-3 80.254 0.834 -136.935
4800 0.25 112.181 0.114 -119.446 4.326e-3 76.169 0.823 -141.798
5000 0.249 109.167 0.126 -127.965 5.168e-3 64.987 0.813 -146.927
5200 0.247 106.127 0.14 -134.46 4.056e-3 16.716 0.788 -150.97
5400 0.246 103.181 0.156 -141.819 2.786e-3 52.308 0.791 -156.262
5600 0.244 100.075 0.175 -148.659 3.088e-3 56.687 0.781 -161.449
5800 0.242 97.038 0.196 -155.082 3.415e-3 57.784 0.769 -166.348
6000 0.24 93.979 0.221 -161.263 3.658e-3 57.008 0.757 -171.056
6200 0.238 90.918 0.249 -167.293 4.024e-3 56.913 0.746 -175.713
6400 0.236 87.882 0.282 -173.199 4.362e-3 52.467 0.736 179.76
6600 0.233 84.776 0.319 -179.062 4.509e-3 47.877 0.726 175.224
6800 0.231 81.752 0.361 175.017 4.557e-3 46.826 0.716 170.568
7000 0.229 78.762 0.41 168.915 4.632e-3 44.996 0.708 165.882
7200 0.225 75.807 0.464 162.675 4.78e-3 42.104 0.698 161.123
7400 0.222 72.834 0.526 156.319 4.995e-3 41.739 0.686 156.429
7600 0.218 70.15 0.594 149.717 4.995e-3 36.854 0.674 151.807
7800 0.214 67.803 0.671 142.892 5.039e-3 33.872 0.662 147.207
8000 0.21 65.523 0.757 136.044 5.283e-3 32.06 0.65 142.716
8200 0.207 63.516 0.852 129.153 5.448e-3 28.679 0.638 138.425
8400 0.205 61.595 0.958 122.103 5.446e-3 26.312 0.629 134.218
8600 0.203 59.67 1.074 115.043 5.385e-3 22.142 0.62 129.929
8800 0.202 57.765 1.201 107.75 5.421e-3 20.338 0.611 125.629
9000 0.2 55.889 1.34 100.316 5.493e-3 17.584 0.601 121.278
9200 0.197 53.716 1.495 92.739 5.337e-3 11.799 0.591 116.892
9400 0.197 52.936 1.657 85.375 5.038e-3 15.635 0.582 112.801
9600 0.198 51.834 1.832 77.844 5.214e-3 19.563 0.574 108.544
9800 0.2 49.742 2.02 70.02 5.581e-3 15.888 0.564 104.187
10000 0.201 47.672 2.226 62.143 5.734e-3 11.524 0.554 100.058
10200 0.201 45.753 2.447 54.208 6.004e-3 7.769 0.543 95.858
10400 0.201 43.996 2.683 46.411 6.313e-3 3.426 0.531 91.678
10600 0.2 42.282 2.934 38.905 6.78e-3 -1.079 0.512 87.617
10800 0.2 41.582 3.203 32.139 6.436e-3 -14.74 0.484 84.982
11000 0.206 40.173 3.496 24.78 4.868e-3 -15.934 0.485 85.002
11200 0.209 37.593 3.813 16.207 4.722e-3 -11.179 0.496 81.417
11400 0.209 35.317 4.143 7.869 4.726e-3 -5.466 0.496 77.577
11600 0.209 33.469 4.496 -0.265 4.612e-3 -8.129 0.493 73.937
11800 0.209 31.575 4.877 -8.216 4.864e-3 -4.596 0.489 70.593
12000 0.208 29.702 5.291 -16.12 5.004e-3 -6.543 0.484 67.431
12200 0.208 28.01 5.732 -24.02 4.724e-3 -11.737 0.48 64.091
12400 0.205 26.036 6.21 -31.699 4.605e-3 -9.396 0.472 61.228
12600 0.2 24.786 6.742 -39.455 4.887e-3 -7.075 0.466 58.796
12800 0.198 23.902 7.333 -47.397 5.167e-3 -9.979 0.462 56.066
13000 0.196 22.532 7.994 -55.118 5.085e-3 -10.404 0.456 53.343
13200 0.19 20.872 8.761 -62.691 4.692e-3 -9.395 0.447 50.907
13400 0.181 20.392 9.62 -70.317 4.495e-3 -9 0.434 49.408
13600 0.168 22.228 10.601 -78.494 5.147e-3 -3.508 0.426 49.413
13800 0.157 27.121 11.694 -87.476 5.626e-3 -6.549 0.428 50.261
14000 0.156 33.571 12.859 -97.383 6.183e-3 -5.633 0.443 50.31
14200 0.159 41.713 14.042 -107.647 6.448e-3 -7.011 0.461 50.008
14400 0.179 52.941 15.173 -119.428 7.031e-3 -8.104 0.497 49.635
14600 0.228 57.499 16.107 -133.23 7.973e-3 -16.945 0.544 46.665
14800 0.29 56.532 16.738 -148.826 8.274e-3 -24.775 0.591 41.404
15000 0.356 51.028 16.965 -165.476 8.878e-3 -32.566 0.624 34.539
15200 0.411 43.118 16.685 177.474 8.756e-3 -39.317 0.64 26.908
15400 0.452 34.631 15.958 160.778 8.115e-3 -47.502 0.629 19.037
15600 0.479 26.158 14.898 145.444 7.364e-3 -57.44 0.596 11.739
15800 0.494 18.202 13.752 131.531 6.855e-3 -65.18 0.548 5.789
16000 0.503 10.905 12.777 118.821 6.678e-3 -70.076 0.49 1.267
16200 0.511 3.693 12.01 108.492 5.673e-3 -76.794 0.433 -0.962
16400 0.507 -3.633 11.376 102.23 4.987e-3 -86.97 0.368 0.925
16600 0.497 -11.626 10.826 101.308 3.764e-3 -94.299 0.329 7.588
16800 0.469 -20.306 10.277 109.159 2.661e-3 -123.216 0.328 17.913
17000 0.409 -28.881 9.882 118.741 623.8e-6 -133.346 0.375 23.927
17200 0.323 -31.386 9.662 115.508 1.42e-3 82.523 0.427 23.437
17400 0.265 -20.209 9.619 105.453 3.833e-3 30.179 0.444 20.709
17600 0.301 -11.545 9.706 94.847 6.483e-3 -4.658 0.491 23.897
17800 0.337 -11.591 9.902 86.099 5.826e-3 -26.402 0.545 19.088
18000 0.358 -16.745 10.28 83.375 5.366e-3 -35.055 0.571 12.507
18200 0.357 -22.502 10.695 80.5 5.051e-3 -35.058 0.578 7.601
18400 0.342 -26.662 10.982 73.745 4.875e-3 -33.266 0.577 3.549
18600 0.325 -29.26 11.112 65.214 5.249e-3 -34.483 0.572 -0.07
18800 0.311 -31.421 11.191 56.824 5.464e-3 -36.573 0.565 -3.643
19000 0.292 -34.686 11.263 48.842 5.957e-3 -38.206 0.548 -6.854
19200 0.251 -36.172 11.444 40.156 6.968e-3 -48.064 0.525 -8.241
19400 0.239 -24.153 11.531 30.824 6.008e-3 -67.847 0.53 -8.948
19600 0.253 -23.59 11.508 25.113 4.812e-3 -63.256 0.527 -11.792
19800 0.265 -24.673 11.463 20.189 5.043e-3 -62.769 0.515 -13.825
20000 0.256 -25.625 11.461 14.427 4.881e-3 -62.835 0.501 -15.727
20200 0.25 -25.816 11.459 9.429 4.574e-3 -59.723 0.487 -16.425
20400 0.24 -25.77 11.463 4.176 4.429e-3 -55.432 0.469 -17.308
20600 0.235 -24.439 11.549 -1.179 4.285e-3 -55.34 0.454 -17.567
20800 0.235 -22.21 11.698 -6.37 4.75e-3 -60.738 0.445 -16.769
21000 0.235 -19.373 11.855 -12.041 4.688e-3 -66.422 0.44 -15.815
21200 0.239 -16.278 12.029 -17.933 4.77e-3 -68.383 0.442 -14.982
21400 0.249 -15.659 12.199 -23.151 4.922e-3 -69.073 0.448 -14.959
21600 0.251 -17.369 12.41 -28.735 4.596e-3 -64.822 0.448 -15.979
21800 0.244 -15.587 12.661 -36.244 4.876e-3 -59.879 0.441 -15.948
22000 0.255 -11.295 12.864 -43.92 5.582e-3 -70.836 0.449 -14.526
22200 0.266 -12.742 13.065 -50.487 4.875e-3 -69.915 0.455 -15.476
22400 0.283 -11.367 13.212 -57.798 5.552e-3 -74.041 0.465 -15.213
22600 0.288 -14.857 13.366 -63.772 5.028e-3 -74.16 0.469 -16.647
22800 0.3 -15.399 13.494 -71.366 5.609e-3 -75.661 0.478 -17.433
23000 0.302 -18.667 13.55 -77.929 5.593e-3 -82.162 0.476 -18.779
23200 0.292 -20.604 13.608 -85.094 5.244e-3 -88.879 0.47 -19.816
23400 0.281 -20.739 13.631 -92.616 5.362e-3 -95.506 0.465 -20.981
23600 0.27 -19.382 13.676 -99.707 4.851e-3 -98.281 0.454 -21.457
23800 0.267 -16.94 13.683 -106.449 3.976e-3 -92.784 0.445 -20.732
24000 0.268 -13.111 13.683 -113.2 3.906e-3 -85.696 0.444 -18.994
24200 0.28 -10.29 13.652 -119.521 4.563e-3 -84.612 0.455 -17.607
24400 0.294 -10.25 13.628 -125.278 4.809e-3 -91.526 0.468 -17.648
24600 0.301 -10.662 13.621 -131.059 4.338e-3 -96.312 0.475 -18.215
24800 0.309 -9.727 13.645 -137.167 4.229e-3 -93.921 0.482 -18.433
25000 0.329 -9.717 13.677 -143.197 4.773e-3 -102.302 0.496 -18.747
25200 0.337 -11.503 13.753 -148.508 4.384e-3 -101.125 0.503 -19.462
25400 0.346 -12.273 13.866 -154.968 5.007e-3 -108.981 0.504 -20.858
25600 0.355 -13.95 14.063 -161.546 5.52e-3 -99.448 0.505 -20.682
25800 0.354 -14.016 14.263 -167.648 3.74e-3 -109.239 0.507 -20.728
26000 0.358 -13.624 14.372 -174.163 5.161e-3 -108.435 0.527 -20.601
26200 0.362 -11.527 14.42 177.846 3.982e-3 -113.527 0.534 -21.29
26400 0.385 -11.493 14.307 170.783 3.366e-3 -108.643 0.554 -21.832
26600 0.399 -13.791 14.107 163.517 4.315e-3 -105.083 0.576 -23.018
26800 0.411 -14.366 13.878 154.147 5.422e-3 -114.311 0.591 -25.096
27000 0.436 -14.092 13.569 144.468 5.204e-3 -123.499 0.604 -26.299
27200 0.463 -16.514 13.231 135.214 5.012e-3 -128.215 0.617 -28.197
27400 0.47 -20.845 12.998 126.783 5.679e-3 -138.37 0.614 -31.768
27600 0.463 -23.987 12.732 120.715 5.719e-3 -151.097 0.603 -34.307
27800 0.464 -26.265 12.4 115.954 5.16e-3 -154.728 0.598 -36.188
28000 0.459 -29.063 12.084 111.531 4.233e-3 -157.466 0.579 -38.706
28200 0.456 -29.544 11.747 107.585 3.052e-3 -172.954 0.563 -39.266
28400 0.449 -32.063 11.468 103.156 2.157e-3 -152.028 0.546 -39.554
28600 0.438 -32.735 11.228 97.68 2.748e-3 169.529 0.54 -39.153
28800 0.427 -33.491 11.082 93.209 2.541e-3 -176.151 0.533 -39.26
29000 0.425 -33.831 10.937 87.822 1.628e-3 158.336 0.532 -39.125
29200 0.414 -34.367 10.83 82.235 1.685e-3 156.134 0.533 -39.172
29400 0.403 -34.116 10.754 76.195 2.596e-3 -172.23 0.53 -39.373
29600 0.406 -33.046 10.648 70.02 1.897e-3 -160.818 0.532 -39.189
29800 0.409 -32.812 10.554 63.699 972.5e-6 -167.512 0.537 -39.624
30000 0.415 -32.852 10.441 57.455 686.9e-6 146.727 0.546 -40.107
30200 0.43 -33.577 10.304 51.85 872e-6 100.909 0.561 -40.726
30400 0.437 -36.243 10.212 46.643 1.442e-3 63.414 0.569 -42.734
30600 0.423 -37.964 10.111 40.518 2.128e-3 -24.958 0.562 -44.844
30800 0.418 -37.571 9.985 33.758 3.576e-3 -63.62 0.552 -46.251
31000 0.422 -37.406 9.868 27.399 5.029e-3 -109.885 0.54 -47.51
31200 0.43 -37.252 9.705 22.804 5.716e-3 -137.25 0.544 -45.666
31400 0.435 -39.331 9.612 18.216 3.34e-3 -136.824 0.554 -47.705
31600 0.437 -41.195 9.529 12.833 5.2e-3 -137.921 0.555 -49.451
31800 0.432 -42.903 9.422 8.367 4.65e-3 -162.663 0.552 -50.082
32000 0.424 -44.798 9.312 3.235 4.033e-3 -163.264 0.561 -51.451
32200 0.412 -45.66 9.227 -2.265 3.76e-3 -151.486 0.559 -53.594
32400 0.397 -45.934 9.161 -8.208 3.232e-3 -142.313 0.544 -55.307
32600 0.393 -44.642 9.068 -14.662 3.848e-3 -143.762 0.537 -55.668
32800 0.395 -44.259 8.998 -20.495 4.572e-3 -159.268 0.535 -56.62
33000 0.398 -44.914 8.938 -25.573 3.844e-3 -156.864 0.535 -57.96
33200 0.407 -46.43 8.873 -30.538 3.76e-3 -162.474 0.541 -59.026
33400 0.403 -49.057 8.834 -35.669 4.646e-3 163.592 0.539 -60.754
33600 0.383 -49.998 8.811 -41.258 3.607e-3 176.919 0.523 -62.757
33800 0.377 -50.634 8.779 -46.376 5.583e-3 166.74 0.508 -64.895
34000 0.363 -52.256 8.768 -51.803 4.798e-3 156.127 0.488 -67.064
34200 0.352 -51.676 8.739 -56.54 3.817e-3 172.067 0.477 -67.581
34400 0.35 -55.234 8.763 -61.182 7.035e-3 163.983 0.476 -70.19
34600 0.322 -54.874 8.78 -67.138 3.972e-3 166.241 0.448 -71.626
34800 0.309 -52.415 8.758 -73.467 4.203e-3 171.925 0.431 -72.097
35000 0.307 -50.671 8.741 -79.574 4.963e-3 159.956 0.423 -72.995
35200 0.309 -51.594 8.726 -85.134 7.357e-3 162.366 0.418 -72.89
35400 0.301 -51.759 8.743 -90.49 7.385e-3 155.845 0.42 -74.718
35600 0.289 -52.061 8.785 -96.426 8.536e-3 151.789 0.405 -78.897
35800 0.274 -52.114 8.819 -102.563 0.01 136.182 0.379 -82.957
36000 0.265 -51.409 8.847 -108.527 9.568e-3 121.229 0.356 -85.412
36200 0.261 -52.309 8.902 -114.059 0.01 123.025 0.334 -88.241
36400 0.248 -53.075 8.981 -118.952 0.013 115.464 0.31 -92.349
36600 0.229 -51.398 9.055 -124.417 0.011 114.819 0.276 -96.15
36800 0.213 -46.724 9.114 -130.149 0.014 108.247 0.237 -97.608
37000 0.203 -45.86 9.217 -135.788 0.011 100.78 0.208 -101.088
37200 0.179 -44.462 9.338 -141.608 0.014 112.942 0.173 -108.852
37400 0.167 -33.502 9.409 -149.822 0.014 89.204 0.102 -110.911
37600 0.165 -24.119 9.513 -155.945 0.014 86.694 0.054 -101.358
37800 0.189 -14.674 9.582 -163.004 0.017 78.648 0.038 -33.615
38000 0.211 -10.412 9.651 -169.958 0.015 74.932 0.07 -7.129
38200 0.236 -10.016 9.705 -176.989 0.018 65.577 0.094 0.248
38400 0.266 -11.671 9.69 175.111 0.017 45.365 0.122 6.999
38600 0.279 -13.84 9.638 166.67 0.015 34.365 0.142 17.173
38800 0.277 -14.694 9.54 157.508 0.014 25.501 0.17 18.253
39000 0.28 -12.166 9.343 147.569 0.011 21.428 0.224 24.055
39200 0.299 -10.424 9.13 138.616 9.547e-3 25.349 0.263 20.651
39400 0.318 -10.815 8.902 130.45 9.645e-3 15.591 0.301 15.325
39600 0.349 -12.36 8.643 122.725 7.125e-3 44.823 0.337 11.321
39800 0.362 -14.519 8.378 115.549 8.71e-3 39.208 0.36 9.51
40000 0.378 -19.462 8.091 108.954 8.828e-3 52.611 0.418 5.774
