!Hittite Microwave Corporation								
!12 Elizabeth Drive								
!Chelmsford, MA 01824								
!Tel: 978-250-3343								
!Fax: 978-250-3373							
!Device: HMC245QS16, DC-3.5 GHz GaAs MMIC SP3T Non-Reflective Switch in 16 lead QSOP package								
!Misc: Port 1 = RFC, Port 2 = RF1, Port 3 = RF2. Port 4 = RF3, ALL OFF, Bias: +5VDC, DEEMBEDDED TO THE PINS OF THE DEVICE							
!
# MHZ S MA R 50

19.9 0.988 -1.967 2.279e-3 91.241 3.305e-3 128.038 1.431e-3 160.456
          2.043e-3 -39.42 0.964 -11.9 1.552e-3 124.926 1.13e-3 -65.701
          2.116e-3 80.732 1.346e-3 30.651 0.964 -12.112 1.63e-3 23.29
          1.912e-3 12.274 1.247e-3 97.12 1.073e-3 161.226 0.961 -12.143
39.801 0.981 -3.485 2.7e-3 78.447 2.599e-3 77.069 3.341e-3 80.462
          3.341e-3 81.794 0.911 -22.566 857.8e-6 -1.012 631.3e-6 -36.619
          2.359e-3 68.43 1.349e-3 27.262 0.912 -22.778 1.028e-3 -42.889
          2.924e-3 55.664 1.2e-3 19.441 1.562e-3 -30.601 0.91 -22.898
59.701 0.975 -4.909 4.299e-3 69.221 3.89e-3 69.07 4.427e-3 67.144
          4.146e-3 69.604 0.848 -31.75 277.6e-6 20.566 273.8e-6 144.858
          3.911e-3 70.557 798e-6 79.088 0.845 -32.1 884.1e-6 -125.993
          3.693e-3 69.42 517.8e-6 -79.965 84.44e-6 -95.832 0.845 -32.211
79.602 0.974 -6.314 6.24e-3 58.251 5.331e-3 62.824 5.539e-3 59.951
          5.994e-3 58.34 0.778 -39.847 125.2e-6 -43.413 420.4e-6 -103.378
          5.283e-3 58.98 219.2e-6 37.31 0.773 -40.239 315.2e-6 -118.172
          5.843e-3 58.213 457.5e-6 -55.205 360.1e-6 -54.247 0.774 -40.36
99.502 0.973 -7.606 6.941e-3 49.833 6.332e-3 51.266 6.26e-3 53.309
          6.816e-3 50.087 0.709 -46.622 257.2e-6 5.818 335e-6 -114.489
          5.931e-3 52.547 442.3e-6 70.422 0.705 -47.014 258.9e-6 90.981
          6.384e-3 53.029 210.7e-6 83.885 257.4e-6 114.882 0.705 -47.188
119.402 0.971 -9.062 7.686e-3 43.166 7.063e-3 43.725 7.017e-3 44.637
          8.065e-3 46.102 0.647 -52.33 376.8e-6 55.54 266e-6 172.89
          6.929e-3 42.662 309.7e-6 76.102 0.641 -52.7 108.7e-6 5.323
          6.979e-3 44.25 296.9e-6 164.6 414.2e-6 46.424 0.642 -52.883
139.303 0.971 -10.485 8.346e-3 37.493 7.27e-3 37.131 7.63e-3 36.974
          8.405e-3 37.422 0.59 -57.189 469.7e-6 89.303 247.1e-6 128.324
          7.337e-3 38.157 610.6e-6 67.228 0.586 -57.592 382.6e-6 166.068
          7.604e-3 37.894 242.5e-6 -172.321 163.2e-6 128.951 0.586 -57.743
159.203 0.971 -11.897 8.623e-3 31.892 7.486e-3 31.024 7.929e-3 32.13
          8.692e-3 33.066 0.542 -61.382 434e-6 100.294 170.5e-6 73.132
          7.669e-3 30.915 525.2e-6 87.01 0.537 -61.743 97.75e-6 -17.369
          7.811e-3 31.936 69.37e-6 140.794 322.9e-6 172.742 0.538 -61.893
179.104 0.971 -13.289 8.771e-3 29.225 8.109e-3 26.291 8.046e-3 27.538
          8.902e-3 28.908 0.499 -65.016 559.9e-6 98.061 116.1e-6 141.115
          7.897e-3 27.309 786.3e-6 110.766 0.495 -65.335 229.8e-6 58.653
          8.054e-3 27.712 259e-6 137.76 176.6e-6 122.04 0.495 -65.485
199.004 0.971 -14.75 8.944e-3 24.838 8.185e-3 23.583 8.51e-3 22.861
          9.266e-3 25.008 0.463 -68.085 874.3e-6 99.229 158.5e-6 90.135
          8.26e-3 23.194 749.8e-6 97.649 0.459 -68.416 383.8e-6 128.683
          8.559e-3 23.076 175.4e-6 83.067 330.2e-6 151.238 0.458 -68.503
218.905 0.971 -16.16 9.301e-3 21.332 8.169e-3 20.024 8.425e-3 19.594
          9.217e-3 21.602 0.431 -70.829 1.009e-3 97.207 370e-6 114.379
          8.357e-3 20.228 953.2e-6 93.384 0.427 -71.15 333e-6 114.801
          8.542e-3 18.672 155.1e-6 150.023 244.3e-6 122.349 0.426 -71.229
238.805 0.972 -17.589 9.436e-3 19.017 8.556e-3 16.863 8.735e-3 17.872
          9.425e-3 18.458 0.403 -73.192 1.328e-3 99.117 328e-6 105.788
          8.39e-3 16.354 1.219e-3 101.133 0.4 -73.504 243.7e-6 114.466
          8.575e-3 17.025 293.7e-6 102.254 297.5e-6 132.148 0.399 -73.584
258.706 0.972 -18.966 9.529e-3 17.536 8.454e-3 13.274 8.621e-3 13.259
          9.529e-3 15.787 0.379 -75.291 1.272e-3 100.747 331.3e-6 101.993
          8.358e-3 12.893 1.236e-3 111.518 0.376 -75.622 505e-6 110.438
          8.74e-3 14.99 316.4e-6 117.88 335.9e-6 130.241 0.374 -75.635
278.606 0.973 -20.433 9.504e-3 13.183 8.587e-3 10.77 8.501e-3 12.59
          9.384e-3 13.415 0.357 -77.206 1.552e-3 100.55 239.9e-6 101.883
          8.667e-3 11.31 1.429e-3 109.741 0.355 -77.484 391e-6 118.884
          8.838e-3 11.293 245.5e-6 112.646 435e-6 153.453 0.352 -77.553
298.507 0.973 -21.829 9.601e-3 11.447 8.645e-3 7.629 8.755e-3 9.199
          9.436e-3 11.835 0.339 -78.971 1.847e-3 96.29 362.3e-6 116.036
          8.508e-3 9.36 1.72e-3 97.125 0.337 -79.248 484.9e-6 106.337
          8.775e-3 10.245 347e-6 97.14 517.1e-6 110.704 0.333 -79.327
318.407 0.974 -23.252 9.709e-3 9.364 8.594e-3 5.86 8.684e-3 7.325
          9.457e-3 9.331 0.322 -80.526 1.955e-3 96.582 309.3e-6 96.02
          8.545e-3 6.378 1.962e-3 99.868 0.321 -80.82 406.2e-6 98.701
          8.724e-3 7.627 380e-6 98.516 477.5e-6 87.981 0.316 -80.921
338.308 0.974 -24.685 9.73e-3 7.934 8.544e-3 4.665 8.673e-3 5.55
          9.532e-3 7.182 0.307 -81.943 2.074e-3 96.355 450.1e-6 103.054
          8.622e-3 5.311 2.113e-3 96.879 0.307 -82.199 607.5e-6 112.232
          8.683e-3 5.635 452.5e-6 87.96 471.6e-6 95.347 0.301 -82.364
358.209 0.975 -26.075 9.598e-3 5.994 8.505e-3 2.365 8.663e-3 3.49
          9.565e-3 6.006 0.294 -83.2 2.204e-3 99.162 363.7e-6 101.017
          8.534e-3 2.452 2.263e-3 97.53 0.293 -83.455 546.2e-6 111.205
          8.653e-3 3.332 374.5e-6 112.641 575e-6 99.426 0.287 -83.716
378.109 0.976 -27.464 9.532e-3 4.814 8.427e-3 0.357 8.643e-3 2.021
          9.564e-3 4.429 0.282 -84.324 2.497e-3 98.613 347.7e-6 89.835
          8.632e-3 2.219e-3 2.385e-3 96.933 0.282 -84.575 579.3e-6 107.069
          8.693e-3 1.993 379.7e-6 96.484 535.7e-6 95.916 0.275 -84.962
398.01 0.977 -28.85 9.521e-3 3.139 8.467e-3 -0.735 8.683e-3 0.013
          9.631e-3 2.771 0.271 -85.448 2.721e-3 93.351 427.8e-6 105.859
          8.633e-3 -0.19 2.714e-3 96.156 0.272 -85.649 671.3e-6 108.073
          8.683e-3 -0.182 266.1e-6 91.514 684e-6 99.257 0.264 -86.162
417.91 0.976 -30.246 9.478e-3 1.967 8.487e-3 -2.91 8.614e-3 -0.951
          9.479e-3 1.766 0.261 -86.314 2.871e-3 93.96 393.5e-6 99.762
          8.429e-3 -2.784 2.823e-3 94.307 0.262 -86.578 677.2e-6 99.318
          8.604e-3 -1.591 463e-6 84.809 685.5e-6 103.467 0.254 -87.251
437.811 0.978 -31.65 9.479e-3 0.171 8.324e-3 -3.991 8.665e-3 -2.614
          9.361e-3 0.463 0.252 -87.163 2.992e-3 93.443 506.4e-6 97.57
          8.324e-3 -3.718 2.986e-3 95.477 0.254 -87.377 659.7e-6 96.573
          8.508e-3 -3.351 522.5e-6 84.852 767.3e-6 102.123 0.245 -88.29
457.711 0.977 -33.012 9.373e-3 -1.421 8.431e-3 -5.266 8.568e-3 -3.809
          9.362e-3 -0.723 0.245 -87.926 3.119e-3 93.741 498.9e-6 94.198
          8.393e-3 -5.354 3.191e-3 92.558 0.246 -88.119 674.7e-6 94.687
          8.567e-3 -4.599 495.7e-6 96.44 795.2e-6 94.292 0.237 -89.297
477.612 0.979 -34.371 9.289e-3 -2.626 8.327e-3 -7.248 8.471e-3 -6.567
          9.363e-3 -2.428 0.237 -88.615 3.28e-3 91.59 520.7e-6 86.834
          8.317e-3 -6.5 3.288e-3 92.481 0.239 -88.808 847.5e-6 99.534
          8.384e-3 -6.086 503e-6 95.676 798.5e-6 89.935 0.229 -90.22
497.512 0.979 -35.709 9.258e-3 -2.889 8.214e-3 -8.689 8.261e-3 -7.115
          9.163e-3 -3.028 0.231 -89.202 3.47e-3 91.068 562.7e-6 98.888
          8.252e-3 -8.506 3.427e-3 90.57 0.233 -89.386 910.6e-6 96.178
          8.396e-3 -7.105 500.1e-6 80.867 828.4e-6 91.869 0.223 -91.089
517.413 0.98 -37.055 9.165e-3 -4.666 8.168e-3 -10.006 8.282e-3 -8.317
          9.071e-3 -4.518 0.224 -89.773 3.612e-3 91.463 605.6e-6 92.268
          8.263e-3 -9.332 3.53e-3 89.428 0.227 -89.917 909.8e-6 90.568
          8.282e-3 -7.451 511e-6 101.665 846.9e-6 93.671 0.217 -91.944
537.313 0.98 -38.391 9.125e-3 -5.181 8.087e-3 -11.19 8.143e-3 -9.203
          9.052e-3 -4.961 0.219 -90.176 3.646e-3 88.909 630e-6 88.429
          8.095e-3 -10.862 3.739e-3 90.047 0.222 -90.331 1.034e-3 94.043
          8.217e-3 -9.489 693.3e-6 84.818 907.7e-6 91.566 0.211 -92.669
557.214 0.982 -39.711 8.971e-3 -5.487 8.051e-3 -12.504 8.033e-3 -10.64
          9.013e-3 -5.885 0.213 -90.627 3.867e-3 88.991 588.8e-6 86.588
          8.014e-3 -12.859 3.911e-3 89.098 0.217 -90.772 906e-6 87.649
          8.052e-3 -10.515 621.1e-6 83.862 953e-6 90.818 0.206 -93.39
577.114 0.983 -41.009 8.739e-3 -7.028 7.907e-3 -13.15 8.017e-3 -11.626
          8.891e-3 -6.58 0.208 -91.003 3.975e-3 88.573 684e-6 90.452
          7.952e-3 -13.744 4.142e-3 88.863 0.212 -91.06 955.3e-6 91.404
          8.007e-3 -11.547 622.2e-6 87.759 965.1e-6 87.303 0.202 -94.038
597.015 0.983 -42.298 8.742e-3 -7.805 7.783e-3 -14.156 7.882e-3 -12.434
          8.742e-3 -8.034 0.204 -91.322 4.215e-3 88.18 615.1e-6 85.166
          7.845e-3 -14.892 4.225e-3 86.765 0.208 -91.336 1.081e-3 87.95
          7.946e-3 -12.663 590.7e-6 90.592 1.02e-3 87.515 0.198 -94.613
616.915 0.984 -43.594 8.605e-3 -8.561 7.775e-3 -15.45 7.812e-3 -13.897
          8.645e-3 -8.263 0.199 -91.613 4.318e-3 86.432 707.3e-6 88.139
          7.794e-3 -16.368 4.414e-3 86.693 0.204 -91.559 1.114e-3 85.195
          7.749e-3 -13.291 663.5e-6 84.909 1.053e-3 89.041 0.194 -95.125
636.815 0.984 -44.88 8.548e-3 -9.73 7.636e-3 -16.92 7.751e-3 -15.205
          8.509e-3 -9.449 0.195 -91.826 4.516e-3 85.594 679e-6 80.785
          7.68e-3 -16.768 4.516e-3 86.09 0.2 -91.72 1.083e-3 83.424
          7.742e-3 -14.64 724.6e-6 82.928 1.125e-3 88 0.19 -95.537
656.716 0.986 -46.161 8.54e-3 -10.454 7.603e-3 -18.422 7.569e-3 -15.716
          8.501e-3 -9.989 0.191 -91.985 4.697e-3 84.901 663.5e-6 85.609
          7.639e-3 -17.804 4.762e-3 86.244 0.197 -91.809 1.167e-3 83.113
          7.543e-3 -16.454 727.2e-6 87.911 1.143e-3 85.623 0.187 -95.88
676.616 0.986 -47.392 8.301e-3 -11.135 7.441e-3 -19.543 7.433e-3 -16.962
          8.32e-3 -11.026 0.188 -92.152 4.901e-3 85.658 712.3e-6 82.161
          7.528e-3 -18.906 4.964e-3 84.354 0.193 -91.924 1.12e-3 82.911
          7.442e-3 -16.317 724.8e-6 76.497 1.159e-3 85.235 0.185 -96.225
696.517 0.987 -48.651 8.218e-3 -11.419 7.367e-3 -19.825 7.266e-3 -18.214
          8.246e-3 -11.159 0.184 -92.251 4.976e-3 83.787 753.5e-6 84.04
          7.401e-3 -19.687 4.999e-3 83.917 0.19 -91.954 1.077e-3 81.974
          7.267e-3 -17.496 799.8e-6 75.596 1.16e-3 84.541 0.182 -96.438
716.417 0.987 -49.899 8.126e-3 -12.189 7.285e-3 -21.108 7.194e-3 -18.528
          8.183e-3 -12.597 0.181 -92.346 5.127e-3 83.979 825.3e-6 85.742
          7.31e-3 -20.857 5.098e-3 83.93 0.187 -91.989 1.235e-3 82.538
          7.26e-3 -18.796 739.1e-6 81.637 1.252e-3 82.851 0.179 -96.604
736.318 0.987 -51.144 7.954e-3 -13.101 7.229e-3 -22.228 7.057e-3 -19.916
          7.99e-3 -13.31 0.178 -92.397 5.271e-3 83.501 837.7e-6 76.95
          7.139e-3 -22.337 5.326e-3 83.56 0.184 -91.962 1.287e-3 80.799
          7.106e-3 -19.367 761.6e-6 87.853 1.192e-3 79.552 0.177 -96.72
756.218 0.987 -52.389 7.929e-3 -13.606 7.091e-3 -22.984 6.915e-3 -20.356
          7.883e-3 -13.545 0.174 -92.362 5.488e-3 82.237 835.2e-6 74.28
          7.091e-3 -22.745 5.451e-3 82.623 0.181 -91.903 1.38e-3 81.331
          6.962e-3 -20.722 876.2e-6 75.634 1.348e-3 78.956 0.174 -96.739
776.119 0.988 -53.591 7.769e-3 -14.321 7.029e-3 -23.999 6.925e-3 -21.516
          7.76e-3 -14.488 0.172 -92.392 5.617e-3 81.566 846.1e-6 76.479
          6.988e-3 -24.014 5.662e-3 81.794 0.178 -91.855 1.389e-3 77.286
          6.845e-3 -21.345 846.5e-6 78.918 1.325e-3 81.707 0.172 -96.71
796.019 0.988 -54.802 7.647e-3 -14.984 6.895e-3 -25.249 6.762e-3 -22.24
          7.691e-3 -14.933 0.169 -92.359 5.755e-3 81.343 848e-6 77.582
          6.895e-3 -24.524 5.742e-3 80.818 0.176 -91.818 1.412e-3 78.422
          6.7e-3 -22.388 814.5e-6 77.736 1.387e-3 77.734 0.17 -96.71
815.92 0.988 -56.001 7.51e-3 -15.21 6.725e-3 -25.946 6.512e-3 -23.105
          7.536e-3 -15.099 0.166 -92.307 5.971e-3 80.455 906.3e-6 77.31
          6.772e-3 -26.575 5.937e-3 80.495 0.173 -91.752 1.43e-3 79.554
          6.52e-3 -22.706 848e-6 79.182 1.413e-3 76.687 0.167 -96.601
835.82 0.988 -57.249 7.351e-3 -15.946 6.65e-3 -26.915 6.286e-3 -23.682
          7.401e-3 -15.26 0.164 -92.233 6.097e-3 79.793 937e-6 76.53
          6.735e-3 -26.584 6.014e-3 79.993 0.171 -91.638 1.453e-3 76.667
          6.33e-3 -23.892 901.2e-6 78.021 1.43e-3 76.764 0.165 -96.486
855.721 0.989 -58.455 7.211e-3 -16.235 6.531e-3 -28.19 6.181e-3 -24.289
          7.244e-3 -16.283 0.161 -92.145 6.204e-3 79.082 1.03e-3 76.957
          6.554e-3 -27.68 6.232e-3 79.399 0.168 -91.532 1.477e-3 77.48
          6.16e-3 -23.943 970e-6 76.724 1.414e-3 73.52 0.163 -96.327
875.621 0.989 -59.671 7.139e-3 -16.275 6.349e-3 -28.81 6.029e-3 -24.5
          7.09e-3 -16.462 0.159 -92.032 6.371e-3 78.974 917.9e-6 80.308
          6.363e-3 -28.689 6.371e-3 78.827 0.166 -91.431 1.498e-3 77.219
          6.077e-3 -24.17 945.1e-6 77.984 1.513e-3 77.449 0.161 -96.188
895.522 0.989 -60.874 6.821e-3 -16.981 6.271e-3 -29.556 5.921e-3 -25.246
          6.939e-3 -17.4 0.157 -91.927 6.542e-3 78.135 995.1e-6 72.291
          6.242e-3 -29.559 6.513e-3 77.985 0.164 -91.344 1.55e-3 78.179
          6.003e-3 -24.845 1.028e-3 77.372 1.557e-3 78.605 0.159 -96.016
915.422 0.99 -62.075 6.753e-3 -16.97 6.103e-3 -30.06 5.755e-3 -24.901
          6.784e-3 -16.861 0.154 -91.785 6.68e-3 78.558 918.4e-6 76.644
          6.173e-3 -29.84 6.673e-3 78.1 0.162 -91.202 1.642e-3 76.221
          5.735e-3 -26.047 962.8e-6 74.15 1.627e-3 76.893 0.157 -95.801
935.323 0.99 -63.256 6.647e-3 -17.112 6e-3 -30.79 5.594e-3 -25.956
          6.632e-3 -17.053 0.152 -91.574 6.852e-3 77.863 1.036e-3 74.529
          6.035e-3 -31.466 6.805e-3 77.804 0.16 -91.013 1.644e-3 77.036
          5.549e-3 -26.315 1.063e-3 73.079 1.673e-3 75.081 0.155 -95.563
955.223 0.991 -64.445 6.476e-3 -17.483 5.873e-3 -31.929 5.4e-3 -26.485
          6.521e-3 -17.164 0.15 -91.393 6.981e-3 76.93 1.066e-3 74.21
          5.879e-3 -31.338 6.972e-3 77.189 0.158 -90.842 1.681e-3 74.698
          5.419e-3 -26.449 1.018e-3 74.619 1.673e-3 73.674 0.152 -95.344
975.124 0.991 -65.594 6.367e-3 -17.711 5.774e-3 -32.649 5.285e-3 -26.697
          6.367e-3 -17.902 0.148 -91.174 7.16e-3 76.465 1.19e-3 72.817
          5.774e-3 -32.819 7.177e-3 76.179 0.156 -90.563 1.742e-3 73.6
          5.261e-3 -26.898 1.099e-3 73.867 1.772e-3 75.681 0.15 -95.102
995.024 0.991 -66.801 6.225e-3 -17.994 5.6e-3 -33.303 5.119e-3 -27.051
          6.168e-3 -17.944 0.146 -90.905 7.269e-3 75.602 1.138e-3 72.087
          5.613e-3 -33.443 7.253e-3 75.593 0.155 -90.293 1.841e-3 71.18
          5.107e-3 -26.889 1.13e-3 73.906 1.805e-3 70.66 0.148 -94.824
1014.925 0.992 -67.977 6.044e-3 -18.039 5.424e-3 -33.608 4.965e-3 -27.133
          5.996e-3 -17.57 0.144 -90.755 7.439e-3 75.275 1.178e-3 71.454
          5.499e-3 -33.946 7.5e-3 75.464 0.153 -90.054 1.773e-3 71.016
          4.947e-3 -27.354 1.134e-3 69.783 1.85e-3 71.048 0.146 -94.601
1034.825 0.992 -69.213 5.956e-3 -17.575 5.279e-3 -34.892 4.792e-3 -27.417
          5.895e-3 -17.502 0.142 -90.558 7.57e-3 74.939 1.138e-3 68.704
          5.285e-3 -34.071 7.614e-3 74.928 0.151 -89.861 1.808e-3 71.485
          4.814e-3 -26.998 1.143e-3 72.9 1.835e-3 70.75 0.144 -94.434
1054.726 0.992 -70.407 5.73e-3 -18.332 5.16e-3 -35.174 4.6e-3 -26.971
          5.77e-3 -17.994 0.141 -90.262 7.712e-3 74.293 1.107e-3 69.204
          5.113e-3 -35.673 7.783e-3 74.166 0.149 -89.535 1.815e-3 72.791
          4.637e-3 -26.892 1.238e-3 71.792 1.839e-3 71.171 0.142 -94.134
1074.626 0.993 -71.561 5.602e-3 -17.322 5.051e-3 -35.619 4.471e-3 -27.983
          5.583e-3 -17.37 0.139 -89.864 7.91e-3 73.05 1.184e-3 70.128
          5.005e-3 -35.727 7.892e-3 73.707 0.148 -89.114 1.915e-3 71.721
          4.43e-3 -27.555 1.185e-3 70.827 1.893e-3 72.98 0.14 -93.704
1094.527 0.992 -72.745 5.458e-3 -17.146 4.836e-3 -36.155 4.311e-3 -27.471
          5.458e-3 -16.947 0.137 -89.611 8.049e-3 73.24 1.188e-3 67.142
          4.909e-3 -36.426 8.086e-3 72.961 0.146 -88.816 1.967e-3 69.665
          4.271e-3 -26.475 1.235e-3 72 1.997e-3 72.1 0.138 -93.484
1114.427 0.992 -73.917 5.286e-3 -16.364 4.658e-3 -36.672 4.057e-3 -27.895
          5.275e-3 -16.372 0.136 -89.239 8.238e-3 72.274 1.336e-3 68.361
          4.658e-3 -36.21 8.209e-3 72.714 0.145 -88.441 1.947e-3 71.574
          4.114e-3 -27.059 1.256e-3 67.722 2.013e-3 70.26 0.136 -93.208
1134.328 0.991 -75.07 5.121e-3 -16.261 4.548e-3 -37.757 3.889e-3 -27.586
          5.103e-3 -16.457 0.134 -88.887 8.325e-3 72.196 1.289e-3 68.399
          4.569e-3 -37.018 8.325e-3 72.277 0.143 -88.035 2.081e-3 69.548
          3.934e-3 -27.893 1.31e-3 68.298 2.086e-3 69.678 0.134 -92.87
1154.228 0.991 -76.221 4.966e-3 -16.038 4.391e-3 -37.456 3.763e-3 -26.934
          4.966e-3 -15.289 0.132 -88.568 8.5e-3 71.309 1.335e-3 69.743
          4.386e-3 -38.074 8.559e-3 71.499 0.141 -87.718 2.145e-3 68.793
          3.781e-3 -26.473 1.291e-3 70.806 2.101e-3 68.675 0.132 -92.573
1174.129 0.992 -77.373 4.844e-3 -14.877 4.225e-3 -38.054 3.567e-3 -26.264
          4.889e-3 -14.16 0.131 -88.198 8.631e-3 70.692 1.358e-3 67.574
          4.244e-3 -37.765 8.66e-3 70.809 0.14 -87.369 2.206e-3 68.01
          3.608e-3 -25.544 1.341e-3 68.701 2.181e-3 67.352 0.13 -92.332
1194.029 0.992 -78.553 4.648e-3 -14.503 4.09e-3 -37.803 3.359e-3 -25.174
          4.728e-3 -14.274 0.13 -87.667 8.768e-3 70.264 1.373e-3 69.159
          4.114e-3 -38.752 8.818e-3 70.302 0.139 -86.894 2.228e-3 66.774
          3.352e-3 -25.031 1.412e-3 67.803 2.228e-3 67.322 0.128 -91.966
1213.93 0.992 -79.674 4.585e-3 -13.622 3.958e-3 -38.619 3.18e-3 -24.261
          4.554e-3 -13.462 0.129 -87.206 8.952e-3 70.384 1.46e-3 68.751
          3.962e-3 -38.584 8.922e-3 70.244 0.138 -86.434 2.27e-3 66.167
          3.209e-3 -24.15 1.42e-3 67.831 2.296e-3 66.389 0.127 -91.577
1233.83 0.991 -80.815 4.381e-3 -13.309 3.798e-3 -39.54 2.902e-3 -22.243
          4.386e-3 -12.434 0.128 -86.73 9.13e-3 69.685 1.487e-3 66.006
          3.755e-3 -38.681 9.12e-3 69.935 0.136 -85.998 2.291e-3 66.719
          3e-3 -22.262 1.508e-3 65.168 2.339e-3 66.831 0.125 -91.408
1253.731 0.99 -81.937 4.233e-3 -11.465 3.571e-3 -39.704 2.775e-3 -19.918
          4.317e-3 -11.365 0.126 -86.108 9.258e-3 69.137 1.452e-3 63.649
          3.603e-3 -40.741 9.248e-3 69.197 0.135 -85.577 2.455e-3 64.254
          2.721e-3 -20.591 1.5e-3 61.713 2.339e-3 66.685 0.124 -91.127
1273.631 0.989 -83.096 4.086e-3 -10.166 3.415e-3 -39.835 2.603e-3 -17.136
          4.096e-3 -9.484 0.125 -85.57 9.356e-3 68.589 1.536e-3 63.985
          3.376e-3 -39.696 9.356e-3 69.028 0.134 -85.088 2.43e-3 64.313
          2.588e-3 -17.475 1.481e-3 62.66 2.444e-3 64.169 0.122 -90.882
1293.532 0.989 -84.197 3.954e-3 -8.682 3.207e-3 -38.739 2.475e-3 -14.436
          3.958e-3 -8.382 0.124 -85.048 9.466e-3 68.16 1.514e-3 65.479
          3.214e-3 -39.106 9.586e-3 68.121 0.133 -84.741 2.504e-3 64.414
          2.518e-3 -14.596 1.514e-3 66.421 2.53e-3 64.666 0.121 -90.786
1313.432 0.989 -85.278 3.764e-3 -6.205 3.063e-3 -39.182 2.356e-3 -9.727
          3.795e-3 -5.537 0.123 -84.47 9.654e-3 67.752 1.525e-3 63.164
          2.977e-3 -38.263 9.721e-3 67.692 0.132 -84.291 2.589e-3 64.397
          2.394e-3 -11.758 1.571e-3 62.651 2.569e-3 64.14 0.119 -90.586
1333.333 0.987 -86.35 3.663e-3 -3.658 2.86e-3 -38.784 2.145e-3 -6.462
          3.638e-3 -4.196 0.122 -83.825 9.824e-3 67.382 1.649e-3 64.197
          2.763e-3 -38.275 9.835e-3 67.521 0.131 -83.775 2.715e-3 63.602
          2.159e-3 -8.14 1.617e-3 63.773 2.653e-3 63.049 0.118 -90.283
1353.233 0.986 -87.41 3.572e-3 -1.832 2.652e-3 -37.538 2.065e-3 -2.577
          3.585e-3 -1.5 0.122 -83.176 9.962e-3 66.785 1.606e-3 62.384
