!Hittite Microwave Corporation								
!12 Elizabeth Drive								
!Chelmsford, MA 01824								
!Tel: 978-250-3343								
!Fax: 978-250-3373							
!Device: HMC245QS16, DC-3.5 GHz GaAs MMIC SP3T Non-Reflective Switch in 16 lead QSOP package								
!Misc: Port 1 = RFC, Port 2 = RF1, Port 3 = RF2. Port 4 = RF3, RF1 Selected, Bias: +5VDC, DEEMBEDDED TO THE PINS OF THE DEVICE							
!
# MHZ S MA R 50

19.9 0.023 24.859 0.968 -2.196 1.225e-3 61.34 2.122e-3 -119.437
          0.973 -2.248 0.031 32.079 2.698e-3 -139.488 1.69e-3 171.817
          1.72e-3 170.99 2.124e-3 84.005 0.965 -12.146 732.3e-6 109.558
          2.023e-3 131.151 1.528e-3 -126.435 2.673e-3 -80.042 0.964 -12.033
39.801 0.021 1.449 0.965 -2.71 1.682e-3 66.315 2.612e-3 91.584
          0.971 -2.33 0.023 0.645 956.8e-6 43.622 1.957e-3 60.245
          2.581e-3 72.522 2.017e-3 92.153 0.911 -22.821 1.081e-3 -57.381
          766.3e-6 68.625 2.351e-3 114.158 1.167e-3 -8.961 0.911 -22.788
59.701 0.02 -7.239 0.965 -3.333 1.934e-3 84.763 2.062e-3 68.615
          0.969 -3.213 0.021 -7.625 2.243e-3 75.221 1.713e-3 62.527
          2.219e-3 73.121 1.993e-3 77.917 0.845 -32.123 540.3e-6 -128.237
          2.271e-3 73.564 1.3e-3 70.482 462.3e-6 65.336 0.845 -32.254
79.602 0.022 -19.264 0.964 -4.211 2.999e-3 50.281 3.002e-3 59.469
          0.968 -4.052 0.022 -14.446 2.729e-3 59.716 2.563e-3 57.909
          2.838e-3 62.898 2.636e-3 65.111 0.774 -40.185 154.8e-6 -143.467
          3.004e-3 62.025 2.092e-3 59.883 400.5e-6 45.871 0.774 -40.371
99.502 0.022 -27.875 0.964 -4.993 3.595e-3 46.553 3.357e-3 52.101
          0.968 -4.854 0.023 -23.425 3.168e-3 55.089 3.339e-3 50.036
          3.492e-3 44.462 3.188e-3 54.947 0.705 -47.025 176.8e-6 -161.247
          3.369e-3 49.492 2.944e-3 43.883 206e-6 -169.353 0.705 -47.188
119.402 0.025 -36.509 0.963 -5.767 3.908e-3 40.379 3.832e-3 46.025
          0.966 -5.677 0.025 -31.139 3.772e-3 45.019 3.311e-3 43.32
          3.754e-3 42.262 3.837e-3 46.435 0.642 -52.699 54.61e-6 -81.231
          3.878e-3 45.89 3.542e-3 45.138 183e-6 -163.781 0.642 -52.883
139.303 0.026 -40.547 0.962 -6.638 4.244e-3 36.48 4.05e-3 40.532
          0.965 -6.549 0.025 -36.394 3.949e-3 45.125 3.509e-3 34.745
          4.017e-3 35.373 3.883e-3 42.825 0.586 -57.581 231.8e-6 95.049
          4.095e-3 37.035 3.641e-3 38.033 209.4e-6 168.886 0.586 -57.764
159.203 0.028 -44.087 0.962 -7.545 4.331e-3 29.554 4.249e-3 33.98
          0.966 -7.435 0.026 -40.119 3.891e-3 39.627 3.997e-3 30.149
          4.226e-3 31.324 3.942e-3 41.365 0.537 -61.765 66.68e-6 60.74
          4.15e-3 37.045 3.691e-3 27.18 191.4e-6 165.651 0.538 -61.903
179.104 0.031 -49.665 0.962 -8.427 4.465e-3 24.891 4.542e-3 31.059
          0.965 -8.327 0.029 -44.361 4.259e-3 37.914 3.642e-3 26.93
          4.316e-3 25.774 4.218e-3 37.502 0.495 -65.335 139.7e-6 133.502
          4.199e-3 29.481 3.888e-3 28.075 223.9e-6 89.506 0.495 -65.485
199.004 0.033 -52.308 0.962 -9.284 4.619e-3 21.117 4.496e-3 28.257
          0.965 -9.194 0.031 -50.157 4.346e-3 33.573 3.941e-3 22.083
          4.569e-3 21.049 4.348e-3 32.15 0.459 -68.384 263.5e-6 102.727
          4.487e-3 26.801 3.937e-3 23.507 229.9e-6 99.491 0.458 -68.482
218.905 0.035 -57.74 0.961 -10.204 4.577e-3 15.902 4.537e-3 24.606
          0.964 -10.035 0.033 -52.275 4.53e-3 30.074 4.178e-3 18.984
          4.627e-3 17.8 4.492e-3 32.983 0.427 -71.193 345.1e-6 85.738
          4.338e-3 26.01 4.09e-3 18.132 399e-6 135.238 0.427 -71.258
238.805 0.038 -60.119 0.96 -11.045 4.647e-3 11.599 4.746e-3 22.233
          0.964 -10.965 0.035 -56.533 4.459e-3 28.576 4.005e-3 13.785
          4.672e-3 12.704 4.624e-3 28.9 0.4 -73.504 330.3e-6 127.54
          4.691e-3 22.563 3.987e-3 13.929 283.4e-6 130.092 0.399 -73.584
258.706 0.041 -62.236 0.96 -11.917 4.684e-3 13.268 4.595e-3 19.995
          0.963 -11.867 0.037 -59.33 4.556e-3 28.735 4.231e-3 13.196
          4.851e-3 11.999 4.581e-3 29.747 0.376 -75.601 433.5e-6 114.278
          4.605e-3 20.325 4.207e-3 10.516 452.6e-6 102.664 0.374 -75.653
278.606 0.043 -65.396 0.96 -12.774 4.761e-3 9.441 4.671e-3 15.622
          0.963 -12.744 0.04 -61.995 4.578e-3 28.018 4.206e-3 9.849
          4.683e-3 8.474 4.518e-3 28.177 0.355 -77.513 455.6e-6 115.823
          4.586e-3 18.209 4.285e-3 8.87 508.5e-6 121.703 0.352 -77.585
298.507 0.047 -67.808 0.959 -13.69 4.826e-3 5.698 4.605e-3 14.557
          0.962 -13.56 0.042 -64.73 4.574e-3 26.533 4.221e-3 5.547
          4.777e-3 5.768 4.5e-3 25.373 0.337 -79.227 506.6e-6 127.605
          4.654e-3 15.192 4.338e-3 8.353 455e-6 111.596 0.334 -79.282
318.407 0.05 -69.7 0.958 -14.562 4.733e-3 4.299 4.615e-3 12.88
          0.962 -14.482 0.045 -66.921 4.734e-3 26.853 4.171e-3 3.096
          4.836e-3 4.327 4.619e-3 24.768 0.321 -80.799 471.4e-6 110.975
          4.728e-3 13.801 4.248e-3 3.348 416e-6 121.142 0.316 -80.886
338.308 0.052 -71.365 0.958 -15.427 4.76e-3 1.261 4.687e-3 11.191
          0.961 -15.367 0.047 -69.066 4.728e-3 24.651 4.187e-3 3.077
          4.727e-3 1.378 4.712e-3 24.679 0.306 -82.202 643.1e-6 110.954
          4.775e-3 12.516 4.167e-3 3.038 634.2e-6 102.026 0.301 -82.385
358.209 0.055 -73.876 0.957 -16.283 4.658e-3 -0.463 4.651e-3 10.707
          0.962 -16.233 0.05 -70.14 4.531e-3 23.528 4.255e-3 0.782
          4.742e-3 -0.162 4.504e-3 22.31 0.293 -83.455 532.7e-6 103.164
          4.72e-3 10.42 4.146e-3 -0.264 544.2e-6 105.921 0.288 -83.753
378.109 0.058 -75.476 0.957 -17.209 4.777e-3 -2.027 4.694e-3 9.449
          0.961 -17.109 0.052 -72.227 4.621e-3 23.417 4.248e-3 -1.513
          4.683e-3 -2.162 4.653e-3 23.453 0.282 -84.544 614.8e-6 98.96
          4.73e-3 8.422 4.255e-3 -0.984 620.1e-6 106.687 0.275 -84.972
398.01 0.06 -77.169 0.958 -18.072 4.656e-3 -5.356 4.673e-3 8.236
          0.96 -17.962 0.055 -73.375 4.67e-3 21.704 4.19e-3 -3.407
          4.655e-3 -4.958 4.576e-3 23.271 0.272 -85.629 730.7e-6 106.158
          4.624e-3 8.62 4.113e-3 -3.009 677.4e-6 99.529 0.264 -86.182
417.91 0.064 -78.58 0.957 -18.941 4.673e-3 -5.439 4.607e-3 5.546
          0.96 -18.831 0.058 -75.111 4.622e-3 22.419 4.221e-3 -5.126
          4.739e-3 -5.395 4.467e-3 22.885 0.262 -86.538 743.1e-6 98.868
          4.632e-3 7.429 4.271e-3 -6.363 628.3e-6 96.752 0.254 -87.251
437.811 0.067 -80.196 0.956 -19.818 4.58e-3 -7.839 4.529e-3 5.266
          0.959 -19.698 0.06 -76.555 4.656e-3 22.97 4.097e-3 -5.78
          4.685e-3 -7.009 4.57e-3 21.394 0.254 -87.36 683.5e-6 87.906
          4.568e-3 5.497 4.24e-3 -6.62 772.8e-6 99.667 0.245 -88.31
457.711 0.069 -81.744 0.956 -20.671 4.667e-3 -9.702 4.605e-3 3.981
          0.958 -20.571 0.062 -78.203 4.446e-3 22.981 4.137e-3 -9.167
          4.56e-3 -9.899 4.557e-3 21.698 0.247 -88.115 720.5e-6 99.356
          4.553e-3 5.795 4.229e-3 -7.422 875.1e-6 99.902 0.237 -89.323
477.612 0.071 -82.872 0.955 -21.545 4.565e-3 -10.725 4.471e-3 4.22
          0.958 -21.445 0.065 -78.834 4.493e-3 23.45 4.244e-3 -9.572
          4.624e-3 -10.311 4.549e-3 23.019 0.239 -88.798 755e-6 101.293
          4.502e-3 4.637 4.133e-3 -9.681 798.8e-6 93.987 0.229 -90.22
497.512 0.073 -84.12 0.954 -22.385 4.466e-3 -12.071 4.549e-3 2.727
          0.957 -22.315 0.067 -79.75 4.569e-3 22.118 4.134e-3 -11.156
          4.554e-3 -12.218 4.586e-3 22.413 0.233 -89.356 851.9e-6 98.407
          4.517e-3 2.889 4.072e-3 -10.681 800e-6 89.996 0.223 -91.074
517.413 0.075 -85.294 0.954 -23.249 4.512e-3 -14.086 4.457e-3 2.52
          0.956 -23.198 0.069 -80.47 4.562e-3 22.977 4.007e-3 -12.614
          4.586e-3 -14.407 4.588e-3 21.673 0.227 -89.907 925.1e-6 99.177
          4.442e-3 2.498 4.115e-3 -13.061 873.9e-6 90.878 0.217 -91.944
537.313 0.077 -86.315 0.954 -24.135 4.492e-3 -15.477 4.43e-3 1.323
          0.957 -24.035 0.071 -81.268 4.511e-3 22.093 3.992e-3 -16.169
          4.502e-3 -15.645 4.517e-3 22.675 0.222 -90.351 977.4e-6 97.081
          4.388e-3 1.748 4.073e-3 -14.119 863.3e-6 90.302 0.211 -92.679
557.214 0.079 -87.404 0.954 -25.005 4.405e-3 -16.235 4.289e-3 0.949
          0.956 -24.905 0.073 -81.915 4.466e-3 22.745 3.908e-3 -15.426
          4.42e-3 -17.26 4.497e-3 21.876 0.217 -90.713 974.9e-6 88.057
          4.415e-3 1.278 4.03e-3 -17.031 917.1e-6 90.731 0.206 -93.37
577.114 0.081 -88.213 0.953 -25.876 4.354e-3 -18.591 4.34e-3 0.045
          0.956 -25.786 0.074 -82.325 4.458e-3 22.705 3.891e-3 -17.088
          4.394e-3 -18.169 4.493e-3 22.496 0.212 -91.08 1.034e-3 90.028
          4.324e-3 0.087 3.886e-3 -16.924 994.1e-6 91.483 0.202 -94.068
597.015 0.083 -89.328 0.953 -26.73 4.405e-3 -20.296 4.387e-3 0.083
          0.956 -26.7 0.076 -82.737 4.404e-3 22.655 4.004e-3 -18.157
          4.283e-3 -19.85 4.469e-3 23.626 0.208 -91.306 1.015e-3 91.105
          4.382e-3 -0.889 3.881e-3 -19.573 1.043e-3 89.122 0.198 -94.599
616.915 0.085 -90.12 0.952 -27.606 4.314e-3 -20.92 4.239e-3 -1.101
          0.955 -27.526 0.077 -83.447 4.435e-3 23.278 3.852e-3 -19.079
          4.309e-3 -20.784 4.416e-3 24.116 0.204 -91.559 1.078e-3 87.837
          4.27e-3 0.117 3.854e-3 -20.717 1.137e-3 89.589 0.194 -95.115
636.815 0.086 -91.01 0.952 -28.455 4.153e-3 -22.543 4.256e-3 -1.368
          0.954 -28.395 0.079 -83.995 4.352e-3 24.108 3.802e-3 -22.157
          4.234e-3 -22.849 4.397e-3 24.442 0.2 -91.687 1.054e-3 84.864
          4.251e-3 -1.233 3.785e-3 -21.387 1.098e-3 87.669 0.191 -95.542
656.716 0.087 -91.534 0.951 -29.323 4.25e-3 -24.457 4.155e-3 -2.922
          0.953 -29.283 0.08 -84.498 4.369e-3 24.301 3.786e-3 -23.112
          4.124e-3 -24.4 4.333e-3 25.019 0.197 -91.818 1.175e-3 84.195
          4.207e-3 -1.852 3.752e-3 -21.442 1.127e-3 83.119 0.188 -95.876
676.616 0.089 -92.268 0.951 -30.205 4.11e-3 -25.685 4.133e-3 -2.319
          0.954 -30.145 0.081 -84.845 4.315e-3 24.795 3.795e-3 -23.555
          4.162e-3 -26.023 4.272e-3 25.528 0.194 -91.881 1.139e-3 83.854
          4.11e-3 -1.531 3.712e-3 -24.286 1.217e-3 85.401 0.185 -96.205
696.517 0.09 -92.966 0.95 -31.048 4.039e-3 -26.855 4.13e-3 -2.268
          0.954 -30.998 0.083 -85.225 4.321e-3 25.973 3.684e-3 -24.409
          3.972e-3 -26.665 4.39e-3 26.523 0.19 -91.921 1.244e-3 89.366
          4.139e-3 -3.858 3.766e-3 -25.308 1.207e-3 80.259 0.182 -96.435
716.417 0.09 -93.641 0.949 -31.912 4.024e-3 -27.611 4.043e-3 -3.405
          0.953 -31.842 0.084 -85.516 4.382e-3 26.087 3.659e-3 -27.138
          3.992e-3 -28.705 4.308e-3 26.308 0.187 -91.95 1.212e-3 84.132
          4.052e-3 -2.82 3.728e-3 -25.382 1.296e-3 84.268 0.179 -96.624
736.318 0.091 -94.161 0.95 -32.806 3.877e-3 -30.592 4.031e-3 -2.504
          0.952 -32.726 0.084 -85.997 4.294e-3 27.428 3.658e-3 -27.779
          3.897e-3 -29.081 4.25e-3 27.137 0.184 -91.91 1.306e-3 82.992
          3.977e-3 -2.743 3.68e-3 -28.265 1.349e-3 83.652 0.177 -96.701
756.218 0.092 -94.672 0.949 -33.673 3.937e-3 -31.38 3.879e-3 -3.124
          0.951 -33.593 0.086 -86.26 4.272e-3 27.829 3.575e-3 -29.943
          3.816e-3 -31.307 4.251e-3 27.83 0.181 -91.864 1.404e-3 82.541
          3.976e-3 -3.941 3.712e-3 -28.4 1.371e-3 84.304 0.174 -96.714
776.119 0.092 -95.235 0.948 -34.511 3.829e-3 -32.566 3.889e-3 -3.041
          0.95 -34.421 0.087 -86.46 4.263e-3 28.567 3.526e-3 -31.228
          3.846e-3 -33.832 4.293e-3 29.33 0.178 -91.836 1.449e-3 78.34
          3.879e-3 -4.432 3.463e-3 -30.956 1.348e-3 81.364 0.172 -96.71
796.019 0.093 -95.673 0.948 -35.399 3.771e-3 -34.287 3.819e-3 -4.953
          0.95 -35.289 0.087 -86.577 4.273e-3 29.048 3.463e-3 -32.618
          3.706e-3 -34.144 4.322e-3 29.617 0.176 -91.78 1.509e-3 79.409
          3.868e-3 -3.61 3.511e-3 -32.362 1.425e-3 78.038 0.17 -96.672
815.92 0.094 -96.133 0.947 -36.247 3.728e-3 -35.823 3.86e-3 -4.799
          0.949 -36.147 0.089 -86.664 4.207e-3 30.745 3.427e-3 -34.548
          3.621e-3 -35.198 4.244e-3 30.779 0.173 -91.704 1.426e-3 78.109
          3.755e-3 -4.323 3.404e-3 -33.412 1.473e-3 75.425 0.167 -96.601
835.82 0.094 -96.654 0.947 -37.118 3.655e-3 -37.046 3.689e-3 -3.286
          0.949 -37.038 0.089 -86.943 4.251e-3 31.023 3.341e-3 -34.845
          3.647e-3 -36.557 4.203e-3 32.024 0.171 -91.647 1.448e-3 76.947
          3.684e-3 -3.848 3.3e-3 -34.452 1.444e-3 75.437 0.165 -96.448
855.721 0.095 -97.217 0.946 -37.959 3.5e-3 -39.324 3.614e-3 -4.408
          0.947 -37.859 0.09 -87.154 4.241e-3 32.616 3.271e-3 -34.495
          3.508e-3 -39.244 4.256e-3 32.507 0.168 -91.485 1.487e-3 79.303
          3.616e-3 -3.444 3.307e-3 -36.693 1.409e-3 75.237 0.163 -96.314
875.621 0.096 -97.669 0.945 -38.772 3.44e-3 -40.39 3.608e-3 -4.675
          0.948 -38.702 0.091 -87.816 4.256e-3 32.986 3.255e-3 -37.869
          3.534e-3 -39.836 4.228e-3 33 0.166 -91.39 1.516e-3 76.92
          3.571e-3 -4.371 3.233e-3 -37.488 1.48e-3 78.501 0.161 -96.178
895.522 0.096 -98.116 0.946 -39.663 3.376e-3 -40.768 3.496e-3 -3.483
          0.947 -39.574 0.091 -88.128 4.295e-3 33.43 3.21e-3 -38.767
          3.404e-3 -41.675 4.247e-3 34.111 0.164 -91.287 1.559e-3 78.444
          3.511e-3 -4.11 3.163e-3 -38.26 1.503e-3 76.864 0.159 -95.978
915.422 0.097 -98.595 0.946 -40.496 3.248e-3 -42.299 3.453e-3 -3.716
          0.948 -40.436 0.092 -88.378 4.329e-3 34.994 3.167e-3 -39.607
          3.345e-3 -42.538 4.223e-3 35.242 0.162 -91.174 1.623e-3 76.387
          3.493e-3 -2.889 3.163e-3 -39.345 1.596e-3 75.622 0.157 -95.811
935.323 0.097 -99.115 0.945 -41.34 3.21e-3 -44.586 3.416e-3 -2.902
          0.947 -41.27 0.092 -88.826 4.344e-3 36.416 3.141e-3 -41.746
          3.267e-3 -43.368 4.29e-3 35.897 0.16 -90.976 1.714e-3 75.318
          3.491e-3 -2.963 3.133e-3 -41.011 1.714e-3 74.846 0.155 -95.498
955.223 0.098 -99.554 0.945 -42.195 3.156e-3 -46.15 3.359e-3 -3.912
          0.947 -42.135 0.092 -89.001 4.227e-3 37.235 3.052e-3 -44.003
          3.17e-3 -46.501 4.232e-3 37.677 0.158 -90.814 1.688e-3 75.244
          3.378e-3 -3.557 3.023e-3 -43.655 1.702e-3 74.161 0.153 -95.305
975.124 0.098 -100.166 0.944 -43.039 3.099e-3 -49.331 3.314e-3 -2.747
          0.946 -42.919 0.092 -89.36 4.295e-3 38.998 2.964e-3 -44.94
          3.125e-3 -48.467 4.252e-3 39.003 0.156 -90.572 1.748e-3 72.899
          3.287e-3 -2.447 2.972e-3 -43.642 1.811e-3 72.638 0.15 -95.053
995.024 0.099 -100.451 0.944 -43.905 3.028e-3 -50.41 3.281e-3 -2.043
          0.946 -43.815 0.092 -89.631 4.309e-3 39.416 2.927e-3 -45.407
          3.049e-3 -50.214 4.349e-3 40.032 0.154 -90.268 1.793e-3 71.044
          3.196e-3 -1.726 2.835e-3 -45.234 1.775e-3 72.175 0.148 -94.778
1014.925 0.099 -100.945 0.943 -44.761 2.893e-3 -51.485 3.175e-3 -1.49
          0.945 -44.671 0.092 -89.935 4.332e-3 41.349 2.815e-3 -47.044
          2.916e-3 -51.171 4.348e-3 39.71 0.153 -90.044 1.822e-3 68.869
          3.172e-3 -1.778 2.821e-3 -47.607 1.793e-3 69.508 0.146 -94.601
1034.825 0.1 -101.471 0.943 -45.647 2.796e-3 -53.729 3.151e-3 -1.365
          0.946 -45.627 0.092 -90.022 4.381e-3 42.415 2.802e-3 -47.751
          2.846e-3 -53.271 4.327e-3 41.892 0.151 -89.824 1.829e-3 72.669
          3.087e-3 -0.138 2.779e-3 -48.13 1.806e-3 72.271 0.144 -94.351
1054.726 0.1 -101.826 0.943 -46.502 2.743e-3 -56.622 3.119e-3 -1.265
          0.945 -46.442 0.092 -89.954 4.441e-3 42.964 2.751e-3 -48.895
          2.73e-3 -55.051 4.406e-3 44.093 0.149 -89.488 1.852e-3 71.889
          3.105e-3 0.473 2.734e-3 -49.068 1.913e-3 70.865 0.142 -94.134
1074.626 0.1 -102.124 0.942 -47.37 2.724e-3 -57.271 3.074e-3 0.291
          0.944 -47.3 0.092 -90.282 4.441e-3 44.821 2.697e-3 -50.977
          2.701e-3 -56.754 4.481e-3 45.344 0.148 -89.095 1.937e-3 72.558
          3.078e-3 1.043 2.741e-3 -49.394 1.964e-3 72.094 0.14 -93.731
1094.527 0.099 -102.315 0.942 -48.238 2.605e-3 -59.515 2.991e-3 0.517
          0.944 -48.158 0.091 -90.442 4.516e-3 46.115 2.594e-3 -51.207
          2.52e-3 -58.757 4.494e-3 46.068 0.146 -88.741 1.972e-3 71.707
          2.988e-3 0.49 2.593e-3 -51.617 1.981e-3 70.543 0.138 -93.401
1114.427 0.1 -102.561 0.941 -49.105 2.541e-3 -61.145 2.912e-3 1.89
          0.943 -48.965 0.091 -90.519 4.535e-3 47.203 2.578e-3 -53.87
          2.502e-3 -60.222 4.587e-3 47.67 0.145 -88.414 2.016e-3 69.096
          2.966e-3 1.374 2.577e-3 -54.231 2.022e-3 68.557 0.136 -93.18
1134.328 0.1 -102.752 0.941 -49.992 2.455e-3 -62.787 2.912e-3 2.74
          0.943 -49.912 0.091 -90.759 4.571e-3 47.461 2.512e-3 -55.728
          2.39e-3 -62.51 4.57e-3 48.272 0.143 -88.008 2.16e-3 69.702
          2.963e-3 3.292 2.52e-3 -56.884 2.125e-3 70.035 0.134 -92.833
1154.228 0.1 -102.891 0.94 -50.851 2.256e-3 -66.419 2.863e-3 4.212
          0.942 -50.761 0.091 -90.969 4.663e-3 48.555 2.398e-3 -58.446
          2.336e-3 -65.159 4.654e-3 48.632 0.141 -87.645 2.131e-3 69.039
          2.912e-3 4.037 2.457e-3 -57.792 2.182e-3 68.274 0.132 -92.527
1174.129 0.101 -103.283 0.94 -51.74 2.188e-3 -68.222 2.87e-3 4.834
          0.943 -51.57 0.091 -91.231 4.717e-3 49.988 2.387e-3 -60.919
          2.229e-3 -67.865 4.712e-3 49.687 0.14 -87.285 2.242e-3 66.789
          2.863e-3 5.07 2.359e-3 -61.359 2.219e-3 68.737 0.13 -92.304
1194.029 0.101 -103.406 0.94 -52.588 2.153e-3 -72.107 2.823e-3 6.819
          0.942 -52.488 0.091 -91.254 4.767e-3 50.637 2.322e-3 -63.054
          2.155e-3 -69.919 4.8e-3 51.202 0.139 -86.848 2.228e-3 67.097
          2.865e-3 6.59 2.276e-3 -63.211 2.264e-3 67.472 0.129 -91.893
1213.93 0.101 -103.739 0.939 -53.437 2.09e-3 -72.563 2.725e-3 6.398
          0.941 -53.317 0.091 -91.146 4.86e-3 52.358 2.235e-3 -64.366
          2.054e-3 -71.919 4.783e-3 51.586 0.138 -86.37 2.291e-3 65.929
          2.747e-3 6.725 2.233e-3 -63.38 2.27e-3 67.001 0.127 -91.594
1233.83 0.101 -103.798 0.938 -54.257 1.992e-3 -76.088 2.746e-3 8.624
          0.942 -54.177 0.09 -91.545 4.886e-3 52.745 2.182e-3 -67.445
          1.966e-3 -76.658 4.931e-3 53.171 0.136 -85.925 2.31e-3 64.893
          2.787e-3 8.322 2.153e-3 -65.155 2.377e-3 66.654 0.125 -91.381
1253.731 0.101 -103.983 0.937 -55.117 1.837e-3 -80.442 2.66e-3 10.021
          0.941 -55.047 0.09 -91.416 4.951e-3 54.983 2.128e-3 -69.283
          1.915e-3 -81.483 4.917e-3 53.954 0.135 -85.541 2.413e-3 65.071
          2.73e-3 10.93 2.095e-3 -68.407 2.452e-3 64.055 0.124 -91.1
1273.631 0.101 -104.182 0.936 -55.946 1.766e-3 -83.082 2.664e-3 12.667
          0.94 -55.866 0.09 -91.659 5.002e-3 55.302 2.025e-3 -71.713
          1.76e-3 -83.705 5.059e-3 56.04 0.134 -85.051 2.439e-3 64.407
          2.647e-3 12.877 2.075e-3 -71.167 2.461e-3 63.695 0.122 -90.846
1293.532 0.101 -104.254 0.935 -56.805 1.711e-3 -86.413 2.659e-3 13.069
          0.939 -56.726 0.089 -91.44 5.087e-3 55.699 1.95e-3 -76.591
          1.679e-3 -86.939 5.104e-3 56.71 0.133 -84.677 2.551e-3 62.999
          2.663e-3 15.157 1.959e-3 -74.571 2.545e-3 63.067 0.121 -90.669
1313.432 0.101 -104.225 0.935 -57.636 1.589e-3 -90.377 2.592e-3 15.755
          0.938 -57.536 0.089 -91.487 5.174e-3 57.699 1.883e-3 -78.111
          1.623e-3 -90.029 5.204e-3 57.558 0.132 -84.228 2.593e-3 62.613
          2.604e-3 15.797 1.837e-3 -78.063 2.593e-3 63.004 0.12 -90.515
1333.333 0.102 -104.461 0.935 -58.457 1.572e-3 -94.604 2.614e-3 19.371
          0.937 -58.407 0.088 -91.431 5.256e-3 58.934 1.762e-3 -81.614
          1.529e-3 -94.602 5.311e-3 58.204 0.131 -83.712 2.706e-3 63.045
          2.613e-3 18.411 1.863e-3 -77.771 2.709e-3 61.407 0.118 -90.265
1353.233 0.102 -104.508 0.934 -59.296 1.496e-3 -99.837 2.654e-3 18.635
          0.936 -59.206 0.087 -91.521 5.322e-3 59.312 1.693e-3 -84.917
          1.447e-3 -98.666 5.328e-3 59.846 0.13 -83.21 2.763e-3 61.428
          2.649e-3 19.961 1.723e-3 -83.769 2.808e-3 60.934 0.117 -89.976
1373.134 0.102 -104.525 0.933 -60.127 1.37e-3 -103.929 2.674e-3 22.972
          0.935 -60.007 0.087 -91.591 5.477e-3 60.693 1.672e-3 -86.689
