!Hittite Microwave Corporation								
!20 Alpha Rd								
!Chelmsford, MA 01824								
!Tel: 978-250-3343								
!Fax: 978-250-3373
!Device: HMC336MS8G, DC - 6 GHz  SPDT Switch in  MSOP8G SMT package
!Misc: Port1=RFC, Port2= RF1, Port3=RF2, RF2 ON, Data taken on a part mounted on 104122-5 Eval PCB,Bias: +5VDC
# MHZ S MA R 50

10 0.826 -31.201 57.27e-6 -112.453 0.521 55.421
          91.39e-6 -88.121 0.991 -2.223 228.7e-6 118.177
          0.523 55.27 114.9e-6 -76.786 0.812 -32.553
49.95 0.287 -58.065 267.2e-6 114.887 0.886 14.801
          193.3e-6 105.2 0.971 -11.261 356.1e-6 76.53
          0.888 14.709 302.8e-6 77.385 0.275 -63.742
89.9 0.175 -52.996 243.2e-6 60.5 0.912 6.493
          285.3e-6 60.69 0.929 -19.609 248.6e-6 33.076
          0.913 6.419 275e-6 41.898 0.158 -62.045
129.85 0.134 -45.094 442.7e-6 79.553 0.917 2.515
          417.2e-6 82.641 0.873 -27.03 334.9e-6 57.501
          0.919 2.459 305.4e-6 54.501 0.112 -55.47
169.8 0.115 -37.529 363.9e-6 66.406 0.919 -0.144
          376e-6 68.377 0.811 -33.445 445e-6 51.27
          0.92 -0.192 416.6e-6 52.784 0.089 -47.333
209.75 0.106 -31.172 436.5e-6 72.447 0.919 -2.233
          450.7e-6 72.969 0.749 -38.846 466.1e-6 59.275
          0.92 -2.272 461.3e-6 57.12 0.077 -38.869
249.7 0.1 -25.858 572.2e-6 75.077 0.918 -4.013
          551.9e-6 74.23 0.69 -43.315 554.1e-6 59.174
          0.919 -4.044 556.6e-6 61.245 0.071 -30.692
289.65 0.097 -21.385 635.1e-6 71.732 0.917 -5.593
          643.9e-6 70.753 0.637 -47.042 646.9e-6 54.584
          0.919 -5.605 651.4e-6 54.93 0.068 -23.299
329.6 0.094 -17.643 733.1e-6 72.291 0.917 -7.043
          740.6e-6 71.795 0.588 -50.159 649.3e-6 56.885
          0.919 -7.088 663.7e-6 57.257 0.067 -17.285
369.55 0.093 -14.427 797.4e-6 72.667 0.917 -8.454
          789.9e-6 72.731 0.545 -52.706 703.5e-6 56.079
          0.918 -8.48 701.8e-6 56.904 0.067 -12.038
409.5 0.092 -11.6 856.9e-6 71.371 0.916 -9.775
          850.7e-6 71.112 0.507 -54.736 743.3e-6 58.507
          0.918 -9.805 749.3e-6 58.926 0.068 -7.388
449.45 0.092 -9.321 914.1e-6 70.501 0.915 -11.089
          912.6e-6 71.021 0.473 -56.424 764.2e-6 58.16
          0.917 -11.109 758e-6 58.416 0.07 -3.715
489.4 0.091 -6.924 974e-6 71.029 0.915 -12.33
          967.2e-6 70.226 0.444 -57.834 806.5e-6 60.135
          0.916 -12.372 793.9e-6 59.044 0.072 -0.506
529.35 0.092 -4.453 1.066e-3 70.224 0.914 -13.529
          1.053e-3 70.451 0.417 -58.938 850.1e-6 58.972
          0.916 -13.593 847.9e-6 59.746 0.073 2.548
569.3 0.093 -2.496 1.11e-3 70.122 0.913 -14.764
          1.108e-3 70.111 0.395 -59.802 874.2e-6 61.235
          0.916 -14.79 868.2e-6 61.106 0.076 4.456
609.25 0.093 -0.508 1.163e-3 70.454 0.912 -15.98
          1.172e-3 70.135 0.373 -60.438 904.3e-6 63.443
          0.915 -15.996 905.5e-6 63.062 0.078 6.486
649.2 0.094 1.408 1.244e-3 70.144 0.911 -17.115
          1.242e-3 70.152 0.354 -60.968 950.9e-6 64.661
          0.913 -17.194 941.1e-6 63.631 0.08 8.287
689.15 0.095 3.803 1.321e-3 69.531 0.91 -18.286
          1.327e-3 69.409 0.338 -61.421 1e-3 65.174
          0.912 -18.357 994.5e-6 65.191 0.083 9.793
729.1 0.096 5.407 1.387e-3 68.774 0.91 -19.433
          1.374e-3 68.819 0.324 -61.675 1.047e-3 65.918
          0.912 -19.545 1.033e-3 65.385 0.086 10.703
769.05 0.098 6.975 1.448e-3 68.96 0.91 -20.621
          1.451e-3 68.97 0.31 -61.73 1.07e-3 67.133
          0.911 -20.705 1.074e-3 67.311 0.089 11.815
809 0.101 8.646 1.504e-3 68.661 0.908 -21.755
          1.496e-3 68.261 0.298 -61.703 1.116e-3 67.922
          0.912 -21.83 1.114e-3 67.177 0.092 13.295
848.95 0.103 10.266 1.587e-3 68.162 0.908 -22.874
          1.582e-3 68.271 0.285 -61.693 1.154e-3 69.713
          0.911 -22.992 1.143e-3 68.85 0.094 15.04
888.9 0.106 12.198 1.649e-3 66.754 0.906 -23.978
          1.652e-3 66.422 0.275 -61.622 1.209e-3 69.474
          0.91 -24.106 1.204e-3 69.537 0.097 15.748
928.85 0.108 13.428 1.685e-3 66.553 0.907 -25.147
          1.702e-3 66.325 0.266 -61.366 1.263e-3 70.661
          0.908 -25.287 1.262e-3 70.674 0.1 16.335
968.8 0.111 14.578 1.751e-3 66.309 0.904 -26.298
          1.756e-3 66.164 0.257 -61.009 1.312e-3 71.525
          0.907 -26.421 1.313e-3 71.372 0.103 17.414
1008.75 0.115 15.589 1.831e-3 66.019 0.905 -27.368
          1.82e-3 65.754 0.248 -60.729 1.351e-3 72.262
          0.906 -27.542 1.335e-3 72.106 0.107 18.926
1048.7 0.119 17.03 1.903e-3 64.693 0.904 -28.48
          1.905e-3 64.466 0.241 -60.469 1.4e-3 72.545
          0.905 -28.666 1.398e-3 72.543 0.109 19.829
1088.65 0.123 17.995 1.943e-3 63.925 0.905 -29.603
          1.935e-3 63.606 0.235 -60.053 1.442e-3 73.381
          0.907 -29.78 1.436e-3 72.963 0.113 20.254
1128.6 0.127 18.824 1.971e-3 63.772 0.902 -30.787
          1.985e-3 63.396 0.229 -59.46 1.502e-3 73.687
          0.905 -30.965 1.51e-3 73.757 0.116 20.838
1168.55 0.131 19.786 2.043e-3 63.662 0.902 -31.868
          2.057e-3 63.427 0.222 -58.886 1.537e-3 73.542
          0.904 -32.049 1.544e-3 73.759 0.121 21.963
1208.5 0.136 20.359 2.109e-3 62.658 0.899 -33.003
          2.108e-3 62.167 0.216 -58.365 1.575e-3 75.394
          0.903 -33.215 1.568e-3 75.312 0.125 22.679
1248.45 0.14 20.794 2.15e-3 62.025 0.901 -34.051
          2.152e-3 61.78 0.212 -57.832 1.642e-3 75.926
          0.901 -34.305 1.634e-3 75.936 0.129 23.215
1288.4 0.146 21.378 2.212e-3 61.741 0.898 -35.221
          2.201e-3 61.662 0.207 -57.192 1.696e-3 76.607
          0.9 -35.417 1.694e-3 76.487 0.133 23.899
1328.35 0.151 21.707 2.232e-3 61.48 0.899 -36.318
          2.242e-3 60.922 0.202 -56.356 1.746e-3 77.522
          0.899 -36.565 1.738e-3 77.245 0.138 24.376
1368.3 0.157 21.701 2.298e-3 61.141 0.898 -37.411
          2.301e-3 61.017 0.198 -55.625 1.816e-3 77.661
          0.899 -37.67 1.816e-3 77.809 0.144 24.624
1408.25 0.163 22.11 2.347e-3 60.485 0.896 -38.549
          2.352e-3 60.122 0.193 -55.085 1.859e-3 78.498
          0.897 -38.799 1.855e-3 78.495 0.148 25.416
1448.2 0.169 22.013 2.392e-3 60.527 0.895 -39.667
          2.4e-3 60.347 0.19 -54.365 1.934e-3 79.236
          0.896 -39.909 1.937e-3 79.247 0.153 25.6
1488.15 0.175 21.919 2.454e-3 59.652 0.893 -40.769
          2.455e-3 59.461 0.186 -53.556 1.992e-3 79.395
          0.894 -41.022 1.973e-3 79.525 0.158 25.742
1528.1 0.182 21.701 2.492e-3 59.2 0.893 -41.907
          2.482e-3 58.944 0.183 -52.643 2.066e-3 80.452
          0.893 -42.123 2.064e-3 80.567 0.164 25.855
1568.05 0.189 21.472 2.54e-3 59.002 0.891 -42.988
          2.545e-3 58.788 0.179 -51.951 2.13e-3 80.133
          0.891 -43.214 2.13e-3 80.646 0.17 25.928
1608 0.196 21.067 2.595e-3 58.518 0.89 -44.105
          2.594e-3 58.172 0.176 -51.173 2.218e-3 81.399
          0.89 -44.333 2.21e-3 81.244 0.175 25.824
1647.95 0.204 20.338 2.651e-3 58.19 0.889 -45.205
          2.647e-3 57.949 0.173 -50.367 2.295e-3 80.971
          0.888 -45.425 2.281e-3 80.985 0.181 25.636
1687.9 0.211 19.937 2.692e-3 57.528 0.888 -46.32
          2.685e-3 57.465 0.17 -49.319 2.392e-3 81.32
          0.886 -46.53 2.387e-3 81.481 0.186 25.375
1727.85 0.218 18.993 2.741e-3 57.224 0.885 -47.405
          2.728e-3 57.09 0.167 -48.487 2.45e-3 80.648
          0.884 -47.577 2.447e-3 80.921 0.191 25.109
1767.8 0.225 18.156 2.78e-3 56.824 0.883 -48.456
          2.776e-3 56.522 0.163 -47.754 2.537e-3 81.277
          0.882 -48.65 2.531e-3 81.431 0.195 25.042
1807.75 0.233 17.419 2.834e-3 56.395 0.882 -49.536
          2.84e-3 56.698 0.162 -46.818 2.614e-3 81.142
          0.881 -49.692 2.609e-3 81.756 0.201 24.649
1847.7 0.24 16.155 2.912e-3 55.939 0.88 -50.546
          2.894e-3 56.042 0.159 -45.831 2.714e-3 81.365
          0.879 -50.712 2.708e-3 81.789 0.205 24.646
1887.65 0.246 14.953 2.93e-3 55.359 0.88 -51.612
          2.93e-3 55.18 0.157 -44.703 2.778e-3 81.638
          0.877 -51.74 2.781e-3 81.653 0.21 24.338
1927.6 0.253 13.706 2.976e-3 54.963 0.878 -52.674
          2.973e-3 54.868 0.154 -43.867 2.874e-3 81.635
          0.877 -52.792 2.888e-3 81.742 0.215 24.062
1967.55 0.259 12.392 3.022e-3 54.425 0.877 -53.735
          3.018e-3 54.27 0.151 -43.074 2.963e-3 81.663
          0.876 -53.835 2.963e-3 81.529 0.22 23.829
2007.5 0.265 10.932 3.059e-3 54.3 0.875 -54.742
          3.055e-3 54.1 0.149 -42.146 3.074e-3 81.343
          0.874 -54.884 3.071e-3 81.445 0.225 23.426
2047.45 0.271 9.613 3.104e-3 54.155 0.875 -55.848
          3.104e-3 54.148 0.148 -40.968 3.166e-3 80.942
          0.873 -55.92 3.167e-3 81.082 0.23 22.878
2087.4 0.275 8.381 3.176e-3 53.559 0.873 -56.888
          3.164e-3 53.341 0.145 -40.098 3.279e-3 81.023
          0.872 -56.981 3.252e-3 81.137 0.235 22.548
2127.35 0.28 6.868 3.239e-3 54.162 0.872 -57.945
          3.239e-3 53.998 0.143 -39.363 3.371e-3 80.358
          0.87 -58.02 3.355e-3 80.076 0.238 21.958
2167.3 0.284 5.373 3.295e-3 52.736 0.871 -58.99
          3.29e-3 52.612 0.141 -38.439 3.458e-3 79.922
          0.87 -59.056 3.438e-3 79.909 0.242 21.394
2207.25 0.288 3.929 3.341e-3 52.319 0.869 -60.054
          3.356e-3 52.194 0.14 -37.177 3.523e-3 78.943
          0.868 -60.121 3.523e-3 78.882 0.247 20.903
2247.2 0.291 2.304 3.416e-3 51.206 0.868 -61.124
          3.416e-3 51.479 0.138 -36.166 3.596e-3 78.622
          0.867 -61.132 3.597e-3 78.776 0.25 20.423
2287.15 0.294 1.022 3.452e-3 50.672 0.865 -62.199
          3.444e-3 50.883 0.136 -35.336 3.674e-3 78.474
          0.866 -62.188 3.68e-3 78.884 0.253 19.869
2327.1 0.295 -0.501 3.51e-3 50.149 0.865 -63.172
          3.501e-3 49.921 0.134 -34.474 3.716e-3 78.541
          0.864 -63.252 3.711e-3 78.657 0.256 19.466
2367.05 0.297 -2.013 3.537e-3 49.263 0.863 -64.208
          3.532e-3 49.344 0.132 -33.369 3.848e-3 78.609
          0.863 -64.248 3.839e-3 78.757 0.259 18.896
2407 0.297 -3.48 3.613e-3 48.858 0.863 -65.271
          3.622e-3 48.717 0.13 -32.285 3.905e-3 78.38
          0.862 -65.263 3.914e-3 78.43 0.261 18.464
2446.95 0.296 -4.812 3.65e-3 47.85 0.861 -66.294
          3.642e-3 47.817 0.128 -31.456 4.076e-3 78.112
          0.861 -66.307 4.067e-3 78.281 0.263 17.987
2486.9 0.296 -6.086 3.721e-3 47.203 0.86 -67.343
          3.704e-3 47.374 0.126 -30.805 4.136e-3 77.779
          0.859 -67.395 4.132e-3 77.848 0.265 17.514
2526.85 0.295 -7.265 3.737e-3 46.294 0.857 -68.387
          3.733e-3 46.544 0.125 -29.87 4.303e-3 77.673
          0.858 -68.381 4.299e-3 77.81 0.267 16.961
2566.8 0.293 -8.344 3.798e-3 45.691 0.856 -69.403
          3.808e-3 45.705 0.123 -28.745 4.371e-3 76.587
          0.856 -69.447 4.387e-3 76.769 0.269 16.612
2606.75 0.291 -9.326 3.825e-3 44.404 0.854 -70.401
          3.825e-3 44.428 0.121 -27.747 4.511e-3 76.332
          0.855 -70.436 4.522e-3 76.3 0.27 16.278
2646.7 0.289 -10.228 3.901e-3 43.884 0.853 -71.409
          3.906e-3 43.878 0.119 -27.068 4.578e-3 75.579
          0.854 -71.424 4.583e-3 75.597 0.27 15.848
2686.65 0.288 -11.023 3.925e-3 42.791 0.852 -72.368
          3.928e-3 42.55 0.118 -26.343 4.713e-3 75.63
          0.854 -72.404 4.706e-3 75.474 0.272 15.369
2726.6 0.285 -11.786 3.995e-3 42.103 0.851 -73.37
          3.98e-3 41.679 0.117 -25.255 4.783e-3 74.756
          0.852 -73.427 4.771e-3 74.758 0.275 15.097
2766.55 0.283 -12.382 4.023e-3 40.465 0.85 -74.325
          4.024e-3 40.484 0.114 -24.024 4.89e-3 74.524
          0.851 -74.402 4.896e-3 74.713 0.276 14.919
2806.5 0.281 -12.936 4.033e-3 39.883 0.849 -75.28
          4.043e-3 39.847 0.112 -23.222 4.979e-3 73.719
          0.849 -75.387 4.99e-3 73.582 0.277 14.643
2846.45 0.279 -13.504 4.077e-3 38.59 0.849 -76.212
          4.082e-3 38.543 0.11 -22.704 5.073e-3 73.663
          0.849 -76.3 5.09e-3 73.576 0.278 14.203
2886.4 0.278 -14.047 4.077e-3 37.685 0.847 -77.265
          4.082e-3 37.815 0.109 -21.931 5.17e-3 72.549
          0.849 -77.352 5.171e-3 72.6 0.28 13.66
2926.35 0.276 -14.505 4.131e-3 36.615 0.848 -78.14
          4.122e-3 36.623 0.108 -20.817 5.278e-3 72.385
          0.848 -78.268 5.279e-3 72.348 0.283 13.237
2966.3 0.273 -14.882 4.109e-3 35.171 0.848 -79.187
          4.099e-3 35.127 0.105 -19.84 5.389e-3 71.361
          0.849 -79.285 5.377e-3 71.439 0.285 12.781
3006.25 0.272 -15.17 4.15e-3 34.486 0.849 -80.144
          4.145e-3 34.393 0.102 -19.622 5.452e-3 71.38
          0.849 -80.292 5.452e-3 71.383 0.285 12.219
3046.2 0.27 -15.347 4.136e-3 32.796 0.848 -81.117
          4.126e-3 32.819 0.101 -19.171 5.571e-3 70.631
          0.85 -81.305 5.578e-3 70.673 0.287 11.408
3086.15 0.268 -15.586 4.141e-3 32.607 0.85 -82.131
          4.141e-3 32.381 0.101 -18.266 5.646e-3 70.254
          0.849 -82.269 5.633e-3 70.346 0.288 10.624
3126.1 0.267 -15.73 4.101e-3 30.734 0.849 -83.172
          4.131e-3 30.747 0.099 -17.227 5.751e-3 69.646
          0.851 -83.279 5.758e-3 69.677 0.29 9.868
3166.05 0.267 -15.892 4.108e-3 30.501 0.851 -84.189
          4.108e-3 30.553 0.097 -16.588 5.828e-3 69.048
          0.851 -84.376 5.815e-3 69.127 0.289 9.132
3206 0.267 -15.948 4.081e-3 28.954 0.85 -85.227
          4.082e-3 29.018 0.095 -16.418 5.915e-3 68.736
          0.851 -85.384 5.902e-3 68.738 0.289 8.312
3245.95 0.267 -16.028 4.058e-3 28.778 0.85 -86.255
          4.073e-3 28.628 0.093 -16.385 5.994e-3 68.445
          0.851 -86.462 5.987e-3 68.423 0.287 7.419
3285.9 0.266 -16.088 4.067e-3 27.193 0.85 -87.298
          4.072e-3 27.002 0.092 -15.431 6.072e-3 68.015
          0.851 -87.486 6.078e-3 67.915 0.287 6.592
3325.85 0.267 -16.275 4.025e-3 26.965 0.851 -88.377
          4.035e-3 27.03 0.09 -14.484 6.179e-3 67.742
          0.851 -88.573 6.173e-3 67.757 0.286 5.845
3365.8 0.27 -16.515 4.039e-3 26.234 0.851 -89.435
          4.044e-3 26.031 0.087 -14.206 6.249e-3 67.347
          0.85 -89.611 6.248e-3 67.256 0.285 5.041
3405.75 0.272 -16.814 3.992e-3 25.478 0.852 -90.486
          3.989e-3 25.413 0.086 -14.212 6.376e-3 67.125
          0.851 -90.702 6.369e-3 67.094 0.285 4.117
3445.7 0.274 -17.215 4.001e-3 24.665 0.852 -91.574
          3.988e-3 24.633 0.084 -14.147 6.454e-3 66.612
          0.852 -91.768 6.439e-3 66.584 0.283 3.201
3485.65 0.277 -17.69 3.958e-3 24.038 0.852 -92.645
          3.962e-3 23.901 0.083 -13.134 6.571e-3 66.553
          0.852 -92.839 6.57e-3 66.492 0.282 2.407
3525.6 0.279 -18.226 3.932e-3 23.489 0.853 -93.719
          3.933e-3 23.611 0.08 -12.437 6.651e-3 66.077
          0.852 -93.912 6.659e-3 66.099 0.281 1.58
3565.55 0.282 -18.915 3.895e-3 22.905 0.853 -94.802
          3.907e-3 22.6 0.078 -12.42 6.786e-3 66.325
          0.852 -94.984 6.785e-3 66.166 0.279 0.682
3605.5 0.285 -19.82 3.892e-3 22.777 0.852 -95.883
          3.897e-3 22.602 0.076 -12.853 6.874e-3 65.888
          0.852 -96.065 6.851e-3 65.86 0.276 -0.305
3645.45 0.287 -20.779 3.886e-3 21.732 0.852 -96.973
          3.9e-3 21.67 0.075 -12.114 7.031e-3 65.904
          0.851 -97.153 7.031e-3 65.939 0.275 -1.149
3685.4 0.29 -21.924 3.879e-3 21.545 0.853 -98.063
          3.879e-3 21.369 0.073 -11.224 7.139e-3 65.506
          0.851 -98.243 7.139e-3 65.485 0.273 -1.959
3725.35 0.294 -23.081 3.862e-3 20.298 0.854 -99.182
          3.872e-3 20.104 0.07 -11.088 7.316e-3 65.566
          0.851 -99.281 7.315e-3 65.475 0.271 -2.876
3765.3 0.295 -24.35 3.817e-3 20.03 0.853 -100.26
          3.826e-3 19.764 0.068 -11.641 7.471e-3 65.084
          0.852 -100.438 7.462e-3 64.936 0.269 -3.849
3805.25 0.297 -25.801 3.806e-3 18.963 0.853 -101.329
          3.794e-3 18.822 0.067 -12.328 7.657e-3 64.857
          0.85 -101.527 7.631e-3 64.838 0.267 -4.902
3845.2 0.298 -27.35 3.723e-3 18.794 0.853 -102.457
          3.728e-3 18.805 0.065 -11.676 7.817e-3 64.278
          0.851 -102.612 7.8e-3 64.294 0.265 -5.683
3885.15 0.3 -28.971 3.728e-3 18.215 0.852 -103.583
          3.719e-3 17.921 0.063 -11.26 8.009e-3 63.941
          0.85 -103.648 7.981e-3 64.025 0.263 -6.566
3925.1 0.302 -30.754 3.644e-3 17.965 0.851 -104.639
          3.66e-3 17.66 0.061 -11.666 8.184e-3 63.226
          0.852 -104.752 8.165e-3 63.258 0.261 -7.546
3965.05 0.301 -32.49 3.648e-3 17.763 0.852 -105.796
          3.66e-3 17.456 0.06 -12.136 8.357e-3 62.739
          0.85 -105.938 8.328e-3 62.74 0.259 -8.579
4005 0.302 -34.27 3.585e-3 17.58 0.851 -106.863
          3.589e-3 17.355 0.058 -12.522 8.552e-3 62.057
          0.85 -106.963 8.523e-3 62.099 0.258 -9.603
4044.95 0.301 -36.274 3.591e-3 17.718 0.852 -107.991
          3.585e-3 17.683 0.057 -11.843 8.71e-3 61.272
          0.849 -108.16 8.69e-3 61.487 0.256 -10.45
4084.9 0.3 -38.269 3.542e-3 17.487 0.852 -109.101
          3.527e-3 17.154 0.054 -11.893 8.923e-3 60.663
          0.849 -109.189 8.892e-3 60.845 0.253 -11.498
4124.85 0.299 -40.308 3.53e-3 17.846 0.85 -110.24
          3.523e-3 17.622 0.052 -12.664 9.098e-3 59.841
          0.848 -110.346 9.077e-3 60.03 0.251 -12.68
4164.8 0.297 -42.458 3.524e-3 17.827 0.85 -111.281
          3.513e-3 17.575 0.051 -13.084 9.309e-3 59.103
          0.847 -111.316 9.299e-3 59.353 0.25 -13.674
4204.75 0.294 -44.409 3.51e-3 18.124 0.849 -112.454
          3.51e-3 17.803 0.05 -12.793 9.507e-3 58.125
          0.848 -112.596 9.496e-3 58.285 0.249 -14.766
4244.7 0.291 -46.596 3.51e-3 18.229 0.848 -113.52
          3.505e-3 17.678 0.048 -12.654 9.682e-3 57.226
          0.846 -113.662 9.66e-3 57.36 0.246 -15.812
4284.65 0.287 -48.869 3.535e-3 18.667 0.848 -114.639
          3.518e-3 18.142 0.046 -13.386 9.873e-3 56.161
          0.846 -114.718 9.84e-3 56.395 0.244 -17.042
4324.6 0.283 -51 3.532e-3 18.403 0.848 -115.704
          3.526e-3 18.262 0.044 -14.368 0.01 55.13
          0.845 -115.712 0.01 55.458 0.243 -18.39
4364.55 0.278 -53.25 3.553e-3 18.629 0.847 -116.839
          3.549e-3 18.295 0.043 -15.851 0.01 54.059
          0.846 -116.935 0.01 54.23 0.241 -19.782
4404.5 0.273 -55.382 3.596e-3 18.746 0.847 -117.866
          3.591e-3 18.279 0.041 -16.084 0.01 53.149
          0.843 -118.03 0.01 53.231 0.239 -20.934
4444.45 0.267 -57.669 3.63e-3 18.555 0.846 -119.042
          3.623e-3 18.367 0.039 -17.292 0.01 52.124
          0.843 -119.044 0.011 52.304 0.237 -22.334
4484.4 0.262 -59.74 3.705e-3 18.185 0.844 -120.083
          3.694e-3 18.2 0.037 -19.103 0.011 50.843
          0.842 -120.123 0.011 51.158 0.235 -23.75
4524.35 0.255 -62.019 3.73e-3 17.592 0.843 -121.148
          3.727e-3 17.373 0.036 -20.531 0.011 49.854
          0.842 -121.236 0.011 50.162 0.233 -25.083
4564.3 0.249 -63.933 3.79e-3 16.737 0.844 -122.284
          3.765e-3 16.404 0.035 -21.137 0.011 48.787
          0.84 -122.28 0.011 48.989 0.231 -26.438
4604.25 0.242 -65.948 3.81e-3 16.034 0.842 -123.345
          3.802e-3 15.879 0.033 -22.193 0.011 47.879
          0.842 -123.298 0.011 48.178 0.229 -27.71
4644.2 0.235 -68.099 3.881e-3 14.999 0.843 -124.395
          3.864e-3 14.872 0.032 -24.144 0.011 46.873
          0.841 -124.476 0.011 47.051 0.227 -29.375
4684.15 0.228 -69.981 3.879e-3 14.008 0.842 -125.518
          3.879e-3 13.76 0.031 -25.678 0.011 45.996
          0.841 -125.508 0.011 46.216 0.225 -30.79
4724.1 0.221 -72.009 3.949e-3 13.008 0.842 -126.573
          3.923e-3 12.822 0.03 -26.609 0.011 45.137
          0.839 -126.559 0.011 45.278 0.223 -32.288
4764.05 0.213 -73.765 3.968e-3 11.703 0.842 -127.623
          3.943e-3 11.61 0.028 -27.825 0.011 44.198
          0.841 -127.578 0.011 44.476 0.22 -33.596
4804 0.206 -75.434 4.014e-3 10.556 0.842 -128.783
          4e-3 10.31 0.026 -28.328 0.011 43.238
          0.839 -128.817 0.011 43.368 0.217 -34.815
4843.95 0.198 -77.078 4.027e-3 8.795 0.841 -129.837
          4.013e-3 8.644 0.025 -31.441 0.011 42.488
          0.84 -129.828 0.011 42.608 0.215 -36.384
4883.9 0.191 -78.524 4.066e-3 7.12 0.842 -130.958
          4.049e-3 6.974 0.024 -33.851 0.012 41.709
