!Hittite Microwave Corporation								
!12 Elizabeth Drive								
!Chelmsford, MA 01824							
!Tel: 978-250-3343								
!Fax: 978-250-3373								
!Device: HMC318MS8G, 5-6 GHz LNA with AGC in 8-lead Grounded Base Surface Mount Plastic Package
!Misc: Room Temp Vdd = +3V Idd = 5.7 mA. Vctl =1.8 V	 , DEEMBEDDED TO THE PINS OF THE DEVICE							
!
# MHZ S MA R 50

4000 0.722 -122.516 0.444 -70.964 0.03 127.546 0.623 42.65
4030 0.715 -123.114 0.458 -72.916 0.03 126.321 0.626 41.849
4060 0.708 -123.799 0.502 -78.111 0.028 127.859 0.629 41.167
4090 0.701 -124.411 0.454 -79.923 0.032 128.54 0.629 40.569
4120 0.693 -125.026 0.455 -81.45 0.032 126.04 0.629 39.9
4150 0.683 -125.642 0.505 -82.692 0.029 120.358 0.63 39.163
4180 0.676 -126.523 0.468 -86.961 0.033 122.082 0.63 38.645
4210 0.669 -127.186 0.465 -89.24 0.035 122.676 0.63 38.096
4240 0.662 -127.628 0.497 -89.527 0.033 122.143 0.631 37.512
4270 0.65 -128.207 0.478 -93.391 0.034 119.332 0.63 36.99
4300 0.641 -129.065 0.48 -96.324 0.035 117.699 0.628 36.449
4330 0.633 -130.212 0.501 -98.329 0.036 117.241 0.626 35.885
4360 0.626 -130.641 0.477 -100.302 0.038 115.468 0.624 35.397
4390 0.617 -131.218 0.482 -102.53 0.038 114.97 0.622 34.91
4420 0.606 -131.945 0.517 -105.016 0.037 115.744 0.618 34.423
4450 0.598 -133.099 0.487 -107.507 0.038 111.88 0.616 33.944
4480 0.591 -133.888 0.486 -109.625 0.039 109.345 0.612 33.522
4510 0.583 -134.309 0.515 -111.369 0.04 108.141 0.607 33.155
4540 0.571 -135.28 0.496 -114.117 0.041 108.746 0.603 32.559
4570 0.562 -136.376 0.495 -116.714 0.041 107.639 0.598 32.128
4600 0.556 -137.613 0.512 -119.158 0.041 104.822 0.591 31.861
4630 0.547 -137.969 0.501 -120.042 0.042 100.705 0.584 31.33
4660 0.537 -138.792 0.505 -122.81 0.043 100 0.578 30.878
4690 0.524 -140.097 0.526 -127.466 0.046 102.704 0.572 30.499
4720 0.52 -141.399 0.496 -126.87 0.045 98.213 0.562 30.201
4750 0.512 -142.441 0.501 -128.443 0.044 95.153 0.553 29.754
4780 0.501 -143.202 0.543 -132.185 0.044 93.525 0.544 29.161
4810 0.493 -144.816 0.5 -133.789 0.047 91.854 0.534 29.199
4840 0.486 -146.227 0.498 -134.753 0.047 89.577 0.523 29.186
4870 0.479 -147.427 0.539 -135.074 0.044 86.696 0.51 29.126
4900 0.469 -149.269 0.519 -139.385 0.045 87.332 0.503 29.302
4930 0.463 -151.094 0.515 -141.023 0.045 84.414 0.494 29.608
4960 0.459 -152.906 0.526 -139.988 0.044 77.942 0.483 30.053
4990 0.448 -154.716 0.551 -143.104 0.043 83.48 0.479 30.253
5020 0.437 -157.224 0.561 -146.166 0.043 85.631 0.477 30.425
5050 0.429 -160.48 0.557 -149.179 0.044 84.391 0.476 30.562
5080 0.421 -161.95 0.582 -150.111 0.045 83.979 0.47 29.413
5110 0.409 -163.97 0.595 -153.764 0.047 83.469 0.464 28.316
5140 0.394 -166.556 0.597 -160.141 0.051 82.859 0.457 27.275
5170 0.39 -169.3 0.591 -159.877 0.053 80.336 0.443 26.548
5200 0.383 -171.324 0.598 -162.407 0.054 78.106 0.429 25.621
5230 0.373 -172.589 0.617 -167.726 0.052 76.174 0.416 24.48
5260 0.363 -176.24 0.6 -169.322 0.057 72.292 0.401 23.9
5290 0.359 -179.241 0.596 -171.696 0.059 69.298 0.385 23.229
5320 0.361 178.466 0.607 -174.847 0.058 67.193 0.368 22.478
5350 0.351 176.249 0.607 -177.246 0.06 65.548 0.352 21.795
5380 0.344 173.176 0.603 179.768 0.061 62.235 0.336 21.317
5410 0.34 169.219 0.597 176.193 0.062 57.253 0.319 21.056
5440 0.34 166.754 0.604 174.913 0.062 54.626 0.3 20.596
5470 0.338 163.83 0.606 171.905 0.063 52.655 0.281 20.242
5500 0.333 160.422 0.6 167.171 0.066 51.341 0.263 20.002
5530 0.335 156.635 0.598 166.345 0.064 46.409 0.245 20.061
5560 0.336 153.341 0.598 163.742 0.063 42.728 0.226 20.266
5590 0.336 150.545 0.602 159.363 0.065 40.303 0.206 20.712
5620 0.335 146.626 0.593 157.605 0.067 37.038 0.189 21.635
5650 0.338 142.894 0.589 155.02 0.067 33.917 0.17 23.047
5680 0.342 139.374 0.592 151.609 0.065 30.939 0.149 25.285
5710 0.345 135.552 0.586 148.924 0.065 27.421 0.13 27.127
5740 0.351 131.877 0.581 146.034 0.066 23.187 0.114 31.285
5770 0.359 128.368 0.575 142.938 0.068 18.238 0.099 38.149
5800 0.362 125.278 0.573 140.373 0.067 17.366 0.082 47.407
5830 0.367 121.613 0.569 137.406 0.067 14.456 0.07 60.174
5860 0.374 117.4 0.56 134.038 0.067 9.508 0.065 74.753
5890 0.386 114.457 0.554 131.449 0.066 5.186 0.071 93.216
5920 0.394 111.321 0.548 128.606 0.066 2.063 0.08 99.376
5950 0.398 107.988 0.542 125.366 0.068 -4.188e-3 0.089 120.796
5980 0.412 104.324 0.533 122.405 0.066 -4.552 0.106 126.961
6010 0.423 101.384 0.524 119.528 0.065 -8.212 0.126 131.369
6040 0.431 99.136 0.516 116.728 0.064 -10.992 0.147 135.767
6070 0.439 95.292 0.507 113.693 0.066 -15.573 0.165 137.367
6100 0.45 91.941 0.498 110.61 0.066 -19.503 0.185 138.365
6130 0.464 89.068 0.488 107.479 0.065 -22.781 0.208 138.781
6160 0.472 86.406 0.475 104.738 0.065 -25.549 0.228 139.445
6190 0.481 83.374 0.466 101.815 0.065 -29.711 0.248 139.401
6220 0.493 79.982 0.458 98.715 0.064 -35.265 0.269 138.668
6250 0.503 77.349 0.442 95.8 0.065 -38.2 0.291 138.336
6280 0.512 74.577 0.43 92.984 0.065 -41.226 0.312 137.71
6310 0.52 71.668 0.423 90.266 0.065 -44.344 0.331 136.824
6340 0.53 68.768 0.406 87.303 0.064 -49.127 0.353 135.592
6370 0.537 65.9 0.394 84.514 0.064 -53.569 0.374 134.519
6400 0.544 63.062 0.385 81.897 0.065 -57.673 0.393 133.631
6430 0.554 60.258 0.369 79.165 0.064 -60.545 0.413 132.39
6460 0.562 57.559 0.356 76.416 0.064 -63.904 0.432 131.201
6490 0.566 54.965 0.347 73.645 0.063 -67.755 0.45 130.073
6520 0.572 52.083 0.331 71.356 0.064 -72.057 0.468 128.664
6550 0.578 49.324 0.318 68.845 0.064 -76.198 0.485 127.177
6580 0.585 46.679 0.31 66.11 0.064 -80.18 0.503 125.613
6610 0.589 44.105 0.295 63.812 0.064 -83.418 0.52 124.23
6640 0.593 41.379 0.283 61.447 0.063 -87.099 0.536 122.763
6670 0.599 38.498 0.273 59.014 0.063 -91.226 0.551 121.212
6700 0.604 36.189 0.259 56.908 0.063 -94.779 0.566 119.714
6730 0.606 33.701 0.248 54.695 0.063 -98.058 0.581 118.226
6760 0.605 31.034 0.239 52.374 0.063 -101.066 0.595 116.752
6790 0.61 28.201 0.227 50.415 0.062 -104.958 0.607 115.079
6820 0.614 25.686 0.216 48.403 0.062 -108.444 0.621 113.528
6850 0.618 23.487 0.208 46.337 0.062 -111.523 0.637 112.104
6880 0.617 20.957 0.197 44.531 0.062 -115.075 0.646 110.583
6910 0.619 18.327 0.187 42.666 0.062 -118.187 0.657 108.929
6940 0.623 15.593 0.178 40.742 0.062 -120.858 0.668 107.143
6970 0.624 13.315 0.169 38.802 0.061 -124.491 0.68 105.827
7000 0.626 10.868 0.16 37.065 0.061 -127.642 0.69 104.428
