!Hittite Microwave Corporation								
!20 Alpha Road								
!Chelmsford, MA 01824								
!Tel: 978-250-3343								
!Fax: 978-250-3373								
!Device: HMC383LC4, 12-30 GHz, GaAs PHEMT MMIC Driver Amplifier in leadless "Pb free" RoHS compliant SMT package															
!Misc: Vdd = +5V, data includes two Southwest connectors, Room							
!
# MHZ S MA R 50

50 1.008 -4.252 282e-6 -153.404 184.1e-6 -166.386 1 -2.979
449.5 0.994 -37.422 190.7e-6 -28.373 10.52e-6 -23.881 1.003 -29.921
849 0.958 -70.561 2.412e-3 -79.002 57.86e-6 58.929 0.996 -56.813
1248.5 0.908 -103.028 5.306e-3 -152.927 128.8e-6 -3.18 0.982 -83.471
1648 0.849 -134.603 9.793e-3 148.143 36.39e-6 -14.419 0.959 -110.16
2047.5 0.791 -165.847 0.012 88.076 43.3e-6 -6.441 0.938 -136.447
2447 0.735 163.08 0.012 44.585 141.9e-6 87.669 0.919 -162.48
2846.5 0.683 132.217 0.012 22.366 200.5e-6 93.608 0.904 170.952
3246 0.639 101.389 0.012 3.272 377.7e-6 78.209 0.894 144.439
3645.5 0.602 71.171 0.015 -11.024 374.6e-6 58.582 0.885 117.711
4045 0.571 41.497 0.017 -17.573 632e-6 49.05 0.879 90.676
4444.5 0.541 13.289 0.025 -25.301 782.8e-6 28.214 0.877 63.723
4844 0.51 -13.972 0.035 -35.567 873.2e-6 17.189 0.869 36.681
5243.5 0.472 -40.36 0.067 -45.108 1.041e-3 -1.114 0.858 9.643
5643 0.432 -65.832 0.107 -62.432 1.347e-3 -20.262 0.835 -17.211
6042.5 0.388 -91.047 0.17 -96.095 1.426e-3 -38.746 0.799 -43.943
6442 0.347 -116.916 0.295 -119.26 1.71e-3 -55.083 0.757 -70.94
6841.5 0.313 -143.512 0.439 -145.177 1.95e-3 -69.279 0.711 -97.614
7241 0.291 -171.33 0.647 -178.249 2.134e-3 -90.721 0.663 -124.754
7640.5 0.28 160.139 0.985 145.061 2.242e-3 -109.294 0.619 -152.393
8040 0.286 130.553 1.285 113.972 2.386e-3 -129.595 0.584 179.098
8439.5 0.299 101.649 1.691 79.545 2.551e-3 -150.632 0.552 148.729
8839 0.316 73.887 2.182 43.354 2.46e-3 -167.259 0.526 117.964
9238.5 0.326 47.229 2.696 7.847 2.393e-3 177.888 0.497 87.789
9638 0.327 21.189 3.192 -26.731 2.546e-3 159.113 0.466 58.554
10037.5 0.328 -2.995 3.758 -60.409 2.468e-3 139.599 0.432 31.275
10437 0.316 -28.022 4.246 -94.867 2.23e-3 120.773 0.39 5.77
10836.5 0.302 -52.76 4.722 -129.234 2.305e-3 107.413 0.353 -17.577
11236 0.283 -77.917 5.189 -162.676 2.05e-3 91.599 0.319 -38.195
11635.5 0.256 -104.492 5.37 163.86 2.197e-3 79.483 0.285 -56.588
12035 0.233 -131.984 5.744 129.843 2.046e-3 58.184 0.259 -76.074
12434.5 0.21 -161.432 5.773 98.616 1.803e-3 40.145 0.236 -95.731
12834 0.197 169.551 5.571 70.539 1.663e-3 29.939 0.213 -116.629
13233.5 0.182 140.799 5.387 42.227 1.316e-3 21.521 0.207 -141.862
13633 0.183 116.497 5.803 16.128 1.952e-3 30.869 0.191 -174.113
14032.5 0.185 90.224 6.007 -11.882 2.477e-3 -1.667 0.158 158.208
14432 0.184 66.552 5.815 -40.85 2.318e-3 -22.435 0.144 128.56
14831.5 0.178 44.781 5.921 -66.649 2.355e-3 -41.227 0.147 100.087
15231 0.177 24.38 6.008 -90.869 3.696e-3 -70.077 0.161 70.527
15630.5 0.184 4.937 6.119 -116.463 1.386e-3 -130.94 0.18 34.39
16030 0.192 -16.329 6.243 -145.738 1.243e-3 -97.398 0.175 7.211
16429.5 0.197 -38.77 6.256 -169.877 1.521e-3 -113.517 0.166 -16.711
16829 0.201 -59.249 6.341 163.731 1.716e-3 -118.583 0.163 -43.008
17228.5 0.206 -79.624 6.395 138.348 1.708e-3 -137.147 0.165 -65.714
17628 0.211 -99.568 6.56 113.064 1.837e-3 -152.539 0.16 -87.734
18027.5 0.213 -119.488 6.646 87.194 1.736e-3 -173.93 0.156 -110.356
18427 0.212 -140.367 6.721 61.195 1.614e-3 173.607 0.152 -129.154
18826.5 0.211 -162.381 6.773 35.569 1.708e-3 159.433 0.142 -147.228
19226 0.212 174.684 6.836 10.181 1.836e-3 132.324 0.134 -168.279
19625.5 0.203 149.973 6.891 -15.391 1.793e-3 119.243 0.126 176.242
20025 0.195 127.353 7.051 -40.205 1.878e-3 91.649 0.111 158.935
20424.5 0.19 109.351 7.202 -67.108 1.567e-3 67.231 0.097 146.085
20824 0.191 85.454 7.225 -93.695 966.9e-6 3.305 0.099 142.168
21223.5 0.197 64.347 7.25 -121.584 239.8e-6 -174.379 0.107 124.978
21623 0.19 37.891 6.98 -147.465 951.6e-6 132.607 0.117 101.206
22022.5 0.188 8.461 6.882 -173.364 1.069e-3 95.052 0.125 80.175
22422 0.192 -21.097 6.656 162.658 1.348e-3 64.916 0.127 65.029
22821.5 0.208 -50.6 6.723 136.672 1.348e-3 56.985 0.14 41.954
23221 0.231 -77.086 6.772 111.442 851e-6 27.443 0.148 21.229
23620.5 0.254 -100.999 6.927 85.4 875.1e-6 50.907 0.139 -7.274
24020 0.276 -121.521 6.495 56.033 1.51e-3 30.749 0.145 -39.379
24419.5 0.295 -140.665 6.181 30.039 1.987e-3 33.072 0.17 -68.724
24819 0.299 -157.702 6.046 4.785 3.003e-3 -0.232 0.194 -100.227
25218.5 0.295 -173.085 5.82 -15.651 5.183e-3 -59.335 0.222 -124.228
25618 0.312 174.872 6.159 -42.749 5.304e-3 -146.885 0.265 -132.472
26017.5 0.316 150.481 6.138 -70.667 4.102e-3 125.969 0.339 -157.67
26417 0.277 127.059 6.104 -97.157 3.295e-3 69.671 0.375 176.784
26816.5 0.206 101.736 6 -124.951 2.973e-3 8.803 0.382 156.405
27216 0.166 69.923 5.643 -156.863 3.92e-3 58.927 0.402 135.732
27615.5 0.122 9.902 5.625 179.342 6e-3 3.656 0.408 114.147
28015 0.139 -58.574 5.414 150.756 7.538e-3 -28.028 0.418 93.258
28414.5 0.204 -102.677 5.292 121.624 6.616e-3 -54.619 0.452 68.566
28814 0.24 -135.127 5.018 92.942 9.069e-3 -70.674 0.46 38.021
29213.5 0.246 -167.048 4.903 64.139 7.942e-3 -90.314 0.428 11.281
29613 0.225 152.857 5.24 33.473 9.945e-3 -91.916 0.401 -12.282
30012.5 0.185 97.495 4.816 -5.076 0.013 -100.611 0.445 -41.607
30412 0.252 34.971 4.355 -45.609 0.02 -114.105 0.45 -74.201
30811.5 0.391 -14.65 3.743 -85.67 0.026 -142.175 0.461 -103.542
31211 0.54 -49.57 2.751 -112.63 0.043 -156.985 0.475 -133.44
31610.5 0.684 -86.957 1.898 -157.104 0.071 161.91 0.525 -168.958
32010 0.775 -127.504 1.491 166.796 0.086 80.985 0.383 149.155
32409.5 0.637 -176.307 0.787 141.063 0.036 -11.633 0.186 121.121
32809 0.416 130.045 0.497 123.098 0.039 123.716 0.115 56.622
33208.5 0.241 43.38 0.33 104.141 0.019 102.524 0.158 -90.955
33608 0.271 -56.51 0.216 96.229 0.061 71.399 0.214 -122.68
34007.5 0.397 -102.848 0.189 92.345 0.062 52.013 0.265 -179.651
34407 0.467 -147.318 0.178 75.979 0.081 11.026 0.136 148.508
34806.5 0.447 169.38 0.118 46.507 0.07 -14.862 0.148 -168.226
35206 0.356 157.186 0.103 79.393 0.057 -23.224 0.329 141.62
35605.5 0.443 113.288 0.151 43.689 0.086 -51.869 0.329 82.834
36005 0.427 66.828 0.148 18.692 0.098 -58.798 0.246 70.462
36404.5 0.409 21.663 0.141 -17.739 0.126 -92.669 0.331 36.339
36804 0.405 -12.774 0.116 -57.434 0.138 -126.965 0.393 6.251
37203.5 0.409 -33.989 0.082 -94.283 0.145 -159.054 0.463 -20.152
37603 0.461 -51.206 0.054 -125.681 0.132 169.78 0.539 -51.755
38002.5 0.523 -68.595 0.039 -154.433 0.122 145.687 0.556 -77.366
38402 0.532 -84.828 0.038 156.413 0.13 127.952 0.525 -98.28
38801.5 0.549 -98.049 0.039 88.52 0.154 94.013 0.45 -107.031
39201 0.57 -112.906 0.03 29.41 0.149 59.698 0.574 -110.219
39600.5 0.581 -128.485 0.028 -8.665 0.128 26.36 0.672 -130.189
40000 0.619 -151.48 0.026 -51.121 0.107 -0.576 0.649 -153.12
