!Hittite Microwave Corporation								
!12 Elizabeth Drive								
!Chelmsford, MA 01824								
!Tel: 978-250-3343								
!Fax: 978-250-3373								
!Device: HMC393MS8G, 5-6 GHz GaAs MMIC DPDT Diversity Switch in 8-lead Grounded Base surface Mount Plastic Package								
!Misc:  Port 1 = ANT1, Port 2 = ANT2, Port 3 = Tx, Port 4 = Rx, Vctl=+5V, State 4 selected, Room							
!
# MHZ S MA R 50

4000 0.788 -2.61 0.245 0.528 0.132 -20.044 0.24 1.59
          0.259 -4.557 0.296 67.227 0.263 0.778 0.769 54.687
          0.127 -24.316 0.244 0.191 0.79 -1.506 0.244 2.284
          0.254 -3.34 0.782 53.553 0.259 -2.558 0.283 68.101
4015 0.789 -3.259 0.247 -0.338 0.129 -23.538 0.242 0.888
          0.245 -6.044 0.292 66.829 0.258 -3.036 0.783 53.967
          0.12 -25.473 0.242 -0.795 0.792 -2.231 0.247 1.494
          0.24 -4.831 0.785 52.584 0.246 -4.177 0.279 67.582
4030 0.79 -3.862 0.247 -1.66 0.122 -26.068 0.242 -0.243
          0.231 -5.727 0.29 66.527 0.244 -5.667 0.79 52.861
          0.113 -25.066 0.238 -1.569 0.793 -2.896 0.246 0.286
          0.227 -4.385 0.779 51.931 0.232 -3.968 0.276 67.019
4045 0.791 -4.504 0.243 -2.929 0.113 -26.455 0.238 -1.35
          0.222 -4.168 0.287 66.072 0.227 -6.191 0.787 51.821
          0.109 -23.249 0.232 -1.784 0.793 -3.552 0.242 -0.986
          0.218 -2.652 0.771 51.668 0.222 -2.48 0.272 66.465
4060 0.792 -5.178 0.236 -3.776 0.105 -24.475 0.233 -2.043
          0.218 -2.17 0.284 65.576 0.212 -4.339 0.776 51.227
          0.106 -20.915 0.227 -1.551 0.794 -4.207 0.236 -1.866
          0.215 -0.523 0.765 51.84 0.218 -0.513 0.269 65.874
4075 0.793 -5.846 0.229 -3.956 0.101 -20.778 0.226 -2.053
          0.219 -0.582 0.281 65.173 0.203 -0.673 0.762 51.317
          0.106 -19.09 0.223 -1.113 0.795 -4.844 0.229 -2.016
          0.216 1.133 0.762 52.358 0.219 1.092 0.265 65.201
4090 0.794 -6.5 0.222 -3.345 0.101 -16.816 0.22 -1.297
          0.222 -0.102 0.278 64.678 0.204 3.252 0.752 52.114
          0.107 -18.321 0.221 -0.525 0.795 -5.438 0.223 -1.431
          0.219 1.754 0.764 52.904 0.222 1.653 0.262 64.491
4105 0.795 -7.171 0.219 -2.162 0.105 -14.543 0.217 -0.164
          0.222 -0.763 0.275 64.189 0.214 5.409 0.753 53.277
          0.107 -18.642 0.221 -0.338 0.797 -6.117 0.219 -0.408
          0.22 1.369 0.769 53.082 0.222 0.998 0.259 63.738
4120 0.797 -7.842 0.219 -1.277 0.11 -14.56 0.216 0.808
          0.219 -1.246 0.272 63.727 0.225 5.262 0.763 54.153
          0.106 -18.723 0.219 -0.406 0.798 -6.745 0.219 0.367
          0.217 1.079 0.773 52.94 0.219 0.418 0.256 63.013
4135 0.798 -8.482 0.22 -1.012 0.114 -16.34 0.218 1.217
          0.215 -0.961 0.269 63.268 0.233 3.236 0.777 54.47
          0.103 -18.014 0.216 -0.51 0.799 -7.367 0.22 0.65
          0.213 1.51 0.773 52.877 0.215 0.684 0.253 62.259
4150 0.799 -9.122 0.221 -1.368 0.113 -18.952 0.219 1.039
          0.212 0.115 0.266 62.777 0.233 0.336 0.79 54.217
          0.102 -16.52 0.213 -0.432 0.8 -7.994 0.221 0.328
          0.21 2.711 0.771 52.999 0.212 1.806 0.25 61.446
4165 0.801 -9.79 0.22 -2.14 0.109 -21.219 0.219 0.454
          0.212 1.554 0.263 62.232 0.226 -2.198 0.799 53.569
          0.102 -14.728 0.209 0.01 0.801 -8.623 0.221 -0.492
          0.211 4.282 0.77 53.337 0.212 3.289 0.247 60.608
4180 0.803 -10.449 0.217 -3.027 0.103 -21.877 0.216 -0.321
          0.218 2.578 0.26 61.645 0.214 -3.222 0.799 52.821
          0.105 -13.534 0.207 0.924 0.801 -9.258 0.218 -1.402
          0.217 5.485 0.771 54.075 0.218 4.395 0.243 59.875
4195 0.804 -11.063 0.212 -3.539 0.099 -20.267 0.212 -0.59
          0.226 1.74 0.257 61.075 0.204 -1.87 0.794 52.466
          0.109 -13.897 0.207 1.691 0.803 -9.918 0.213 -1.866
          0.226 4.648 0.781 54.738 0.227 3.533 0.24 59.04
4210 0.805 -11.635 0.207 -3.489 0.097 -18.051 0.207 -0.408
          0.231 -0.826 0.254 60.514 0.2 0.204 0.788 52.611
          0.112 -16.317 0.209 1.968 0.804 -10.562 0.208 -1.778
          0.232 2.136 0.796 54.872 0.233 1.01 0.237 58.217
4225 0.807 -12.203 0.204 -3.099 0.097 -16.246 0.204 0.083
          0.23 -4.42 0.251 59.914 0.201 1.918 0.786 53.006
          0.111 -19.613 0.21 1.608 0.806 -11.206 0.205 -1.34
          0.23 -1.348 0.811 54.427 0.231 -2.639 0.234 57.314
4240 0.808 -12.775 0.201 -2.633 0.099 -15.555 0.203 0.611
          0.22 -7.723 0.248 59.333 0.205 2.495 0.79 53.436
          0.105 -22.472 0.21 0.731 0.807 -11.853 0.203 -0.902
          0.22 -4.474 0.82 53.572 0.221 -6.028 0.231 56.407
4255 0.81 -13.337 0.201 -2.372 0.101 -16.188 0.202 0.92
          0.203 -9.36 0.245 58.784 0.209 1.66 0.798 53.694
          0.098 -23.709 0.207 -0.355 0.808 -12.496 0.202 -0.773
          0.205 -5.888 0.821 52.561 0.205 -7.71 0.227 55.555
4270 0.81 -13.859 0.2 -2.595 0.1 -17.7 0.202 0.906
          0.187 -8.454 0.243 58.09 0.209 -0.18 0.806 53.546
          0.09 -22.52 0.202 -1.215 0.81 -13.126 0.201 -1.04
          0.189 -4.811 0.814 51.612 0.188 -6.989 0.225 54.623
4285 0.813 -14.413 0.198 -3.157 0.097 -19.108 0.2 0.453
          0.178 -4.977 0.239 57.519 0.202 -1.608 0.81 53.048
          0.086 -18.799 0.196 -1.153 0.81 -13.763 0.199 -1.57
          0.18 -1.363 0.8 51.482 0.179 -3.628 0.221 53.723
4300 0.815 -14.937 0.195 -3.679 0.093 -19.112 0.198 0.124
          0.177 -1.531 0.236 56.875 0.194 -1.806 0.81 52.659
          0.085 -15.085 0.19 -0.497 0.812 -14.386 0.197 -2.035
          0.179 2.283 0.79 51.981 0.178 -0.113 0.218 52.679
4315 0.816 -15.491 0.192 -4.006 0.089 -18.034 0.194 0.026
          0.182 0.748 0.234 56.138 0.187 -0.883 0.807 52.457
          0.087 -12.416 0.187 0.529 0.814 -15.068 0.193 -2.315
          0.184 4.745 0.786 52.768 0.183 2.359 0.215 51.607
4330 0.817 -16.072 0.188 -4.044 0.088 -16.421 0.191 0.182
          0.189 1.29 0.23 55.425 0.184 0.564 0.804 52.53
          0.091 -11.504 0.186 1.534 0.815 -15.714 0.19 -2.323
          0.192 5.442 0.791 53.512 0.19 3.058 0.212 50.579
4345 0.819 -16.647 0.185 -3.83 0.088 -14.99 0.188 0.54
          0.194 0.073 0.227 54.811 0.184 1.757 0.803 52.841
          0.093 -12.48 0.186 2.159 0.816 -16.259 0.187 -2.1
          0.198 4.4 0.801 53.966 0.196 1.829 0.209 49.55
4360 0.82 -17.186 0.183 -3.6 0.088 -14.555 0.187 0.994
          0.196 -2.389 0.224 54.142 0.186 2.052 0.807 53.105
          0.094 -14.628 0.187 2.277 0.817 -16.883 0.185 -1.899
          0.2 2.047 0.811 54.047 0.198 -0.793 0.206 48.283
4375 0.823 -17.791 0.182 -3.744 0.087 -15.469 0.186 0.951
          0.19 -4.756 0.221 53.337 0.185 0.94 0.813 52.968
          0.091 -16.113 0.186 1.839 0.818 -17.471 0.184 -2.078
          0.194 0.102 0.819 53.501 0.192 -3.023 0.203 47.16
4390 0.824 -18.375 0.179 -4.211 0.085 -16.086 0.184 0.725
          0.182 -5.566 0.218 52.556 0.18 -0.053 0.816 52.638
          0.087 -16.497 0.184 1.439 0.819 -18.126 0.182 -2.543
          0.186 -0.667 0.82 52.995 0.184 -3.987 0.2 45.884
4405 0.826 -18.983 0.176 -4.764 0.081 -15.627 0.181 0.449
          0.174 -5.188 0.215 51.767 0.172 0.045 0.815 52.265
          0.084 -15.593 0.181 1.234 0.821 -18.721 0.179 -3.086
          0.179 -0.14 0.819 52.691 0.177 -3.686 0.197 44.609
4420 0.828 -19.596 0.172 -5.09 0.078 -13.634 0.177 0.375
          0.169 -4.222 0.212 50.912 0.165 1.695 0.81 52.075
          0.082 -14.045 0.178 1.255 0.824 -19.321 0.174 -3.4
          0.176 1.05 0.817 52.64 0.173 -2.754 0.195 43.321
4435 0.829 -20.185 0.166 -4.917 0.076 -10.279 0.173 0.753
          0.168 -3.374 0.209 49.967 0.161 4.719 0.803 52.278
          0.082 -12.767 0.175 1.465 0.826 -19.977 0.17 -3.229
          0.175 2.058 0.816 52.771 0.172 -2.046 0.193 41.976
4450 0.831 -20.772 0.162 -4.142 0.077 -6.681 0.169 1.709
          0.168 -3.336 0.205 48.981 0.164 8.169 0.797 52.962
          0.082 -12.412 0.173 1.81 0.826 -20.523 0.166 -2.526
          0.175 2.362 0.819 52.863 0.172 -2.237 0.19 40.62
4465 0.833 -21.33 0.16 -3.028 0.082 -4.824 0.167 2.823
          0.165 -3.905 0.202 48.177 0.172 9.95 0.801 53.846
          0.081 -12.943 0.171 1.802 0.828 -21.123 0.164 -1.677
          0.172 1.724 0.822 52.862 0.169 -3.005 0.188 39.163
4480 0.835 -21.838 0.159 -2.154 0.087 -4.943 0.168 3.673
          0.16 -4.314 0.2 47.123 0.183 9.5 0.812 54.499
          0.079 -12.94 0.169 1.698 0.83 -21.727 0.164 -1.066
          0.167 1.511 0.824 52.562 0.164 -3.579 0.185 37.737
4495 0.836 -22.331 0.159 -1.733 0.091 -7.532 0.168 4.057
          0.154 -3.633 0.197 46.119 0.192 6.764 0.827 54.693
          0.076 -11.802 0.165 1.713 0.831 -22.298 0.164 -0.975
          0.162 2.298 0.821 52.358 0.158 -3.036 0.184 36.228
4510 0.838 -22.823 0.16 -1.944 0.092 -11.816 0.169 3.878
          0.15 -1.889 0.194 45.16 0.195 2.353 0.842 54.34
          0.074 -9.607 0.161 2.011 0.832 -22.838 0.165 -1.494
          0.158 4.194 0.816 52.381 0.153 -1.282 0.182 34.751
4525 0.84 -23.308 0.16 -2.781 0.09 -16.391 0.169 3.18
          0.15 0.321 0.192 44.153 0.189 -2.531 0.854 53.508
          0.074 -6.933 0.158 2.671 0.834 -23.393 0.164 -2.511
          0.158 6.728 0.812 52.672 0.152 1.104 0.18 33.369
4540 0.842 -23.776 0.158 -3.913 0.082 -19.849 0.167 2.185
          0.154 2.224 0.189 43.128 0.174 -6.149 0.857 52.443
          0.077 -4.669 0.156 3.666 0.836 -24.052 0.162 -3.71
          0.163 8.726 0.81 53.352 0.156 3.036 0.178 31.819
4555 0.844 -24.24 0.155 -4.887 0.075 -19.674 0.163 1.507
          0.161 1.876 0.187 42.028 0.158 -6.301 0.851 51.612
          0.08 -4.342 0.155 4.716 0.837 -24.568 0.157 -4.756
          0.171 8.515 0.818 54.016 0.164 2.724 0.176 30.306
4570 0.846 -24.719 0.15 -5.481 0.069 -17.145 0.159 1.287
          0.168 -0.629 0.185 40.958 0.145 -4.078 0.842 51.209
          0.084 -6.822 0.155 5.273 0.838 -25.126 0.152 -5.214
          0.178 6.171 0.83 54.421 0.171 0.189 0.174 28.905
4585 0.848 -25.154 0.145 -5.629 0.066 -13.743 0.154 1.45
          0.168 -4.882 0.183 39.829 0.138 -0.962 0.833 51.183
          0.085 -10.669 0.156 5.32 0.84 -25.682 0.147 -5.234
          0.18 2.134 0.845 54.219 0.172 -4.22 0.173 27.521
4600 0.849 -25.573 0.141 -5.447 0.065 -10.522 0.151 1.962
          0.162 -9.544 0.18 38.702 0.136 2.021 0.828 51.39
          0.081 -14.629 0.155 4.811 0.841 -26.199 0.143 -5.035
          0.173 -2.29 0.858 53.465 0.166 -9.079 0.171 26.074
4615 0.851 -26.02 0.138 -5.138 0.065 -8.081 0.148 2.631
          0.148 -12.851 0.178 37.633 0.135 4.255 0.825 51.656
          0.075 -17.292 0.154 3.868 0.842 -26.674 0.14 -4.805
          0.159 -5.373 0.863 52.428 0.152 -12.558 0.17 24.567
4630 0.853 -26.487 0.135 -4.897 0.064 -6.548 0.145 2.891
          0.131 -13.116 0.176 36.516 0.135 5.516 0.825 51.843
          0.067 -16.757 0.15 2.963 0.843 -27.174 0.137 -4.629
          0.142 -5.423 0.857 51.404 0.134 -13.095 0.168 23.161
4645 0.855 -26.954 0.132 -4.746 0.064 -5.201 0.143 3.418
          0.121 -9.443 0.174 35.387 0.132 6.777 0.823 51.947
          0.062 -12.679 0.145 2.688 0.845 -27.746 0.134 -4.449
          0.13 -1.383 0.845 50.898 0.123 -9.57 0.167 21.761
4660 0.856 -27.457 0.129 -4.502 0.063 -2.912 0.14 3.951
          0.116 -4.777 0.172 34.157 0.131 8.724 0.82 52.161
          0.06 -7.789 0.14 3.227 0.847 -28.276 0.131 -4.239
          0.126 3.445 0.832 50.97 0.118 -4.949 0.166 20.247
4675 0.857 -27.937 0.126 -4.058 0.064 -0.27 0.137 4.708
          0.117 -0.983 0.171 32.88 0.131 11.161 0.819 52.582
          0.061 -3.499 0.136 4.238 0.849 -28.812 0.128 -3.786
          0.127 7.472 0.824 51.557 0.119 -1.166 0.165 18.705
4690 0.859 -28.392 0.123 -3.395 0.066 2.02 0.135 5.622
          0.121 1.047 0.169 31.547 0.134 13.411 0.82 53.186
          0.064 -0.927 0.134 5.466 0.851 -29.312 0.126 -3.128
          0.132 9.777 0.822 52.352 0.123 0.821 0.164 17.166
4705 0.861 -28.842 0.121 -2.606 0.069 3.203 0.134 6.508
          0.125 1.115 0.167 30.152 0.141 14.613 0.826 53.833
          0.067 -0.577 0.132 6.604 0.852 -29.756 0.124 -2.466
          0.138 10.005 0.827 52.979 0.127 0.773 0.163 15.621
4720 0.862 -29.288 0.12 -1.899 0.074 2.552 0.134 7.252
          0.127 -0.56 0.165 28.742 0.149 14.034 0.837 54.289
          0.068 -2.009 0.132 7.168 0.854 -30.267 0.124 -2.076
          0.141 8.294 0.836 53.167 0.13 -1.08 0.162 14.004
4735 0.863 -29.761 0.12 -1.763 0.077 -0.631 0.134 7.481
          0.125 -2.841 0.163 27.356 0.156 10.723 0.852 54.211
          0.067 -3.484 0.13 7.233 0.855 -30.665 0.124 -2.246
          0.138 6.606 0.843 52.962 0.127 -3.267 0.161 12.437
4750 0.865 -30.244 0.119 -2.248 0.077 -5.37 0.134 7.02
          0.12 -3.966 0.161 25.952 0.156 5.798 0.865 53.665
          0.065 -4.031 0.128 7.429 0.857 -31.15 0.122 -3.121
          0.134 5.807 0.846 52.677 0.122 -4.472 0.16 10.821
4765 0.868 -30.702 0.118 -3.065 0.073 -10.068 0.132 6.296
          0.115 -3.693 0.159 24.668 0.148 0.888 0.873 52.776
          0.063 -3.201 0.126 7.669 0.858 -31.615 0.12 -4.199
          0.129 6.323 0.846 52.452 0.117 -4.329 0.159 9.336
4780 0.87 -31.138 0.115 -4.035 0.067 -12.705 0.129 5.671
          0.112 -2.657 0.157 23.45 0.134 -2.017 0.872 51.812
          0.062 -1.497 0.123 8.128 0.86 -32.069 0.117 -5.281
          0.126 7.682 0.845 52.427 0.114 -3.287 0.158 7.984
4795 0.872 -31.56 0.111 -4.921 0.06 -11.84 0.125 5.394
          0.111 -1.785 0.156 22.186 0.119 -1.511 0.864 51.071
          0.063 0.105 0.121 8.888 0.861 -32.54 0.113 -6.155
          0.125 8.942 0.843 52.621 0.113 -2.283 0.158 6.669
4810 0.873 -31.953 0.107 -5.27 0.055 -7.624 0.12 5.542
          0.112 -1.72 0.154 20.821 0.108 2.283 0.852 50.759
          0.064 0.637 0.119 9.577 0.864 -32.981 0.108 -6.289
          0.127 9.118 0.847 52.812 0.113 -2.418 0.157 5.265
4825 0.875 -32.332 0.103 -4.951 0.054 -2.344 0.117 6.445
          0.111 -3.126 0.153 19.424 0.105 7.452 0.843 51.09
          0.064 -0.566 0.118 9.921 0.866 -33.436 0.104 -5.843
          0.127 8.049 0.853 52.852 0.113 -3.984 0.157 3.913
4840 0.877 -32.696 0.1 -4.238 0.055 1.367 0.114 7.522
          0.108 -5.196 0.152 17.936 0.106 11.179 0.84 51.609
          0.064 -1.896 0.116 10.181 0.867 -33.854 0.101 -5.18
          0.124 6.356 0.859 52.646 0.11 -6.224 0.156 2.589
4855 0.878 -33.043 0.097 -3.569 0.057 3.101 0.112 8.486
          0.103 -6.731 0.15 16.381 0.109 12.946 0.843 52.04
          0.062 -2.697 0.114 10.344 0.869 -34.261 0.098 -4.729
          0.119 5.344 0.862 52.283 0.105 -7.934 0.156 1.273
4870 0.88 -33.371 0.095 -3.134 0.059 3.044 0.111 9.197
          0.097 -6.91 0.149 14.848 0.111 12.888 0.848 52.229
          0.059 -2.369 0.112 10.448 0.87 -34.65 0.096 -4.527
          0.112 5.56 0.861 51.906 0.099 -8.266 0.156 -0.042
4885 0.882 -33.683 0.093 -2.979 0.059 1.841 0.109 9.632
          0.092 -5.628 0.148 13.407 0.111 11.689 0.854 52.131
          0.057 -0.785 0.109 10.741 0.872 -35.023 0.094 -4.501
          0.107 7.011 0.858 51.669 0.093 -7.063 0.155 -1.327
4900 0.883 -34 0.091 -3.121 0.058 0.468 0.107 9.86
          0.089 -3.832 0.147 12.028 0.107 10.48 0.857 51.805
          0.056 1.285 0.106 11.844 0.874 -35.419 0.092 -4.755
          0.104 9.386 0.854 51.685 0.09 -5.217 0.154 -2.506
4915 0.884 -34.313 0.088 -3.225 0.055 1.187 0.104 10.149
          0.088 -2.556 0.145 10.659 0.101 11.119 0.854 51.54
          0.057 2.63 0.104 12.601 0.876 -35.9 0.089 -5.001
          0.104 10.869 0.854 51.978 0.089 -4.263 0.154 -3.741
4930 0.885 -34.623 0.085 -3.041 0.053 3.137 0.101 10.837
          0.088 -2.914 0.144 9.202 0.097 13.341 0.85 51.508
          0.058 2.729 0.102 13.344 0.877 -36.263 0.086 -4.859
          0.104 10.92 0.856 52.179 0.089 -4.718 0.153 -4.928
4945 0.887 -34.952 0.082 -2.577 0.053 5.57 0.098 11.839
          0.086 -4.273 0.143 7.81 0.096 16.047 0.847 51.714
          0.058 1.648 0.101 14.024 0.879 -36.622 0.083 -4.562
          0.103 9.919 0.861 52.091 0.087 -6.366 0.153 -6.046
4960 0.888 -35.286 0.08 -2.025 0.054 7.594 0.096 12.951
          0.083 -5.959 0.141 6.405 0.096 18.351 0.847 52.041
          0.056 0.21 0.099 14.504 0.88 -36.987 0.08 -4.201
          0.099 8.698 0.866 51.733 0.083 -8.418 0.152 -7.156
4975 0.89 -35.618 0.078 -1.565 0.056 8.477 0.094 13.983
          0.077 -6.946 0.14 4.931 0.098 19.586 0.851 52.328
          0.053 -0.302 0.097 14.837 0.881 -37.344 0.078 -3.896
          0.092 8.443 0.865 51.253 0.077 -9.645 0.152 -8.294
4990 0.892 -36.02 0.076 -1.179 0.057 7.941 0.093 14.883
          0.07 -5.571 0.139 3.55 0.099 19.323 0.856 52.447
          0.049 1.566 0.094 15.542 0.883 -37.728 0.076 -3.974
          0.085 10.592 0.86 50.845 0.07 -8.498 0.151 -9.417
5005 0.893 -36.381 0.074 -1.148 0.057 6.51 0.091 15.509
          0.066 -1.681 0.137 2.285 0.098 18.035 0.862 52.257
          0.048 6.032 0.09 16.454 0.885 -38.095 0.074 -3.928
          0.081 15.218 0.851 50.921 0.065 -4.71 0.15 -10.49
5020 0.895 -36.745 0.071 -1.46 0.056 5.576 0.089 16.086
          0.065 2.104 0.136 1.028 0.094 17.37 0.865 51.988
          0.048 10.379 0.088 17.817 0.887 -38.458 0.071 -4.215
          0.081 19.85 0.846 51.385 0.064 -0.731 0.149 -11.434
5035 0.896 -37.128 0.069 -1.541 0.054 5.706 0.087 16.826
          0.066 4.767 0.136 -0.248 0.09 17.812 0.865 51.779
          0.051 13.32 0.086 19.363 0.888 -38.78 0.068 -4.507
          0.084 23.22 0.845 52.002 0.065 2.064 0.148 -12.344
5050 0.897 -37.508 0.066 -1.374 0.053 6.75 0.085 17.863
          0.068 5.492 0.135 -1.657 0.087 19.269 0.863 51.708
          0.054 14.428 0.085 20.867 0.889 -39.116 0.066 -4.546
          0.088 24.692 0.85 52.548 0.067 2.757 0.147 -13.337
5065 0.898 -37.87 0.064 -1.168 0.052 8.107 0.082 19.141
          0.071 3.908 0.134 -3.219 0.085 21.225 0.863 51.783
          0.057 13.528 0.084 22.17 0.892 -39.508 0.063 -4.292
          0.091 24.078 0.86 52.838 0.069 1.024 0.147 -14.415
5080 0.899 -38.246 0.061 -1.028 0.053 8.99 0.081 20.312
          0.071 0.328 0.133 -4.702 0.085 22.886 0.865 51.928
          0.059 10.075 0.082 23.184 0.894 -39.884 0.06 -4.058
          0.093 21.45 0.87 52.76 0.069 -2.753 0.145 -15.339
5095 0.901 -38.569 0.059 -0.821 0.054 8.133 0.079 21.235
          0.067 -4.358 0.131 -6.237 0.085 22.721 0.87 51.874
          0.058 5.598 0.081 24.109 0.895 -40.224 0.058 -3.94
          0.09 17.873 0.878 52.23 0.066 -7.61 0.144 -16.309
5110 0.902 -38.909 0.057 -0.706 0.054 6.037 0.077 22.231
          0.061 -7.444 0.13 -7.654 0.083 21.572 0.875 51.593
          0.054 3.106 0.079 24.939 0.897 -40.535 0.055 -4.29
          0.083 15.936 0.88 51.633 0.059 -10.95 0.143 -17.204
5125 0.904 -39.199 0.054 -0.737 0.052 4.112 0.075 23.263
          0.054 -7.644 0.128 -8.914 0.079 20.547 0.877 51.153
          0.05 3.091 0.076 26.038 0.898 -40.843 0.052 -4.577
          0.075 16.631 0.877 51.103 0.052 -11.354 0.141 -17.994
5140 0.905 -39.478 0.051 -0.789 0.048 3.618 0.073 24.34
          0.048 -5.38 0.127 -10.093 0.072 20.98 0.874 50.705
          0.047 5.247 0.074 27.462 0.898 -41.176 0.05 -4.738
          0.069 19.72 0.872 50.801 0.047 -9.258 0.14 -18.638
5155 0.907 -39.781 0.048 -0.626 0.045 5.392 0.07 25.59
          0.045 -2.072 0.126 -11.249 0.066 23.856 0.868 50.415
          0.046 8.58 0.072 29.132 0.9 -41.531 0.046 -4.776
          0.066 24.103 0.867 50.815 0.043 -6.087 0.138 -19.157
5170 0.908 -40.024 0.045 0.014 0.043 9.573 0.068 27.33
          0.043 0.585 0.125 -12.234 0.062 29.245 0.861 50.399
          0.046 11.514 0.07 30.989 0.901 -41.846 0.043 -4.364
          0.065 28.184 0.864 51.05 0.042 -3.377 0.137 -19.645
5185 0.909 -40.28 0.042 0.84 0.043 14.254 0.066 29.682
          0.042 1.677 0.124 -13.52 0.062 35.098 0.855 50.786
          0.047 12.378 0.069 32.655 0.904 -42.239 0.041 -3.637
          0.066 30.311 0.866 51.187 0.04 -2.433 0.136 -20.27
5200 0.91 -40.522 0.04 1.559 0.045 17.185 0.065 31.964
          0.04 1.461 0.123 -14.837 0.064 39.545 0.855 51.292
