!Hittite Microwave Corporation								
!12 Elizabeth Drive								
!Chelmsford, MA 01824								
!Tel: 978-250-3343								
!Fax: 978-250-3373							
!Device: HMC327MS8G, 3-4 GHz GaAs InGap HBT MMIC Power Amplifier in 8-lead Grounded Base surface Mount Plastic Package							
!Misc: Input reference is the input pin of the device, output reference is the last component on output line, Vs=5V, Vpd=5V, Room
!
# MHZ S MA R 50

1000 0.942 -99.931 0.196 150.718 510.1e-6 174.803 0.901 -117.607
1045 0.937 -104.046 0.193 145 559.6e-6 171.606 0.889 -122.895
1090 0.931 -108.222 0.197 141.438 623.4e-6 168.594 0.881 -128.402
1135 0.921 -112.523 0.191 137.866 674.4e-6 173.05 0.871 -133.72
1180 0.912 -116.824 0.192 136.59 737e-6 162.173 0.86 -139.15
1225 0.902 -121.155 0.192 135.622 858.8e-6 157.993 0.851 -144.529
1270 0.891 -125.498 0.193 137.164 964.7e-6 157.931 0.839 -150.01
1315 0.88 -129.863 0.198 139.21 1.107e-3 153.124 0.827 -155.453
1360 0.87 -134.227 0.207 142.122 1.245e-3 149.124 0.816 -160.861
1405 0.859 -138.623 0.222 146.28 1.364e-3 147.877 0.804 -166.511
1450 0.846 -143.094 0.248 149.775 1.532e-3 141.572 0.79 -172.377
1495 0.834 -147.524 0.277 153.33 1.673e-3 136.598 0.775 -177.835
1540 0.821 -152.039 0.323 157.22 1.753e-3 132.204 0.763 176.68
1585 0.804 -156.813 0.388 156.924 2.03e-3 122.998 0.73 170.705
1630 0.787 -161.505 0.467 157.585 2.195e-3 113.99 0.694 165.86
1675 0.771 -166.228 0.539 155.3 2.068e-3 104.627 0.684 163.285
1720 0.753 -170.991 0.622 161.315 1.939e-3 116.625 0.727 157.852
1765 0.735 -175.794 0.78 163.583 1.992e-3 120.616 0.745 151.264
1810 0.717 179.316 0.99 160.234 2.275e-3 115.084 0.729 144.525
1855 0.698 174.369 1.261 155.067 2.601e-3 107.858 0.701 137.59
1900 0.68 169.419 1.592 149.138 2.744e-3 100.144 0.684 130.987
1945 0.662 164.354 1.926 143.876 2.808e-3 99.402 0.697 124.619
1990 0.645 159.005 2.429 137.483 3.173e-3 97.314 0.687 116.377
2035 0.628 153.306 2.926 126.746 3.403e-3 90.137 0.668 108.381
2080 0.612 147.351 3.507 118.19 3.617e-3 84.611 0.65 100.119
2125 0.596 140.933 4.105 106.787 3.828e-3 79.453 0.638 92.209
2170 0.581 134.173 4.647 96.987 4.033e-3 74.629 0.621 84.444
2215 0.563 127.067 5.303 85.38 4.169e-3 68.753 0.597 75.855
2260 0.544 119.644 5.819 74.229 4.351e-3 63.154 0.577 67.007
2305 0.523 111.962 6.363 64.361 4.529e-3 57.842 0.563 58.247
2350 0.5 104.033 6.971 53.87 4.57e-3 51.8 0.547 49.325
2395 0.476 95.835 7.328 42.99 4.576e-3 45.766 0.529 40.229
2440 0.45 87.402 7.925 33.712 4.742e-3 41.046 0.51 31.118
2485 0.424 78.589 8.177 22.514 4.637e-3 35.694 0.495 21.726
2530 0.401 69.594 8.516 14.877 4.632e-3 30.28 0.483 12.804
2575 0.379 60.751 8.912 5.17 4.484e-3 23.637 0.466 3.292
2620 0.359 51.671 9.243 -2.663 4.383e-3 19.578 0.455 -6.195
2665 0.34 42.794 9.693 -11.352 4.156e-3 16.587 0.445 -15.323
2710 0.321 34.032 10.045 -19.591 3.993e-3 14.109 0.436 -24.576
2755 0.302 25.288 10.445 -28.011 3.811e-3 11.426 0.427 -34.07
2800 0.283 16.523 10.825 -36.983 3.621e-3 10.367 0.422 -43.565
2845 0.264 7.563 11.041 -45.294 3.573e-3 11.094 0.419 -52.767
2890 0.247 -1.68 11.484 -53.533 3.486e-3 8.653 0.414 -61.697
2935 0.231 -10.621 11.511 -62.729 3.345e-3 9.337 0.41 -71.648
2980 0.216 -19.981 11.821 -69.613 3.354e-3 8.846 0.415 -80.307
3025 0.203 -28.844 11.991 -78.752 3.379e-3 11.216 0.412 -88.842
3070 0.188 -37.291 12.015 -85.938 3.456e-3 12.317 0.418 -97.798
3115 0.173 -46.274 12.25 -94.323 3.556e-3 13.52 0.419 -106.161
3160 0.157 -55.015 12.294 -102.183 3.743e-3 14.167 0.421 -115.174
3205 0.14 -64.288 12.345 -109.957 3.982e-3 13.246 0.427 -123.697
3250 0.124 -74.686 12.348 -117.771 4.195e-3 12.752 0.429 -131.752
3295 0.109 -86.174 12.23 -125.082 4.408e-3 12.728 0.428 -140.27
3340 0.095 -99.327 12.254 -132.475 4.731e-3 10.011 0.434 -148.49
3385 0.085 -114.608 11.952 -139.917 5.095e-3 8.517 0.433 -156.005
3430 0.077 -131.449 12.116 -145.843 5.286e-3 7.568 0.435 -164.767
3475 0.073 -149.972 11.847 -153.717 5.624e-3 4.238 0.436 -172.172
3520 0.072 -168.324 11.803 -159.162 6.007e-3 -0.084 0.431 179.292
3565 0.075 173.115 11.843 -166.442 6.264e-3 -3.078 0.43 171.373
3610 0.082 156.674 11.714 -172.662 6.584e-3 -5.945 0.422 163.252
3655 0.092 142.513 11.715 -179.209 6.859e-3 -9.934 0.415 154.584
3700 0.105 130.701 11.684 173.855 7.15e-3 -14.017 0.407 146.068
3745 0.119 121.181 11.568 167.3 7.461e-3 -17.812 0.394 137.21
3790 0.134 113.269 11.575 160.621 7.701e-3 -22.151 0.384 127.453
3835 0.149 106.521 11.41 153.76 8.039e-3 -26.12 0.373 118.503
3880 0.162 100.778 11.436 147.297 8.242e-3 -30.312 0.355 107.095
3925 0.176 95.23 11.238 140.378 8.568e-3 -34.08 0.354 96.672
3970 0.189 90.694 11.21 133.744 8.691e-3 -38.724 0.333 85.642
4015 0.201 86.221 11.028 126.69 8.969e-3 -42.791 0.329 72.496
4060 0.214 82.122 10.918 120.053 9.14e-3 -46.9 0.321 60.652
4105 0.225 78.338 10.762 112.88 9.292e-3 -51.357 0.315 46.665
4150 0.236 74.765 10.566 105.942 9.496e-3 -56.129 0.316 32.543
4195 0.246 71.455 10.378 99.161 9.604e-3 -60.675 0.32 18.867
4240 0.255 68.437 10.162 91.989 9.626e-3 -65.092 0.326 4.12
4285 0.262 65.59 9.887 85.289 9.812e-3 -70.274 0.344 -9.775
4330 0.269 62.907 9.644 78.245 9.826e-3 -75.143 0.359 -23.062
4375 0.273 60.204 9.335 71.44 9.896e-3 -79.63 0.384 -36.009
4420 0.28 57.813 9.055 64.477 9.924e-3 -84.674 0.404 -47.966
4465 0.286 55.578 8.758 57.691 9.797e-3 -88.394 0.431 -59.848
4510 0.29 53.277 8.427 50.82 9.681e-3 -93.419 0.455 -70.754
4555 0.293 51.169 8.078 44.133 9.641e-3 -98.12 0.482 -81.652
4600 0.296 49.601 7.761 37.638 9.549e-3 -102.096 0.509 -91.794
4645 0.297 48.33 7.424 31.225 9.383e-3 -106.12 0.533 -101.618
4690 0.299 47.152 7.061 24.93 9.227e-3 -110.291 0.56 -111.296
4735 0.301 46.289 6.75 18.736 9.092e-3 -114.171 0.586 -120.055
4780 0.303 45.625 6.427 12.386 8.907e-3 -118.36 0.603 -129.097
4825 0.306 44.941 6.093 6.528 8.764e-3 -121.918 0.631 -137.827
4870 0.308 44.145 5.811 0.32 8.588e-3 -125.208 0.644 -145.746
4915 0.311 43.29 5.494 -5.772 8.546e-3 -129.51 0.659 -154.623
4960 0.315 42.319 5.223 -11.839 8.377e-3 -133.222 0.673 -162.881
5005 0.321 41.372 4.956 -18.013 8.268e-3 -137.558 0.68 -171.266
5050 0.326 40.467 4.686 -24.32 8.103e-3 -142.151 0.681 -179.849
5095 0.33 39.557 4.414 -30.952 7.818e-3 -146.636 0.672 171.357
5140 0.336 38.86 4.135 -38.087 7.518e-3 -151.077 0.648 162.052
5185 0.341 38.471 3.816 -45.801 7.286e-3 -155.471 0.597 152.131
5230 0.346 37.912 3.387 -53.855 7.021e-3 -160.231 0.497 143.806
5275 0.351 37.093 2.779 -60.372 6.53e-3 -167.28 0.347 145.865
5320 0.353 36.665 2.178 -58.779 5.59e-3 -170.159 0.321 179.371
5365 0.355 35.739 2.058 -51.675 5.021e-3 -166.435 0.503 -176.911
5410 0.36 34.511 2.129 -50.472 5.107e-3 -163.254 0.646 173.912
5455 0.366 33.003 2.19 -53.082 5.297e-3 -163.197 0.735 163.486
5500 0.373 31.239 2.186 -57.376 5.33e-3 -164.93 0.787 153.942
5545 0.381 29.514 2.139 -62.1 5.276e-3 -168.092 0.818 145.576
5590 0.389 27.852 2.067 -66.894 5.225e-3 -172.173 0.837 138.043
5635 0.397 26.17 1.985 -71.548 5.207e-3 -175.593 0.848 130.82
5680 0.403 24.533 1.904 -75.944 5.223e-3 -177.553 0.86 123.892
5725 0.409 22.768 1.81 -80.65 5.13e-3 -179.999 0.869 117.346
5770 0.412 20.887 1.73 -84.119 4.862e-3 177.043 0.876 110.64
5815 0.415 18.896 1.657 -89.294 4.743e-3 173.955 0.884 104.287
5860 0.417 16.571 1.557 -92.595 4.725e-3 171.331 0.883 98.045
5905 0.421 14.082 1.509 -96.791 4.59e-3 167.144 0.886 91.444
5950 0.425 11.52 1.424 -101.192 4.52e-3 165.303 0.89 85.058
5995 0.429 8.784 1.361 -104.903 4.364e-3 163.222 0.892 78.752
6040 0.435 6.013 1.303 -109.241 4.195e-3 159.021 0.893 72.402
6085 0.441 3.289 1.233 -113.883 4.055e-3 154.735 0.895 66.027
6130 0.446 0.535 1.177 -117.891 3.857e-3 152.431 0.895 59.604
6175 0.45 -2.205 1.116 -123.382 3.707e-3 150.284 0.898 53.11
6220 0.452 -5.143 1.058 -127.377 3.587e-3 147.057 0.899 46.617
6265 0.455 -8.071 0.993 -133.308 3.417e-3 143.195 0.904 40.335
6310 0.456 -11.203 0.92 -137.213 3.205e-3 140.79 0.903 33.808
6355 0.457 -14.669 0.877 -143.1 3.051e-3 138.536 0.907 27.141
6400 0.461 -18.264 0.8 -148.102 2.833e-3 137.381 0.911 20.886
6445 0.465 -21.865 0.746 -151.934 2.722e-3 135.651 0.912 14.505
6490 0.469 -25.636 0.691 -157.27 2.585e-3 134.916 0.915 8.066
6535 0.474 -29.565 0.626 -161.925 2.421e-3 133.495 0.917 1.689
6580 0.48 -33.435 0.577 -165.089 2.326e-3 129.138 0.915 -4.799
6625 0.485 -37.172 0.533 -170.846 2.197e-3 125.561 0.919 -11.35
6670 0.49 -40.908 0.467 -173.541 2.056e-3 126.032 0.92 -17.525
6715 0.494 -45.035 0.449 -177.915 1.874e-3 121.248 0.919 -24.083
6760 0.501 -48.694 0.386 177.259 1.668e-3 121.618 0.923 -30.497
6805 0.506 -52.554 0.36 174.741 1.381e-3 119.988 0.922 -36.769
6850 0.513 -56.351 0.316 169.894 1.231e-3 125.139 0.923 -42.934
6895 0.521 -60.571 0.285 167.739 1.058e-3 127.236 0.919 -49.129
6940 0.53 -64.683 0.254 163.005 902.1e-6 133.036 0.919 -55.461
6985 0.541 -68.586 0.222 159.765 815.4e-6 138.802 0.92 -61.569
7030 0.551 -72.451 0.199 157.476 795e-6 145.432 0.916 -67.569
7075 0.56 -76.218 0.176 150.964 838.8e-6 164.103 0.913 -73.793
7120 0.569 -79.969 0.145 151.231 919.2e-6 -175.991 0.914 -79.609
7165 0.579 -83.605 0.14 145.701 916e-6 178.239 0.905 -85.858
7210 0.588 -87.149 0.109 141.026 1.221e-3 -162.346 0.911 -92.244
7255 0.598 -90.766 0.101 139.171 2.054e-3 -159.914 0.909 -97.695
7300 0.608 -94.246 0.082 129.879 2.265e-3 -159.566 0.905 -103.653
7345 0.619 -97.717 0.069 125.269 3.005e-3 -165.368 0.901 -108.981
7390 0.63 -101.119 0.059 113.182 3.641e-3 -173.527 0.886 -114.522
7435 0.641 -104.436 0.049 96.517 4.424e-3 179.794 0.869 -119.985
7480 0.652 -107.684 0.045 71.776 5.439e-3 167.807 0.846 -124.474
7525 0.666 -110.868 0.049 35.321 6.208e-3 148.742 0.818 -127.559
7570 0.679 -113.977 0.058 2.969 6.637e-3 133.105 0.806 -129.343
7615 0.691 -116.937 0.074 -26.876 6.565e-3 108.263 0.819 -130.749
7660 0.703 -119.962 0.075 -50.352 5.404e-3 92.485 0.853 -134.187
7705 0.714 -122.798 0.088 -59.106 4.745e-3 79.831 0.882 -137.845
7750 0.724 -125.647 0.089 -74.219 3.88e-3 69.091 0.898 -142.669
7795 0.732 -128.328 0.089 -78.195 3.373e-3 64.722 0.915 -147.047
7840 0.74 -131.055 0.096 -84.834 2.879e-3 56.353 0.922 -151.445
7885 0.748 -133.836 0.093 -90.146 2.372e-3 54.276 0.932 -155.985
7930 0.756 -136.478 0.094 -92.78 2.002e-3 51.318 0.94 -159.966
7975 0.764 -138.972 0.101 -96.389 1.761e-3 43.662 0.938 -163.813
8020 0.773 -141.48 0.098 -99.001 1.56e-3 42.988 0.941 -168.334
8065 0.782 -143.887 0.103 -99.198 1.457e-3 36.833 0.948 -171.718
8110 0.79 -146.256 0.102 -107.188 1.059e-3 35.707 0.941 -175.634
8155 0.799 -148.703 0.106 -104.721 1.056e-3 41.542 0.95 -179.319
8200 0.808 -151.086 0.109 -112.348 868.8e-6 34.455 0.946 177.057
8245 0.815 -153.292 0.105 -112.091 666.8e-6 39.481 0.947 173.327
8290 0.821 -155.538 0.112 -115.395 531.7e-6 34.234 0.947 169.778
8335 0.827 -157.644 0.108 -119.235 464.2e-6 34.961 0.951 166.234
8380 0.831 -159.832 0.107 -119.948 451.3e-6 39.247 0.952 163.039
8425 0.835 -162.11 0.111 -122.842 400.5e-6 41.221 0.948 159.753
8470 0.841 -164.211 0.106 -127.892 315.3e-6 46.78 0.948 156.038
8515 0.848 -166.277 0.107 -124.891 373.8e-6 57.497 0.952 152.996
8560 0.852 -168.501 0.111 -132.442 345.7e-6 72.902 0.944 149.499
8605 0.862 -170.862 0.099 -130.851 345.5e-6 72.37 0.956 145.882
8650 0.869 -172.589 0.109 -133.357 351.7e-6 93.838 0.953 143.282
8695 0.873 -174.641 0.102 -136.237 458.7e-6 97.545 0.952 139.938
8740 0.879 -176.623 0.104 -137.354 497.7e-6 91.633 0.953 136.82
8785 0.884 -178.556 0.101 -140.253 584.9e-6 61.223 0.953 133.656
8830 0.888 179.588 0.099 -140.969 560e-6 38.997 0.953 130.568
8875 0.892 177.77 0.099 -142.661 438.9e-6 33.731 0.952 127.463
8920 0.896 175.935 0.095 -145.517 454e-6 15.232 0.952 124.312
8965 0.9 174.137 0.094 -143.31 584.6e-6 -30.354 0.953 121.388
9010 0.906 172.38 0.098 -148.206 463.3e-6 -72.881 0.951 118.301
9055 0.91 170.541 0.089 -147.495 501e-6 -98.659 0.961 115.4
9100 0.914 168.733 0.095 -148.04 471.5e-6 -137.423 0.954 113.091
9145 0.918 166.991 0.091 -151.408 344.5e-6 -158.785 0.957 109.691
9190 0.923 165.236 0.09 -150.559 411.9e-6 -143.092 0.962 107.056
9235 0.927 163.618 0.091 -152.447 365.7e-6 -156.077 0.96 104.218
9280 0.93 161.972 0.09 -154.116 240e-6 -133.872 0.963 101.245
9325 0.934 160.321 0.09 -155.401 244.2e-6 -125.787 0.964 98.495
9370 0.937 158.728 0.09 -157.204 404e-6 -167.017 0.961 95.774
9415 0.941 157.149 0.089 -158.374 496.6e-6 159.554 0.961 92.843
9460 0.945 155.619 0.09 -159.908 352.7e-6 129.39 0.957 90.058
9505 0.949 154.15 0.088 -161.699 158.6e-6 93.028 0.961 86.949
9550 0.95 152.635 0.088 -161.98 77.37e-6 135.127 0.963 84.387
9595 0.953 151.071 0.088 -165.232 41.53e-6 74.577 0.959 81.266
9640 0.955 149.623 0.086 -165.534 50.2e-6 -53.565 0.966 78.394
9685 0.957 148.099 0.087 -166.804 250.4e-6 -71.002 0.962 75.696
9730 0.958 146.661 0.086 -169.066 417.8e-6 -71.547 0.962 72.649
9775 0.96 145.31 0.084 -169.896 531.4e-6 -83.008 0.965 70.01
9820 0.961 144.019 0.085 -171.061 772.4e-6 -101.714 0.963 67.487
9865 0.963 142.745 0.084 -173.583 1.035e-3 -128.98 0.963 64.381
9910 0.966 141.405 0.084 -174.222 1.015e-3 -143.256 0.972 61.471
9955 0.969 140.157 0.084 -176.786 1.129e-3 -154.328 0.975 59.105
10000 0.972 138.956 0.081 -178.314 1.157e-3 -164.404 0.977 56.283
