!Hittite Microwave Corporation								
!20 Alpha Road								
!Chelmsford, MA 01824								
!Tel: 978-250-3343								
!Fax: 978-250-3373								
!Device: HMC383, 12-30 GHz, Driver Amplifier Die																
!Misc: Vcc = 5.5V, data includes two K connectors, Room	
!
# MHZ S MA R 50

10037.5 0.234 -160.214 3.865 140.201 1.65e-3 -18.501 0.379 -129.733
10237.25 0.231 -171.191 4.251 126.683 1.756e-3 -26.726 0.352 -141.291
10437 0.228 176.59 4.488 112.905 1.789e-3 -30.14 0.329 -152.509
10636.75 0.226 166.096 4.663 100.408 1.784e-3 -21.156 0.307 -163.632
10836.5 0.224 154.108 4.942 86.573 1.656e-3 -32.022 0.283 -174.993
11036.25 0.224 144.427 5.151 72.71 1.691e-3 -26.853 0.264 173.677
11236 0.219 132.749 5.342 59.532 1.689e-3 -39.184 0.248 163.731
11435.75 0.22 121.92 5.543 47.202 1.794e-3 -40.232 0.232 153.71
11635.5 0.217 111.938 5.67 35.069 1.555e-3 -42.651 0.221 143.607
11835.25 0.217 100.983 5.702 21.964 1.541e-3 -38.825 0.213 133.43
12035 0.217 92.264 5.719 9.611 1.498e-3 -51.97 0.206 124.065
12234.75 0.212 81.696 5.917 -2.43 1.775e-3 -46.982 0.201 114.746
12434.5 0.216 72.282 5.897 -14.07 1.479e-3 -57.113 0.199 104.717
12634.25 0.212 63.53 5.932 -24.396 1.647e-3 -58.042 0.2 95.738
12834 0.211 53.857 6.041 -34.905 1.71e-3 -60.813 0.2 86.59
13033.75 0.21 45.089 5.945 -46.454 1.533e-3 -59.872 0.203 76.174
13233.5 0.211 36.45 5.895 -56.261 1.481e-3 -64.798 0.205 66.713
13433.25 0.209 28.626 6.084 -65.894 1.54e-3 -67.088 0.207 57.971
13633 0.206 20.431 6 -78.131 1.578e-3 -71.557 0.211 48.846
13832.75 0.204 12.49 5.9 -86.917 1.438e-3 -72.02 0.215 39.176
14032.5 0.203 3.788 6.006 -95.732 1.518e-3 -73.81 0.22 29.776
14232.25 0.204 -3.3 5.932 -107.945 1.493e-3 -75.689 0.221 20.946
14432 0.199 -11.023 5.882 -116.678 1.201e-3 -88.426 0.222 11.791
14631.75 0.199 -18.603 6.075 -124.143 1.396e-3 -78.259 0.228 3.091
14831.5 0.196 -25.981 6.063 -133.678 1.369e-3 -79.842 0.232 -4.944
15031.25 0.196 -33.115 5.864 -143.035 1.504e-3 -83.759 0.23 -14.236
15231 0.194 -40.255 5.956 -150.998 1.419e-3 -90.939 0.235 -22.957
15430.75 0.196 -47.692 5.969 -160.987 1.228e-3 -87.361 0.236 -30.334
15630.5 0.196 -53.777 5.924 -170.928 1.556e-3 -89.347 0.235 -38.338
15830.25 0.195 -60.211 6.094 -178.725 1.366e-3 -95.329 0.238 -46.712
16030 0.193 -66.615 6.233 172.895 1.456e-3 -97.195 0.242 -54.824
16229.75 0.195 -73.742 6.086 163.748 1.405e-3 -103.918 0.24 -62.413
16429.5 0.2 -79.702 6.122 154.226 1.491e-3 -104.471 0.235 -69.749
16629.25 0.202 -85.142 6.403 146.242 1.16e-3 -120.859 0.241 -77.492
16829 0.201 -91.002 6.343 137.626 1.063e-3 -109.843 0.243 -84.592
17028.75 0.202 -98.223 6.155 129.158 1.268e-3 -110.763 0.235 -91.809
17228.5 0.206 -104.558 6.365 119.191 1.105e-3 -100.816 0.235 -99.167
17428.25 0.214 -109.952 6.442 110.357 1.102e-3 -111.232 0.237 -105.986
17628 0.216 -114.729 6.379 102.212 1.142e-3 -122.036 0.234 -111.936
17827.75 0.218 -121.03 6.5 93.371 1.131e-3 -120.359 0.232 -118.624
18027.5 0.223 -127.08 6.523 84.909 1.462e-3 -116.59 0.231 -126.197
18227.25 0.229 -133.866 6.496 76.26 1.123e-3 -121.373 0.228 -132.326
18427 0.235 -139.089 6.544 67.491 1.077e-3 -118.131 0.228 -137.052
18626.75 0.238 -145.769 6.599 58.723 1.247e-3 -122.217 0.223 -143.521
18826.5 0.246 -151.938 6.625 50.229 1.092e-3 -120.781 0.223 -150.335
19026.25 0.251 -158.803 6.649 41.476 1.164e-3 -139.489 0.223 -155.322
19226 0.261 -164.676 6.701 32.646 1.151e-3 -127.243 0.215 -160.236
19425.75 0.265 -170.666 6.729 24.458 1.073e-3 -141.49 0.213 -165.053
19625.5 0.273 -176.622 6.693 15.402 860.8e-6 -133.126 0.218 -170.545
19825.25 0.275 178.059 6.745 5.997 859.6e-6 -144.833 0.213 -175.543
20025 0.278 171.423 6.822 -1.758 897.4e-6 -142.724 0.207 -178.729
20224.75 0.28 165.342 6.735 -9.68 1.062e-3 -147.87 0.209 176.404
20424.5 0.286 158.165 6.748 -19.607 683.6e-6 -147.291 0.21 172.555
20624.25 0.293 152.757 6.721 -26.88 692.8e-6 -134.566 0.208 170.321
20824 0.295 147.05 6.526 -36.426 1.001e-3 -140.034 0.208 165.176
21023.75 0.296 141.782 6.714 -46.397 761.1e-6 -145.942 0.21 162.035
21223.5 0.293 135.448 6.852 -52.914 843.1e-6 -145.967 0.215 161.879
21423.25 0.294 129.49 6.481 -59.486 745.3e-6 -142.925 0.22 156.892
21623 0.295 123.516 6.506 -71.295 648.2e-6 -156.835 0.221 152.711
21822.75 0.297 117.787 6.715 -78.528 561.1e-6 -167.637 0.226 152.265
22022.5 0.293 112.479 6.429 -85.096 584.8e-6 -156.521 0.237 148.98
22222.25 0.292 106.606 6.42 -94.803 511.8e-6 -158.798 0.243 145.286
22422 0.287 101.367 6.561 -103.784 575.2e-6 -137.125 0.25 141.848
22621.75 0.283 95.056 6.408 -110.987 679.2e-6 -142.309 0.262 139.005
22821.5 0.278 90.124 6.547 -118.935 682.1e-6 -174.547 0.269 136.82
23021.25 0.271 84.565 6.556 -127.609 988.6e-6 -179.585 0.28 132.694
23221 0.265 80.074 6.239 -136.141 808.4e-6 -157.282 0.297 128.69
23420.75 0.255 74.409 6.328 -143.757 601.2e-6 164.422 0.311 125.504
23620.5 0.253 69.02 6.449 -153.777 721.6e-6 155.406 0.32 121.076
23820.25 0.244 64.257 6.253 -162.894 669.7e-6 172.809 0.333 116.562
24020 0.237 60.23 6.426 -168.144 90.58e-6 -162.401 0.351 112.68
24219.75 0.222 56.062 6.339 -175.701 333.8e-6 -171.98 0.369 108.13
24419.5 0.21 50.656 6.039 174.31 271.8e-6 149.662 0.377 102.88
24619.25 0.198 46.08 5.933 167.298 201.8e-6 135.98 0.389 97.361
24819 0.188 42.291 6.12 156.203 269.9e-6 -140.722 0.407 93.676
25018.75 0.171 39.397 6.198 146.996 296.8e-6 173.595 0.419 88.883
25218.5 0.156 34.812 6.254 143.825 211.7e-6 56.757 0.438 81.817
25418.25 0.139 32.368 6.103 134.955 258e-6 103.25 0.448 77.733
25618 0.126 30.601 6.076 124.221 471.1e-6 -36.901 0.457 73.068
25817.75 0.11 33.016 6.059 119.228 255e-6 -91.704 0.47 66.364
26017.5 0.092 37.037 6.027 110.445 310.4e-6 3.865 0.48 61.29
26217.25 0.078 48.071 6.21 99.031 184.1e-6 -59.442 0.491 57.119
26417 0.068 60.814 6.201 94.033 756.8e-6 89.848 0.504 50.319
26616.75 0.079 75.106 6.104 85.24 222.5e-6 -32.919 0.51 43.446
26816.5 0.093 87.199 6.224 74.528 429e-6 -97.221 0.513 39.645
27016.25 0.121 89.951 6.307 65.633 573.3e-6 -66.32 0.522 34.411
27216 0.152 93.974 6.439 57.959 505e-6 -41.921 0.533 27.643
27415.75 0.183 91.708 6.353 48.882 269.4e-6 -106.088 0.545 20.769
27615.5 0.219 88.976 6.2 39.509 518.1e-6 -126.557 0.534 15.641
27815.25 0.25 83.63 6.187 28.669 384e-6 -71.843 0.534 10.265
28015 0.293 77.52 6.172 19.633 686.9e-6 -53.801 0.557 4.049
28214.75 0.33 72.068 6.072 10.142 826.8e-6 -86.102 0.554 -2.586
28414.5 0.371 65.474 5.962 0.717 628.3e-6 -88.242 0.544 -9.133
28614.25 0.403 59.755 5.849 -7.9 618e-6 -92.902 0.551 -14.887
28814 0.437 52.002 5.793 -17.642 741.1e-6 -93.564 0.551 -20.757
29013.75 0.472 45.084 5.708 -25.02 1.101e-3 -96.543 0.553 -26.595
29213.5 0.504 37.423 5.301 -33.704 926.9e-6 -133.064 0.559 -34.382
29413.25 0.536 30.536 5.358 -45.086 856.5e-6 -108.179 0.555 -41.858
29613 0.563 22.476 5.433 -53.732 800.2e-6 -105.747 0.546 -47.524
29812.75 0.594 15.45 5.189 -60.078 331.9e-6 -99.328 0.549 -54.009
30012.5 0.617 7.712 5.065 -70.633 1.031e-3 -121.794 0.556 -61.454
30212.25 0.642 -0.103 4.875 -81.012 849.2e-6 -102.503 0.559 -68.375
30412 0.663 -8.214 4.593 -91.091 507e-6 -81.574 0.557 -77.008
30611.75 0.683 -16.075 4.834 -105.664 1.065e-3 -134.962 0.549 -84.603
30811.5 0.699 -24.103 4.879 -111.814 946.9e-6 -113.889 0.543 -90.553
31011.25 0.717 -32.394 4.691 -112.447 625.4e-6 -119.423 0.561 -97.692
31211 0.729 -41.175 3.885 -125.613 651.5e-6 -139.492 0.567 -106.764
31410.75 0.747 -49.209 3.411 -139.937 1.036e-3 -135.938 0.555 -116.471
31610.5 0.754 -56.947 3.579 -154.154 1.077e-3 -160.563 0.544 -123.214
31810.25 0.759 -65.752 3.922 -162.212 1.718e-3 -157.424 0.547 -128.839
32010 0.768 -74.166 3.358 -161.37 1.185e-3 160.113 0.567 -138.298
32209.75 0.776 -83.03 3.021 -170.775 673.6e-6 -173.346 0.565 -148.017
32409.5 0.783 -90.583 2.874 174.318 969.3e-6 -158.294 0.545 -155.138
32609.25 0.778 -98.636 2.807 170.801 699e-6 157.154 0.546 -162.592
32809 0.781 -107.007 2.612 166.831 1.001e-3 135.049 0.549 -170.339
33008.75 0.783 -115.995 2.499 155.617 636.2e-6 85.6 0.548 -178.109
33208.5 0.792 -124.23 2.255 149.515 852.5e-6 116.483 0.551 174.13
33408.25 0.795 -131.875 2.24 143.318 967.6e-6 105.887 0.547 165.496
33608 0.794 -139.854 2.245 132.399 241.2e-6 20.657 0.542 157.63
33807.75 0.798 -148.08 2.046 125.111 569.7e-6 77.258 0.534 150.95
34007.5 0.8 -156.238 2.131 121.313 1.44e-3 41.258 0.537 143.732
34207.25 0.805 -164.177 2.161 112.265 1.384e-3 76.118 0.555 135.741
34407 0.806 -171.974 1.753 108.274 956.7e-6 63.122 0.543 126.332
34606.75 0.811 -179.705 1.723 97.26 1.226e-3 17.926 0.53 117.709
34806.5 0.808 172.627 1.804 82.969 1.492e-3 53.177 0.53 112.304
35006.25 0.807 164.276 1.693 79.266 1.032e-3 58.374 0.538 104.335
