!Hittite Microwave Corporation								
!12 Elizabeth Drive								
!Chelmsford, MA 01824								
!Tel: 978-250-3343								
!Fax: 978-250-3373								
!Device: HMC349MS8G, DC-4 GHz, High Isolation SPDT Non-Reflective Switch in 8-lead plastic SMT package with exposed ground paddle															
!Misc: Vdd=5V, Port1=RFC, Port2=RF1, Port3=RF2, RF1 selected, Room							
!
# MHZ S MA R 50

10	0.023	105.347	0.963	-1.739	337.4e-6	35.865
		0.975	-0.329	0.031	97.171	327.4e-6	27.423
		1.983e-3	67.469	3.723e-3	94.159	0.668	-15.617
29.95	0.038	61.265	0.944	-2.562	532.5e-6	-46.152
		0.948	-1.992	0.039	50.728	452.4e-6	-36.34
		191.8e-6	-2.95	506.4e-6	-2.781	0.581	-25.174
49.9	0.045	40.266	0.929	-2.742	492.1e-6	-12.655
		0.934	-2.592	0.048	33.563	679.7e-6	-73.928
		149.1e-6	-101.832	361.5e-6	-37.363	0.517	-32.938
69.85	0.047	27.96	0.923	-2.947	269.7e-6	-34.812
		0.927	-2.857	0.05	24.666	525.1e-6	-30.644
		338.1e-6	-37.601	237.8e-6	-44.379	0.451	-40.1
89.8	0.05	20.787	0.92	-3.214	279.3e-6	-27.588
		0.923	-3.124	0.051	19.439	276.9e-6	-29.263
		405.2e-6	-15.706	447e-6	0.381	0.395	-45.22
109.75	0.05	14.987	0.917	-3.563	362.3e-6	-49.771
		0.921	-3.433	0.052	15.335	376.8e-6	-20.229
		377e-6	-36.849	352.9e-6	15.543	0.349	-49.312
129.7	0.051	11.18	0.916	-3.922	212.8e-6	-39.038
		0.92	-3.782	0.053	12.629	65.41e-6	-65.135
		226.9e-6	-76.015	104.1e-6	-16.65	0.31	-52.107
149.65	0.051	8.122	0.916	-4.302	221.2e-6	-37.185
		0.919	-4.122	0.053	9.753	273.7e-6	37.699
		128.9e-6	-5.037	137.5e-6	43.937	0.279	-54.193
169.6	0.051	5.571	0.914	-4.631	173e-6	-35.641
		0.918	-4.551	0.053	7.743	189.1e-6	62.249
		215.4e-6	-37.625	314.8e-6	28.741	0.253	-55.511
189.55	0.051	3.091	0.914	-5.061	279.8e-6	-18.921
		0.917	-4.931	0.053	5.736	205.2e-6	61.372
		92.06e-6	-33.296	177.4e-6	90.854	0.229	-56.343
209.5	0.051	0.368	0.915	-5.471	93.46e-6	-2.028
		0.917	-5.371	0.054	4.02	231.5e-6	53.344
		59.58e-6	-28.191	272.5e-6	67.108	0.211	-56.844
229.45	0.051	-1.778	0.914	-5.892	129.2e-6	8.719
		0.918	-5.792	0.054	2.473	362.2e-6	103.656
		179.1e-6	-17.757	197.1e-6	60.506	0.195	-57.155
249.4	0.051	-3.923	0.913	-6.362	113.5e-6	-7.158
		0.917	-6.202	0.054	1.582	282.1e-6	58.292
		143.3e-6	-29.941	298.5e-6	56.734	0.181	-57.114
269.35	0.052	-5.668	0.913	-6.732	186.6e-6	12.449
		0.918	-6.732	0.054	0.517	367e-6	105.381
		227.9e-6	-40.812	273.8e-6	65.801	0.17	-57.209
289.3	0.053	-7.557	0.913	-7.182	110.3e-6	-48.911
		0.916	-7.102	0.054	0.082	319.1e-6	97.044
		176e-6	-17.313	320.8e-6	99.98	0.159	-56.725
309.25	0.053	-9.179	0.913	-7.642	201.5e-6	-24.495
		0.916	-7.482	0.054	-0.555	322.6e-6	80.997
		147.2e-6	16.643	385.9e-6	83.432	0.149	-56.182
329.2	0.053	-11.054	0.913	-8.063	123.7e-6	16.985
		0.917	-7.993	0.054	-1.698	413.9e-6	86.711
		61.01e-6	0.907	461e-6	82.47	0.141	-55.579
349.15	0.053	-12.888	0.913	-8.523	206.1e-6	-0.394
		0.916	-8.453	0.055	-2.554	418.9e-6	82.597
		150.7e-6	14.321	502.8e-6	83.011	0.134	-54.895
369.1	0.054	-14.634	0.913	-8.984	89e-6	-18.623
		0.917	-8.894	0.055	-3.923	475.5e-6	83.366
		216.6e-6	-2.138	495.5e-6	74.235	0.129	-54.327
389.05	0.054	-16.165	0.913	-9.424	116.1e-6	-15.815
		0.916	-9.284	0.056	-5.43	513.3e-6	85.709
		121.2e-6	-29.202	565.4e-6	88.335	0.123	-54.169
409	0.054	-17.283	0.913	-9.874	139.2e-6	2.662
		0.917	-9.754	0.056	-6.292	531.8e-6	92.503
		147.8e-6	-31.567	490.5e-6	87.843	0.118	-53.26
428.95	0.055	-18.589	0.913	-10.325	185.4e-6	10.763
		0.916	-10.195	0.056	-7.193	573.3e-6	88.596
		189.3e-6	3.745	536.8e-6	94.163	0.111	-52.529
448.9	0.055	-20.151	0.913	-10.776	128e-6	-15.565
		0.916	-10.696	0.056	-7.75	504.9e-6	83.496
		109e-6	-0.931	621.1e-6	88.669	0.107	-51.365
468.85	0.055	-21.413	0.912	-11.236	210.2e-6	18.058
		0.916	-11.096	0.057	-7.959	580e-6	86.168
		131.4e-6	1.877	593.2e-6	89.145	0.103	-50.452
488.8	0.055	-23.19	0.913	-11.707	110.9e-6	28.555
		0.916	-11.627	0.057	-8.502	595.6e-6	95.189
		173.1e-6	12.36	617.4e-6	93.213	0.1	-49.196
508.75	0.055	-24.294	0.913	-12.147	131.3e-6	42.203
		0.915	-12.077	0.057	-9.231	598.4e-6	93.69
		125.9e-6	-13.134	663.5e-6	96.406	0.096	-48.323
528.7	0.056	-25.916	0.912	-12.608	160.3e-6	13.936
		0.915	-12.518	0.057	-10.216	723.1e-6	88.23
		162.1e-6	-12.069	709.7e-6	95.495	0.093	-47.33
548.65	0.056	-27.132	0.912	-13.068	163.5e-6	36.716
		0.916	-13.008	0.057	-11.254	660e-6	93.59
		74.87e-6	11.672	707.7e-6	95.029	0.09	-46.357
568.6	0.057	-28.446	0.912	-13.529	161.5e-6	21.549
		0.915	-13.429	0.058	-12.008	723.1e-6	97.03
		124.2e-6	11.15	713.1e-6	94.562	0.088	-44.83
588.55	0.057	-30.021	0.912	-14	77.23e-6	-2.071
		0.915	-13.91	0.058	-12.896	820e-6	96.475
		48.34e-6	-10.799	803.1e-6	94.07	0.086	-43.698
608.5	0.057	-31.548	0.912	-14.451	80.98e-6	23.681
		0.915	-14.371	0.058	-13.382	765.3e-6	100.81
		57.22e-6	-7.862	757.3e-6	98.67	0.084	-42.127
628.45	0.058	-32.582	0.912	-14.921	96.87e-6	3.774
		0.915	-14.831	0.059	-14.572	815.8e-6	98.2
		117.6e-6	7.224	848.5e-6	96.878	0.081	-41.599
648.4	0.058	-33.955	0.912	-15.382	20.29e-6	35.331
		0.914	-15.252	0.059	-15.108	901.1e-6	97.721
		59.83e-6	30.695	866.6e-6	100.825	0.08	-40.425
668.35	0.058	-34.971	0.911	-15.873	101.8e-6	35.467
		0.915	-15.743	0.059	-16.05	869.3e-6	99.739
		103.4e-6	38.365	860.3e-6	100.34	0.077	-39.224
688.3	0.059	-36.405	0.912	-16.314	86.91e-6	55.287
		0.915	-16.234	0.059	-16.516	882.9e-6	102.129
		97.79e-6	26.304	893.1e-6	98.612	0.076	-37.445
708.25	0.059	-37.907	0.911	-16.774	60.65e-6	65.702
		0.914	-16.684	0.059	-17.644	911.2e-6	104.066
		129.1e-6	73.266	923e-6	100.198	0.074	-36.808
728.2	0.059	-39.368	0.912	-17.235	80.28e-6	12.787
		0.914	-17.145	0.06	-18.641	968e-6	103.38
		89.85e-6	62.126	949.4e-6	98.719	0.074	-35.642
748.15	0.06	-40.836	0.911	-17.706	120.2e-6	53.715
		0.915	-17.606	0.06	-19.576	958.8e-6	102.603
		130.6e-6	85.176	1.008e-3	100.385	0.073	-34.679
768.1	0.06	-42.365	0.911	-18.147	121.6e-6	48.218
		0.914	-18.067	0.06	-20.655	1.018e-3	101.437
		129.6e-6	84.704	964.4e-6	104.708	0.072	-33.508
788.05	0.061	-43.398	0.912	-18.617	141.2e-6	99.71
		0.915	-18.537	0.06	-21.724	993.2e-6	104.056
		57.93e-6	85.501	1.063e-3	105.65	0.07	-32.375
808	0.061	-44.576	0.911	-19.098	105.2e-6	102.961
		0.916	-18.988	0.06	-22.328	1.026e-3	104.211
		194.8e-6	64.518	1.06e-3	106.214	0.069	-31.38
827.95	0.062	-45.836	0.911	-19.58	152.1e-6	80.532
		0.914	-19.47	0.061	-22.753	1.048e-3	105.379
		150.6e-6	92.522	1.089e-3	102.875	0.069	-30.133
847.9	0.062	-47.655	0.911	-20.04	132.5e-6	67.409
		0.913	-19.94	0.061	-23.1	1.103e-3	107.463
		149.2e-6	70.575	1.097e-3	102.435	0.068	-28.831
867.85	0.063	-48.65	0.911	-20.491	96.31e-6	76.108
		0.914	-20.381	0.06	-23.975	1.148e-3	105.193
		98.99e-6	86.048	1.101e-3	109.165	0.066	-27.923
887.8	0.063	-49.925	0.911	-20.962	132.5e-6	74.712
		0.914	-20.852	0.06	-24.633	1.184e-3	106.381
		120.9e-6	97.321	1.125e-3	110.126	0.065	-26.389
907.75	0.064	-50.926	0.91	-21.442	171.4e-6	98.403
		0.914	-21.342	0.06	-25.636	1.183e-3	109.036
		172.3e-6	113.406	1.179e-3	109.013	0.064	-24.913
927.7	0.065	-52.568	0.911	-21.913	150.8e-6	83.57
		0.913	-21.803	0.06	-26.746	1.216e-3	106.436
		222.8e-6	84.763	1.212e-3	109.853	0.063	-23.738
947.65	0.064	-53.515	0.91	-22.334	114e-6	80.59
		0.914	-22.244	0.061	-27.059	1.182e-3	111.805
		84.37e-6	111.068	1.242e-3	111.602	0.064	-22.126
967.6	0.065	-54.774	0.911	-22.815	186.4e-6	123.221
		0.914	-22.655	0.061	-28.313	1.298e-3	110.486
		168.9e-6	77.725	1.279e-3	109.399	0.064	-21.186
987.55	0.066	-55.822	0.911	-23.285	170.2e-6	103.451
		0.913	-23.185	0.061	-29.342	1.226e-3	109.995
		230.5e-6	100.885	1.254e-3	111.072	0.062	-20.039
1007.5	0.066	-56.311	0.91	-23.736	231.1e-6	96.041
		0.913	-23.586	0.062	-30.009	1.321e-3	110.799
		215.4e-6	108.713	1.303e-3	112.095	0.062	-18.898
1027.45	0.067	-57.417	0.911	-24.197	128.4e-6	136.439
		0.913	-24.067	0.062	-30.573	1.382e-3	114.27
		182.7e-6	126.741	1.379e-3	117.697	0.062	-17.829
1047.4	0.068	-59.127	0.911	-24.688	232e-6	123.874
		0.913	-24.588	0.062	-31.882	1.372e-3	110.066
		270.1e-6	105.065	1.412e-3	113.814	0.061	-17.308
1067.35	0.068	-60.768	0.91	-25.158	243e-6	117.507
		0.913	-25.078	0.062	-32.811	1.43e-3	112.193
		239.4e-6	125.328	1.436e-3	112.566	0.061	-16.38
1087.3	0.069	-61.427	0.91	-25.619	237.6e-6	119.567
		0.912	-25.519	0.061	-33.674	1.451e-3	116.953
		279.6e-6	127.49	1.44e-3	113.089	0.061	-14.469
1107.25	0.069	-62.79	0.91	-26.12	307.3e-6	118.253
		0.913	-25.98	0.061	-34.24	1.447e-3	116.711
		339.3e-6	107.614	1.476e-3	115.694	0.061	-13.339
1127.2	0.069	-64.174	0.909	-26.571	348.2e-6	132.755
		0.913	-26.451	0.061	-34.776	1.498e-3	115.794
		350.7e-6	128.845	1.479e-3	117.34	0.061	-12.466
1147.15	0.07	-64.803	0.91	-27.021	341.5e-6	111.934
		0.913	-26.911	0.062	-36.545	1.559e-3	115.585
		330.4e-6	121.915	1.543e-3	118.879	0.06	-12.064
1167.1	0.071	-65.906	0.91	-27.491	363e-6	112.113
		0.912	-27.341	0.062	-37.345	1.513e-3	118.681
		341.7e-6	114.683	1.48e-3	118.513	0.06	-11.052
1187.05	0.072	-66.776	0.909	-27.982	410.5e-6	120.822
		0.912	-27.862	0.061	-38.498	1.533e-3	119.055
		442.2e-6	121.982	1.575e-3	118.066	0.059	-9.605
1207	0.073	-67.749	0.909	-28.452	385.3e-6	116.892
		0.913	-28.392	0.062	-39.154	1.572e-3	120.262
		476.7e-6	116.886	1.561e-3	120.339	0.059	-8.963
1226.95	0.074	-68.574	0.909	-28.923	426.3e-6	111.824
		0.912	-28.793	0.062	-38.774	1.576e-3	122.245
		448.3e-6	110.937	1.606e-3	121.664	0.061	-8.664
1246.9	0.074	-69.531	0.909	-29.394	517.6e-6	110.029
		0.912	-29.274	0.062	-39.612	1.613e-3	124.187
		433.8e-6	106.706	1.647e-3	122.56	0.061	-7.689
1266.85	0.074	-71.215	0.909	-29.864	539.9e-6	109.278
		0.912	-29.744	0.061	-40.652	1.615e-3	125.281
		523e-6	109.015	1.653e-3	123.904	0.06	-5.812
1286.8	0.074	-72.095	0.909	-30.355	540.9e-6	110.687
		0.912	-30.215	0.061	-42.425	1.753e-3	127.154
		561e-6	117.203	1.698e-3	125.719	0.059	-5.058
1306.75	0.075	-73.036	0.909	-30.805	571.8e-6	111.513
		0.912	-30.695	0.061	-43.567	1.68e-3	126.365
		569.2e-6	112.594	1.663e-3	127.445	0.059	-4.393
1326.7	0.076	-73.635	0.908	-31.265	643.5e-6	107.19
		0.912	-31.145	0.062	-44.114	1.825e-3	131.678
		634.1e-6	108.677	1.823e-3	129.921	0.059	-3.825
1346.65	0.077	-73.916	0.909	-31.726	679.9e-6	100.516
		0.911	-31.616	0.062	-44.575	1.89e-3	130.447
		669.3e-6	106.671	1.882e-3	130.513	0.06	-2.804
1366.6	0.079	-74.906	0.908	-32.216	683.9e-6	99.471
		0.911	-32.106	0.061	-46.185	1.941e-3	130.907
		651.9e-6	97.314	1.966e-3	131.487	0.06	-1.491
1386.55	0.08	-75.944	0.908	-32.687	620e-6	92.347
		0.912	-32.597	0.062	-46.998	2.093e-3	131.698
		685.7e-6	98.53	2.036e-3	130.508	0.06	-0.689
1406.5	0.081	-76.682	0.908	-33.157	697.4e-6	94.281
		0.911	-33.047	0.061	-47.376	2.093e-3	132.549
		733.3e-6	92.485	2.083e-3	132.735	0.06	0.383
1426.45	0.082	-76.695	0.908	-33.649	741.2e-6	91.955
		0.911	-33.529	0.061	-48.035	2.128e-3	132.173
		735.1e-6	89.092	2.135e-3	133.662	0.061	1.416
1446.4	0.083	-77.785	0.908	-34.14	772.4e-6	87.055
		0.911	-34.02	0.06	-48.77	2.245e-3	133.515
		759.4e-6	87.547	2.242e-3	132.337	0.062	2.245
1466.35	0.083	-79.253	0.908	-34.58	763.5e-6	82.116
		0.911	-34.48	0.06	-50.762	2.276e-3	132.623
		742.2e-6	85.539	2.308e-3	133.396	0.061	2.989
1486.3	0.084	-80.242	0.908	-35.06	709.6e-6	79.879
		0.91	-34.94	0.061	-52.247	2.299e-3	132.784
		726e-6	80.151	2.315e-3	133.733	0.061	3.182
1506.25	0.084	-80.918	0.907	-35.56	680.1e-6	74.509
		0.91	-35.45	0.061	-53.555	2.379e-3	134.432
		714.1e-6	80.061	2.432e-3	133.733	0.061	3.804
1526.2	0.085	-81.715	0.907	-36.03	706.5e-6	80.675
		0.911	-35.91	0.06	-54.71	2.445e-3	134.078
		809.4e-6	81.324	2.451e-3	134.812	0.061	5.146
1546.15	0.086	-82.186	0.907	-36.509	896.4e-6	75.849
		0.909	-36.389	0.06	-55.138	2.505e-3	136.632
		859.1e-6	72.896	2.525e-3	135.075	0.061	5.718
1566.1	0.087	-82.891	0.906	-36.98	779.6e-6	74.982
		0.91	-36.86	0.06	-56.539	2.557e-3	136.615
		799.3e-6	72.645	2.56e-3	135.984	0.061	6.397
1586.05	0.088	-83.643	0.906	-37.461	880e-6	69.446
		0.909	-37.371	0.059	-57.566	2.602e-3	136.656
		854.5e-6	73.308	2.584e-3	137.338	0.062	7.875
1606	0.089	-83.96	0.907	-37.951	988.9e-6	71.073
		0.909	-37.851	0.058	-58.395	2.609e-3	138.399
		918.9e-6	71.068	2.633e-3	139.304	0.062	8.891
1625.95	0.09	-84.717	0.906	-38.48	971.4e-6	61.165
		0.909	-38.35	0.058	-58.748	2.748e-3	140.14
		1.034e-3	57.866	2.789e-3	140.609	0.062	9.333
1645.9	0.092	-85.319	0.905	-38.96	896.9e-6	52.282
		0.908	-38.84	0.059	-59.326	2.99e-3	139.345
		942.3e-6	50.876	3.028e-3	138.643	0.062	9.305
1665.85	0.094	-86.408	0.905	-39.361	704.4e-6	50.255
		0.908	-39.231	0.059	-63.18	2.977e-3	139.216
		653e-6	48.939	2.967e-3	137.459	0.062	10.697
1685.8	0.093	-87.447	0.905	-39.871	788.8e-6	59.286
		0.908	-39.741	0.058	-65.312	3.05e-3	142.479
		848.5e-6	62.904	2.984e-3	142.575	0.061	11.519
1705.75	0.095	-87.343	0.904	-40.361	1.034e-3	45.071
		0.907	-40.271	0.059	-65.049	3.297e-3	144.098
		995.2e-6	43.43	3.362e-3	144.972	0.062	11.703
1725.7	0.097	-89.339	0.904	-40.712	841.2e-6	17.537
		0.907	-40.582	0.059	-69.156	3.657e-3	140.395
		872.7e-6	15.994	3.636e-3	140.385	0.062	13.204
1745.65	0.097	-90.677	0.905	-41.252	296.4e-6	38.317
		0.909	-41.112	0.056	-70.509	3.508e-3	138.77
		337.5e-6	36.196	3.536e-3	138.468	0.062	14.618
1765.6	0.097	-90.728	0.905	-41.773	652.5e-6	66.534
		0.908	-41.653	0.056	-71.958	3.666e-3	141.273
		593.1e-6	69.368	3.666e-3	141.475	0.062	15.765
1785.55	0.097	-90.919	0.905	-42.294	884.2e-6	60.893
		0.907	-42.144	0.054	-74.58	3.984e-3	143.428
		882.2e-6	57.235	3.97e-3	145.03	0.061	18.311
1805.5	0.099	-91.263	0.903	-42.795	979.1e-6	28.618
		0.906	-42.705	0.053	-74.552	4.542e-3	140.283
		976e-6	25.104	4.573e-3	140.455	0.062	19.195
1825.45	0.1	-92.395	0.903	-43.246	412e-6	12.901
		0.906	-43.086	0.052	-77.151	4.46e-3	133.25
		430.9e-6	13.286	4.507e-3	133.86	0.063	21.265
1845.4	0.101	-92.71	0.903	-43.746	590.4e-6	60.989
		0.906	-43.626	0.051	-77.435	4.35e-3	134.526
		622.2e-6	58.107	4.329e-3	134.815	0.064	22
1865.35	0.101	-93.598	0.901	-44.246	869.6e-6	47.59
		0.904	-44.126	0.049	-79.563	4.675e-3	134.873
		881.3e-6	45.229	4.664e-3	133.944	0.066	23.867
1885.3	0.102	-93.217	0.899	-44.726	1.095e-3	30.232
		0.904	-44.616	0.049	-79.957	5.003e-3	129.748
		1.068e-3	30.514	5.043e-3	128.498	0.067	24.395
1905.25	0.104	-92.546	0.898	-45.137	1.162e-3	0.655
		0.903	-45.017	0.05	-78.956	4.877e-3	122.359
		1.149e-3	-1.583	4.821e-3	122.821	0.069	23.825
1925.2	0.105	-93.835	0.898	-45.538	473e-6	-21.486
		0.903	-45.378	0.052	-82.661	4.306e-3	121.503
		514.6e-6	-30.997	4.242e-3	121.906	0.068	24.738
1945.15	0.106	-94.12	0.898	-46.048	570.5e-6	18.471
		0.903	-45.908	0.051	-83.015	4.227e-3	124.591
		623.9e-6	16.36	4.246e-3	123.771	0.069	24.964
1965.1	0.108	-94.069	0.898	-46.498	785.8e-6	-6.771
		0.901	-46.328	0.052	-85.13	4.312e-3	125.353
		754.9e-6	1.808	4.377e-3	125.579	0.07	25.869
1985.05	0.11	-95.195	0.897	-46.918	750.2e-6	-32.914
		0.901	-46.818	0.051	-85.704	4.266e-3	122.031
		826.3e-6	-33.291	4.29e-3	122.263	0.072	26.125
2005	0.113	-95.78	0.896	-47.298	664.2e-6	-67.755
		0.9	-47.188	0.051	-88.816	3.984e-3	123.4
		578.8e-6	-67.982	3.947e-3	124.007	0.072	26.727
2024.95	0.114	-96.935	0.898	-47.758	246.1e-6	-125.175
		0.902	-47.688	0.051	-91.482	3.888e-3	125.732
		243.2e-6	-144.149	3.866e-3	126.36	0.073	27.141
2044.9	0.114	-97.137	0.898	-48.288	324e-6	84.717
		0.901	-48.228	0.049	-92.575	3.92e-3	130.46
		239.5e-6	94.717	3.966e-3	130.954	0.074	27.247
2064.85	0.117	-97.222	0.897	-48.738	336e-6	6.219
		0.9	-48.628	0.05	-94.264	4.155e-3	131.305
		340.1e-6	5.631	4.107e-3	131.225	0.075	27.975
2084.8	0.118	-98.146	0.897	-49.198	136.9e-6	-44.999
		0.901	-49.048	0.051	-97.912	4.075e-3	131.87
		139.5e-6	-55.37	4.038e-3	130.701	0.075	28.799
2104.75	0.118	-97.999	0.898	-49.646	222.8e-6	106.769
		0.902	-49.536	0.05	-98.909	4.047e-3	136.065
		206.5e-6	112.289	4.075e-3	135.735	0.076	28.89
2124.7	0.116	-97.884	0.9	-50.179	566.2e-6	75.801
		0.903	-50.029	0.049	-99.575	4.373e-3	140.424
		607.8e-6	60.872	4.408e-3	140.847	0.077	29.214
2144.65	0.115	-97.94	0.897	-50.685	647.5e-6	41.78
		0.902	-50.595	0.049	-100.85	4.838e-3	141.825
		624.9e-6	40.228	4.883e-3	141.035	0.077	29.719
2164.6	0.117	-97.762	0.898	-51.165	946.3e-6	19.537
		0.902	-51.075	0.05	-102.223	5.335e-3	140.355
		865.3e-6	22.839	5.373e-3	139.193	0.078	30.142
2184.55	0.121	-98.173	0.898	-51.637	785.8e-6	-0.732
		0.901	-51.537	0.05	-105.566	5.581e-3	138.112
		746.1e-6	7.611	5.549e-3	138.679	0.079	30.952
2204.5	0.122	-98.621	0.897	-52.178	938.4e-6	8.115
		0.901	-52.068	0.049	-107.461	6.035e-3	136.587
		968.3e-6	7.588	6.105e-3	136.107	0.08	31.604
2224.45	0.124	-98.648	0.896	-52.71	1.246e-3	-9.985
		0.901	-52.59	0.048	-108.268	6.353e-3	131.871
		1.216e-3	-13.216	6.295e-3	131.883	0.081	31.717
2244.4	0.125	-98.833	0.894	-53.171	1.41e-3	-31.28
		0.898	-53.071	0.051	-109.792	6.333e-3	128.746
		1.291e-3	-32.472	6.304e-3	128.714	0.081	31.936
2264.35	0.13	-48.839	0.895	-53.599	1.394e-3	-47.993
		0.898	-53.489	0.053	-160.701	6.3e-3	74.676
		1.412e-3	-45.047	6.358e-3	74.664	0.081	-19.421
2284.3	0.129	-48.641	0.895	-54.048	1.318e-3	-57.996
		0.898	-53.898	0.053	-162.002	6.242e-3	73.025
		1.251e-3	-60.317	6.214e-3	72.795	0.082	-19.381
2304.25	0.133	-49.739	0.894	-54.531	1.416e-3	-66.084
		0.897	-54.391	0.055	-164.281	6.29e-3	73.178
		1.412e-3	-63.257	6.168e-3	72.867	0.082	-18.774
2324.2	0.136	-50.578	0.893	-54.952	1.589e-3	-75.389
		0.898	-54.842	0.056	-165.78	6.453e-3	71.678
		1.64e-3	-75.382	6.438e-3	71.959	0.082	-18.689
2344.15	0.138	-51.11	0.893	-55.403	1.663e-3	-86.916
		0.897	-55.293	0.057	-168.824	6.558e-3	68.748
		1.687e-3	-88.744	6.505e-3	68.829	0.083	-18.004
2364.1	0.141	-51.405	0.893	-55.844	1.706e-3	-100.483
		0.897	-55.754	0.058	-171.927	6.572e-3	66.414
		1.829e-3	-98.596	6.533e-3	66.256	0.083	-17.109
2384.05	0.144	-52.57	0.893	-56.315	1.74e-3	-111.58
		0.898	-56.195	0.059	-174.345	6.387e-3	64.643
		1.722e-3	-112.513	6.506e-3	64.022	0.084	-16.648
2404	0.145	-53.488	0.893	-56.775	1.709e-3	-120.84
		0.898	-56.675	0.059	-177.547	6.206e-3	63.235
		1.668e-3	-120.738	6.206e-3	63.084	0.085	-15.983
2423.95	0.148	-54.446	0.894	-57.246	1.72e-3	-129.393
		0.898	-57.176	0.06	179.165	6.095e-3	62.791
		1.606e-3	-129.021	6.215e-3	63.717	0.085	-15.082
2443.9	0.148	-55.433	0.894	-57.757	1.63e-3	-135.902
		0.899	-57.697	0.063	177.914	6.027e-3	62.053
		1.669e-3	-134.116	6.096e-3	62.243	0.085	-14.869
2463.85	0.148	-55.884	0.894	-58.277	1.619e-3	-140.78
		0.898	-58.157	0.063	174.981	5.996e-3	61.219
		1.657e-3	-140.305	5.941e-3	61.191	0.086	-14.092
2483.8	0.148	-56.66	0.894	-58.767	1.525e-3	-145.8
		0.898	-58.687	0.065	172.554	5.895e-3	60.699
		1.617e-3	-147.954	5.95e-3	60.46	0.086	-13.213
2503.75	0.149	-57.667	0.894	-59.307	1.562e-3	-150.745
		0.898	-59.187	0.065	171.7	5.846e-3	60.909
		1.517e-3	-151.197	5.779e-3	60.598	0.087	-13.196
2523.7	0.15	-58.863	0.894	-59.787	1.607e-3	-155.534
		0.897	-59.677	0.065	168.701	5.728e-3	60.911
		1.53e-3	-157.636	5.761e-3	60.988	0.088	-12.421
2543.65	0.15	-58.665	0.894	-60.277	1.549e-3	-160.671
		0.897	-60.167	0.067	165.662	5.809e-3	60.093
		1.535e-3	-160.483	5.599e-3	60.784	0.089	-11.396
2563.6	0.151	-58.792	0.893	-60.778	1.469e-3	-162.661
		0.896	-60.688	0.068	163.495	5.628e-3	60.649
		1.54e-3	-160.602	5.589e-3	60.232	0.089	-10.698
2583.55	0.151	-59.344	0.894	-61.277	1.556e-3	-165.03
		0.897	-61.177	0.068	160.809	5.518e-3	61.255
		1.54e-3	-168.168	5.575e-3	61.372	0.091	-9.895
2603.5	0.152	-60.183	0.892	-61.776	1.521e-3	-168.415
		0.895	-61.626	0.069	157.687	5.503e-3	61.257
		1.546e-3	-170.543	5.579e-3	60.336	0.093	-9.088
2623.45	0.153	-60.923	0.892	-62.276	1.482e-3	-173.443
		0.896	-62.166	0.07	156.696	5.478e-3	60.832
		1.504e-3	-174.103	5.497e-3	60.761	0.093	-8.773
2643.4	0.154	-61.681	0.892	-62.785	1.495e-3	-179.299
		0.896	-62.675	0.072	155.213	5.355e-3	60.92
		1.458e-3	-179.001	5.398e-3	61.709	0.094	-8.33
