!Hittite Microwave Corporation								
!12 Elizabeth Drive								
!Chelmsford, MA 01824								
!Tel: 978-250-3343								
!Fax: 978-250-3373								
!Device: HMC349MS8G, DC-4 GHz, High Isolation SPDT Non-Reflective Switch in 8-lead plastic SMT package with exposed ground paddle															
!Misc: Vdd=5V, Port1=RFC, Port2=RF1, Port3=RF2, All Off, Room							
!
# MHZ S MA R 50

10	0.827	13.352	1.171e-3	45.07	1.728e-3	-46.73
		713e-6	-104.079	0.669	-15.195	4.598e-3	22.194
		1.824e-3	-126.64	997.9e-6	131.443	0.675	-15.06
29.95	0.92	6.034	1.308e-3	-11.795	1.207e-3	-21.285
		766.1e-6	-31.215	0.581	-25.124	222.4e-6	121.49
		1.461e-3	-12.295	514.2e-6	41.321	0.581	-25.141
49.9	0.948	3.053	555.1e-6	-59.819	630.8e-6	-39.579
		597.6e-6	-31.619	0.516	-32.866	145.5e-6	4.612
		600.3e-6	-5.579	220.7e-6	135.932	0.516	-32.866
69.85	0.956	1.103	858.6e-6	-43.341	544.2e-6	-48.241
		478.4e-6	-18.591	0.45	-40.079	263.1e-6	-177.799
		608.5e-6	-56.181	352.5e-6	111.82	0.45	-40.047
89.8	0.961	-0.361	367.7e-6	-28.849	351.6e-6	-62.279
		459.8e-6	-64.599	0.394	-45.242	231.7e-6	-29.917
		515.3e-6	-28.309	112.1e-6	0.033	0.394	-45.177
109.75	0.964	-1.616	602.8e-6	-33.039	657.2e-6	-48.519
		664.8e-6	-26.289	0.347	-49.271	270e-6	113.944
		479.4e-6	-50.059	298.8e-6	-171.756	0.349	-49.312
129.7	0.966	-2.665	378.7e-6	-35.648	196.2e-6	-25.687
		497.5e-6	-55.208	0.309	-51.995	247.3e-6	102.916
		444.9e-6	-48.777	110.7e-6	4.196	0.31	-52.091
149.65	0.967	-3.606	263.6e-6	-16.365	161.2e-6	-34.765
		331.4e-6	-1.085	0.278	-54.168	225.4e-6	107.364
		234.4e-6	-33.265	406e-6	105.024	0.279	-54.132
169.6	0.966	-4.488	378.4e-6	-14.832	157.4e-6	-69.222
		340.4e-6	-5.032	0.252	-55.474	490.8e-6	97.695
		373.7e-6	-35.242	433.5e-6	107.255	0.252	-55.453
189.55	0.967	-5.472	403.7e-6	-3.448	268.5e-6	-17.368
		203e-6	-11.118	0.229	-56.277	504.9e-6	106.105
		126.5e-6	15.513	415.1e-6	122.465	0.229	-56.327
209.5	0.968	-6.379	188e-6	-7.933	311.2e-6	-0.983
		228.6e-6	-23.003	0.211	-56.845	514.4e-6	101.037
		309.4e-6	-3.013	541.8e-6	105.387	0.211	-56.868
229.45	0.968	-7.208	225.5e-6	3.802	276.5e-6	0.302
		269.9e-6	13.132	0.194	-57.11	519e-6	117.072
		221.4e-6	22.802	465.8e-6	114.722	0.195	-57.282
249.4	0.969	-8.113	339.8e-6	12.857	171.9e-6	6.817
		286.9e-6	5.097	0.181	-56.982	434.1e-6	103.738
		193.5e-6	32.807	644.3e-6	96.978	0.181	-57.13
269.35	0.969	-8.92	319.7e-6	15.052	364.5e-6	26.802
		421.9e-6	46.662	0.169	-57.146	705.2e-6	101.546
		154.6e-6	17.862	600.2e-6	115.986	0.17	-57.204
289.3	0.971	-9.719	254.3e-6	26.368	323.8e-6	3.758
		273.4e-6	30.268	0.158	-56.63	670.6e-6	104.21
		340.2e-6	22.808	746.4e-6	101.47	0.158	-56.736
309.25	0.971	-10.509	317.6e-6	34.874	314.6e-6	5.753
		242.3e-6	41.654	0.148	-56.025	719.7e-6	98.503
		247.6e-6	36.924	640.7e-6	105.423	0.149	-56.119
329.2	0.971	-11.364	297.4e-6	30.399	358.4e-6	31.659
		320.5e-6	36.469	0.14	-55.393	929.3e-6	103.866
		216.7e-6	16.148	754.5e-6	104.516	0.141	-55.61
349.15	0.971	-12.109	298.8e-6	42.884	291.7e-6	33.934
		333e-6	39.454	0.134	-54.772	839.7e-6	94.886
		297.1e-6	23.344	891.5e-6	101.886	0.134	-54.956
369.1	0.972	-12.939	279.2e-6	34.409	203.2e-6	30.019
		373.6e-6	43.349	0.128	-54.177	843.6e-6	97.485
		339.2e-6	36.369	952e-6	102.535	0.129	-54.438
389.05	0.971	-13.767	360.1e-6	27.505	300.6e-6	50.525
		348.3e-6	39.975	0.122	-53.91	948e-6	102.632
		331.5e-6	29.805	904.3e-6	99.282	0.123	-54.106
409	0.972	-14.521	305.5e-6	40.339	334.6e-6	30.879
		280.6e-6	39.489	0.117	-53.017	1.05e-3	97.415
		328.5e-6	33.169	994.5e-6	99.155	0.118	-53.137
428.95	0.973	-15.318	276.7e-6	57.945	337.7e-6	49.785
		281.2e-6	42.496	0.11	-52.088	1.046e-3	99.065
		371.6e-6	20.565	965.1e-6	99.805	0.111	-52.424
448.9	0.972	-16.1	332.3e-6	42.148	341.7e-6	40.168
		386e-6	44.238	0.106	-50.948	1.135e-3	100.994
		308.7e-6	43.988	1.072e-3	101.304	0.107	-51.439
468.85	0.973	-16.885	360.3e-6	55.402	359.9e-6	44.692
		374.2e-6	53.952	0.102	-50.02	1.122e-3	97.855
		400.5e-6	24.492	1.166e-3	96.615	0.103	-50.373
488.8	0.972	-17.609	377.3e-6	49.796	320.4e-6	45.366
		361.1e-6	47.866	0.099	-48.717	1.238e-3	97.666
		344.9e-6	52.206	1.217e-3	99.386	0.1	-49.22
508.75	0.973	-18.385	345.3e-6	58.132	355.4e-6	47.052
		350.1e-6	48.262	0.095	-47.74	1.291e-3	98.221
		320.4e-6	43.422	1.273e-3	98.321	0.096	-48.338
528.7	0.973	-19.202	448.9e-6	53.369	329.4e-6	50.699
		367.4e-6	66.079	0.092	-46.684	1.291e-3	96.775
		330.9e-6	49.519	1.314e-3	98.655	0.093	-47.399
548.65	0.973	-20.003	373.4e-6	62.166	354.2e-6	55.706
		523.8e-6	60.776	0.089	-45.597	1.347e-3	99.466
		393.3e-6	47.966	1.375e-3	97.016	0.09	-46.416
568.6	0.973	-20.733	388.8e-6	62.308	406.2e-6	56.358
		437.3e-6	60.738	0.087	-44.115	1.431e-3	97.808
		355.8e-6	54.978	1.388e-3	98.678	0.088	-44.96
588.55	0.973	-21.568	415.2e-6	64.492	390.6e-6	56.672
		394.2e-6	59.982	0.085	-42.833	1.423e-3	98.016
		418.1e-6	54.512	1.467e-3	97.236	0.086	-43.774
608.5	0.972	-22.362	441.4e-6	65.732	407.2e-6	57.702
		407.7e-6	64.852	0.083	-41.237	1.477e-3	98.039
		383.5e-6	62.432	1.515e-3	98.209	0.084	-42.197
628.45	0.973	-23.129	470.8e-6	60.459	424.4e-6	60.648
		452.7e-6	63.009	0.08	-40.562	1.596e-3	97.934
		430.8e-6	61.418	1.558e-3	97.844	0.081	-41.715
648.4	0.972	-23.824	471.9e-6	72.659	423e-6	67.418
		480.1e-6	75.229	0.079	-39.269	1.591e-3	95.62
		487.4e-6	59.998	1.638e-3	95.34	0.08	-40.458
668.35	0.973	-24.713	470.3e-6	69.683	462.8e-6	62.002
		479.6e-6	64.993	0.076	-37.901	1.618e-3	96.048
		406.3e-6	67.592	1.616e-3	97.018	0.078	-39.312
688.3	0.972	-25.446	513.3e-6	71.964	418.7e-6	73.894
		520.4e-6	77.024	0.075	-35.974	1.7e-3	97.072
		507.4e-6	71.224	1.659e-3	95.022	0.076	-37.404
708.25	0.972	-26.278	556.4e-6	72.392	496.5e-6	69.752
		530.1e-6	74.042	0.073	-35.207	1.764e-3	97.556
		499.3e-6	66.902	1.74e-3	95.326	0.074	-36.841
728.2	0.972	-27.06	541.2e-6	74.464	505.1e-6	73.524
		531.4e-6	71.304	0.073	-33.913	1.774e-3	96.941
		478.5e-6	71.434	1.821e-3	96.941	0.074	-35.583
748.15	0.974	-27.839	499.9e-6	71.329	519.9e-6	70.208
		541.9e-6	81.409	0.072	-32.874	1.858e-3	96.161
		527.1e-6	70.448	1.824e-3	97.331	0.073	-34.657
768.1	0.973	-28.638	568.7e-6	75.474	522.3e-6	62.423
		559e-6	79.004	0.071	-31.603	1.957e-3	96.307
		558.4e-6	74.213	1.889e-3	94.927	0.072	-33.477
788.05	0.974	-29.414	562.2e-6	74.717	529.6e-6	69.316
		605.9e-6	80.137	0.069	-30.342	1.896e-3	96.16
		581.3e-6	74.116	1.956e-3	96.16	0.07	-32.444
808	0.973	-30.176	562.2e-6	73.04	595.6e-6	65.659
		612.2e-6	72.31	0.068	-29.224	2.054e-3	97.146
		577.3e-6	71.479	1.977e-3	96.436	0.069	-31.435
827.95	0.974	-30.941	604.5e-6	74.306	499.9e-6	75.816
		658.3e-6	81.266	0.068	-27.766	2.029e-3	97.564
		490.8e-6	71.096	2.026e-3	96.214	0.069	-30.196
847.9	0.972	-31.72	610.1e-6	85.31	610.8e-6	74.83
		609.4e-6	77.43	0.066	-26.348	2.118e-3	95.403
		580e-6	83.5	2.074e-3	96.393	0.068	-28.869
867.85	0.973	-32.484	679.1e-6	79.859	591.5e-6	76.569
		674.4e-6	79.209	0.065	-25.118	2.189e-3	96.278
		626.5e-6	78.389	2.119e-3	96.798	0.066	-27.928
887.8	0.973	-33.276	669.8e-6	84.375	691.7e-6	79.474
		625.8e-6	79.895	0.064	-23.462	2.186e-3	95.008
		611.5e-6	73.364	2.209e-3	96.678	0.065	-26.389
907.75	0.973	-34.121	705.4e-6	81.373	656.8e-6	74.063
		741.2e-6	82.003	0.063	-21.863	2.266e-3	95.758
		654.5e-6	75.983	2.224e-3	96.758	0.064	-25.004
927.7	0.972	-34.908	702.1e-6	85.772	633.7e-6	78.821
		738.6e-6	85.102	0.062	-20.523	2.304e-3	96.483
		672.1e-6	78.201	2.28e-3	96.023	0.063	-23.91
947.65	0.973	-35.627	669e-6	83.849	627.9e-6	78.078
		749.7e-6	82.699	0.063	-18.87	2.325e-3	95.953
		666.7e-6	82.889	2.304e-3	95.303	0.064	-22.255
967.6	0.973	-36.434	762.8e-6	81.545	727.6e-6	79.104
		839.3e-6	84.505	0.063	-17.697	2.425e-3	96.121
		668.2e-6	75.995	2.384e-3	96.291	0.064	-21.272
987.55	0.973	-37.282	810.8e-6	82.221	666.6e-6	82.9
		840.2e-6	81.671	0.062	-16.25	2.414e-3	95.559
		679e-6	73.15	2.384e-3	96.789	0.062	-20.005
1007.5	0.972	-38.003	811.7e-6	83.859	635.9e-6	84.599
		785e-6	84.469	0.062	-15.093	2.436e-3	96.96
		650.7e-6	78.989	2.453e-3	93.97	0.062	-18.915
1027.45	0.974	-38.807	805.1e-6	86.82	621.4e-6	78.629
		838.2e-6	86.64	0.061	-13.865	2.46e-3	96.488
		725e-6	83.549	2.532e-3	95.848	0.062	-17.895
1047.4	0.972	-39.614	791.3e-6	82.237	694e-6	77.546
		814.4e-6	89.547	0.061	-13.004	2.526e-3	97.254
		685.2e-6	76.096	2.532e-3	96.694	0.061	-17.359
1067.35	0.971	-40.422	851.8e-6	88.755	713.4e-6	81.854
		818.1e-6	86.715	0.06	-11.968	2.576e-3	96.796
		743.6e-6	82.534	2.597e-3	96.056	0.061	-16.409
1087.3	0.97	-41.167	855.7e-6	86.117	758.2e-6	79.456
		839.1e-6	89.447	0.06	-9.917	2.649e-3	96.089
		781.3e-6	82.386	2.643e-3	96.119	0.061	-14.524
1107.25	0.972	-41.904	796.7e-6	91.442	780.4e-6	83.382
		844.9e-6	94.362	0.06	-8.61	2.669e-3	95.02
		821.9e-6	86.232	2.725e-3	97.38	0.061	-13.393
1127.2	0.971	-42.678	874.5e-6	93.178	783.9e-6	83.487
		887.7e-6	89.507	0.061	-7.581	2.75e-3	95.214
		807.7e-6	88.037	2.769e-3	95.304	0.061	-12.495
1147.15	0.972	-43.44	948e-6	94.738	824.7e-6	86.398
		898.1e-6	92.078	0.06	-6.902	2.845e-3	96.106
		792.2e-6	86.448	2.809e-3	96.226	0.06	-12.114
1167.1	0.971	-44.183	975.7e-6	92.175	857.6e-6	86.574
		927.5e-6	91.275	0.06	-5.643	2.822e-3	95.826
		796.7e-6	89.874	2.8e-3	95.166	0.06	-11.028
1187.05	0.971	-45.02	993.7e-6	96.949	900.1e-6	86.728
		980.1e-6	96.509	0.059	-3.933	2.916e-3	95.256
		901.1e-6	87.468	2.876e-3	95.356	0.059	-9.533
1207	0.972	-45.9	958.8e-6	93.362	866.5e-6	88.701
		1.017e-3	92.652	0.059	-3.138	2.952e-3	94.948
		929.5e-6	87.791	2.905e-3	95.068	0.059	-8.833
1226.95	0.97	-46.621	1.019e-3	94.911	898.9e-6	91.68
		1.004e-3	94.771	0.06	-2.814	2.944e-3	96.211
		945.6e-6	88.26	3.002e-3	95.291	0.061	-8.514
1246.9	0.97	-47.312	1.014e-3	93.728	953.2e-6	85.746
		1.023e-3	93.408	0.06	-1.701	3.026e-3	96.47
		953.2e-6	89.907	3.093e-3	95.51	0.06	-7.516
1266.85	0.971	-48.201	1.065e-3	92.261	982.1e-6	85.64
		1.063e-3	92.831	0.06	0.355	3.079e-3	95.78
		984.4e-6	87.65	3.083e-3	95.73	0.06	-5.661
1286.8	0.969	-48.91	1.117e-3	95.26	1.018e-3	85.919
		1.048e-3	97.75	0.059	1.377	3.162e-3	94.828
		1.003e-3	89.639	3.115e-3	95.078	0.059	-5.022
1306.75	0.971	-49.642	1.185e-3	95.766	1.043e-3	90.225
		1.158e-3	96.176	0.059	2.3	3.187e-3	94.518
		1.006e-3	91.485	3.18e-3	95.038	0.059	-4.371
1326.7	0.971	-50.472	1.211e-3	94.879	1.021e-3	89.278
		1.199e-3	97.099	0.06	2.976	3.232e-3	95.359
		1.088e-3	90.268	3.217e-3	93.249	0.059	-3.921
1346.65	0.973	-51.261	1.2e-3	94.937	1.114e-3	87.886
		1.221e-3	95.877	0.061	4.144	3.223e-3	94.565
		1.169e-3	87.986	3.332e-3	94.905	0.06	-2.756
1366.6	0.971	-51.998	1.313e-3	95.147	1.116e-3	88.986
		1.298e-3	95.287	0.06	5.748	3.34e-3	93.175
		1.115e-3	89.066	3.34e-3	93.355	0.06	-1.527
1386.55	0.971	-52.83	1.322e-3	93.754	1.232e-3	91.062
		1.308e-3	93.344	0.06	6.79	3.377e-3	92.786
		1.107e-3	88.402	3.346e-3	93.956	0.06	-0.602
1406.5	0.972	-53.685	1.293e-3	94.701	1.194e-3	88.06
		1.289e-3	95.251	0.061	8.077	3.4e-3	93.884
		1.15e-3	90.92	3.4e-3	93.244	0.06	0.527
1426.45	0.973	-54.431	1.4e-3	95.239	1.242e-3	90.217
		1.373e-3	95.909	0.061	9.205	3.375e-3	94.014
		1.2e-3	89.637	3.364e-3	93.364	0.061	1.573
1446.4	0.973	-55.253	1.419e-3	96.539	1.257e-3	89.098
		1.372e-3	91.359	0.062	10.194	3.444e-3	92.7
		1.19e-3	88.278	3.409e-3	92.48	0.062	2.481
1466.35	0.971	-56.004	1.427e-3	92.626	1.299e-3	88.414
		1.365e-3	92.866	0.061	11.231	3.448e-3	92.567
		1.197e-3	88.754	3.48e-3	93.887	0.061	3.143
1486.3	0.971	-56.732	1.483e-3	94.563	1.249e-3	89.382
		1.451e-3	94.143	0.061	11.711	3.543e-3	93.753
		1.268e-3	87.972	3.462e-3	92.073	0.061	3.306
1506.25	0.971	-57.506	1.461e-3	95.777	1.275e-3	88.385
		1.461e-3	96.117	0.061	12.538	3.576e-3	93.37
		1.249e-3	87.435	3.555e-3	93.78	0.061	3.978
1526.2	0.971	-58.39	1.542e-3	93.574	1.3e-3	88.543
		1.519e-3	94.364	0.062	14.001	3.57e-3	92.455
		1.311e-3	88.763	3.619e-3	93.985	0.061	5.309
1546.15	0.971	-59.154	1.647e-3	95.149	1.382e-3	91.528
		1.624e-3	96.469	0.062	14.748	3.611e-3	93.942
		1.373e-3	90.458	3.628e-3	92.962	0.061	5.809
1566.1	0.971	-59.872	1.591e-3	93.91	1.362e-3	89.968
		1.556e-3	95.71	0.062	15.668	3.67e-3	93.187
		1.405e-3	92.728	3.649e-3	92.947	0.061	6.514
1586.05	0.97	-60.708	1.624e-3	93.649	1.431e-3	90.228
		1.65e-3	94.289	0.063	17.446	3.7e-3	94.695
		1.358e-3	88.778	3.624e-3	93.285	0.062	8.044
1606	0.971	-61.492	1.724e-3	93.083	1.459e-3	91.871
		1.669e-3	94.123	0.063	18.614	3.72e-3	94.025
		1.484e-3	90.421	3.802e-3	93.535	0.062	8.931
1625.95	0.97	-62.286	1.665e-3	91.882	1.508e-3	87.71
		1.696e-3	91.762	0.063	19.317	3.807e-3	93.191
		1.498e-3	89.34	3.716e-3	92.861	0.062	9.308
1645.9	0.97	-63.095	1.795e-3	94.474	1.569e-3	89.843
		1.746e-3	93.304	0.064	19.585	3.779e-3	92.775
		1.578e-3	89.493	3.822e-3	92.675	0.062	9.305
1665.85	0.971	-63.918	1.718e-3	90.73	1.603e-3	89.829
		1.712e-3	91.18	0.064	21.395	3.854e-3	93.227
		1.558e-3	88.619	3.93e-3	92.017	0.062	10.835
1685.8	0.969	-64.65	1.79e-3	95.611	1.65e-3	89.259
		1.797e-3	94.381	0.063	22.532	3.912e-3	92.615
		1.679e-3	88.859	3.903e-3	92.645	0.061	11.655
1705.75	0.969	-65.465	1.886e-3	93.954	1.696e-3	87.163
		1.912e-3	92.534	0.064	22.884	3.942e-3	91.937
		1.788e-3	86.953	3.983e-3	91.427	0.062	11.637
1725.7	0.97	-66.245	1.853e-3	90.069	1.62e-3	85.337
		1.881e-3	89.569	0.064	24.636	3.929e-3	91.572
		1.627e-3	86.417	3.943e-3	91.812	0.061	13.357
1745.65	0.968	-67.051	1.883e-3	93.545	1.713e-3	90.223
		1.874e-3	92.805	0.065	25.954	3.891e-3	92.217
		1.659e-3	88.953	3.959e-3	92.287	0.062	14.678
1765.6	0.967	-67.834	1.92e-3	92.802	1.868e-3	90.36
		1.945e-3	93.862	0.065	27.316	4.01e-3	91.588
		1.809e-3	89.23	4.033e-3	91.038	0.061	15.786
1785.55	0.966	-68.604	1.976e-3	92.532	1.878e-3	87.65
		2.01e-3	90.592	0.066	29.708	4.088e-3	90.858
		1.935e-3	88.75	4.121e-3	90.998	0.061	18.252
1805.5	0.965	-69.388	2.081e-3	93.296	1.985e-3	83.764
		2.054e-3	89.836	0.067	30.311	4.032e-3	89.959
		1.98e-3	83.494	4.06e-3	89.319	0.062	19.232
1825.45	0.963	-70.068	2.026e-3	89.849	1.921e-3	83.436
		2.044e-3	89.079	0.069	31.849	3.995e-3	89.562
		1.923e-3	83.106	3.958e-3	91.682	0.063	21.212
1845.4	0.964	-70.837	2.14e-3	89.363	2.094e-3	82.241
		2.116e-3	90.143	0.07	32.213	4.103e-3	91.682
		2.053e-3	82.961	4e-3	91.642	0.064	21.857
1865.35	0.961	-71.589	2.233e-3	90.329	2.272e-3	81.976
		2.135e-3	90.789	0.072	33.623	4.046e-3	90.59
		2.243e-3	82.536	4.112e-3	90.81	0.066	23.712
1885.3	0.961	-72.298	2.177e-3	87.767	2.406e-3	76.944
		2.251e-3	88.237	0.073	33.835	3.954e-3	90.381
		2.448e-3	74.544	4.027e-3	90.391	0.067	24.046
1905.25	0.961	-72.921	2.293e-3	85.136	2.279e-3	66.733
		2.259e-3	85.026	0.074	33.303	3.86e-3	91.209
		2.253e-3	66.583	3.904e-3	92.169	0.068	23.544
1925.2	0.962	-73.616	2.179e-3	83.804	1.929e-3	69.292
		2.15e-3	84.404	0.074	34.19	3.997e-3	92.442
		1.969e-3	68.002	4.034e-3	93.592	0.068	24.518
1945.15	0.961	-74.391	2.205e-3	82.944	2.046e-3	68.342
		2.225e-3	85.734	0.075	34.218	4.1e-3	92.903
		2.043e-3	67.202	4.048e-3	93.423	0.069	24.758
1965.1	0.961	-75.091	2.282e-3	83.713	1.874e-3	62.541
		2.316e-3	81.893	0.075	35.23	4.078e-3	92.224
		1.931e-3	64.131	4.159e-3	92.924	0.069	25.609
1985.05	0.96	-75.875	2.319e-3	80.142	1.789e-3	60.03
		2.381e-3	78.952	0.077	35.364	4.157e-3	93.12
		1.755e-3	59.93	4.133e-3	93.33	0.072	26.023
2005	0.961	-76.539	2.174e-3	76.642	1.521e-3	67.26
		2.181e-3	75.842	0.077	36.059	4.207e-3	93.788
		1.595e-3	68.4	4.111e-3	93.608	0.072	26.739
2024.95	0.962	-77.321	2.073e-3	81.592	1.63e-3	78.5
		2.024e-3	81.662	0.078	36.474	4.313e-3	93.918
		1.542e-3	81.34	4.383e-3	93.588	0.072	27.217
2044.9	0.962	-78.072	2.04e-3	82.693	1.714e-3	78.811
		2.085e-3	82.413	0.079	36.669	4.441e-3	92.709
		1.831e-3	76.221	4.38e-3	93.169	0.074	27.397
2064.85	0.963	-78.761	2.123e-3	80.576	1.728e-3	73.024
		2.106e-3	80.866	0.079	37.544	4.449e-3	93.382
		1.728e-3	73.794	4.485e-3	92.312	0.074	28.075
2084.8	0.962	-79.59	1.995e-3	82.389	1.654e-3	81.888
		1.956e-3	80.379	0.079	38.539	4.453e-3	93.357
		1.732e-3	83.908	4.402e-3	92.527	0.074	29.225
2104.75	0.963	-80.288	2.058e-3	85.541	1.786e-3	87.77
		1.983e-3	85.551	0.08	38.767	4.519e-3	92.454
		1.858e-3	84.73	4.582e-3	93.334	0.075	29.264
2124.7	0.964	-81.028	2.212e-3	87.945	2.108e-3	87.816
		2.142e-3	89.055	0.081	38.984	4.637e-3	91.1
		2.108e-3	86.266	4.621e-3	90.71	0.077	29.479
2144.65	0.962	-81.713	2.306e-3	87.207	2.395e-3	84.969
		2.271e-3	85.197	0.081	39.669	4.636e-3	89.988
		2.412e-3	86.119	4.62e-3	90.278	0.077	29.922
2164.6	0.964	-82.394	2.327e-3	83.367	2.384e-3	82.689
		2.338e-3	83.847	0.082	40.195	4.521e-3	89.689
		2.373e-3	82.389	4.51e-3	90.179	0.078	30.337
2184.55	0.965	-83.192	2.313e-3	87.148	2.548e-3	84.131
		2.284e-3	84.858	0.082	41.172	4.479e-3	88.562
		2.563e-3	83.391	4.547e-3	88.792	0.079	31.142
2204.5	0.964	-83.904	2.383e-3	84.551	2.952e-3	78.264
		2.353e-3	83.811	0.083	41.717	4.557e-3	88.752
		2.99e-3	78.404	4.474e-3	88.002	0.08	31.578
2224.45	0.963	-84.667	2.456e-3	83.555	3.106e-3	69.337
		2.386e-3	82.165	0.084	41.929	4.411e-3	88.112
		3.145e-3	70.667	4.431e-3	88.912	0.081	31.504
2244.4	0.962	-85.374	2.436e-3	79.857	3.024e-3	61.249
		2.53e-3	80.577	0.085	42.426	4.407e-3	88.536
		2.969e-3	60.559	4.386e-3	88.646	0.082	31.773
2264.35	0.964	-34.685	2.44e-3	78.721	2.722e-3	59.359
		2.476e-3	79.701	0.084	-8.656	4.296e-3	37.972
		2.753e-3	57.369	4.336e-3	39.012	0.082	-19.558
2284.3	0.963	-35.31	2.439e-3	79.9	2.801e-3	57.029
		2.442e-3	81.4	0.085	-8.549	4.355e-3	38.614
		2.772e-3	56.879	4.436e-3	38.744	0.082	-19.411
2304.25	0.964	-36.109	2.519e-3	78.098	2.697e-3	50.267
		2.442e-3	78.678	0.085	-7.744	4.414e-3	39.395
		2.644e-3	51.877	4.384e-3	39.345	0.082	-18.818
2324.2	0.965	-36.863	2.454e-3	74.368	2.59e-3	47.316
		2.496e-3	75.898	0.085	-7.379	4.451e-3	39.529
		2.608e-3	49.736	4.451e-3	39.259	0.083	-18.628
2344.15	0.964	-37.631	2.264e-3	76.485	2.488e-3	46.154
		2.303e-3	74.635	0.085	-6.577	4.375e-3	39.973
		2.417e-3	44.154	4.38e-3	38.733	0.083	-17.893
2364.1	0.966	-38.326	2.245e-3	75.362	2.343e-3	41.38
		2.253e-3	74.212	0.086	-5.615	4.358e-3	39.443
		2.392e-3	41.84	4.429e-3	40.543	0.083	-17.096
2384.05	0.967	-39.157	2.151e-3	75.329	2.083e-3	42.918
		2.103e-3	75.009	0.087	-5.175	4.471e-3	40.007
		2.041e-3	42.758	4.476e-3	40.137	0.084	-16.712
2404	0.967	-39.921	2.127e-3	77.106	1.904e-3	42.374
		2.022e-3	77.636	0.088	-4.514	4.451e-3	42.367
		1.869e-3	42.804	4.425e-3	41.527	0.085	-16.046
2423.95	0.967	-40.629	2.054e-3	78.762	1.818e-3	42.76
		2.026e-3	78.202	0.088	-3.531	4.436e-3	41.271
		1.755e-3	42.21	4.462e-3	41.911	0.085	-15.104
2443.9	0.966	-41.409	2.083e-3	82.211	1.626e-3	46.369
		2.024e-3	83.181	0.088	-3.054	4.551e-3	42.165
		1.593e-3	48.899	4.504e-3	42.605	0.085	-14.993
2463.85	0.965	-42.123	2.061e-3	83.318	1.683e-3	48.966
		2.068e-3	84.288	0.089	-2.375	4.554e-3	41.963
		1.673e-3	52.456	4.496e-3	42.243	0.086	-14.106
2483.8	0.965	-42.861	2.111e-3	84.585	1.646e-3	48.204
		2.111e-3	85.175	0.089	-1.357	4.623e-3	42.706
		1.547e-3	50.184	4.497e-3	42.506	0.087	-13.309
2503.75	0.964	-43.686	2.141e-3	83.884	1.567e-3	54.063
		2.101e-3	85.164	0.089	-1.112	4.697e-3	42.756
		1.615e-3	53.043	4.622e-3	42.436	0.087	-13.219
2523.7	0.961	-44.484	2.094e-3	87.482	1.603e-3	57.19
		2.116e-3	85.912	0.091	-0.449	4.676e-3	42.668
		1.667e-3	58.36	4.687e-3	43.678	0.088	-12.466
2543.65	0.961	-45.077	2.262e-3	88.34	1.726e-3	54.058
		2.228e-3	87.63	0.092	0.66	4.731e-3	42.906
		1.575e-3	55.678	4.709e-3	42.476	0.089	-11.411
2563.6	0.96	-45.69	2.21e-3	88.029	1.648e-3	56.897
		2.295e-3	88.329	0.092	1.495	4.816e-3	42.736
		1.674e-3	55.877	4.778e-3	42.386	0.089	-10.728
2583.55	0.96	-46.404	2.285e-3	89.017	1.61e-3	57.145
		2.311e-3	88.727	0.094	2.262	4.76e-3	42.612
		1.667e-3	57.915	4.793e-3	42.802	0.091	-10.001
2603.5	0.957	-47.19	2.308e-3	88.886	1.661e-3	61.704
		2.243e-3	90.106	0.096	2.973	4.863e-3	43.047
		1.672e-3	59.794	4.796e-3	42.937	0.093	-9.238
2623.45	0.956	-47.914	2.343e-3	90.495	1.68e-3	59.573
