! Hittite Microwave Corporation
! 20 Alpha Road
! Chelmsford, MA 01824
! Tel: 978-250-3343
! Fax: 978-250-3373
! Device: HMC321LP4, DC-8.0 GHz, GaAS MMIC SP8T Non-Reflective Positive 
!         Control Switch in Low Cost Leadless SMT Package
! Misc: Data was de-embedded to package pins.
!       Port 1 = RFC
!       Port 2 = RF1    Port 6 = RF5
!       Port 3 = RF2    Port 7 = RF6
!       Port 4 = RF3    Port 8 = RF7
!       Port 5 = RF4    Port 9 = RF8
!          Vee = +5 V
!         Vctl =  0 V[Logic 0] / +5 V[Logic 1]
!
!  RF3 Selected,  VA = 0,  VB = 1,  VC = 0
!
!  Data reformated to new Touchstone file format - Fri Jan 12 11:47:08  2007
!
# MHz S DB R 50
! 9 Port Network Data
! freq  dbS11  angS11  dbS12  angS12  dbS13  angS13  dbS14  angS14  
!       dbS15  angS15  dbS16  angS16  dbS17  angS17  dbS18  angS18  
!       dbS19  angS19  
!       dbS21  angS21  dbS22  angS22  dbS23  angS23  
!       dbS24  angS24  dbS25  angS25  dbS26  angS26  dbS27  angS27  
!       dbS28  angS28  dbS29  angS29  
!       dbS31  angS31  dbS32  angS32  
!       dbS33  angS33  dbS34  angS34  dbS35  angS35  dbS36  angS36  
!       dbS37  angS37  dbS38  angS38  dbS39  angS39  
!       dbS41  angS41  
!       dbS42  angS42  dbS43  angS43  dbS44  angS44  dbS45  angS45  
!       dbS46  angS46  dbS47  angS47  dbS48  angS48  dbS49  angS49  
!       dbS51  angS51  dbS52  angS52  dbS53  angS53  dbS54  angS54  
!       dbS55  angS55  dbS56  angS56  dbS57  angS57  dbS58  angS58  
!       dbS59  angS59  
!       dbS61  angS61  dbS62  angS62  dbS63  angS63  
!       dbS64  angS64  dbS65  angS65  dbS66  angS66  dbS67  angS67  
!       dbS68  angS68  dbS69  angS69  
!       dbS71  angS71  dbS72  angS72  
!       dbS73  angS73  dbS74  angS74  dbS75  angS75  dbS76  angS76  
!       dbS77  angS77  dbS78  angS78  dbS79  angS79  
!       dbS81  angS81  
!       dbS82  angS82  dbS83  angS83  dbS84  angS84  dbS85  angS85  
!       dbS86  angS86  dbS87  angS87  dbS88  angS88  dbS89  angS89  
!       dbS91  angS91  dbS92  angS92  dbS93  angS93  dbS94  angS94  
!       dbS95  angS95  dbS96  angS96  dbS97  angS97  dbS98  angS98  
!       dbS99  angS99  
!     
                54       -14.0666962              0.823        -61.6467395             21.326        -78.5403051             -0.211        -1.99265743             -1.312
                      -68.2211271            170.127        -69.3551071            104.524        -75.4680019             12.214        -67.8895895            178.676
                      -72.8527394             29.377
                      -67.6936269             79.629       -0.175478486             -8.235        -63.3677229              0.414        -67.9501186                -86
                      -68.8811912              0.276        -62.8968885              7.595        -67.7697823             35.922        -65.4524286            120.702
                      -62.8533501            -98.287
                      -76.8267204           -144.697        -65.8078176            118.259       -0.175478486             -8.133        -66.7015221             34.251
                      -60.5912027             -8.023        -60.9286717              0.874        -68.2907854            -19.429        -68.0176287             -2.742
                      -62.8799309            105.069
                      -1.98173865             -1.117        -64.9960054             82.664        -64.6970642           -109.511        -13.8929726              0.818
                      -66.8588829           -106.781        -74.7938011              33.41        -63.2532826             62.735        -65.1643661            -31.863
                      -68.1209941            -31.838
                      -70.0255206            -35.661        -62.2150868             -98.05        -74.3385005             -0.308        -66.7372937             68.789
                     -0.193222904             -8.386        -64.4936176           -139.818        -64.8855511            -19.152        -66.5525004            163.518
                      -66.3426641             80.734
                      -64.9222134            -127.38        -65.5753326             28.601        -67.8358998             65.169        -68.5078012            -21.852
                      -65.4589398            -22.629       -0.184346164             -8.389        -67.5847902              60.04        -62.8112293            -25.359
                      -65.4134638           -165.957
                      -61.5693917             91.146        -73.1160857           -129.112        -63.4681389           -139.445        -77.9581895            114.351
                      -73.0222255            114.163         -64.301951              9.812       -0.175478486             -8.142        -62.0298843              1.613
                      -69.7383128            142.634
                      -62.5650396             75.906         -74.141594            162.905        -63.4074929             81.038         -57.271931            -163.38
                      -62.3108901            -149.96        -68.4754773             95.624        -64.2154389              9.579       -0.184346164             -8.266
                      -65.0300375             52.941
                      -69.3729767             -5.994        -68.7256332             87.935        -67.7147143           -173.132        -68.6901274            -176.66
                      -72.1425451           -134.931        -69.6428916           -105.385        -65.1675148              68.97        -62.7252179             60.751
                     -0.175478486             -8.217

             98.73       -14.0666962              1.049        -70.2997757             43.639        -64.8977547             75.731        -1.99265743             -2.592
                      -70.0697096             27.381        -72.5417599            -15.321        -69.0322116             73.886        -82.9932029            -85.258
                       -72.117974             36.592
                      -67.6495093             54.801       -0.518981944            -14.473        -66.3987315             61.507        -72.2843008             53.402
                      -71.2418193           -109.342        -73.1278898           -103.729        -71.3246033            -32.182        -69.1859043            -10.445
                      -75.1740523           -151.021
                      -68.5588402             22.901        -72.6342623             22.652       -0.528207531            -14.325        -72.2166783             87.432
                      -72.7919189            -23.793        -89.8997152              27.85        -73.9015768             62.609        -64.4805134             -90.97
                      -73.2668035            -66.769
                      -1.95994217             -2.461        -67.3265919             88.777        -62.9175244             81.933        -13.8500792              1.763
                      -70.5156747             52.466        -66.9068449             43.626        -72.4648121             137.95        -70.5712319             31.766
                       -72.435677             -5.029
                       -73.551479             98.071        -72.2415307            162.585        -68.0439032            -27.352        -68.7660493             89.428
                     -0.518981944            -14.808        -78.0479134            -82.698        -76.2948247           -145.741        -72.7767801             63.601
                      -78.9461212            171.564
                      -69.6851717            132.884        -76.9787349             -7.165        -74.7225465             -5.491        -77.6214849            -36.546
                      -75.2390779            -51.735       -0.509766145            -14.788        -65.0953803             63.853        -72.5786428             71.263
                       -75.766912           -149.829
                      -69.7170173             16.452        -72.1707118            159.652        -75.8580892            168.215        -77.2087147             27.024
                      -85.1392169            148.569         -72.259326             98.794       -0.500560114            -14.384        -73.8458015             45.285
                      -74.2888538             -0.933
                      -67.7464416             35.946        -74.7795033             -2.445        -75.2944825             -6.376        -70.9919383              34.39
                      -74.3520899             93.609        -69.8970004            115.985        -77.6479462              2.034       -0.518981944            -14.495
                      -66.7561802            106.035
                      -74.1593113             36.697        -75.5926074              7.641        -70.7850492             92.769        -71.7541498             -0.156
                      -68.3610068            -93.628        -65.0797778            177.891        -67.5910323            -86.462        -77.2592509             52.225
                     -0.528207531            -14.437

            143.46       -14.0229385              1.012        -65.3682247             99.319        -67.8252016             60.778        -2.00358995             -3.526
                      -67.2382056              39.53        -84.3878939            132.051        -72.0342539              58.22        -72.8680113            164.629
                      -72.4977063             99.003
                      -63.9513675             88.275       -0.982970822            -19.802        -69.3423656               59.1        -67.4342654             41.421
                      -71.2767471             11.872        -74.4661694           -177.617        -83.1916044           -117.843         -73.914499            101.234
                      -82.7537938              3.863
                      -66.4259913              54.22        -84.0200853              98.31       -0.992702912            -19.709        -66.1730647             72.379
                      -82.2195716             95.402        -75.9665964            -44.155        -75.6345429            172.451         -71.525255            -54.378
                      -73.0144495             87.052
                      -1.95994217             -3.494        -69.6402559             62.606        -65.6465899             61.424        -13.8500792              2.566
                      -66.5858081             90.188        -71.4925767            165.299        -74.9283942             72.129        -72.2807286            149.528
                      -74.0360427             14.596
                       -72.117974              9.868         -72.475763            137.249        -82.3883009            145.943        -67.1033534            124.073
                     -0.973249624            -20.449        -79.4042106             69.707        -83.4746156             42.492        -81.2246035           -100.289
                      -75.7509208            -86.821
                      -86.6211053            103.266        -76.6832475            -92.103        -76.3118503             64.757        -76.0103817             80.693
                      -74.3158986             88.676       -0.963539294            -20.462        -67.6348531             58.633         -76.137508            112.697
                      -70.6300995            134.999
                      -78.9461212             22.414        -85.8639381             64.566        -78.7558838           -111.617        -73.2030243             41.349
                      -76.5071761            -13.042        -74.1815088             82.204       -0.963539294            -19.893        -71.2323179             45.844
                      -78.6140398            -57.148
                      -72.0516292             61.969        -73.5680314            133.812        -75.5041609             97.703        -71.8352007             20.289
                      -76.7069957             64.184        -70.6893689             29.347        -69.7650058             92.427       -0.973249624            -19.937
                      -66.8111844             79.422
                       -74.424928             76.849        -77.9034319             18.531        -68.6783243            -58.533        -75.7615783             36.001
                      -73.6470891           -156.079          -75.98299            138.228         -74.567814            174.633        -68.0067044            106.787
                     -0.992702912             -19.81

            188.19       -14.0229385              1.072        -64.0712888             82.809        -64.5009062             51.252        -2.00358995             -4.517
                      -69.3883228             32.209        -79.8706792             61.872        -79.0001429            122.522         -74.972103             67.756
                      -71.0166054             77.602
                      -63.0325223              83.57        -1.55587445            -24.289        -75.5560791            127.196        -68.5472141             53.491
                      -85.9928494            108.348        -77.3933246            -49.516        -83.6937591            -31.226        -79.4448559            129.573
                      -81.8927186           -129.311
                      -62.2622928             40.862        -75.2692548             86.871        -1.56627049            -24.209        -64.6198426             70.701
                      -76.4723862             48.687        -91.6339742            -88.512        -72.0134494             65.373        -79.9739813           -117.441
                      -81.1509095            130.637
                      -1.97083357             -4.418        -67.7719072              25.04        -64.1802305             72.084        -13.8500792               3.15
                      -62.4433622            101.908        -86.4259913            -41.575        -78.5623599             85.732        -79.8194852            -42.551
                      -78.9154018             54.476
                      -70.2770601             41.643        -75.2040036             38.437         -95.582155             59.574        -62.3108901             97.068
                      -1.54549084            -25.235        -73.9490526            -148.63        -87.8508995            163.778        -83.1403306             46.309
                      -91.5383608            117.392
                      -76.3574157            130.659        -75.2040036            -50.571        -74.7938011            -94.226         -77.727817                 16
                      -86.9261041             96.637        -1.51441428            -25.273        -71.3823811             71.139         -75.055269            -27.836
                      -85.8451909            113.242
                      -79.2754091            118.187        -84.6806715           -123.185        -79.3961043            -10.598        -75.9393423             52.159
                      -73.8244445           -127.603        -67.9870753             60.001        -1.51441428            -24.575        -77.5819436            140.056
                      -80.8268115           -174.884
                      -74.2350155             65.102        -82.1871093             88.386        -75.5665001            116.703        -78.6288621            -31.088
                      -92.1530969            -53.341        -84.5447671            -52.971        -77.9788129             74.877        -1.53511963            -24.493
                       -65.615032             86.714
                      -72.1707118             54.356        -77.1334574            -91.254        -74.9769731            141.486        -72.1636615            -16.176
                      -82.1037134             95.933        -75.0405347            -114.97        -81.6835642            170.713        -72.6268258             76.733
                      -1.55587445              -24.3

            232.92       -13.9794001              0.809        -59.3637546             77.548         -61.788579             49.062        -1.99265743             -5.467
                      -66.2744264             38.829        -82.7371131           -125.104        -74.0360427             48.799        -78.7483603             47.023
                      -66.7580711             68.613
                      -59.8963897             73.677        -2.15810795            -27.728        -66.9087689             82.825        -64.9436714             37.584
                      -72.5564943            -38.802        -78.8847907            -115.19        -76.5830359             72.086         -77.297347           -171.717
                      -78.1666608           -178.304
                      -64.6198426             54.919        -70.3596885             83.069        -2.16925085            -27.648        -63.2520195             79.385
                      -74.6284406            166.805        -81.9089347            -20.975        -82.8714646             81.207          -80.55224             79.666
                      -76.7546877            105.413
                      -1.97083357             -5.387        -65.5325287             46.179        -61.8937988             79.168        -13.8500792              3.725
                      -59.9826456             96.595        -78.6884057            -49.541        -85.7301891            145.576        -81.9143468            -83.688
                      -76.8932793              3.758
                       -64.522809             13.695        -78.0826709             -47.82        -89.8698994            -48.512        -59.3961043             93.093
                      -2.13586494            -28.978        -75.1541419             92.768        -90.8817952           -116.066        -78.2231087           -121.005
                      -77.5164389            138.954
                       -81.558992            -56.068        -76.1653921             84.599        -90.7191559             21.838        -79.3880056             85.666
                      -79.7179936             81.509        -2.12476476            -29.057        -67.5081708             92.487        -75.4834802             67.651
                      -76.7846288             66.305
                      -75.2491252             18.614        -82.0893392            149.411        -76.5947657           -121.543        -80.6837409             15.762
                      -78.0757083            105.578        -64.4630718             76.939        -2.11367875            -28.253        -69.2789369             65.499
                      -75.6397991             93.908
                      -76.4839673             75.951        -76.6418438            -95.858        -76.1208204            -20.081        -70.9153021             49.769
                       -78.861903            157.241        -76.8146734             95.105         -68.785134              95.42        -2.14697932            -28.081
                      -66.4041766            111.581
                       -69.656082             78.208         -74.057927            179.177        -79.0389365             58.419        -75.9611387             19.117
                       -75.815063            168.101        -76.9054359           -172.928        -71.8896579            120.867        -66.7864842             72.953
                      -2.16925085            -27.747

            277.65       -13.9794001              0.935         -59.701193             77.567        -61.2616864             55.765        -2.01453625              -6.39
