!"HMC326MS8G Deembedded Small Signal S Parameters, reference plane at the pins
!"Port 1=input,Port 2=output
!"Bias: Vpd=5V,Vs=5V, Ibias=130mA
# MHZ S MA R 50

30 0.994 -1.801 7.348e-3 -161.261 9.372e-3 -0.697 0.977 -16.814
66.393 0.998 -4.259 3.659e-3 177.305 6.408e-3 -54.646 0.941 -36.251
102.785 0.999 -6.795 4.969e-3 -138.813 629.8e-6 15.344 0.878 -52.553
139.178 1.003 -9.312 8.651e-3 -153.207 544.1e-6 82.543 0.819 -69.161
175.571 1.001 -11.613 5.58e-3 176.83 314.7e-6 39.938 0.755 -81.452
211.963 1.003 -13.982 7.178e-3 -175.151 296.2e-6 125.711 0.716 -92.614
248.356 1 -16.522 6.117e-3 -175.914 1.095e-3 5.099 0.681 -100.844
284.749 1 -18.885 8.779e-3 -144.786 1.745e-3 -8.355 0.651 -108.255
321.142 1 -21.123 0.013 -140.879 798.8e-6 1.51 0.63 -114.776
357.534 0.998 -23.469 0.018 -142.589 760.9e-6 95.262 0.612 -120.254
393.927 0.998 -25.705 0.024 -143.259 1.027e-3 -159.653 0.597 -125.063
430.32 0.996 -27.973 0.033 -144.211 890.9e-6 -59.425 0.582 -129.524
466.712 0.995 -30.208 0.043 -145.202 442.7e-6 70.809 0.57 -133.608
503.105 0.996 -32.323 0.055 -146.636 143.7e-6 -178.937 0.563 -137.199
539.498 0.994 -34.499 0.071 -149.824 238.8e-6 -137.506 0.554 -140.356
575.89 0.991 -36.756 0.089 -152.358 560.6e-6 -93.285 0.542 -143.26
612.283 0.988 -38.782 0.113 -154.929 778.9e-6 139.882 0.529 -146.167
648.676 0.987 -40.895 0.141 -159.032 753.9e-6 -172.271 0.517 -148.87
685.068 0.985 -43.008 0.177 -163.469 879.7e-6 108.648 0.502 -151.053
721.461 0.983 -45.006 0.223 -169.388 533.8e-6 150.636 0.485 -152.934
757.854 0.979 -46.887 0.279 -176.558 1.211e-3 155.141 0.463 -154.26
794.247 0.977 -48.87 0.344 173.952 988e-6 169.552 0.435 -153.953
830.639 0.974 -50.841 0.413 162.447 575.5e-6 -144.397 0.411 -151.668
867.032 0.972 -52.769 0.473 149.178 510.8e-6 -170.507 0.407 -147.717
903.425 0.97 -54.663 0.508 134.936 622.4e-6 110.32 0.425 -143.861
939.817 0.966 -56.474 0.514 121.398 861.1e-6 99.303 0.459 -142.196
976.21 0.961 -58.261 0.495 109.904 997.2e-6 122.55 0.496 -142.848
1012.603 0.956 -60.141 0.465 100.938 477.1e-6 128.874 0.525 -144.775
1048.995 0.953 -62.078 0.43 94.09 689.2e-6 102.56 0.548 -147.404
1085.388 0.952 -63.689 0.399 89.246 1.778e-3 110.932 0.561 -150.126
1121.781 0.948 -65.42 0.371 85.613 1.741e-3 108.225 0.572 -152.662
1158.174 0.942 -67.15 0.345 83.269 1.379e-3 167.09 0.581 -155.014
1194.566 0.938 -68.886 0.323 81.982 713.7e-6 135.28 0.586 -157.176
1230.959 0.932 -70.672 0.303 81.282 1.203e-3 114.966 0.59 -159.29
1267.352 0.927 -72.378 0.286 81.275 1.639e-3 145.359 0.593 -161.317
1303.744 0.923 -74.07 0.272 81.911 1.652e-3 155.081 0.597 -163.329
1340.137 0.917 -75.839 0.257 83.155 1.709e-3 126.696 0.6 -165.298
1376.53 0.911 -77.696 0.244 85.209 1.166e-3 129.658 0.603 -167.361
1412.922 0.905 -79.516 0.233 88.071 1.645e-3 146.851 0.604 -169.19
1449.315 0.9 -81.357 0.223 91.71 2.623e-3 135.794 0.605 -170.965
1485.708 0.89 -83.129 0.215 96.726 2.661e-3 125.912 0.605 -172.822
1522.1 0.884 -84.972 0.21 102.699 2.427e-3 149.513 0.606 -174.78
1558.493 0.874 -87.011 0.208 109.668 2.55e-3 127.103 0.607 -176.754
1594.886 0.866 -88.927 0.213 117.396 2.606e-3 127.752 0.606 -178.52
1631.279 0.857 -90.89 0.225 125.607 2.58e-3 118.01 0.607 179.74
1667.671 0.846 -92.914 0.244 133.745 3.222e-3 112.624 0.608 177.882
1704.064 0.834 -94.935 0.272 141.44 3.393e-3 115.708 0.608 176.072
1740.457 0.822 -97.061 0.31 148.473 2.852e-3 113.084 0.606 174.26
1776.849 0.813 -99.235 0.365 154.598 3.579e-3 113.222 0.606 172.402
1813.242 0.799 -101.546 0.433 159.304 4.17e-3 108.109 0.606 170.594
1849.635 0.786 -103.889 0.52 162.644 2.041e-3 77.527 0.605 168.687
1886.027 0.767 -106.169 0.626 164.697 3.621e-3 103.06 0.602 166.944
1922.42 0.752 -108.573 0.759 165.255 4.876e-3 105.671 0.6 165.188
1958.813 0.736 -111.039 0.915 164.976 4.216e-3 104.055 0.599 163.418
1995.205 0.718 -113.683 1.099 163.626 4.347e-3 95.458 0.597 161.821
2031.598 0.7 -116.352 1.312 161.476 4.827e-3 93.544 0.596 160.102
2067.991 0.682 -119.152 1.559 158.657 5.253e-3 93.241 0.595 158.431
2104.384 0.663 -121.85 1.84 155.204 4.616e-3 90.707 0.592 156.843
2140.776 0.643 -124.655 2.158 151.149 3.604e-3 84.712 0.589 155.162
2177.169 0.623 -127.796 2.506 146.57 3.692e-3 72.313 0.59 153.473
2213.562 0.605 -131 2.886 141.277 3.206e-3 63.851 0.588 151.944
2249.954 0.585 -134.26 3.305 135.857 3.102e-3 82.359 0.586 150.359
2286.347 0.567 -137.649 3.753 129.896 4.521e-3 90.52 0.584 148.807
2322.74 0.549 -141.89 4.219 123.522 3.288e-3 82.341 0.583 147.306
2359.132 0.528 -146.128 4.7 117.091 3.705e-3 74.161 0.581 145.691
2395.525 0.508 -150.716 5.179 110.402 5.321e-3 56.998 0.579 144.296
2431.918 0.487 -155.647 5.678 103.685 4.989e-3 60.498 0.577 142.87
2468.311 0.467 -160.968 6.165 96.789 4.35e-3 62.86 0.574 141.503
2504.703 0.445 -166.831 6.629 89.844 3.811e-3 59.459 0.571 140.122
2541.096 0.422 -173.228 7.079 82.968 3.673e-3 57.93 0.569 138.793
2577.489 0.4 -179.947 7.518 76.038 4.249e-3 52.697 0.566 137.571
2613.881 0.379 172.726 7.935 69.161 3.52e-3 41.394 0.566 136.625
2650.274 0.354 165.102 8.3 62.554 3.139e-3 30.601 0.566 135.479
2686.667 0.333 156.736 8.617 56.01 2.878e-3 29.413 0.563 134.599
2723.059 0.313 148.091 8.955 49.589 3.756e-3 35.675 0.565 133.567
2759.452 0.295 139.074 9.23 43.324 2.383e-3 52.815 0.564 132.672
2795.845 0.279 129.603 9.472 36.974 2.856e-3 38.51 0.564 131.726
2832.237 0.265 119.893 9.673 30.901 3.228e-3 28.886 0.565 130.911
2868.63 0.255 110.483 9.863 25.016 2.639e-3 45.929 0.568 130.242
2905.023 0.247 100.888 10.058 19.304 2.442e-3 61.021 0.572 129.515
2941.416 0.24 91.245 10.206 13.791 2.956e-3 63.905 0.575 128.687
2977.808 0.234 81.735 10.33 8.343 3.187e-3 67.616 0.577 127.755
3014.201 0.229 72.603 10.422 3.085 3.001e-3 68.172 0.58 127.053
3050.594 0.227 63.85 10.501 -1.992 2.552e-3 78.057 0.582 126.058
3086.986 0.225 55.639 10.562 -7.236 2.283e-3 69.172 0.587 125.425
3123.379 0.222 47.799 10.639 -11.889 2.375e-3 54.525 0.593 124.531
3159.772 0.222 40.44 10.663 -16.828 2.557e-3 65.686 0.596 123.86
3196.164 0.22 33.58 10.695 -21.566 3.13e-3 80.705 0.601 123.213
3232.557 0.217 26.78 10.74 -26.168 2.853e-3 81.677 0.607 122.285
3268.95 0.215 20.319 10.749 -30.725 2.939e-3 77.988 0.612 121.442
3305.342 0.212 14.008 10.748 -35.184 3.189e-3 83.473 0.618 120.778
3341.735 0.208 7.609 10.738 -39.513 3.377e-3 89.239 0.623 120.129
3378.128 0.202 1.374 10.733 -43.715 3.783e-3 86.712 0.626 119.419
3414.521 0.198 -4.431 10.725 -47.955 4.079e-3 87.8 0.629 118.541
3450.913 0.193 -10.345 10.686 -52.234 4.039e-3 93.153 0.634 117.675
3487.306 0.187 -15.984 10.65 -56.363 4.46e-3 97.744 0.639 116.809
3523.699 0.182 -21.804 10.603 -60.337 4.114e-3 86.361 0.646 116.181
3560.091 0.176 -28.434 10.534 -64.327 4.733e-3 78.388 0.649 115.286
3596.484 0.171 -34.363 10.525 -68.132 5.301e-3 81.169 0.655 114.719
3632.877 0.165 -40.925 10.459 -71.922 5.495e-3 90.7 0.66 113.925
3669.269 0.161 -46.981 10.396 -75.878 4.233e-3 92.752 0.662 113.29
3705.662 0.158 -54.207 10.339 -79.577 4.496e-3 94.765 0.664 112.536
3742.055 0.154 -61.388 10.251 -83.216 5.083e-3 97.36 0.668 111.696
3778.447 0.149 -67.565 10.163 -86.958 4.614e-3 91.432 0.671 110.967
3814.84 0.148 -75.198 10.106 -90.486 5.585e-3 81.274 0.674 110.265
3851.233 0.148 -82.821 9.998 -93.996 7.061e-3 82.099 0.676 109.476
3887.626 0.146 -89.134 9.898 -97.366 7.078e-3 78.743 0.677 108.756
3924.018 0.149 -95.434 9.838 -100.971 6.581e-3 69.154 0.68 108.144
3960.411 0.156 -101.806 9.756 -104.44 6.63e-3 76.664 0.682 107.477
3996.804 0.159 -108.395 9.64 -107.779 6.563e-3 81.544 0.683 106.647
4033.196 0.162 -113.684 9.566 -111.059 7.105e-3 78.524 0.682 106.166
4069.589 0.166 -118.615 9.465 -114.103 7.276e-3 75.533 0.682 105.337
4105.982 0.172 -123.443 9.369 -117.249 7.688e-3 74.054 0.681 104.57
4142.374 0.179 -127.793 9.271 -120.607 7.475e-3 72.258 0.68 103.861
4178.767 0.186 -131.782 9.151 -123.876 7.576e-3 70.373 0.68 103.149
4215.16 0.191 -136.032 9.042 -126.884 9.316e-3 70.025 0.68 102.596
4251.553 0.197 -139.451 8.94 -129.911 9.401e-3 70.525 0.676 101.763
4287.945 0.206 -142.507 8.85 -132.989 8.738e-3 68.556 0.676 101.043
4324.338 0.213 -145.11 8.765 -135.826 8.452e-3 61.764 0.677 100.461
4360.731 0.221 -147.799 8.667 -138.887 9.134e-3 65.255 0.672 99.567
4397.123 0.228 -150.285 8.577 -141.658 8.959e-3 66.377 0.667 98.916
4433.516 0.236 -152.245 8.477 -144.46 9.619e-3 61.239 0.664 98.264
4469.909 0.242 -153.978 8.375 -147.246 0.01 60.52 0.66 97.569
4506.301 0.249 -155.757 8.259 -150.145 9.905e-3 58.036 0.656 96.823
4542.694 0.257 -157.428 8.15 -153.004 9.816e-3 56.431 0.652 96
4579.087 0.263 -159.056 8.056 -155.751 0.01 58.404 0.649 95.116
4615.479 0.27 -160.682 7.964 -158.445 0.01 59.659 0.646 94.249
4651.872 0.278 -161.916 7.869 -161.015 0.01 59.21 0.642 93.436
4688.265 0.285 -163.132 7.785 -163.675 0.01 57.008 0.638 92.614
4724.658 0.293 -164.252 7.712 -166.492 0.01 53.087 0.633 91.888
4761.05 0.299 -165.134 7.625 -168.846 0.011 53.996 0.627 90.8
4797.443 0.306 -166.163 7.527 -171.43 0.011 50.963 0.623 89.892
4833.836 0.313 -167.016 7.441 -174.1 0.011 51.392 0.617 89.013
4870.228 0.319 -167.733 7.344 -176.574 0.011 49.867 0.614 88.062
4906.621 0.324 -168.531 7.251 -179.104 0.011 51.118 0.611 87.075
4943.014 0.331 -169.364 7.175 178.358 0.011 49.299 0.606 86.003
4979.406 0.339 -170.098 7.096 175.931 0.013 46.207 0.602 84.829
5015.799 0.342 -170.754 7.009 173.575 0.012 46.923 0.599 83.571
5052.192 0.348 -171.331 6.954 171.233 0.012 45.644 0.596 82.368
5088.584 0.356 -172.25 6.864 168.529 0.012 44.131 0.593 81.33
5124.977 0.362 -172.807 6.787 166.057 0.013 45.074 0.59 79.876
5161.37 0.365 -173.711 6.711 163.461 0.013 39.991 0.586 78.436
5197.763 0.369 -174.253 6.637 161.004 0.013 38.612 0.584 76.921
5234.155 0.375 -174.688 6.578 158.724 0.013 38.098 0.582 75.524
5270.548 0.378 -175.37 6.492 156.317 0.013 38.356 0.58 73.968
5306.941 0.382 -176.075 6.42 153.865 0.013 36.823 0.579 72.478
5343.333 0.386 -176.702 6.35 151.378 0.013 35.333 0.577 70.798
5379.726 0.389 -177.425 6.272 148.967 0.014 34.548 0.576 69.019
5416.119 0.393 -177.973 6.205 146.605 0.014 33.248 0.576 67.346
5452.511 0.396 -178.639 6.134 144.271 0.015 31.585 0.575 65.581
5488.904 0.4 -179.177 6.072 141.832 0.014 29.815 0.575 63.874
5525.297 0.403 -179.643 5.984 139.431 0.015 29.917 0.577 62.295
5561.689 0.404 179.613 5.912 136.925 0.015 28.875 0.578 60.327
5598.082 0.407 179.043 5.822 134.564 0.014 26.031 0.576 58.57
5634.475 0.409 178.285 5.747 132.152 0.015 25.346 0.576 56.862
5670.868 0.411 177.651 5.669 129.898 0.015 26.525 0.578 54.843
5707.26 0.412 177.118 5.582 127.591 0.016 24.117 0.579 53.065
5743.653 0.412 176.402 5.506 125.277 0.016 22.01 0.581 51.465
5780.046 0.414 175.633 5.426 123.034 0.016 19.871 0.582 49.804
5816.438 0.416 174.897 5.348 120.899 0.016 18.197 0.582 48.091
5852.831 0.418 174.119 5.263 118.867 0.015 19.589 0.584 46.603
5889.224 0.42 173.605 5.179 116.789 0.016 17.727 0.586 45.536
5925.616 0.42 172.848 5.129 114.655 0.015 12.765 0.591 44.458
5962.009 0.421 171.815 5.071 112.457 0.016 13.237 0.599 43.203
5998.402 0.421 170.934 5.009 110.07 0.015 15.183 0.605 41.659
6034.795 0.423 169.918 4.942 107.865 0.016 13.168 0.614 40.175
6071.187 0.425 168.886 4.869 105.75 0.016 10.537 0.621 38.859
6107.58 0.426 167.839 4.799 103.637 0.016 12.367 0.625 37.409
6143.973 0.426 166.654 4.724 101.529 0.016 11.236 0.631 36.262
6180.365 0.426 165.559 4.648 99.491 0.016 8.463 0.637 34.952
6216.758 0.427 164.288 4.573 97.435 0.016 7.591 0.642 33.723
6253.151 0.428 163.103 4.502 95.29 0.017 6.965 0.648 32.73
6289.543 0.428 162.071 4.428 93.393 0.017 6.628 0.653 31.752
6325.936 0.428 160.567 4.376 91.415 0.017 6.173 0.657 30.791
6362.329 0.428 159.367 4.319 89.533 0.017 5.176 0.662 30.008
6398.721 0.43 157.76 4.263 87.597 0.017 1.128 0.672 28.916
6435.114 0.43 156.063 4.209 85.528 0.017 -1.568 0.678 27.998
6471.507 0.43 154.519 4.133 83.451 0.017 -1.714 0.683 27.581
6507.9 0.43 152.786 4.076 81.507 0.017 0.495 0.69 26.878
6544.292 0.432 150.886 4.023 79.527 0.017 -1.927 0.695 26.263
6580.685 0.432 149.169 3.971 77.612 0.017 -3.2 0.7 25.64
6617.078 0.433 147.494 3.917 75.583 0.017 -2.133 0.706 25.021
6653.47 0.434 145.526 3.854 73.536 0.018 -3.987 0.712 24.444
6689.863 0.435 143.484 3.791 71.686 0.018 -5.979 0.715 23.916
6726.256 0.437 141.648 3.745 69.727 0.018 -4.212 0.721 23.45
6762.648 0.437 139.443 3.688 67.905 0.018 -3.833 0.726 23.398
6799.041 0.439 137.357 3.642 66.009 0.018 -8.615 0.729 22.878
6835.434 0.441 135.122 3.582 64.071 0.018 -12.045 0.734 22.582
6871.826 0.443 132.909 3.531 62.123 0.018 -9.365 0.741 22.474
6908.219 0.446 130.684 3.485 60.214 0.019 -8.917 0.746 22.279
6944.612 0.449 128.271 3.439 58.358 0.019 -10.877 0.751 22.003
6981.005 0.452 125.885 3.389 56.573 0.019 -11.84 0.756 21.746
7017.397 0.455 123.592 3.338 54.66 0.018 -12.045 0.762 21.517
7053.79 0.458 121.393 3.289 52.657 0.019 -14.032 0.767 21.296
7090.183 0.462 118.913 3.248 50.742 0.019 -17.366 0.772 20.897
7126.575 0.466 116.461 3.205 48.805 0.019 -18.469 0.779 20.604
7162.968 0.471 114.174 3.16 46.794 0.019 -17.519 0.784 20.378
7199.361 0.475 111.591 3.115 44.989 0.019 -16.076 0.784 20.176
7235.753 0.48 109.254 3.057 42.978 0.02 -23.225 0.788 20.008
7272.146 0.486 107.116 3.004 40.933 0.019 -24.487 0.79 19.646
7308.539 0.491 104.642 2.944 39.005 0.02 -25.584 0.792 19.228
7344.932 0.497 102.353 2.895 37.056 0.019 -27.926 0.795 19.051
7381.324 0.505 99.95 2.845 35.049 0.019 -24.51 0.797 18.913
7417.717 0.512 97.55 2.791 33.157 0.02 -22.926 0.796 18.666
7454.11 0.518 95.392 2.738 31.408 0.019 -26.459 0.795 18.467
7490.502 0.526 93.234 2.688 29.671 0.02 -26.887 0.797 18.47
7526.895 0.534 90.995 2.635 27.99 0.018 -29.967 0.798 18.555
7563.288 0.541 88.894 2.59 26.132 0.019 -30.097 0.798 18.467
7599.68 0.548 86.721 2.527 24.54 0.019 -28.966 0.796 18.236
7636.073 0.556 84.592 2.471 22.7 0.019 -31.83 0.796 18.275
7672.466 0.566 82.647 2.422 21.248 0.019 -37.044 0.797 18.464
7708.858 0.574 80.789 2.376 19.744 0.019 -38.263 0.796 18.44
7745.251 0.584 78.788 2.33 18.121 0.018 -38.931 0.795 18.5
7781.644 0.592 76.838 2.281 16.591 0.018 -40.675 0.794 18.63
7818.037 0.599 74.903 2.234 15.087 0.019 -40.134 0.794 18.676
7854.429 0.607 73.011 2.193 13.559 0.02 -38.627 0.796 18.724
7890.822 0.615 71.295 2.149 12.158 0.02 -39.808 0.796 18.88
7927.215 0.624 69.619 2.101 10.808 0.02 -40.878 0.798 18.905
7963.607 0.635 68.085 2.066 9.522 0.02 -44.904 0.799 19.106
8000 0.641 66.459 2.029 8.227 0.018 -45.075 0.799 19.444
