!Hittite Microwave Corporation								
!12 Elizabeth Drive								
!Chelmsford, MA 01824								
!Tel: 978-250-3343								
!Fax: 978-250-3373
!Device: HMC392, 3.5 - 7 GHz GaAs MMIC LNA
!Misc: Data includes two K connectors, Vdd: 5VDC								
!
# MHZ S MA R 50

2000 0.843 -145.705 1.757 137.331 556.6e-6 -89.183 0.911 -114.955
2035 0.829 -148.183 1.879 130.595 230.4e-6 -79.815 0.904 -116.78
2070 0.816 -150.666 1.989 123.819 201.7e-6 -138.806 0.9 -119.279
2105 0.808 -153.057 2.105 117.298 349.5e-6 -84.289 0.896 -121.72
2140 0.794 -155.535 2.211 110.728 474e-6 -98.757 0.891 -124.01
2175 0.786 -157.935 2.336 104.433 361.1e-6 -67.388 0.881 -126.311
2210 0.776 -160.295 2.437 98.274 381.7e-6 -83.439 0.88 -128.6
2245 0.762 -162.541 2.542 92.096 68.79e-6 109.012 0.87 -131.098
2280 0.754 -164.69 2.662 86.057 472e-6 -136.942 0.864 -133.424
2315 0.744 -167.064 2.772 80.111 618.5e-6 -157.986 0.856 -135.781
2350 0.735 -169.304 2.873 74.104 701.2e-6 -123.563 0.848 -138.252
2385 0.725 -171.633 2.962 68.491 715.6e-6 -153.863 0.842 -140.629
2420 0.715 -173.86 3.066 62.92 750.7e-6 -139.898 0.837 -142.796
2455 0.707 -176.263 3.169 57.278 737.2e-6 -150.564 0.827 -145.075
2490 0.699 -178.382 3.262 52.213 549.8e-6 -144.917 0.821 -147.705
2525 0.688 179.608 3.356 46.759 690.8e-6 -131.406 0.812 -149.973
2560 0.678 177.209 3.471 41.413 1.033e-3 -171.301 0.804 -152.306
2595 0.669 175.02 3.561 36.279 971.4e-6 178.363 0.792 -154.735
2630 0.661 172.927 3.671 31.036 1.292e-3 -168.051 0.783 -156.894
2665 0.652 170.765 3.769 25.927 1.15e-3 -161.079 0.776 -159.555
2700 0.644 168.836 3.865 21.059 1.181e-3 177.244 0.765 -162.021
2735 0.634 166.585 3.955 15.722 1.377e-3 169.63 0.754 -164.387
2770 0.625 164.362 4.028 10.648 1.391e-3 -179.04 0.748 -166.712
2805 0.615 162.382 4.125 5.837 1.192e-3 172.346 0.736 -168.97
2840 0.605 160.406 4.214 1.161 1.143e-3 159.018 0.725 -171.248
2875 0.599 158.467 4.301 -3.678 1.36e-3 148.101 0.714 -173.414
2910 0.589 156.602 4.382 -8.279 1.273e-3 152.765 0.705 -175.808
2945 0.578 154.495 4.48 -13.01 1.649e-3 158.999 0.691 -178.08
2980 0.57 152.467 4.561 -17.911 1.385e-3 158.033 0.68 179.63
3015 0.561 150.518 4.638 -22.368 1.819e-3 144.185 0.67 177.278
3050 0.553 148.659 4.741 -27.207 1.664e-3 146.259 0.657 174.862
3085 0.542 146.718 4.807 -31.87 2.086e-3 139.607 0.647 172.937
3120 0.533 145.225 4.892 -36.395 1.761e-3 124.862 0.631 170.79
3155 0.524 143.009 4.948 -40.98 2.046e-3 141.262 0.62 168.464
3190 0.515 141.733 4.995 -45.296 2.018e-3 131.386 0.602 166.295
3225 0.503 139.753 5.073 -49.884 1.898e-3 135.726 0.594 163.869
3260 0.496 138.151 5.158 -54.467 2.247e-3 129.299 0.584 162.05
3295 0.486 136.676 5.223 -58.53 2.311e-3 129.597 0.568 160.062
3330 0.477 134.835 5.278 -63.318 2.279e-3 122.552 0.555 157.754
3365 0.469 133.624 5.334 -67.398 2.218e-3 117.879 0.541 155.675
3400 0.459 131.836 5.406 -71.88 2.373e-3 118.274 0.527 153.868
3435 0.45 130.427 5.5 -76.175 2.533e-3 115.334 0.516 152.081
3470 0.443 128.985 5.553 -80.205 2.733e-3 119.6 0.5 150.227
3505 0.433 127.441 5.587 -84.854 2.801e-3 111.592 0.485 148.078
3540 0.424 126.486 5.615 -89.085 2.87e-3 101.001 0.471 146.302
3575 0.413 125.069 5.665 -93.222 2.563e-3 101.06 0.461 144.759
3610 0.405 123.984 5.709 -97.113 2.907e-3 102.996 0.447 142.898
3645 0.397 122.927 5.752 -101.045 2.779e-3 97.318 0.433 141.597
3680 0.388 121.818 5.781 -105.661 2.993e-3 96.766 0.419 139.835
3715 0.381 120.705 5.838 -109.737 2.986e-3 93.88 0.406 138.551
3750 0.371 119.678 5.893 -113.802 3.039e-3 94.677 0.395 137.25
3785 0.363 118.968 5.93 -117.548 3.493e-3 89.823 0.382 135.979
3820 0.354 117.983 5.941 -121.717 2.947e-3 88.046 0.368 134.627
3855 0.348 117.227 5.962 -125.714 3.607e-3 87.424 0.355 133.587
3890 0.34 116.508 5.983 -129.801 3.472e-3 85.15 0.342 132.472
3925 0.332 116.215 6.003 -133.808 3.368e-3 79.795 0.329 131.567
3960 0.324 115.596 6.031 -137.631 3.311e-3 73.941 0.319 130.784
3995 0.318 115.206 6.028 -141.494 3.852e-3 79.736 0.306 130.188
4030 0.311 114.702 6.044 -145.405 3.814e-3 76.667 0.295 129.424
4065 0.305 114.502 6.071 -149.46 4.034e-3 65.139 0.284 129.143
4100 0.298 114.362 6.089 -153.024 4.003e-3 68.186 0.275 128.8
4135 0.293 114.14 6.104 -156.831 3.963e-3 66.863 0.265 128.905
4170 0.287 114.078 6.091 -160.576 4.054e-3 61.45 0.256 129.033
4205 0.281 114.076 6.104 -164.349 4.187e-3 61.929 0.247 129.19
4240 0.277 114.049 6.117 -168.188 4.285e-3 57.023 0.24 129.592
4275 0.273 114.329 6.131 -171.817 4.241e-3 52.979 0.232 130.236
4310 0.268 114.423 6.105 -175.402 4.446e-3 53.97 0.224 131.191
4345 0.266 114.614 6.088 -179.304 4.269e-3 54.854 0.218 132.054
4380 0.261 115.137 6.113 177.161 4.515e-3 49.834 0.213 132.802
4415 0.259 115.608 6.085 173.523 4.705e-3 48.087 0.209 134.099
4450 0.256 115.942 6.066 170.006 4.754e-3 42.283 0.206 135.329
4485 0.255 116.501 6.066 166.535 4.757e-3 44.109 0.202 136.724
4520 0.253 116.784 6.059 162.737 4.643e-3 39.459 0.199 138.079
4555 0.251 117.533 6.033 159.254 4.947e-3 37.065 0.198 139.892
4590 0.251 117.838 6.041 155.572 4.972e-3 32.14 0.197 141.052
4625 0.25 117.94 6.019 152.522 5.094e-3 36.434 0.196 142.351
4660 0.251 118.768 5.994 149.147 5.175e-3 30.562 0.197 143.935
4695 0.251 119.266 6.001 145.679 4.977e-3 28.803 0.198 145.077
4730 0.251 119.754 5.967 142.081 5.199e-3 28.516 0.199 146.345
4765 0.252 120.076 5.962 138.727 5.29e-3 23.072 0.201 147.226
4800 0.254 120.452 5.943 135.554 5.388e-3 22.713 0.204 148.174
4835 0.256 120.887 5.921 132.189 5.2e-3 22.337 0.207 148.805
4870 0.259 121.302 5.891 129.068 5.453e-3 16.432 0.211 149.533
4905 0.261 121.691 5.871 125.635 5.631e-3 15.154 0.215 150.138
4940 0.264 121.961 5.867 122.388 5.811e-3 15.211 0.219 150.755
4975 0.266 121.877 5.835 119.165 5.694e-3 12.304 0.223 151.242
5010 0.27 121.843 5.828 115.962 5.592e-3 8.234 0.228 151.389
5045 0.273 122.131 5.791 112.865 5.994e-3 8.318 0.233 151.48
5080 0.276 121.948 5.767 109.375 5.876e-3 5.612 0.237 151.809
5115 0.279 122.055 5.759 106.392 6.268e-3 4.811 0.242 151.947
5150 0.283 121.769 5.742 103.342 6.03e-3 1.918 0.245 151.821
5185 0.287 121.55 5.717 100.207 6.135e-3 0.177 0.251 151.521
5220 0.291 121.382 5.695 96.989 6.3e-3 -1.159 0.255 151.105
5255 0.296 121.254 5.684 93.935 6.197e-3 -3.909 0.259 150.88
5290 0.3 121.044 5.668 90.759 6.275e-3 -5.359 0.264 150.285
5325 0.304 120.531 5.638 87.865 6.529e-3 -6.968 0.268 149.665
5360 0.309 120.164 5.613 84.756 6.486e-3 -9.471 0.274 148.99
5395 0.313 119.652 5.581 81.615 6.52e-3 -10.7 0.278 148.331
5430 0.318 119.451 5.579 78.488 6.435e-3 -11.6 0.283 147.861
5465 0.322 118.811 5.571 75.442 6.655e-3 -15.179 0.287 147.071
5500 0.326 118.243 5.546 72.639 6.758e-3 -17.259 0.291 146.339
5535 0.331 117.572 5.525 69.673 6.681e-3 -18.072 0.296 145.472
5570 0.336 116.999 5.494 66.761 6.824e-3 -20.147 0.3 144.796
5605 0.341 116.305 5.5 63.675 6.888e-3 -22.384 0.304 143.97
5640 0.347 115.648 5.473 60.771 6.766e-3 -23.358 0.307 143.058
5675 0.35 114.843 5.444 57.883 7.025e-3 -25.17 0.31 142.145
5710 0.356 114.007 5.419 54.871 7.276e-3 -26.804 0.314 141.112
5745 0.36 113.472 5.425 52.058 7.19e-3 -28.949 0.318 140.369
5780 0.366 112.528 5.417 49.027 7.184e-3 -31.203 0.321 139.226
5815 0.37 111.683 5.384 46.027 7.428e-3 -32.126 0.325 138.203
5850 0.375 110.994 5.375 43.422 7.491e-3 -31.82 0.328 137.153
5885 0.38 109.846 5.362 40.335 7.443e-3 -36.222 0.331 136.027
5920 0.385 109.006 5.356 37.437 7.605e-3 -38.426 0.335 135.173
5955 0.391 108.059 5.341 34.51 7.721e-3 -40.377 0.337 134.028
5990 0.395 107.115 5.317 31.682 7.813e-3 -39.929 0.34 133.181
6025 0.4 105.992 5.314 28.763 7.85e-3 -43.462 0.342 131.868
6060 0.405 104.993 5.307 25.9 7.754e-3 -45.2 0.345 130.705
6095 0.411 103.968 5.303 23.24 7.896e-3 -46.817 0.348 129.689
6130 0.416 102.957 5.288 20.299 8.103e-3 -48.095 0.349 128.763
6165 0.42 101.879 5.271 17.586 8.141e-3 -50.018 0.351 127.523
6200 0.425 100.713 5.258 14.648 8.306e-3 -51.969 0.355 126.28
6235 0.43 99.713 5.251 11.97 8.327e-3 -52.496 0.357 125.243
6270 0.436 98.355 5.226 9.021 8.467e-3 -55.684 0.359 124.273
6305 0.442 97.445 5.242 6.154 8.545e-3 -56.218 0.36 123.327
6340 0.446 96.28 5.221 3.394 8.496e-3 -58.395 0.361 122.123
6375 0.448 94.946 5.211 0.328 8.68e-3 -59.218 0.362 120.853
6410 0.455 93.629 5.208 -2.442 8.701e-3 -61.737 0.363 119.924
6445 0.46 92.478 5.192 -5.308 9.092e-3 -63.383 0.362 118.721
6480 0.465 91.141 5.203 -8.086 8.831e-3 -65.716 0.364 117.403
6515 0.469 89.861 5.189 -10.894 8.904e-3 -67.35 0.365 116.249
6550 0.477 88.533 5.182 -13.785 9.382e-3 -69.866 0.366 114.794
6585 0.48 87.307 5.173 -16.651 9.402e-3 -70.978 0.367 113.828
6620 0.487 85.904 5.16 -19.581 9.316e-3 -72.931 0.367 112.518
6655 0.49 84.201 5.174 -22.533 9.667e-3 -73.475 0.367 111.106
6690 0.497 83.162 5.163 -25.152 9.504e-3 -74.975 0.369 110.057
6725 0.501 81.522 5.154 -28.004 9.91e-3 -78.562 0.37 108.894
6760 0.509 80.181 5.157 -30.854 0.01 -79.233 0.369 107.948
6795 0.511 78.59 5.152 -33.786 9.99e-3 -80.275 0.367 106.594
6830 0.515 76.79 5.156 -36.92 0.01 -81.989 0.366 105.217
6865 0.521 75.271 5.154 -39.566 0.01 -84.514 0.366 103.975
6900 0.527 73.866 5.139 -42.599 0.011 -86.827 0.365 102.766
6935 0.531 72.28 5.136 -45.421 0.011 -89.138 0.363 101.387
6970 0.535 70.539 5.157 -48.339 0.011 -89.447 0.362 99.808
7005 0.54 68.618 5.138 -51.493 0.011 -93.064 0.361 98.272
7040 0.548 66.787 5.144 -54.267 0.011 -94.551 0.361 96.784
7075 0.553 65.269 5.145 -57.15 0.011 -94.992 0.359 95.654
7110 0.556 63.597 5.109 -60.311 0.011 -97.945 0.358 93.967
7145 0.562 61.642 5.134 -63.082 0.011 -100.269 0.356 92.677
7180 0.565 59.902 5.106 -66.097 0.011 -101.082 0.355 91.123
7215 0.573 57.95 5.1 -69.209 0.011 -102.369 0.353 89.846
7250 0.577 56.199 5.112 -72.121 0.012 -104.582 0.35 88.593
7285 0.58 54.414 5.083 -75.062 0.012 -106.277 0.347 87.018
7320 0.588 52.216 5.109 -78.291 0.012 -109.02 0.343 85.43
7355 0.589 50.27 5.077 -81.465 0.012 -111.307 0.343 83.868
7390 0.598 48.251 5.078 -84.233 0.013 -114.034 0.34 82.477
7425 0.602 46.212 5.097 -87.538 0.013 -115.887 0.336 80.827
7460 0.603 44.322 5.05 -90.297 0.012 -117.404 0.332 79.094
7495 0.609 41.955 5.064 -93.5 0.013 -118.584 0.329 77.071
7530 0.614 40.054 5.028 -96.58 0.013 -121.238 0.327 75.519
7565 0.62 37.966 5.009 -99.681 0.013 -123.161 0.324 74.169
7600 0.621 35.684 4.997 -102.774 0.013 -124.947 0.319 72.386
7635 0.625 33.464 5.004 -106.139 0.013 -128.823 0.315 70.657
7670 0.631 31.52 4.971 -108.931 0.013 -129.522 0.309 68.837
7705 0.633 29.107 4.957 -112.292 0.013 -130.661 0.305 67.105
7740 0.638 26.862 4.939 -115.314 0.014 -133.949 0.302 65.29
7775 0.644 24.506 4.912 -118.466 0.014 -135.548 0.296 63.536
7810 0.646 22.106 4.882 -121.712 0.014 -139.063 0.292 61.861
7845 0.653 19.938 4.881 -124.726 0.014 -140.703 0.285 59.785
7880 0.653 17.07 4.838 -128.459 0.014 -141.71 0.28 57.786
7915 0.656 15.26 4.808 -131.048 0.014 -143.692 0.275 55.565
7950 0.661 12.398 4.799 -134.653 0.014 -146.182 0.27 53.756
7985 0.662 10.371 4.731 -137.584 0.015 -149.266 0.264 51.864
8020 0.668 7.436 4.727 -140.87 0.015 -151.528 0.257 49.743
8055 0.666 5.156 4.672 -144.199 0.015 -153.167 0.251 47.449
8090 0.673 2.553 4.664 -147.194 0.015 -155.144 0.245 45.305
8125 0.672 -0.026 4.6 -150.627 0.015 -157.457 0.24 43.192
8160 0.676 -2.455 4.551 -153.608 0.015 -160.618 0.231 40.883
8195 0.681 -5.234 4.551 -157.207 0.015 -162.442 0.224 38.414
8230 0.681 -7.423 4.473 -160.099 0.015 -165.871 0.217 35.713
8265 0.685 -10.124 4.459 -163.415 0.015 -168.409 0.211 33.057
8300 0.685 -12.588 4.385 -166.636 0.015 -168.631 0.204 30.503
8335 0.69 -15.335 4.347 -169.913 0.015 -172.471 0.197 27.868
8370 0.688 -17.982 4.298 -173.196 0.015 -172.615 0.189 24.968
8405 0.691 -20.433 4.241 -176.214 0.015 -175.642 0.183 21.866
8440 0.69 -23.181 4.188 -179.433 0.015 -177.529 0.177 18.815
8475 0.691 -25.723 4.134 177.268 0.015 179.929 0.169 16.064
8510 0.696 -28.216 4.088 174.313 0.015 176.134 0.162 12.869
8545 0.696 -31.037 4.035 170.796 0.015 175.66 0.153 9.206
8580 0.696 -33.468 3.962 167.969 0.015 172.681 0.148 5.437
8615 0.697 -36.068 3.907 164.611 0.015 170.426 0.14 1.531
8650 0.701 -38.676 3.851 161.263 0.015 168.504 0.133 -2.535
8685 0.7 -41.035 3.805 158.63 0.015 166.353 0.126 -7.903
8720 0.699 -43.666 3.737 155.367 0.015 164.263 0.121 -12.879
8755 0.697 -45.962 3.661 152.468 0.015 161.707 0.117 -18.015
8790 0.699 -48.422 3.617 149.239 0.015 160.169 0.112 -23.23
8825 0.7 -51.116 3.545 146.117 0.015 157.772 0.108 -28.95
8860 0.697 -53.339 3.5 143.409 0.015 155.747 0.105 -35.489
8895 0.698 -55.945 3.419 140.271 0.015 152.949 0.102 -41.076
8930 0.7 -58.368 3.372 137.33 0.015 151.853 0.1 -47.181
8965 0.701 -60.556 3.317 134.122 0.015 149.091 0.097 -53.879
9000 0.697 -63.047 3.243 131.477 0.015 147.088 0.096 -61.341
