!Hittite Microwave Corporation								
!12 Elizabeth Drive								
!Chelmsford, MA 01824								
!Tel: 978-250-3343								
!Fax: 978-250-3373								
!Device: HMC344, DC-8 GHz GaAs MMIC SP4T Non-Reflective Switch Die							
!Misc: Room Temp Vctl=-5V Port1=RFC, Port2=RF1, Port3=RF2, Port4=RF3, Port5=RF4, RF4 ON.								
!
# MHZ S MA R 50

10	0.923	17.687	0.0006444	20.655	0.0001463	31.307	0.0003249	-177.191
	0.32	-71.031	0.0007313	127.048	0.746	27.507	0.0001224	-137.665
	0.0004456	93.642	0.0005686	130.639	0.0004367	-110.213	0.00003947	-108.465
	0.746	27.407	0.0003212	85.457	0.0002118	-31.85	0.0001016	-118.283
	0.0002535	83.714	0.0001069	-77.383	0.747	27.467	0.0001027	62.541
	0.319	-70.881	0.0003743	22.375	0.00006148	75.8	0.0003399	-162.293
	0.923	17.895						
99.9	0.241	34.695	0.0003816	82.573	0.000143	110.975	0.0003307	-48.866
	0.838	-16.397	0.0001574	-107.731	0.308	4.071	0.0002191	-26.889
	0.0001496	-44.009	0.0001803	58.276	0.0001155	-122.551	0.0003954	76.757
	0.31	4.016	0.00004056	139.087	0.000111	174.218	0.0001934	-134.059
	0.0003668	-79.457	0.0001413	150.97	0.308	3.913	0.0001472	111.347
	0.837	-16.466	0.000272	10.02	0.0002331	-163.579	0.0001585	-28.268
	0.235	35.909						
189.8	0.183	16.722	0.0002546	76.929	0.000215	96.814	0.0001389	-127.945
	0.847	-16.262	0.0004642	81.629	0.3	-6.228	0.0004314	43.59
	0.00008373	-83.198	0.000126	27.238	0.00009506	55.31	0.0004626	70.285
	0.302	-6.151	0.00005684	85.33	0.00006753	-78.917	0.0000876	-86.158
	0.0002691	106.945	0.0001182	16.425	0.302	-6.311	0.0001761	83.459
	0.847	-16.262	0.00003498	-164.74	0.00009536	128.601	0.0003306	111.586
	0.174	17.352						
279.7	0.168	4.226	0.0005911	77.867	0.0001245	94.517	0.0002097	18.081
	0.85	-19.229	0.0005813	75.796	0.298	-13.733	0.0006738	69.896
	0.0001408	140.032	0.0002161	106.954	0.00001151	-34.926	0.0006473	72.66
	0.3	-13.521	0.0001372	71.509	0.0001385	161.933	0.0002226	16.052
	0.0001014	-122.554	0.00009567	81.063	0.301	-13.519	0.0004523	63.923
	0.849	-19.268	0.0001456	57.745	0.000006915	60.323	0.000426	77.061
	0.159	3.832						
369.6	0.161	-5.349	0.0006445	64.491	0.0001835	60.418	0.00002105	-48.407
	0.85	-23.117	0.0006611	81.554	0.298	-20.571	0.0008189	66.235
	0.0001216	6.04	0.0001916	96.736	0.0001498	77.712	0.0008548	72.859
	0.299	-20.223	0.0001872	47.13	0.0001962	78.149	0.00004209	-71.682
	0.00004089	50.515	0.0001842	101.196	0.299	-19.997	0.0006246	65.316
	0.849	-23.084	0.0002116	54.153	0.0001002	20.073	0.0006505	61.957
	0.154	-7.003						
459.5	0.156	-13.368	0.0007958	67.412	0.000164	59.806	0.00003126	162.021
	0.85	-27.447	0.0007836	68.543	0.298	-27.115	0.001086	58.893
	0.00009171	0.801	0.0001113	49.466	0.0001332	71.17	0.001069	61.961
	0.3	-26.704	0.0001372	63.378	0.0001213	25.165	0.00009727	-153.037
	0.0001288	63.62	0.000142	31.613	0.297	-26.364	0.0007931	61.298
	0.849	-27.371	0.0002713	57.596	0.00005857	103.911	0.0008154	64.465
	0.15	-17.124						
549.4	0.153	-20.755	0.0009501	61.766	0.0001182	80.828	0.00003031	-107.341
	0.851	-31.926	0.000932	62.876	0.3	-33.551	0.00125	61.26
	0.00006497	47.259	0.0003127	57.498	0.0002577	67.408	0.001266	58.243
	0.301	-32.97	0.0002599	47.421	0.0001248	64.291	0.00002218	-50.458
	0.00008494	89.157	0.0002698	57.502	0.297	-32.958	0.0009496	66.003
	0.849	-31.896	0.0003091	58.224	0.0001756	51.219	0.00098	60.993
	0.15	-26.997						
639.3	0.15	-27.632	0.001063	61.058	0.0001304	63.84	0.00006004	-84.172
	0.851	-36.478	0.001117	60.905	0.303	-39.6	0.001417	56.288
	0.0001409	76.62	0.0003129	51.921	0.0002051	73.587	0.001466	57.779
	0.303	-38.587	0.0003216	54.097	0.0001037	64.602	0.00001574	4.789
	0.000145	64.134	0.0003237	45.852	0.299	-39.115	0.001091	59.589
	0.849	-36.477	0.0003349	53.926	0.0001738	50.643	0.001079	57.837
	0.153	-36.488						
729.2	0.147	-34.049	0.001274	56.396	0.0001899	59.572	0.00003334	-91.48
	0.849	-41.146	0.001282	55.545	0.306	-45.461	0.001661	50.831
	0.0001349	51.421	0.0004126	42.791	0.0001914	65.474	0.001587	52.623
	0.307	-44.889	0.000268	64.366	0.0001798	44.758	0.00004303	-115.157
	0.0001709	39.441	0.000311	44.713	0.304	-45.813	0.001228	50.002
	0.848	-41.162	0.00034	54.574	0.0001275	37.188	0.001173	55.906
	0.158	-45.266						
819.1	0.144	-40.32	0.001438	52.908	0.0002753	53.4	0.00007976	-106.178
	0.849	-45.8	0.001386	53.5	0.309	-50.985	0.001872	49.002
	0.0001739	30.776	0.000327	46.165	0.000309	52.647	0.001837	48.152
	0.309	-50.505	0.0003944	44.376	0.0001507	28.717	0.00003125	-64.102
	0.0001193	43.066	0.000367	37.482	0.307	-51.556	0.001385	51.62
	0.848	-45.804	0.0003722	40.2	0.0001686	38.447	0.001386	52.532
	0.162	-52.814						
909	0.142	-46.434	0.00155	48.605	0.0003386	56.709	0.00004986	-126.183
	0.848	-50.465	0.00153	48.477	0.312	-56.24	0.002065	45.061
	0.0002158	41.124	0.0003836	42.62	0.0003049	53.888	0.001994	43.504
	0.311	-55.803	0.0003914	44.378	0.0002099	40.75	0.000105	-136.036
	0.0002384	52.981	0.0003683	46.928	0.309	-56.955	0.001478	47.283
	0.847	-50.443	0.0004415	33.598	0.0001895	31.429	0.001492	46.565
	0.166	-59.599						
998.9	0.14	-52.451	0.001652	44.301	0.0003129	50.226	0.0001393	-124.672
	0.847	-55.191	0.001637	45.92	0.314	-61.361	0.002158	39.986
	0.0002445	49.461	0.0004419	33.919	0.0003277	53.568	0.002215	40.494
	0.312	-60.956	0.0004139	34.846	0.0001606	29.938	0.00007617	-105.27
	0.0001694	48.205	0.000486	41.214	0.311	-62.163	0.001641	43.618
	0.846	-55.214	0.0004847	25.551	0.0002312	25.326	0.001646	43.575
	0.167	-65.774						
1088.8	0.139	-58.035	0.00184	42.39	0.0003948	52.688	0.000109	-149.501
	0.846	-59.878	0.001759	42.965	0.314	-66.554	0.002416	35.903
	0.0002323	39.064	0.0005142	19.536	0.0003436	56.408	0.002292	36.202
	0.312	-66.212	0.0005171	30.733	0.0002382	20.112	0.00009495	-148.046
	0.000216	48.977	0.0005335	33.543	0.311	-67.345	0.001775	38.945
	0.845	-59.851	0.0004648	30.793	0.0002287	30.571	0.001785	40.686
	0.168	-71.703						
1178.7	0.138	-63.483	0.001907	39.153	0.000365	41.524	0.0001404	-134.414
	0.846	-64.656	0.001923	39.047	0.315	-71.897	0.002531	32.194
	0.0001999	37.35	0.0005121	19.019	0.0004111	45.688	0.002515	32.938
	0.312	-71.688	0.0005037	25.906	0.0001968	25.225	0.0001568	-134.666
	0.0001925	34.434	0.0005288	29.748	0.311	-72.625	0.001924	35.942
	0.844	-64.656	0.0005746	19.001	0.0002842	17.026	0.001965	36.864
	0.168	-77.687						
1268.6	0.137	-69.112	0.002061	37.331	0.0004455	43.167	0.0002161	-153.475
	0.845	-69.424	0.002064	36.971	0.316	-77.305	0.002741	28.574
	0.0002267	29.153	0.000603	9.751	0.0003951	51.828	0.002685	28.552
	0.312	-77.19	0.0006033	23.356	0.0003177	5.164	0.0001388	-155.484
	0.0002364	22.686	0.0005384	22.243	0.309	-78.127	0.002096	30.263
	0.844	-69.397	0.0006209	14.379	0.0002958	5.266	0.002094	32.237
	0.167	-84.009						
1358.5	0.137	-74.907	0.00214	30.92	0.0004582	43.133	0.0002285	-160.225
	0.845	-74.246	0.002149	32.426	0.316	-82.778	0.002858	24.927
	0.0002848	11.763	0.0005784	8.44	0.0004659	42.133	0.00287	24.977
	0.312	-82.679	0.0005736	12.804	0.0003552	6.784	0.0001777	-161.627
	0.0002808	24.011	0.0005917	18.932	0.308	-84.11	0.002105	27.864
	0.844	-74.181	0.0005901	6.526	0.0003361	5.985	0.002125	28.466
	0.168	-90.976						
1448.4	0.138	-80.738	0.002222	30.626	0.0004776	37.56	0.0001772	-159.847
	0.843	-79.078	0.002271	32.102	0.316	-88.466	0.003028	20.666
	0.0002707	11.995	0.0006224	1.463	0.0004968	44.263	0.00301	20.707
	0.313	-88.217	0.0005309	9.429	0.0003569	-7.514	0.000166	-170.029
	0.0002995	20.407	0.000607	10.614	0.309	-90.237	0.002202	24.587
	0.842	-79.058	0.0006526	-1.973	0.0003573	-1.498	0.002212	25.378
	0.17	-98.312						
1538.3	0.141	-86.204	0.002603	30.572	0.0005494	39.728	0.0002927	-168.506
	0.843	-83.885	0.002619	32.066	0.315	-94.116	0.003217	15.999
	0.0002782	11.36	0.0007097	-6.858	0.0005529	37.826	0.00319	15.426
	0.313	-93.81	0.0006718	4.105	0.0003086	-21.531	0.0002955	-160.9
	0.0003423	9.962	0.0006768	2.783	0.312	-96.071	0.002364	22.865
	0.842	-83.94	0.0007219	-9.838	0.0003542	-18.809	0.002365	22.616
	0.173	-105.125						
1628.2	0.144	-91.175	0.002933	20.442	0.0005995	32.88	0.0002955	-178.89
	0.841	-88.736	0.002898	21.138	0.317	-99.285	0.00333	12.96
	0.0003057	-0.012	0.0007405	-18.105	0.00055	36.173	0.003331	12.503
	0.315	-99.43	0.0007072	0.641	0.0002441	-19.664	0.0002987	172.879
	0.0003291	0.249	0.0006847	6.228	0.314	-101.634	0.002502	18.183
	0.84	-88.74	0.0007071	-22.938	0.0002469	-25.519	0.002463	16.688
	0.177	-111.599						
1718.1	0.147	-95.989	0.002791	16.796	0.0006064	27.886	0.0003206	163.12
	0.838	-93.534	0.002739	17.007	0.32	-104.453	0.003544	8.233
	0.0002851	-3.01	0.0007367	-32.888	0.0006162	25.185	0.003505	7.591
	0.317	-104.539	0.0007325	-3.276	0.0003119	-48.044	0.0002846	171.234
	0.0003239	9.015	0.0006923	1.421	0.316	-106.794	0.002605	14.972
	0.838	-93.517	0.000742	-29.451	0.0003315	-49.998	0.002614	15.46
	0.179	-117.93						
1808	0.151	-100.405	0.003002	17.134	0.0006838	24.665	0.0003598	173.06
	0.835	-98.282	0.002977	17.647	0.321	-109.339	0.003663	3.466
	0.000294	0.465	0.0006629	-31.746	0.0006592	23.844	0.003608	4.264
	0.318	-109.21	0.0007441	-6.528	0.0001935	-34.524	0.0003249	172.779
	0.0003139	0.877	0.0007852	-6.028	0.317	-111.743	0.002698	11.72
	0.833	-98.274	0.0006318	-33.619	0.0001909	-33.447	0.002676	10.943
	0.18	-123.85						
1897.9	0.156	-104.391	0.003468	13.969	0.000684	22.152	0.0003735	173.682
	0.832	-102.874	0.003471	12.503	0.32	-113.595	0.003826	-0.221
	0.0003191	-4.394	0.0006911	-33.104	0.0006933	21.16	0.003821	-0.315
	0.321	-113.731	0.0007593	-7.654	0.0002756	-26.133	0.0004106	167.707
	0.0003377	-8.785	0.0007699	-11.365	0.322	-116.386	0.002819	7.603
	0.831	-102.843	0.0006869	-33.771	0.0002418	-29.391	0.002797	8.69
	0.181	-129.103						
1987.8	0.161	-108.07	0.003489	3.433	0.0006389	20.025	0.0004442	162.139
	0.833	-107.53	0.003479	3.259	0.327	-117.811	0.003962	-3.97
	0.0003806	-10.182	0.0006446	-42.929	0.0006947	16.201	0.003933	-3.853
	0.325	-118.462	0.0007978	-10.115	0.0001483	-35.31	0.0004889	159.012
	0.0003629	-5.26	0.0007403	-14.732	0.327	-121.053	0.002897	4.691
	0.832	-107.481	0.0007282	-47.085	0.0001958	-59.226	0.002914	4.396
	0.182	-134.168						
2077.7	0.165	-111.812	0.003514	-1.126	0.000702	15.888	0.0005303	158.127
	0.833	-112.242	0.003434	-0.477	0.332	-122.742	0.004135	-7.838
	0.0003755	-9.007	0.0006509	-50.443	0.0007527	12.778	0.004065	-7.832
	0.329	-123.283	0.0008112	-16.785	0.00008657	-9.075	0.0005346	151.32
	0.0003504	-17.112	0.0008649	-22.469	0.331	-125.83	0.003054	1.313
	0.832	-112.205	0.0006494	-49.819	0.00009371	10.83	0.00301	2.266
	0.181	-138.762						
2167.6	0.169	-115.838	0.003506	-2.676	0.0007777	11.883	0.0005792	146.33
	0.832	-117.027	0.003554	-2.249	0.335	-127.335	0.004208	-12.149
	0.0003979	-11.57	0.0005546	-51.213	0.0007454	10.758	0.004196	-10.963
	0.332	-127.82	0.0007979	-23.975	0.0002136	20.809	0.0005949	153.262
	0.0003377	-25.558	0.00078	-22.545	0.333	-130.654	0.003169	-2.044
	0.832	-117.035	0.0005845	-54.28	0.0001674	29.576	0.0031	-1.181
	0.179	-143.633						
2257.5	0.173	-119.947	0.003672	-6.038	0.0007358	14.487	0.000606	147.205
	0.832	-121.805	0.003727	-5.852	0.336	-131.79	0.004414	-16.356
	0.0004128	-17.649	0.0006949	-48.778	0.0007377	10.906	0.004361	-16.929
	0.333	-132.248	0.0008529	-28.942	0.0003064	2.971	0.0006277	141.471
	0.0004809	-10.233	0.0009143	-25.676	0.335	-135.485	0.003435	-4.645
	0.83	-121.857	0.0006455	-53.797	0.0002996	2.31	0.003425	-3.897
	0.177	-148.415						
2347.4	0.178	-123.881	0.003852	-8.518	0.0008242	8.571	0.000773	138.099
	0.831	-126.572	0.003889	-10.489	0.336	-136.088	0.004508	-20.281
	0.0004315	-17.872	0.0007184	-61.681	0.0007988	14.817	0.004455	-20.058
	0.333	-136.771	0.0009041	-35.028	0.0003874	-13.486	0.0006597	139.791
	0.0004116	-26.263	0.0009767	-28.777	0.337	-140.158	0.003597	-10.746
	0.83	-126.622	0.0007401	-60.846	0.0003074	-11.925	0.003581	-10.178
	0.173	-152.723						
2437.3	0.183	-127.497	0.003962	-14.003	0.0008395	3.476	0.0007498	135.403
	0.829	-131.348	0.003946	-14.744	0.337	-140.476	0.00461	-24.459
	0.0004137	-34.014	0.0007002	-67.662	0.0008391	8.809	0.004603	-24.553
	0.333	-141.267	0.0009514	-36.732	0.0003102	-8.061	0.0007659	135.367
	0.000482	-28.935	0.0009518	-33.628	0.338	-144.517	0.003655	-14.82
	0.828	-131.365	0.0006558	-69.093	0.0003383	-13.21	0.003608	-15.143
	0.169	-156.573						
2527.2	0.188	-131.158	0.004021	-17.282	0.0008985	7.115	0.0008658	130.322
	0.828	-136.146	0.004038	-18.011	0.337	-144.615	0.004802	-28.725
	0.0005018	-31.021	0.0005321	-73.105	0.0008896	5.261	0.004715	-28.658
	0.333	-145.507	0.0009848	-37.814	0.0004616	-21.87	0.0008475	132.06
	0.000517	-31.207	0.001001	-37.828	0.338	-148.73	0.003671	-18.977
	0.827	-136.145	0.000615	-74.92	0.0004314	-18.612	0.003751	-19.085
	0.164	-159.924						
2617.1	0.193	-134.911	0.004169	-21.341	0.0009564	0.314	0.0009606	120.7
	0.827	-140.941	0.004202	-21.542	0.336	-148.774	0.00497	-32.721
	0.000475	-39.922	0.0007014	-57.723	0.000934	-2.738	0.004955	-32.727
	0.331	-149.626	0.0009927	-39.415	0.0004525	-29.369	0.0009871	126.54
	0.0005102	-42.383	0.001038	-43.029	0.337	-152.978	0.003818	-23.018
	0.826	-140.975	0.0006726	-56.109	0.0004129	-28.622	0.00378	-22.827
	0.157	-163.448						
2707	0.199	-138.166	0.004337	-25.071	0.0009573	-6.455	0.001067	114.399
	0.825	-145.701	0.004325	-25.853	0.332	-152.936	0.005085	-37.198
	0.0004642	-43.102	0.0007925	-68.791	0.0009975	-5.743	0.005055	-37.281
	0.328	-153.722	0.001127	-45.823	0.0004681	-40.434	0.001059	113.816
	0.0005879	-44.767	0.001118	-47.126	0.335	-157.175	0.003911	-26.168
	0.825	-145.71	0.0007818	-69.791	0.0005228	-36.229	0.003916	-26.221
	0.149	-166.608						
2796.9	0.205	-140.906	0.004389	-30.013	0.0009807	-9.512	0.001059	113.976
	0.824	-150.529	0.004352	-30.327	0.329	-157.265	0.005167	-41.18
	0.0005403	-43.852	0.0007539	-87.578	0.0009668	-8.146	0.00519	-41.015
	0.324	-157.944	0.001072	-53.667	0.000507	-49.577	0.001097	108.547
	0.0004981	-40.007	0.001103	-55.933	0.332	-161.274	0.004042	-30.076
	0.823	-150.48	0.0007567	-87.67	0.0005413	-49.266	0.004093	-29.793
	0.14	-169.067						
2886.8	0.211	-143.227	0.004383	-33.418	0.001066	-11.928	0.001213	105.935
	0.823	-155.291	0.004361	-33.142	0.325	-161.675	0.005288	-45.533
	0.0005159	-46.633	0.0006913	-87.332	0.0009871	-10.579	0.005337	-45.617
	0.32	-162.28	0.001083	-54.289	0.0005276	-58.542	0.001207	105.906
	0.0005432	-48.372	0.001069	-54.621	0.328	-165.387	0.004164	-34.213
	0.821	-155.244	0.000668	-81.785	0.000487	-62.705	0.004164	-34.217
	0.13	-171.283						
2976.7	0.215	-145.625	0.004522	-36.777	0.001052	-14.273	0.001258	100.298
	0.821	-160.086	0.004507	-36.82	0.32	-166.086	0.005467	-49.095
	0.0005916	-52.31	0.0006852	-87.643	0.001049	-17.124	0.005511	-49.806
	0.315	-166.49	0.001162	-58.972	0.0004568	-66.082	0.00128	100.862
	0.0005577	-49.578	0.001165	-58.843	0.322	-169.68	0.004335	-36.807
	0.82	-160.049	0.0006997	-88.563	0.0004386	-79.627	0.004326	-36.609
	0.118	-173.733						
3066.6	0.22	-147.811	0.004577	-39.719	0.00108	-20.107	0.001317	96.863
	0.819	-164.83	0.004611	-40.196	0.315	-170.473	0.005629	-53.7
	0.0006289	-59.613	0.0007374	-95.291	0.001056	-22.071	0.005571	-53.787
	0.309	-170.682	0.001155	-66.244	0.0004554	-65.199	0.001361	94.235
	0.000627	-59.266	0.001183	-65.52	0.316	-174.11	0.004563	-40.334
	0.818	-164.813	0.0007292	-98.158	0.0004615	-71.941	0.004584	-40.305
	0.108	-175.937						
3156.5	0.225	-149.487	0.004728	-43.728	0.001095	-23.615	0.001409	90.356
	0.816	-169.545	0.004699	-43.856	0.309	-174.894	0.005791	-57.857
	0.0006251	-69.15	0.0007261	-107.131	0.00109	-22.281	0.005794	-57.997
	0.303	-174.855	0.00122	-69.682	0.0004558	-90.908	0.001439	90.785
	0.0005719	-66.734	0.001273	-72.794	0.31	-178.466	0.004838	-45.92
	0.815	-169.555	0.0006891	-105.378	0.0004763	-85.419	0.004851	-45.468
	0.097	-177.268						
3246.4	0.231	-150.783	0.004731	-47.231	0.001108	-22.004	0.001563	84.532
	0.814	-174.261	0.004724	-46.704	0.303	-179.25	0.005963	-61.77
	0.0005706	-67.949	0.0006565	-110.315	0.001095	-22.128	0.005978	-61.926
	0.296	-178.969	0.001217	-75.048	0.0002875	-102.966	0.001516	84.934
	0.0005887	-65.815	0.00123	-72.735	0.305	177.451	0.005001	-50.43
	0.813	-174.264	0.0006466	-112.313	0.0003612	-88.67	0.004959	-50.683
	0.088	-176.829						
3336.3	0.236	-152.133	0.004829	-50.073	0.001114	-23.818	0.001661	79.647
	0.812	-178.9	0.004828	-50.592	0.297	176.583	0.006131	-66.574
	0.0006487	-73.802	0.0006582	-114.688	0.001095	-23.69	0.006175	-66.778
	0.29	177.163	0.001247	-80.364	0.0002685	-83.867	0.001652	79.437
	0.000668	-79.994	0.001246	-78.451	0.298	173.627	0.005116	-56.095
	0.811	-178.896	0.0006225	-111.083	0.0002869	-77.698	0.005166	-56.158
	0.079	-174.446						
3426.2	0.243	-153.835	0.004912	-53.508	0.001175	-27.424	0.001788	73.956
	0.811	176.468	0.004938	-53.607	0.291	172.368	0.00629	-71.248
	0.0006866	-77.778	0.0005771	-118.299	0.001147	-27.368	0.006267	-71.238
	0.283	173.254	0.0013	-83.899	0.000358	-77.04	0.001797	74.343
	0.0006164	-77.947	0.001256	-82.157	0.291	169.67	0.005173	-61.774
	0.81	176.456	0.0005907	-118.935	0.0003141	-82.217	0.00524	-61.777
	0.072	-170.944						
3516.1	0.251	-155.88	0.005062	-56.784	0.001188	-29.391	0.001889	70.854
	0.811	171.811	0.005035	-56.732	0.285	168.075	0.006414	-75.46
	0.0006887	-86.261	0.0005629	-125.228	0.001199	-27.347	0.006465	-75.671
	0.275	169.308	0.001299	-85.938	0.0003596	-73.131	0.001807	68.029
	0.0006646	-83.966	0.001264	-87.357	0.285	165.646	0.005248	-65.587
	0.811	171.803	0.000541	-120.751	0.0003711	-68.289	0.005255	-65.769
	0.066	-165.854						
3606	0.26	-157.991	0.005119	-60.129	0.001281	-33.328	0.001959	63.297
	0.81	167.177	0.005115	-60.124	0.278	163.515	0.006623	-79.842
	0.0006727	-93.269	0.000561	-124.625	0.001236	-31.057	0.006602	-80.016
	0.266	165.067	0.001377	-86.979	0.0004048	-80.478	0.00197	65.47
	0.0006505	-89.012	0.001307	-88.416	0.277	161.486	0.005437	-69.229
	0.809	167.183	0.000456	-123.775	0.0003971	-84.349	0.005424	-69.308
	0.063	-159.546						
3695.9	0.268	-160.456	0.005162	-63.073	0.001295	-36.542	0.0021	57.774
	0.81	162.432	0.005225	-63.086	0.27	158.744	0.006838	-84.821
	0.0006494	-97.302	0.0005466	-128.938	0.001302	-34.988	0.006828	-84.47
	0.257	160.55	0.001367	-94.612	0.0003869	-93.752	0.002029	58.964
	0.0006684	-94.906	0.001444	-92.888	0.269	157.164	0.005642	-74.014
	0.81	162.511	0.0005164	-127.474	0.0003593	-87.379	0.00563	-73.403
	0.062	-153.533						
3785.8	0.275	-163.193	0.005324	-65.821	0.001265	-37.653	0.002192	53.351
	0.811	157.78	0.005293	-66.168	0.262	153.726	0.006998	-89.462
	0.000687	-98.91	0.0004718	-128.205	0.001352	-37.949	0.007001	-89.243
	0.248	155.797	0.001451	-95.495	0.0003514	-92.124	0.002175	53.725
	0.0006795	-97.134	0.001399	-97.041	0.259	152.544	0.005765	-78.562
	0.81	157.764	0.0004655	-137.492	0.0002775	-92.242	0.005784	-78.052
	0.062	-147.712						
3875.7	0.282	-166.361	0.005459	-69.45	0.001446	-39.746	0.002313	47.513
	0.811	153.018	0.005417	-69.346	0.253	148.288	0.007147	-93.913
	0.0006887	-101.192	0.0004193	-133.373	0.001403	-39.426	0.007097	-93.558
	0.237	150.625	0.001533	-102.276	0.0003613	-81.977	0.002312	47.748
	0.0006688	-104.266	0.001516	-102.43	0.249	147.504	0.005966	-82.428
	0.81	153.001	0.0004137	-131.501	0.0003549	-83.041	0.005972	-82.905
	0.062	-142.622						
3965.6	0.289	-169.65	0.005587	-73.026	0.00148	-44.95	0.002469	42.229
	0.81	148.303	0.005588	-72.811	0.245	142.403	0.007346	-97.917
	0.0007321	-111.468	0.0003975	-125.772	0.001487	-44.637	0.007355	-98.164
	0.227	145.025	0.001484	-109.877	0.0003705	-89.471	0.002415	43.22
	0.000687	-105.188	0.001535	-109.091	0.239	142.123	0.006178	-87.815
	0.81	148.327	0.0003187	-135.46	0.0003158	-88.88	0.006226	-87.579
	0.063	-138.972						
4055.5	0.295	-172.86	0.005665	-76.08	0.001464	-47.285	0.002518	36.726
	0.811	143.529	0.005649	-76.533	0.237	135.982	0.007592	-102.867
	0.000732	-112.595	0.0003284	-135.675	0.001501	-48.306	0.007555	-102.84
	0.217	138.883	0.001532	-113.275	0.0003324	-77.304	0.002521	36.893
