! Hittite Microwave Corporation					
! 20 Alpha Road
! Chelmsford, MA 01824
! Tel: 978-250-3343
! Fax: 978-250-3373
! Device: HMC344LH5, DC-12 GHz GaAs MMIC SP4T Non-Reflective Switch in Hermetic Leadless SMT Package
! Misc: Data was de-embedded to package pins.
!       Port 1 = RFC
!       Port 2 = RF1
!       Port 3 = RF2
!       Port 4 = RF3
!       Port 5 = RF4
!  
!  RF3 selected, Vctl= 0/-5 V
!
!  Data reformated to new Touchstone file format - Tue Jan 09 13:46:17  2007
!
# MHz S DB R 50
! 5 Port Network Data
! freq  dbS11  angS11  dbS12  angS12  dbS13  angS13  dbS14  angS14  
!       dbS15  angS15  
!       dbS21  angS21  dbS22  angS22  dbS23  angS23  
!       dbS24  angS24  dbS25  angS25  
!       dbS31  angS31  dbS32  angS32  
!       dbS33  angS33  dbS34  angS34  dbS35  angS35  
!       dbS41  angS41  
!       dbS42  angS42  dbS43  angS43  dbS44  angS44  dbS45  angS45  
!       dbS51  angS51  dbS52  angS52  dbS53  angS53  dbS54  angS54  
!       dbS55  angS55  
!     
                10        -16.137508             -0.523        -63.5305154             56.443        -71.0382467            163.266        -1.74493393             -1.094
                      -60.2798014            -33.821
                      -57.2213212            -38.816        -15.3910216              1.886        -63.4396987             28.263        -68.1409286            -10.082
                      -70.0697096            140.173
                       -71.010432             82.011        -64.8992813             19.033         -16.137508              1.722        -74.6706621            103.446
                      -84.5697202             20.343
                      -1.14991788             -0.364        -71.2196654             55.409        -59.8279966            -43.775        -17.2024183              -0.51
                      -62.7609525            112.841
                      -65.9393339           -130.803        -62.8196371            -72.677         -71.010432             49.623        -64.2408775           -114.671
                      -15.8096997              1.674

             69.95       -16.9542331             -2.739        -74.9235512             82.875        -81.9132642             -45.26         -1.4218462             -2.042
                      -78.5109856             -8.873
                      -77.3548062           -130.694         -15.139239             -1.621        -76.1319419              3.001        -81.2026291           -141.261
                      -96.4839673              89.17
                      -81.4875709            -176.41        -78.2728034             60.891        -15.8634825             -1.639        -74.7414906             78.465
                      -78.1035924             25.061
                      -1.41162149             -2.112        -90.7400678            169.938        -79.0311639              29.74         -17.139704             -2.219
                      -80.9045402           -106.469
                      -76.6300503            126.356          -76.77264              14.67        -77.9856983             62.831         -76.972603             84.757
                      -15.4938144             -1.525

             129.9       -17.0156177             -5.121        -79.7432555             50.652        -94.6050725            147.013        -1.44233179              -3.58
                      -74.9672356             75.861
                      -86.1377777            -97.704         -15.139239             -3.319        -75.8257996             56.497        -82.7561794            141.506
                      -87.4138472            126.766
                       -104.96826           -177.496        -80.9132198             70.447        -15.8096997              -3.32         -79.576214             76.331
                      -82.1938157            162.087
                      -1.43208295              -3.62        -80.1453959            113.077        -95.2742945             78.356         -17.139704             -4.703
                      -77.1522107            109.001
                      -71.6240342             69.567        -73.6220457             90.346         -83.124136             14.597        -78.4890608             69.668
                      -15.4938144             -3.165

            189.85       -16.9542331             -7.185        -80.4318241            118.375        -96.7966341           -116.196        -1.43208295             -5.187
                       -68.799475             82.007
                      -86.8588829             23.436        -15.0897466             -4.808        -69.1459806             74.865         -82.991977            162.791
                      -82.7573724             48.104
                      -95.5300812            158.936        -69.6481654             72.355        -15.8096997             -4.792        -85.4215671             55.909
                      -76.1097132            120.716
                      -1.43208295             -5.237         -86.331854             153.83        -77.2846297             75.631         -17.139704             -6.458
                      -77.3356109             64.397
                      -69.6323537             77.893        -75.8959127             75.044        -96.0488757           -112.004        -79.9221767             25.426
                      -15.4422659             -4.577

             249.8       -16.9542331             -9.321        -79.1406185            116.563        -86.4551631            133.643        -1.45259274             -6.652
                       -69.012577             87.636
                      -83.4023511            102.768        -15.0405347             -6.248        -67.2582145             88.904        -89.0469668            -43.818
                      -77.6612071             59.052
                      -88.5216912            -159.76        -69.8590826             65.214        -15.7562479             -6.314         -93.534958            124.306
                      -77.1961264             78.785
                      -1.45259274             -6.772          -84.64353            -44.295        -83.1553063            141.873        -17.0774393             -8.337
                      -72.7767801             51.589
                      -69.1534523             78.131        -79.1958674             56.312        -80.7478785             84.635        -78.0063872             60.422
                      -15.4422659             -6.037

            309.75       -16.9542331            -11.544        -78.9077389             97.829        -95.4783177             46.826        -1.46286582             -8.258
                      -67.5577928              80.91
                      -76.9115205             94.428        -15.0405347             -7.946        -65.9703673             82.652        -86.2280445            158.027
                       -76.972603               75.1
                      -83.0930773            149.155        -68.4593603             71.522        -15.7562479             -7.964        -82.8100288             78.061
                      -74.7604762             83.883
                      -1.46286582             -8.248         -86.684629            162.574        -78.9769496            119.772        -17.0156177            -10.522
                      -73.6429102             74.363
                      -68.6172055             72.329        -77.4773719              55.53        -74.3975421             95.043        -76.3004962             61.407
                      -15.3910216             -7.576

             369.7       -16.9542331            -13.874        -82.2307936             73.153        -85.6415995           -140.361        -1.46286582             -9.723
                      -67.0797718             80.164
                      -76.3688445            115.111           -14.9916             -9.572        -65.4150839             78.752        -86.2654876            102.825
                      -73.3149472               76.8
                      -91.1692392           -162.126         -64.874887             79.362         -15.703123             -9.651         -85.117271             90.171
                       -74.212681             77.684
                      -1.45259274             -9.863        -81.2386163            169.143         -83.059658             99.858        -16.9542331            -12.566
                      -75.1144576              71.66
                      -66.2316036              84.25        -73.4855828              90.05        -73.0027984             87.244        -73.9577125             76.419
                      -15.3910216             -9.051

            429.65       -16.8932793            -15.925        -74.5214644             98.649        -81.4546464           -177.625        -1.47315107            -11.256
                      -65.2481967             75.733
                      -77.3420046             79.748        -14.9429394            -10.978        -64.0657387             78.234        -89.0076752             73.163
                      -73.0573043             78.042
                      -91.6074928           -179.116        -64.0159469             78.424        -15.6503211            -11.144        -86.4880989             95.634
                       -73.914499             90.346
                      -1.46286582            -11.306         -97.348403            -86.757        -78.7483603             87.278        -16.9542331            -14.624
                      -72.1320061             90.859
                       -66.024075             80.974        -76.2665227             89.842         -73.676398             85.616        -73.3028862             78.585
                      -15.3400778            -10.433

             489.6       -16.9542331            -18.039        -74.2888538             96.179        -86.8646244           -176.259        -1.46286582            -12.849
                      -64.1591738              83.69
                      -75.2843826            104.973        -14.8945499            -12.437        -62.5989484             80.886        -86.0536692           -166.509
                      -72.4102637             87.473
                      -86.5783953           -167.646        -62.8088285             79.176        -15.6503211            -12.679        -82.6636239             94.232
                      -72.6268258             70.668
                      -1.46286582            -12.869        -84.9574939            166.021        -80.0008686             87.218        -16.8932793            -16.822
                      -72.0446749             79.294
                      -65.0362395             76.165        -73.0886049             75.463        -72.5270506             76.628        -72.0551084             82.222
                      -15.3400778            -11.917

            549.55       -16.9542331            -20.328        -73.0027984            100.802        -85.3698363            132.554        -1.47315107            -14.349
                      -63.6236098             78.551
                      -74.2350155             95.676        -14.8464285            -13.977        -61.9132642             79.861        -84.0963082            119.521
                      -71.2323179             80.118
                      -81.5340832           -147.176        -61.6740801             80.141        -15.5978382            -14.255        -78.3299476            100.034
                       -70.541947             74.143
                      -1.47315107            -14.409        -83.3972123            127.148        -78.6511431            103.223        -16.8327502            -19.368
                      -71.9719892             77.902
                      -63.4409894             78.792        -71.7139062             88.818        -70.4229006             74.124        -70.7161726             88.237
                      -15.2894311            -13.485

             609.5       -16.9542331            -22.546        -72.8070841             94.067         -79.667689            175.675        -1.48344851            -15.879
                      -62.6837124             77.759
                      -72.6454291             94.116        -14.7985722            -15.369        -60.8564774             80.655        -93.6512701            117.551
                      -69.9870387             80.322
                      -80.8939435            146.254        -61.1261535             80.005        -15.5456706            -15.709        -79.5679457            102.421
                      -70.6065045             76.498
                      -1.48344851            -15.929        -85.9772787            153.043        -76.5129881             94.821        -16.8327502            -21.647
                      -70.2515758             92.016
                      -62.6153656             79.589        -70.3969855             84.412        -70.3168515             82.028        -70.8393362             87.313
                      -15.2894311             -14.98

            669.45       -16.9542331            -24.208        -72.3021841             96.227        -82.1949339            173.265        -1.49375817            -17.397
                      -61.4886018             79.352
                      -71.2990472             94.254        -14.7509782            -16.717        -60.2092239             78.903        -83.8263298            158.528
                      -70.0503493              80.96
                      -78.6884057           -166.694        -60.2092239             78.563        -15.4938144            -17.087        -78.6511431             109.97
                      -69.8997152             80.447
                      -1.49375817            -17.437        -83.9294921            152.256         -77.399761             94.045        -16.8327502            -23.364
                      -69.5720074             91.857
                      -61.5309746             80.309        -69.6904712              76.43         -70.047587             81.036        -70.3568261             83.888
                      -15.2390779              -16.4

             729.4       -16.9542331            -25.983         -71.408184             97.077        -78.2941884            167.376        -1.48344851            -18.884
                      -61.3343046             78.396
                      -71.3054292             99.339        -14.7509782            -18.096        -59.5431878             78.712        -80.6687183            150.864
                       -69.231039             75.938
                      -82.9455218            162.325        -59.3718307             76.062        -15.4938144            -18.511         -75.189015            115.007
                      -69.8617855             74.285
                      -1.49375817            -18.914        -86.4496859            143.343        -75.1591152             96.172          -16.77264            -25.364
                      -69.0988083             93.829
                      -61.0327189             77.342        -68.8908557             78.818        -69.2612595             79.975        -68.7923015              95.64
                      -15.2390779            -17.793

            789.35       -17.0156177            -28.047        -70.2205295             97.926        -77.4062022            168.745        -1.49375817            -20.398
                      -60.3482442             74.581
                      -70.3883643            104.227        -14.6565654            -19.559        -58.5476505              79.57        -80.2735245            162.658
                      -68.4180535             77.376
                      -80.9907556             176.85        -58.7860432              75.86        -15.4422659            -20.099        -74.9380883            112.816
                      -68.1965434             78.594
                      -1.49375817            -20.418        -82.2837325            160.213         -75.447407            109.644        -16.6536533            -27.733
                      -67.9025246             96.632
                      -60.8001032             76.306        -68.1787079             72.806         -68.837834             74.314        -68.2975563             94.928
                       -15.189015            -19.316

             849.3       -16.9542331            -29.509         -68.941771             93.561        -78.0202072            173.476        -1.50408008            -21.899
                      -59.9826456              79.02
                      -69.2436181            104.017        -14.6097411            -20.919        -58.2089623             77.481        -78.8011622            158.207
                      -68.2188894             70.237
                      -75.4012463            164.051        -58.1385739             75.921        -15.3910216             -21.52        -74.0360427            101.268
                      -67.3690954             68.895
                      -1.50408008            -21.899         -83.900864            157.738        -72.8489256            107.109        -16.6536533            -29.687
                      -68.0966917            100.432
                      -59.8279966             77.595        -67.6599932             79.657        -67.0386574             77.955        -68.6172055              97.87
                       -15.139239            -20.806

            909.25       -17.0156177            -30.889        -68.9296212             99.797         -78.351474            172.534        -1.51441428            -23.352
                      -59.2754091             77.104
                      -70.2289857            103.915        -14.5631679            -22.017        -57.4903747              75.49        -81.2777714            158.422
                      -67.5040484             78.186
                      -75.5248909            161.801        -57.6347055              75.01        -15.3910216            -22.651        -75.4576983             97.825
                      -66.8627102             73.534
                      -1.51441428            -23.442        -84.9237443             147.29        -73.1003717            101.075        -16.7129429             -31.11
                      -67.1250263            101.084
                      -59.4285749             76.247        -67.5226146             78.446        -67.4220087             76.404        -66.6341458            100.944
                      -15.0897466             -22.03

             969.2       -17.0156177            -32.529        -68.6312717            102.207        -75.8959127            162.511        -1.51441428            -24.924
                       -58.666029             77.313
                      -68.1675792             98.112         -14.516843            -23.269        -57.1710045             75.854        -78.4671911            150.649
                      -65.8998408              72.29
                      -73.9794001             170.28         -56.972603             75.904        -15.2894311            -23.971        -72.9178312            112.321
                      -67.0582114             70.158
                      -1.51441428            -24.934        -76.3460019            152.628        -72.6193956             96.332        -16.5947657            -32.943
                      -66.4205325            103.404
                      -58.7108402             77.318        -66.3102742              71.86        -66.3192593             79.708        -65.9049819             96.932
                      -15.0405347            -23.313

