!Hittite Microwave Corporation								
!12 Elizabeth Drive								
!Chelmsford, MA 01824								
!Tel: 978-250-3343								
!Fax: 978-250-3373								
!Device: HMC344, DC-8 GHz GaAs MMIC SP4T Non-Reflective Switch Die							
!Misc: Room Temp Vctl=-5V Port1=RFC, Port2=RF1, Port3=RF2, Port4=RF3, Port5=RF4, RF3 ON.								
!
# MHZ S MA R 50

10	0.92	17.807	0.00008986	-96.918	0.0003535	-38.968	0.32	-71.555
	0.0003699	46.251	0.00002513	15.587	0.747	27.47	0.00005756	-139.554
	0.00002145	10.629	0.0002827	-64.92	0.0003709	-86.595	0.0002987	63.816
	0.747	27.44	0.000206	-48.85	0.0002744	-124.199	0.32	-71.445
	0.0001686	110.765	0.0004419	-42.666	0.921	17.758	0.0004413	76.192
	0.0002796	-65.971	0.000211	-173.323	0.0003801	16.21	0.0003743	-137.85
	0.747	27.44						
99.9	0.238	36.413	0.0004602	60.932	0.000209	144.763	0.838	-16.645
	0.0003884	75.119	0.0006903	32.586	0.308	4.045	0.000472	78.369
	0.0002125	35.065	0.00009953	-98.758	0.0003296	97.547	0.0003671	52.319
	0.31	3.984	0.0003975	-54.477	0.0001456	-16.779	0.837	-16.694
	0.0001254	150.979	0.0002232	140.534	0.236	35.734	0.0005069	77.164
	0.0004153	28.43	0.0001729	96.973	0.0001139	-157.785	0.0003066	64.791
	0.308	3.946						
189.8	0.18	19.327	0.0003616	44.937	0.00007158	176.492	0.846	-16.61
	0.0005899	88.848	0.0003145	94.946	0.3	-6.263	0.0006955	57.953
	0.00006568	-48.777	0.0001242	45.082	0.0001755	45.294	0.0004076	73.893
	0.303	-6.194	0.0001994	34.17	0.0000861	31.973	0.846	-16.61
	0.0003018	134.016	0.0001434	171.15	0.176	17.482	0.0001951	22.222
	0.000515	81.133	0.00009771	27.857	0.0001713	168.056	0.0003565	62.849
	0.302	-6.34						
279.7	0.165	7.549	0.000641	72.928	0.0002104	116.571	0.848	-19.737
	0.0009142	82.772	0.0005843	80.405	0.298	-13.765	0.0006769	62.965
	0.000169	-10.13	0.00004633	7.259	0.00008135	109.72	0.0006319	76.092
	0.3	-13.532	0.0001143	90.758	0.00001285	34.897	0.848	-19.765
	0.0001737	93.203	0.000226	81.409	0.16	4.576	0.0004859	88.631
	0.0008055	74.075	0.0001914	100.223	0.00009179	140.669	0.0005248	81.152
	0.3	-13.612						
369.6	0.159	-1.308	0.0007299	70.992	0.00009429	131.088	0.849	-23.756
	0.001035	70.894	0.0006925	71.002	0.298	-20.585	0.0008486	66.473
	0.0001437	99.418	0.0001468	71.583	0.00004691	124.55	0.0007846	68.523
	0.299	-20.278	0.0001533	45.396	0.00009746	41.09	0.848	-23.706
	0.0001505	30.267	0.0002167	71.917	0.155	-5.893	0.0005541	63.922
	0.001066	70.578	0.0001508	78.477	0.0001544	61.149	0.0006721	70.981
	0.299	-20.098						
459.5	0.156	-8.693	0.000814	65.309	0.0001408	123.905	0.849	-28.203
	0.001347	61.878	0.0008761	72.928	0.298	-27.147	0.0009568	62.733
	0.0001166	101.253	0.0002044	48.916	0.0002044	92.245	0.001054	62.467
	0.3	-26.726	0.0001943	44.835	0.00006226	111.099	0.849	-28.147
	0.0001765	67.116	0.0001864	51.434	0.151	-15.525	0.0008333	64.956
	0.001332	67.442	0.0001456	65.725	0.0001685	78.668	0.0007943	73.956
	0.298	-26.513						
549.4	0.155	-15.397	0.0009915	65.176	0.00009445	59.897	0.849	-32.857
	0.001539	62.968	0.001005	64.441	0.301	-33.567	0.001295	61.543
	0.0001525	72.793	0.0002473	52.606	0.00008361	103.244	0.001239	57.888
	0.301	-33.005	0.0002393	51.703	0.00009748	50.682	0.848	-32.838
	0.0001571	68.188	0.0003153	59.92	0.15	-24.881	0.001014	59.771
	0.00159	62.649	0.0001963	63.555	0.000135	57.695	0.0009073	66.503
	0.299	-33.189						
639.3	0.155	-22.372	0.001149	62.493	0.000155	54.927	0.847	-37.631
	0.00182	57.517	0.001175	59.488	0.303	-39.638	0.001425	54.85
	0.0002498	75.918	0.0001903	33.38	0.0001667	80.621	0.001398	56.289
	0.303	-38.572	0.0003665	57.236	0.000202	62.398	0.846	-37.614
	0.0002131	56.653	0.0003727	48.474	0.153	-33.421	0.001083	60.736
	0.001788	56.909	0.0001656	54.239	0.0001731	59.171	0.001094	61.846
	0.3	-39.653						
729.2	0.15	-28.572	0.001373	53.479	0.0001798	61.914	0.848	-42.207
	0.002074	51.804	0.00137	56.141	0.306	-45.434	0.001635	52.112
	0.0001786	45.841	0.000231	37.89	0.0001555	77.782	0.001675	53.671
	0.308	-44.883	0.0003799	51.005	0.0001842	49.731	0.847	-42.221
	0.0002617	53.496	0.0003563	50.362	0.158	-43.504	0.001238	57.292
	0.002052	51.647	0.0002005	44.252	0.0001765	53.528	0.001211	53.585
	0.304	-45.813						
819.1	0.149	-34.144	0.001559	51.681	0.0001676	85.391	0.847	-47.063
	0.002357	49.803	0.001465	51.861	0.31	-50.94	0.001806	47.293
	0.000284	41.369	0.0002838	53.611	0.0001865	77.623	0.001861	46.64
	0.31	-50.501	0.0004823	41.553	0.0001971	32	0.847	-47.039
	0.0002325	44.343	0.0004565	35.123	0.161	-51.042	0.00137	51.398
	0.002268	48.093	0.0003073	48.63	0.0002137	32.55	0.001364	51.109
	0.308	-51.402						
909	0.149	-39.911	0.001756	49.258	0.0001568	68.766	0.847	-51.861
	0.002534	46.26	0.001694	46.898	0.313	-56.182	0.002014	44.82
	0.0003135	38.574	0.0002902	46.588	0.0001865	75.932	0.001931	46.246
	0.312	-55.765	0.000482	36.989	0.0002035	29.845	0.846	-51.859
	0.0002659	39.975	0.0005183	43.367	0.164	-57.774	0.001486	47.585
	0.002508	44.7	0.0002519	52.306	0.0001868	44.154	0.001502	48.197
	0.312	-56.673						
998.9	0.149	-45.767	0.001841	44.419	0.0002373	82.061	0.847	-56.755
	0.002789	41.95	0.00182	45.04	0.314	-61.343	0.002215	40.887
	0.0002914	24.018	0.0003784	33.334	0.0002138	83.417	0.002148	39.659
	0.313	-60.891	0.0005248	29.913	0.0002283	37.422	0.845	-56.743
	0.0002966	28.613	0.0004974	29.727	0.165	-63.846	0.001624	44.438
	0.002774	41.845	0.0003611	36.896	0.0002171	30.389	0.001604	45.278
	0.314	-61.755						
1088.8	0.149	-51.356	0.002002	43.397	0.0002745	82.048	0.846	-61.612
	0.002961	36.859	0.001974	42.188	0.315	-66.438	0.002399	36.827
	0.0003254	19.434	0.0003859	35.579	0.0002695	68.852	0.002365	36.302
	0.313	-66.111	0.000542	25.138	0.0002342	32.888	0.845	-61.552
	0.0003435	21.953	0.0005454	26.435	0.165	-69.856	0.001751	38.756
	0.00298	36.786	0.0003354	32.786	0.0002866	28.847	0.00175	41.098
	0.316	-66.762						
1178.7	0.149	-56.872	0.002158	39.368	0.0003046	69.532	0.846	-66.521
	0.003188	32.872	0.002186	39.451	0.316	-71.753	0.002509	33.275
	0.0003514	21.043	0.0004193	31.834	0.000269	70.289	0.002561	32.067
	0.313	-71.51	0.0006301	21.99	0.0003581	22.071	0.845	-66.54
	0.0003575	11.126	0.0005981	22.388	0.163	-75.909	0.001812	37.696
	0.003225	33.334	0.0003899	30.887	0.0003361	15.158	0.001845	35.002
	0.315	-71.852						
1268.6	0.149	-62.646	0.002367	35.845	0.0003195	81.114	0.845	-71.413
	0.003439	28.816	0.002296	34.412	0.316	-77.139	0.002665	28.457
	0.0003792	4.861	0.0004355	23.533	0.0003064	82.106	0.002734	28.603
	0.313	-77.009	0.0006384	19.229	0.0003193	9.533	0.844	-71.43
	0.0003806	13.597	0.0006524	22.616	0.161	-82.2	0.00197	32.532
	0.003375	28.844	0.0004422	23.31	0.0003154	19.195	0.001944	32.529
	0.315	-77.12						
1358.5	0.15	-68.649	0.002489	31.05	0.0003682	69.176	0.845	-76.41
	0.003657	25.303	0.002459	31.128	0.317	-82.582	0.002878	23.943
	0.0003947	4.175	0.0004369	18.567	0.0003878	69.547	0.002858	24.312
	0.314	-82.453	0.0006811	12.654	0.0003243	11.214	0.844	-76.344
	0.0004282	2.776	0.0007196	14.735	0.161	-89.259	0.002076	29.467
	0.003587	25.218	0.0004339	17.653	0.0003744	6.264	0.002037	28.992
	0.314	-82.87						
1448.4	0.152	-74.824	0.002553	30.097	0.0003932	73.698	0.844	-81.407
	0.00375	21.168	0.002551	28.506	0.317	-88.219	0.002996	20.476
	0.0004383	-7.52	0.000486	8.846	0.0004489	64.672	0.003056	20.89
	0.314	-87.94	0.0008272	5.637	0.000377	-4.837	0.843	-81.377
	0.0004048	-0.805	0.0008558	4.151	0.162	-96.782	0.002172	27.187
	0.003751	20.699	0.000491	16.018	0.0003884	-8.083	0.002193	27.825
	0.315	-88.751						
1538.3	0.154	-80.784	0.002928	28.041	0.0004687	59.719	0.843	-86.37
	0.003983	17.716	0.00292	27.681	0.316	-93.787	0.003235	17.097
	0.0004672	-8.37	0.0005286	4.101	0.0004819	62.619	0.003202	16.545
	0.314	-93.505	0.0008125	-5.445	0.0003032	-7.585	0.843	-86.415
	0.0004666	-12.818	0.0007963	-6	0.165	-103.798	0.002252	22.303
	0.004024	16.972	0.000523	4.559	0.0003173	-10.604	0.002273	22.874
	0.318	-94.312						
1628.2	0.157	-86.273	0.003182	19.157	0.0005649	52.764	0.841	-91.39
	0.004162	13.419	0.003208	18.69	0.318	-98.916	0.003309	12.726
	0.0005097	-20.568	0.000492	-3.477	0.000541	58.75	0.003336	12.331
	0.316	-99.087	0.0008414	-11.015	0.0002886	-15.17	0.84	-91.372
	0.0004485	-20.921	0.0008206	-7.928	0.168	-110.354	0.002343	19.76
	0.004197	13.537	0.0004669	-12.466	0.0002884	-13.505	0.002318	19.944
	0.321	-99.651						
1718.1	0.16	-91.655	0.00313	13.393	0.0006376	47.555	0.838	-96.348
	0.004324	9.361	0.003149	14.962	0.321	-104.071	0.003513	8.443
	0.0004881	-30.788	0.0004228	-12.751	0.0005941	50.442	0.00352	7.886
	0.318	-104.133	0.0008671	-13.422	0.000284	-12.006	0.838	-96.322
	0.0004983	-24.485	0.0008865	-16.673	0.169	-116.663	0.002356	16.026
	0.004279	9.901	0.0004035	-9.017	0.0002851	-29.248	0.002371	15.904
	0.323	-104.617						
1808	0.162	-96.683	0.003322	13.415	0.0006086	46.139	0.834	-101.242
	0.004555	5.552	0.00333	13.38	0.322	-108.906	0.003708	4.675
	0.0005031	-38.385	0.000416	-0.909	0.0006231	45.216	0.003656	4.787
	0.319	-108.761	0.0007977	-21.363	0.0002386	8.207	0.833	-101.2
	0.0005284	-44.776	0.0008182	-18.848	0.169	-122.376	0.002605	15.238
	0.004577	5.445	0.0004918	-5.306	0.0002686	2.551	0.002567	15.454
	0.325	-109.474						
1897.9	0.166	-101.06	0.003754	9.399	0.0006537	39.382	0.832	-105.944
	0.004676	1.875	0.00374	9.095	0.321	-113.102	0.003792	-0.378
	0.0005002	-46.652	0.0004826	-7.652	0.0005983	37.875	0.00379	-0.199
	0.322	-113.226	0.0007999	-20.566	0.000335	-14.459	0.831	-105.916
	0.0005373	-43.949	0.0008188	-27.441	0.169	-127.265	0.002777	12.521
	0.004631	2.46	0.0005082	-6.291	0.0003354	-19.279	0.002757	13.334
	0.33	-114.041						
1987.8	0.169	-104.96	0.003796	1.052	0.000638	40.338	0.832	-110.709
	0.004826	-1.71	0.003804	1.12	0.327	-117.326	0.003906	-3.505
	0.0005152	-52.752	0.0004597	-12.821	0.0006516	39.128	0.003925	-4.054
	0.326	-117.939	0.0008915	-27.884	0.0002863	-15.927	0.831	-110.691
	0.0005133	-55.855	0.0008782	-27.715	0.17	-132.007	0.002949	7.874
	0.004783	-1.846	0.0005194	-19.548	0.000288	-13.666	0.00293	8.575
	0.334	-118.621						
2077.7	0.172	-108.748	0.003772	-3.052	0.0006806	41.747	0.833	-115.549
	0.00506	-4.944	0.003723	-1.698	0.333	-122.168	0.004105	-8.137
	0.0004702	-58.327	0.0004044	-16.764	0.0006955	41.767	0.004106	-7.686
	0.33	-122.708	0.0008407	-29.75	0.0002354	0.48	0.832	-115.493
	0.0004515	-63.21	0.0008368	-34.48	0.169	-136.334	0.003129	3.022
	0.005011	-5.196	0.0004695	-16.498	0.0002189	8.241	0.003118	3.139
	0.337	-123.248						
2167.6	0.173	-112.76	0.003792	-6.128	0.0007196	39.142	0.832	-120.475
	0.005221	-9.177	0.003831	-5.5	0.336	-126.748	0.004234	-11.74
	0.0003756	-70.413	0.0005768	-7.825	0.0006985	33.077	0.004208	-11.872
	0.332	-127.241	0.0008389	-32.497	0.0003686	10.841	0.832	-120.468
	0.0004448	-74.672	0.0008422	-34.919	0.167	-141.107	0.003246	-1.189
	0.005137	-9.416	0.0005561	-12.554	0.0003802	8.796	0.003233	-2.191
	0.339	-127.837						
2257.5	0.176	-116.79	0.00406	-8.485	0.0007557	28.924	0.832	-125.378
	0.005379	-12.333	0.004036	-7.685	0.337	-131.157	0.00439	-16.274
	0.0004345	-70.48	0.0006396	-16.517	0.0006387	39.736	0.004292	-16.964
	0.333	-131.63	0.0008756	-36.534	0.0005018	2.695	0.831	-125.446
	0.0004501	-60.807	0.0009425	-36.258	0.165	-145.772	0.003406	-6.423
	0.005362	-12.444	0.0006707	-13.444	0.0005121	-1.075	0.003424	-5.882
	0.341	-132.439						
2347.4	0.179	-120.574	0.00427	-12.933	0.000779	28.618	0.831	-130.31
	0.00556	-16.331	0.004321	-12.375	0.336	-135.453	0.004536	-20.023
	0.0004811	-81.171	0.0006025	-27.657	0.0007778	24.303	0.00448	-20.531
	0.333	-136.136	0.0009444	-43.18	0.0005533	-21.196	0.83	-130.358
	0.0004315	-71.587	0.0009251	-44.413	0.162	-149.859	0.003587	-12.51
	0.005508	-15.986	0.0006431	-18.996	0.0005523	-15.281	0.003572	-11.968
	0.342	-136.888						
2437.3	0.182	-123.896	0.004382	-18.625	0.0007739	23.145	0.829	-135.245
	0.005718	-20.672	0.004364	-18.516	0.337	-139.786	0.004571	-24.416
	0.0005023	-85.792	0.0005436	-25.921	0.0007451	28.034	0.004612	-23.82
	0.333	-140.62	0.0009412	-43.655	0.0004978	-14.065	0.828	-135.265
	0.0004665	-81.641	0.001036	-47.09	0.158	-153.308	0.003569	-18.016
	0.005719	-20.511	0.0005586	-25.292	0.0005397	-15.29	0.003581	-19.339
	0.343	-141.081						
2527.2	0.185	-127.147	0.004443	-21.364	0.000839	20.878	0.829	-140.18
	0.005821	-24.493	0.004373	-21.933	0.336	-143.947	0.004805	-27.562
	0.0004366	-89.585	0.0006465	-19.926	0.0008234	21.584	0.004753	-27.853
	0.332	-144.844	0.0009834	-51.112	0.000623	-18.58	0.828	-140.174
	0.0004201	-91.27	0.001016	-49.965	0.154	-156.209	0.003488	-24.12
	0.005799	-24.695	0.000633	-19.722	0.0006793	-25.697	0.003473	-23.313
	0.343	-145.132						
2617.1	0.188	-130.407	0.004511	-24.702	0.0008763	16.994	0.827	-145.123
	0.005921	-27.24	0.004503	-24.483	0.335	-148.072	0.004983	-32.542
	0.0004339	-104.828	0.0008202	-22.888	0.0008473	17.411	0.004956	-32.186
	0.331	-148.956	0.001064	-53.336	0.0006472	-30.291	0.827	-145.147
	0.0004589	-105.906	0.001052	-51.529	0.147	-159.182	0.003415	-24.043
	0.00589	-27.939	0.000836	-19.001	0.0006913	-32.199	0.003386	-25.188
	0.341	-149.245						
2707	0.193	-133.136	0.004619	-28.673	0.0008979	14.827	0.826	-150.028
	0.006004	-31.377	0.004635	-28.695	0.331	-152.237	0.005048	-36.66
	0.0004154	-109.956	0.0008986	-33.535	0.000909	16.61	0.005045	-36.596
	0.327	-153.009	0.001125	-58.772	0.0006594	-43.543	0.826	-150.051
	0.0004291	-102.861	0.001088	-59.115	0.14	-161.741	0.003577	-26.536
	0.006023	-31.856	0.0009085	-33.481	0.0007031	-38.457	0.003578	-26.644
	0.339	-153.279						
2796.9	0.199	-135.299	0.004707	-33.599	0.0009208	12.651	0.824	-155.026
	0.006204	-34.955	0.004743	-32.904	0.328	-156.536	0.005169	-40.741
	0.0004405	-116.903	0.000848	-44.733	0.0009239	15.894	0.005205	-40.648
	0.323	-157.272	0.001183	-65.28	0.0007427	-46.445	0.824	-154.968
	0.0004547	-118.461	0.00115	-65.962	0.132	-163.31	0.003726	-30.887
	0.006161	-35.232	0.0008864	-44.498	0.0007546	-48.812	0.003676	-31.897
	0.335	-157.231						
2886.8	0.204	-136.993	0.00478	-36.853	0.0009135	10.743	0.823	-159.882
	0.006308	-39.3	0.004823	-36.865	0.323	-160.969	0.005314	-45.033
	0.0003912	-131.111	0.0008821	-43.258	0.0009172	11.061	0.005363	-44.894
	0.318	-161.577	0.001125	-73.246	0.0007249	-51.599	0.822	-159.892
	0.000415	-129.27	0.001159	-71.219	0.124	-164.391	0.003756	-34.489
	0.006313	-39.149	0.0009023	-42.791	0.0007	-56.44	0.003734	-35.303
	0.33	-161.248						
2976.7	0.209	-138.772	0.004885	-40.073	0.0009743	17.898	0.821	-164.858
	0.006326	-42.464	0.004888	-39.364	0.319	-165.363	0.005526	-49.118
	0.0003622	-130.163	0.001033	-49.989	0.0009877	13.851	0.005498	-48.858
	0.313	-165.787	0.001123	-74.46	0.0006796	-61.807	0.821	-164.818
	0.0003863	-131.694	0.001148	-72.985	0.114	-165.488	0.003847	-37.11
	0.006326	-42.507	0.001013	-50.336	0.000652	-64.087	0.003874	-37.155
	0.324	-165.431						
3066.6	0.216	-140.353	0.005033	-43.565	0.0011	14.069	0.819	-169.746
	0.006519	-45.491	0.004976	-43.736	0.313	-169.799	0.005634	-53.225
	0.0003346	-145.464	0.001033	-60.112	0.001096	15.751	0.005687	-52.925
	0.308	-169.994	0.001171	-78.299	0.000735	-60.012	0.818	-169.723
	0.0003404	-136.746	0.00117	-77.652	0.106	-166.227	0.003978	-39.61
	0.006476	-45.492	0.001063	-58.045	0.0007514	-63.94	0.004007	-39.612
	0.318	-169.791						
3156.5	0.223	-141.551	0.004966	-47.318	0.001248	8.264	0.816	-174.621
	0.006605	-48.884	0.004995	-47.729	0.307	-174.242	0.005811	-57.44
	0.0003216	-156.162	0.001003	-64.662	0.001199	7.865	0.005746	-57.775
	0.301	-174.206	0.001218	-82.943	0.0007489	-77.735	0.816	-174.625
	0.0003215	-155.318	0.001258	-83.618	0.099	-165.827	0.004273	-44.288
	0.006593	-48.638	0.001055	-65.652	0.0007369	-78.297	0.004275	-44.498
	0.311	-174.174						
3246.4	0.232	-142.602	0.005134	-50.055	0.001235	3.246	0.814	-179.46
	0.006737	-51.657	0.005137	-50.065	0.301	-178.627	0.005931	-61.297
	0.000304	-162.359	0.00106	-71.666	0.00129	1.355	0.005954	-61.495
	0.294	-178.331	0.001216	-89.3	0.0005903	-81.737	0.813	-179.471
	0.0002682	-164.287	0.001212	-87.156	0.093	-163.54	0.004361	-48.938
	0.00668	-51.826	0.001072	-68.378	0.0006214	-80.362	0.004403	-48.759
	0.305	-178.351						
3336.3	0.241	-143.872	0.005244	-52.799	0.00128	-0.601	0.811	175.771
	0.006834	-54.538	0.005165	-52.446	0.295	177.174	0.006118	-66.242
	0.0002727	-168.778	0.001026	-73.752	0.001319	1.139	0.006116	-65.992
	0.287	177.743	0.001228	-90.668	0.000584	-82.75	0.81	175.777
	0.0002493	-173.446	0.001222	-90.905	0.09	-159.856	0.004512	-53.33
	0.006848	-54.925	0.001093	-74.864	0.0005283	-81.482	0.004492	-53.209
	0.299	177.621						
3426.2	0.251	-145.747	0.005363	-56.172	0.001346	-1.538	0.81	171.029
	0.007032	-58.266	0.005375	-55.938	0.289	172.929	0.006274	-70.831
	0.0002616	-172.799	0.001046	-81.042	0.001389	-3.779	0.006272	-70.576
	0.28	173.827	0.001183	-96.782	0.000595	-76.916	0.809	171.023
	0.0002823	177.929	0.001207	-96.842	0.088	-156.22	0.00454	-59.567
	0.006941	-58.302	0.001033	-79.558	0.0006469	-76.902	0.004606	-59.04
	0.292	173.468						
3516.1	0.263	-148.102	0.005541	-60.07	0.001512	-6.803	0.809	166.255
	0.007138	-61.54	0.005528	-60.23	0.282	168.576	0.006448	-75.145
	0.0002482	158.684	0.001105	-82.184	0.001409	-4.345	0.006438	-75.153
	0.272	169.805	0.00124	-102.056	0.0006421	-74.375	0.809	166.226
	0.0002233	159.79	0.001173	-101.285	0.088	-152.435	0.004572	-61.516
	0.007153	-62.051	0.001079	-82.494	0.0007151	-77.941	0.004591	-62.209
	0.284	169.206						
3606	0.275	-150.729	0.005564	-64.404	0.001522	-10.302	0.809	161.488
	0.007301	-64.5	0.005564	-64.121	0.274	163.946	0.00665	-79.111
	0.0001843	131.94	0.001185	-88.277	0.001558	-8.256	0.006612	-79.263
	0.263	165.522	0.001236	-105.593	0.0007677	-89.912	0.809	161.5
	0.0001831	123.787	0.001233	-104.845	0.09	-149.17	0.004745	-64.756
	0.007272	-64.615	0.001114	-90.35	0.0007239	-92.914	0.004732	-65.473
	0.277	164.767						
3695.9	0.287	-153.723	0.00569	-66.927	0.001604	-14.1	0.809	156.623
	0.007419	-67.84	0.005646	-66.938	0.267	159.096	0.006883	-84.319
	0.0001995	123.328	0.00113	-95.576	0.0016	-12.66	0.006833	-83.714
	0.254	160.924	0.001289	-108.284	0.0006921	-100.883	0.808	156.695
	0.0001468	105.481	0.001259	-104.689	0.093	-146.898	0.004953	-69.07
	0.007421	-68.234	0.001101	-94.612	0.0007458	-97.852	0.004907	-69.393
	0.268	160.17						
3785.8	0.296	-157.042	0.005836	-70.376	0.001691	-17.748	0.809	151.849
	0.007596	-71.124	0.005792	-69.942	0.259	153.988	0.006927	-89.074
	0.0002099	95.313	0.001092	-98.127	0.001641	-16.265	0.00697	-89.24
	0.245	156.073	0.001295	-110.726	0.000627	-96.742	0.809	151.841
	0.0001776	84.725	0.001358	-112.106	0.096	-145.282	0.005022	-73.524
	0.00764	-71.621	0.001099	-98.506	0.0006357	-97.408	0.005	-73.608
	0.259	155.294						
3875.7	0.305	-160.818	0.005952	-73.597	0.001781	-21.34	0.809	146.962
	0.007733	-74.752	0.005943	-73.567	0.25	148.451	0.007111	-93.503
	0.000118	68.781	0.001159	-101.435	0.001815	-21.052	0.007177	-93.318
	0.234	150.813	0.001405	-115.6	0.0006634	-95.534	0.809	146.97
	0.000143	81.72	0.001414	-115.555	0.098	-144.453	0.005166	-76.782
	0.00773	-74.654	0.001132	-99.973	0.0007098	-96.431	0.005235	-77.25
	0.249	149.936						
3965.6	0.313	-164.682	0.006069	-77.67	0.00187	-25.026	0.809	142.14
	0.007906	-78.235	0.006057	-77.649	0.242	142.434	0.007356	-97.649
	0.0001775	56.259	0.001138	-103.283	0.001907	-24.02	0.007385	-97.728
	0.224	145.1	0.001395	-122.805	0.0007107	-104.796	0.809	142.165
	0.0001542	44.932	0.001404	-122.686	0.1	-144.414	0.005362	-81.771
	0.007935	-77.7	0.001227	-105.548	0.0007289	-103.875	0.005387	-81.731
	0.239	144.122						
4055.5	0.32	-168.551	0.006078	-81.027	0.00188	-28.985	0.81	137.253
	0.008158	-81.35	0.006109	-80.737	0.234	135.908	0.007598	-102.739
	0.0001899	37.187	0.001175	-110.212	0.001975	-29.061	0.007613	-102.202
	0.214	138.785	0.001398	-126.629	0.0007038	-97.313	0.809	137.228
	0.0002312	39.139	0.001334	-128.064	0.1	-144.669	0.005476	-85.421
	0.008139	-81.293	0.00115	-107.966	0.0006531	-100.014	0.005455	-86.037
	0.229	137.775						
