!Hittite Microwave Corporation								
!12 Elizabeth Drive								
!Chelmsford, MA 01824								
!Tel: 978-250-3343								
!Fax: 978-250-3373								
!Device: HMC342, 13-25 GHz, GaAs MMIC Low Noise Amlifier Die  															
!Misc: Vdd=3V, Data includes (two) K connectors, Room
!
# MHZ S MA R 50

12000 0.394 -7.07 12.029 91.53 2.58e-3 178.654 0.338 -151.981
12140 0.383 -15.788 12.241 82.701 2.902e-3 -179.625 0.33 -156.864
12280 0.374 -23.819 12.481 74.246 2.956e-3 166.477 0.322 -161.658
12420 0.361 -31.982 12.646 66.299 2.959e-3 163.778 0.313 -166.134
12560 0.355 -40.643 12.902 57.332 2.927e-3 158.466 0.301 -170.278
12700 0.348 -49.214 13.091 48.271 2.948e-3 144.484 0.288 -174.051
12840 0.341 -57.558 13.221 40.162 3.114e-3 142.217 0.278 -178.112
12980 0.34 -65.78 13.445 31.373 3.134e-3 142.821 0.267 178.693
13120 0.335 -73.501 13.581 23.034 3.245e-3 134.402 0.255 175.557
13260 0.332 -80.472 13.752 14.715 3.594e-3 124.058 0.242 172.894
13400 0.327 -88.24 13.872 5.633 3.469e-3 115.419 0.229 170.473
13540 0.326 -94.629 14.04 -2.74 3.939e-3 108.241 0.218 168.149
13680 0.324 -100.821 14.218 -11.157 3.698e-3 106.979 0.205 166.472
13820 0.32 -107.038 14.334 -20.025 3.666e-3 95.824 0.194 165.385
13960 0.319 -112.829 14.506 -28.834 4.195e-3 93.504 0.184 164.623
14100 0.314 -117.696 14.691 -36.976 4.06e-3 80.731 0.173 164.686
14240 0.31 -122.513 14.686 -45.754 4.133e-3 77.396 0.165 164.555
14380 0.307 -127.283 14.926 -54.317 4.291e-3 71.405 0.159 164.786
14520 0.3 -131.241 14.899 -62.825 4.395e-3 63.59 0.154 166.122
14660 0.295 -135.469 15.006 -71.334 4.523e-3 55.832 0.149 167.013
14800 0.29 -139.044 15.105 -79.788 4.617e-3 50.723 0.146 167.423
14940 0.283 -142.617 15.139 -88.534 4.597e-3 48.044 0.144 167.28
15080 0.277 -145.62 15.237 -96.876 4.676e-3 42.681 0.143 166.851
15220 0.271 -148.5 15.252 -105.58 4.654e-3 32.658 0.146 166.378
15360 0.266 -151.054 15.26 -113.879 4.915e-3 24.086 0.144 166.328
15500 0.26 -153.324 15.377 -122.502 4.532e-3 16.074 0.142 165.391
15640 0.257 -155.085 15.39 -130.539 4.988e-3 6.721 0.142 162.956
15780 0.249 -156.601 15.373 -139.046 5.031e-3 2.933 0.14 161.879
15920 0.243 -158.572 15.291 -147.532 4.469e-3 -0.833 0.131 158.096
16060 0.241 -159.115 15.386 -156.004 5.051e-3 -8.919 0.129 154.319
16200 0.237 -160.146 15.264 -164.445 4.999e-3 -15.583 0.125 151.131
16340 0.235 -161.081 15.268 -172.552 5.242e-3 -16.725 0.119 148.87
16480 0.232 -162.131 15.229 179.271 5.022e-3 -29.26 0.112 144.388
16620 0.231 -163.201 15.072 170.917 5.53e-3 -35.856 0.102 141.842
16760 0.23 -163.921 15.055 162.859 5.159e-3 -45.866 0.091 136.982
16900 0.232 -164.988 14.929 154.746 5.107e-3 -48.651 0.082 132.913
17040 0.234 -166.167 14.856 146.526 5.199e-3 -49.823 0.073 131.669
17180 0.236 -167.673 14.787 138.219 5.183e-3 -62.2 0.056 126.405
17320 0.236 -168.556 14.698 130.515 5.292e-3 -75.401 0.043 116.474
17460 0.24 -170.294 14.53 122.409 5.228e-3 -77.549 0.033 116.197
17600 0.245 -172.496 14.465 114.306 5.607e-3 -84.179 0.017 112.684
17740 0.246 -174.453 14.359 106.475 5.234e-3 -89.606 7.003e-3 64.12
17880 0.248 -176.848 14.153 98.685 5.063e-3 -96.179 6.732e-3 -40.026
18020 0.251 -179.413 14.063 90.592 4.829e-3 -99.962 0.022 -68.604
18160 0.253 178.008 14.01 83.082 4.942e-3 -104.257 0.035 -66.651
18300 0.251 175.02 13.83 75.486 5.018e-3 -117.654 0.045 -73.899
18440 0.252 171.404 13.771 67.596 5.319e-3 -126.18 0.06 -80.571
18580 0.25 168.153 13.57 59.872 5.303e-3 -132.572 0.071 -80.882
18720 0.245 163.948 13.528 52.39 5.189e-3 -132.677 0.079 -83.781
18860 0.245 159.708 13.411 44.793 5.184e-3 -140.4 0.09 -87.068
19000 0.239 156.118 13.263 37.12 5.288e-3 -144.842 0.099 -87.546
19140 0.229 150.724 13.249 29.63 5.523e-3 -150.416 0.104 -92.769
19280 0.224 145.224 13.186 21.967 5.219e-3 -160.348 0.118 -97.131
19420 0.216 139.563 13.081 14.653 5.505e-3 -168.277 0.128 -94.517
19560 0.208 133.114 12.944 7.165 5.46e-3 -175.969 0.126 -95.496
19700 0.203 126.407 12.887 -0.48 5.508e-3 178.326 0.134 -101.81
19840 0.197 120.344 12.81 -7.689 5.317e-3 167.793 0.15 -101.214
19980 0.186 114.028 12.638 -15.192 5.311e-3 166.347 0.147 -100.288
20120 0.175 106.848 12.657 -22.822 5.696e-3 162.908 0.149 -105.017
20260 0.16 99.637 12.448 -29.932 5.879e-3 161.192 0.162 -107.772
20400 0.149 89.401 12.414 -37.718 6.17e-3 144.439 0.167 -105.656
20540 0.137 78.843 12.353 -44.895 6.311e-3 134.098 0.166 -111.216
20680 0.127 64.538 12.281 -52.623 5.242e-3 144.384 0.189 -112.946
20820 0.122 48.177 12.182 -59.803 5.989e-3 126.303 0.197 -109.729
20960 0.124 32.633 12.108 -67.604 4.972e-3 115.416 0.189 -112.086
21100 0.134 20.605 12.011 -75.146 5.323e-3 116.409 0.207 -118.067
21240 0.139 8.02 11.802 -82.262 5.208e-3 106.946 0.227 -116.386
21380 0.147 -1.706 11.776 -89.603 5.477e-3 107.868 0.218 -115.974
21520 0.159 -12.969 11.754 -97.401 5.852e-3 96.386 0.223 -122.13
21660 0.167 -22.922 11.524 -104.678 6.25e-3 87.492 0.244 -124.066
21800 0.172 -32.912 11.453 -112.041 4.973e-3 72.051 0.247 -123.725
21940 0.187 -43.721 11.294 -119.287 6.609e-3 78.801 0.251 -128.027
22080 0.203 -53.157 11.169 -126.953 6.198e-3 64.976 0.266 -131.137
22220 0.22 -60.206 11.17 -134.435 5.151e-3 59.4 0.274 -131.979
22360 0.236 -68.851 11.026 -141.809 5.577e-3 53.819 0.277 -135.973
22500 0.255 -76.769 10.826 -148.953 6.512e-3 45.246 0.294 -139.228
22640 0.275 -82.531 10.737 -156.409 4.847e-3 38.957 0.302 -140.728
22780 0.29 -88.306 10.607 -163.49 5.948e-3 34.324 0.309 -143.921
22920 0.309 -94.289 10.538 -170.623 5.506e-3 23.953 0.323 -147.034
23060 0.329 -99.912 10.423 -177.848 5.156e-3 28.628 0.33 -148.573
23200 0.344 -105.114 10.253 174.769 6.052e-3 20.833 0.333 -151.521
23340 0.357 -110.493 10.172 167.625 6.279e-3 12.892 0.341 -155.054
23480 0.37 -115.74 10.045 161.18 5.596e-3 0.103 0.349 -157.843
23620 0.384 -120.36 9.986 153.969 4.024e-3 1.51 0.353 -160.902
23760 0.394 -125.816 9.749 146.546 6.66e-3 -11.558 0.363 -163.972
23900 0.409 -131.744 9.694 139.549 6.186e-3 -12.62 0.373 -166.835
24040 0.423 -136.748 9.611 132.571 6.735e-3 -14.602 0.376 -170.215
24180 0.435 -142.109 9.501 125.425 4.604e-3 -21.578 0.383 -173.793
24320 0.451 -146.664 9.412 118.295 6.427e-3 -24.586 0.389 -176.855
24460 0.463 -151.767 9.265 111.321 6.8e-3 -36.13 0.396 179.764
24600 0.477 -156.937 9.117 104.452 6.189e-3 -29.327 0.403 175.758
24740 0.487 -161.574 8.992 97.621 5.815e-3 -51.944 0.41 172.663
24880 0.501 -165.908 8.958 91.015 6.378e-3 -58.528 0.417 169.21
25020 0.516 -171.05 8.818 83.646 6.028e-3 -57.866 0.426 165.628
25160 0.524 -175.523 8.643 77.227 5.805e-3 -62.104 0.434 162.434
25300 0.532 -179.419 8.626 70.729 6.594e-3 -65.262 0.435 158.995
25440 0.545 175.298 8.558 63.582 6.915e-3 -71.221 0.445 155.432
25580 0.561 171.035 8.547 56.784 6.92e-3 -85.839 0.451 152.204
25720 0.566 166.024 8.422 49.796 6.877e-3 -76.879 0.456 148.609
25860 0.574 161.274 8.281 43.147 7.38e-3 -88.771 0.466 144.698
26000 0.589 157.299 8.234 36.643 6.756e-3 -103.268 0.474 141.557
26140 0.594 152.717 8.126 29.896 6.167e-3 -102.319 0.475 137.68
26280 0.605 147.926 8.072 22.992 6.194e-3 -102.591 0.48 133.683
26420 0.616 143.376 7.97 16.069 6.637e-3 -115.722 0.491 130.372
26560 0.621 139.368 7.892 10.101 6.238e-3 -120.717 0.497 126.973
26700 0.632 134.901 7.829 3.294 6.245e-3 -115.431 0.503 122.823
26840 0.639 130.489 7.745 -3.274 7.623e-3 -134.303 0.508 119.661
26980 0.646 127.075 7.671 -9.184 6.946e-3 -137.759 0.511 116.098
27120 0.649 122.062 7.646 -16.46 5.789e-3 -145.146 0.512 111.84
27260 0.659 117.343 7.601 -22.807 6.469e-3 -140.925 0.52 108.055
27400 0.659 112.954 7.573 -28.901 7.668e-3 -155.448 0.528 104.491
27540 0.663 108.429 7.499 -35.825 6.781e-3 -156.73 0.527 101.277
27680 0.676 103.805 7.468 -42.205 7.097e-3 -158.683 0.531 96.914
27820 0.681 99.807 7.436 -48.176 7.384e-3 -168.127 0.535 93.685
27960 0.682 95.438 7.425 -54.731 7.162e-3 -174.532 0.534 89.696
28100 0.684 90.764 7.378 -61.639 8.176e-3 -177.492 0.533 85.066
28240 0.691 86.781 7.348 -67.853 8.065e-3 173.806 0.535 81.002
28380 0.693 82.387 7.374 -73.984 7.537e-3 169.703 0.54 77.141
28520 0.696 77.713 7.335 -80.925 8.254e-3 161.647 0.538 72.453
28660 0.695 73.287 7.363 -86.821 7.237e-3 160.67 0.536 67.833
28800 0.694 68.444 7.327 -93.679 8.386e-3 150.939 0.537 63.487
28940 0.697 63.515 7.304 -100.421 7.681e-3 152.661 0.537 58.905
29080 0.697 58.933 7.327 -106.829 7.666e-3 147.881 0.537 54.401
29220 0.698 54.677 7.367 -112.65 8.111e-3 136.438 0.534 49.935
29360 0.698 49.697 7.386 -119.715 8.611e-3 135.444 0.531 45.163
29500 0.697 45.209 7.407 -126.533 8.291e-3 127.265 0.524 39.834
29640 0.696 40.245 7.483 -133.049 9.771e-3 120.573 0.525 34.651
29780 0.69 34.863 7.514 -140.096 8.839e-3 114.941 0.523 29.166
29920 0.689 29.476 7.466 -146.872 0.01 112.291 0.522 24.451
30060 0.687 24.429 7.578 -153.78 8.8e-3 106.209 0.515 19.879
30200 0.682 18.941 7.675 -160.852 0.01 100.154 0.505 14.088
30340 0.678 13.875 7.691 -167.471 0.01 96.242 0.504 7.587
30480 0.672 9.088 7.693 -174.211 0.011 86.36 0.502 2.785
30620 0.666 3.029 7.789 178.714 0.01 81.561 0.486 -2.766
30760 0.669 -2.554 7.877 171.693 0.011 78.335 0.482 -9.629
30900 0.657 -8.619 7.937 164.558 0.011 71.578 0.478 -16.579
31040 0.653 -14.844 8.032 157.07 0.012 67.906 0.469 -22.44
31180 0.646 -21.485 8.116 149.513 0.011 64.287 0.47 -30.114
31320 0.64 -27.927 8.143 141.915 0.011 58.166 0.471 -36.396
31460 0.637 -34.877 8.162 134.465 0.012 48.124 0.458 -42.606
31600 0.635 -41.049 8.273 126.807 0.012 37.719 0.449 -50.832
31740 0.626 -47.754 8.189 119.249 0.013 35.884 0.453 -58.641
31880 0.616 -54.662 8.255 111.512 0.012 27.037 0.449 -64.815
32020 0.612 -61.902 8.263 103.895 0.014 21.093 0.446 -73.228
32160 0.61 -68.81 8.257 95.912 0.013 14.29 0.456 -81.204
32300 0.608 -75.107 8.21 88.429 0.013 8.695 0.463 -88.195
32440 0.602 -81.789 8.257 80.518 0.014 1.208 0.467 -95.327
32580 0.6 -89.023 8.109 72.842 0.013 -7.336 0.471 -102.275
32720 0.594 -95.6 8.097 65.194 0.014 -13.398 0.478 -108.92
32860 0.587 -102.584 8.125 57.718 0.014 -18.467 0.485 -115.137
33000 0.585 -109.514 7.912 50.055 0.014 -28.87 0.489 -121.067
33140 0.584 -116.186 7.848 42.168 0.015 -33.26 0.495 -127.196
33280 0.581 -123.325 7.813 34.734 0.014 -35.968 0.497 -133.544
33420 0.581 -129.857 7.723 26.906 0.015 -47.156 0.505 -140.401
33560 0.58 -136.063 7.665 19.549 0.015 -54.496 0.523 -146.179
33700 0.578 -142.478 7.532 12.201 0.015 -59.995 0.526 -149.478
33840 0.575 -148.877 7.436 4.364 0.014 -64.023 0.519 -155.211
33980 0.568 -155.489 7.405 -2.526 0.014 -71.198 0.527 -161.155
34120 0.568 -161.716 7.326 -9.75 0.015 -75.517 0.53 -166.15
34260 0.563 -167.324 7.308 -17.358 0.015 -85.816 0.535 -171.477
34400 0.558 -173.627 7.183 -24.801 0.015 -92.325 0.536 -176.587
34540 0.555 179.842 7.113 -31.883 0.015 -96.979 0.541 178.584
34680 0.545 173.353 7.024 -39.428 0.014 -103.548 0.543 173.441
34820 0.538 167.218 6.973 -47.179 0.015 -111.506 0.546 168.44
34960 0.532 161.344 6.89 -54.571 0.016 -116.325 0.547 163.614
35100 0.524 155.496 6.786 -62.037 0.015 -126.174 0.55 158.936
35240 0.512 149.462 6.755 -69.537 0.016 -128.924 0.549 154.408
35380 0.497 143.301 6.722 -76.828 0.016 -139.417 0.551 149.932
35520 0.483 136.944 6.621 -84.064 0.016 -144.428 0.549 144.895
35660 0.468 130.873 6.575 -92.041 0.017 -151.795 0.549 140.38
35800 0.449 124.767 6.485 -99.423 0.017 -158.25 0.551 136.019
35940 0.432 117.901 6.403 -106.531 0.016 -162.342 0.549 131.551
36080 0.417 112.025 6.351 -114.024 0.017 -172.585 0.551 126.86
36220 0.391 106.073 6.295 -121.681 0.017 -178.482 0.548 123.335
36360 0.368 98.116 6.224 -128.672 0.017 175.078 0.54 119.592
36500 0.351 91.433 6.19 -136.501 0.017 168.031 0.534 114.195
36640 0.321 84.689 6.133 -144.393 0.017 160.591 0.538 109.779
36780 0.296 75.102 6.051 -151.959 0.017 154.445 0.537 106.634
36920 0.284 68.155 6 -159.768 0.018 147.682 0.521 102.443
37060 0.249 60.616 5.968 -167.247 0.018 139.433 0.52 97.609
37200 0.217 48.881 5.88 -175.408 0.018 132.392 0.522 93.498
37340 0.199 36.188 5.804 176.829 0.018 127.296 0.517 89.894
37480 0.177 21.745 5.697 169.31 0.018 119.136 0.503 85.931
37620 0.169 7.296 5.599 161.155 0.018 112.613 0.496 80.062
37760 0.154 -3.756 5.532 153.285 0.019 102.792 0.499 74.178
37900 0.142 -23.641 5.448 145.459 0.019 98.376 0.5 69.643
38040 0.152 -40.698 5.311 137.644 0.019 90.516 0.493 65.153
38180 0.154 -54.807 5.195 129.774 0.019 83.75 0.482 58.829
38320 0.168 -70.997 5.12 121.916 0.019 75.101 0.494 52.734
38460 0.19 -79.666 5.023 114.184 0.019 66.226 0.494 47.513
38600 0.194 -88.058 4.906 106.437 0.018 59.519 0.491 41.924
38740 0.209 -100.217 4.807 98.657 0.019 53.815 0.478 34.338
38880 0.231 -106.157 4.689 91.13 0.019 48.201 0.483 26.359
39020 0.234 -112.255 4.533 83.654 0.018 38.474 0.496 19.474
39160 0.244 -121.491 4.448 75.766 0.018 30.678 0.498 14.381
39300 0.254 -127.717 4.333 68.23 0.018 25.979 0.5 6.291
39440 0.262 -134.636 4.181 60.539 0.017 19.662 0.52 -0.946
39580 0.278 -141.678 4.08 52.548 0.018 12.958 0.525 -6.39
39720 0.289 -147.247 3.939 44.872 0.017 5.879 0.521 -13.386
39860 0.293 -152.73 3.829 37.426 0.017 -3.399 0.527 -20.3
40000 0.3 -157.061 3.752 29.676 0.017 -8.13 0.527 -27.94
