!Hittite Microwave Corporation								
!12 Elizabeth Drive								
!Chelmsford, MA 01824								
!Tel: 978-250-3343								
!Fax: 978-250-3373								
!Device: HMC348LP3, DC-2.5 GHz GaAs MMIC SPDT Non-Reflective CATV Switch in Leadless LP3 SMT Package							
!Misc: Room Temp Vdd=+5V, All Off.								
!
# MHZ S MA R 50

30 0.991 -2.66 112.2e-6 17.797 139.8e-6 8.377
          164.8e-6 21.294 0.209 -5.848 28.39e-6 89.151
          120e-6 29.985 18.85e-6 30.189 0.207 -5.634
59.85 0.988 -4.859 113.5e-6 46.895 177.4e-6 56.669
          165.4e-6 48.228 0.209 -6.364 34.9e-6 99.586
          169.8e-6 52.752 14.44e-6 173.584 0.206 -6.398
89.7 0.986 -7.096 214.6e-6 68.806 244.1e-6 67.026
          236e-6 67.229 0.209 -7.921 19.17e-6 29.046
          269.2e-6 66.764 21.8e-6 140.241 0.207 -8.323
119.55 0.986 -9.386 320.4e-6 74.716 306.2e-6 71.556
          288.2e-6 71.817 0.209 -10.19 21.58e-6 141.249
          330.5e-6 73.826 67.71e-6 104.024 0.209 -10.198
149.4 0.988 -11.671 333.1e-6 76.09 402.9e-6 70.119
          306.5e-6 79.21 0.211 -12.504 37.48e-6 110.191
          369.4e-6 80.369 20.56e-6 93.568 0.211 -12.045
179.25 0.987 -13.881 432.8e-6 77.248 425.9e-6 80.247
          432.6e-6 76.953 0.213 -14.514 55.76e-6 108.126
          473.6e-6 78.501 58e-6 101.98 0.212 -13.783
209.1 0.987 -16.132 517.6e-6 80.146 571.1e-6 81.981
          488.8e-6 78.05 0.214 -16.312 48.92e-6 67.207
          547.5e-6 78.39 35.69e-6 133.71 0.212 -15.925
238.95 0.987 -18.39 581.1e-6 81.275 617.2e-6 81.85
          545.6e-6 81.67 0.215 -18.754 91.74e-6 84.174
          610.8e-6 85.267 39.21e-6 17.592 0.214 -18.273
268.8 0.987 -20.566 652e-6 83.869 683.8e-6 84.906
          629.9e-6 82.978 0.218 -21.345 63.41e-6 44.825
          697.3e-6 82.765 86.46e-6 75.089 0.217 -20.456
298.65 0.987 -22.759 692e-6 83.049 722.3e-6 78.528
          701.8e-6 84.475 0.223 -23.158 74.38e-6 65.706
          797.5e-6 83.303 58.33e-6 84.781 0.221 -22.312
328.5 0.989 -24.856 784e-6 83.448 876e-6 83.499
          795e-6 80.318 0.226 -24.684 51.77e-6 121.281
          883.9e-6 82.583 60.61e-6 100.657 0.223 -24.183
358.35 0.99 -26.969 830.3e-6 83.582 952.2e-6 83.834
          781e-6 81.74 0.226 -26.366 90.78e-6 58.675
          888.2e-6 83.878 81.17e-6 80.068 0.225 -25.96
388.2 0.989 -29.19 922.9e-6 85.713 1.018e-3 85.03
          924.7e-6 84.273 0.229 -28.869 89.72e-6 44.143
          996.3e-6 87.686 65.7e-6 65.201 0.229 -27.962
418.05 0.989 -31.238 958.9e-6 83.065 1.052e-3 84.917
          962.3e-6 86.175 0.234 -30.959 131.3e-6 61.826
          1.092e-3 83.908 102.8e-6 68.841 0.232 -29.745
447.9 0.989 -33.418 1.031e-3 86.647 1.092e-3 83.332
          1.007e-3 85.673 0.238 -32.312 114.3e-6 57.674
          1.091e-3 85.09 109.9e-6 78.305 0.236 -31.211
477.75 0.991 -35.509 1.104e-3 85.807 1.234e-3 85.457
          1.113e-3 87.63 0.239 -33.822 118.8e-6 49.096
          1.168e-3 86.652 127.6e-6 66.479 0.238 -33.063
507.6 0.991 -37.608 1.14e-3 86.399 1.255e-3 86.452
          1.146e-3 87.192 0.241 -35.975 75.18e-6 68.332
          1.262e-3 87.591 147.5e-6 73.128 0.241 -34.908
537.45 0.99 -39.655 1.206e-3 86.094 1.397e-3 88.413
          1.2e-3 89.005 0.246 -38.182 147.5e-6 87.013
          1.308e-3 89.041 134.6e-6 65.209 0.246 -36.665
567.3 0.989 -41.734 1.273e-3 86.888 1.45e-3 87.528
          1.305e-3 86.699 0.252 -39.435 108.5e-6 66.332
          1.414e-3 87.308 135.9e-6 75.628 0.25 -38.011
597.15 0.988 -43.722 1.371e-3 88.864 1.445e-3 88.026
          1.351e-3 85.152 0.255 -40.209 154.3e-6 65.856
          1.496e-3 87.255 113.2e-6 75.517 0.254 -39.342
627 0.99 -45.754 1.344e-3 86.865 1.505e-3 88.836
          1.368e-3 86.124 0.255 -41.719 133.2e-6 65.42
          1.518e-3 86.316 138.2e-6 71.655 0.256 -40.828
656.85 0.992 -47.771 1.454e-3 87.695 1.589e-3 89.356
          1.414e-3 87.799 0.258 -44.098 103.8e-6 60.11
          1.569e-3 89.802 146.8e-6 53.986 0.26 -42.717
686.7 0.99 -49.607 1.507e-3 88.818 1.638e-3 89.608
          1.514e-3 88.773 0.264 -45.906 136.4e-6 57.958
          1.65e-3 90.027 155.9e-6 47.338 0.266 -44.126
716.55 0.991 -51.498 1.51e-3 87.537 1.69e-3 90.546
          1.569e-3 89.324 0.269 -46.844 146.5e-6 53.159
          1.722e-3 90.2 150.2e-6 51.201 0.27 -45.163
746.4 0.991 -53.302 1.587e-3 87.973 1.741e-3 90.141
          1.625e-3 88.069 0.27 -47.9 153.8e-6 62.009
          1.743e-3 89.305 173.6e-6 58.357 0.272 -46.242
776.25 0.991 -55.266 1.644e-3 89.493 1.767e-3 90.993
          1.613e-3 89.594 0.272 -49.719 152.7e-6 52.963
          1.773e-3 89.692 133e-6 54.481 0.274 -47.859
806.1 0.991 -57.159 1.742e-3 89.838 1.838e-3 91.722
          1.72e-3 92.507 0.278 -51.413 138.2e-6 62.751
          1.847e-3 92.361 132.4e-6 59.32 0.28 -49.451
835.95 0.991 -59.018 1.761e-3 89.921 1.938e-3 90.908
          1.823e-3 90.465 0.283 -52.319 164.9e-6 56.717
          2.003e-3 92.479 134.8e-6 69.436 0.285 -50.445
865.8 0.991 -60.776 1.814e-3 89.473 1.941e-3 90.416
          1.775e-3 87.759 0.285 -53.012 151.9e-6 61.644
          2.008e-3 90.763 151.9e-6 64.561 0.289 -51.079
895.65 0.99 -62.553 1.845e-3 91.873 2.006e-3 93.024
          1.767e-3 92.774 0.286 -54.596 169.8e-6 47.602
          1.948e-3 93.812 142.8e-6 54.489 0.29 -52.258
925.5 0.99 -64.338 1.907e-3 92.634 2.174e-3 93.421
          1.97e-3 95.869 0.29 -56.544 143.2e-6 65.994
          2.1e-3 96.061 208.4e-6 52.865 0.293 -53.827
955.35 0.99 -66.129 1.951e-3 91.1 2.183e-3 93.675
          2.044e-3 91.03 0.296 -57.834 146.8e-6 53.401
          2.261e-3 93.105 180.8e-6 66.962 0.298 -55.242
985.2 0.99 -67.803 1.945e-3 92.234 2.157e-3 93.459
          1.955e-3 89.95 0.301 -58.339 139.8e-6 58.788
          2.145e-3 93.111 198.6e-6 48.732 0.303 -55.947
1015.05 0.99 -69.416 1.986e-3 94.315 2.174e-3 95.339
          1.962e-3 94.296 0.302 -59.001 176.8e-6 64.136
          2.113e-3 97.411 155.5e-6 63.011 0.308 -56.604
1044.9 0.989 -71.083 2.122e-3 95.657 2.331e-3 96.482
          2.167e-3 96.189 0.302 -60.574 194e-6 69.434
          2.359e-3 98.554 185.6e-6 52.984 0.309 -57.725
1074.75 0.989 -72.84 2.12e-3 94.071 2.37e-3 96.021
          2.194e-3 92.848 0.307 -62.256 175.4e-6 46.389
          2.449e-3 95.635 160.4e-6 41.263 0.313 -58.985
1104.6 0.989 -74.574 2.133e-3 93.661 2.345e-3 96.645
          2.159e-3 91.521 0.314 -63.076 179e-6 41.784
          2.358e-3 94.682 177.2e-6 50.678 0.318 -59.808
1134.45 0.988 -76.133 2.12e-3 96.591 2.398e-3 98.356
          2.065e-3 96.725 0.316 -63.587 196.7e-6 25.631
          2.307e-3 97.907 177e-6 45.893 0.321 -60.307
1164.3 0.988 -77.73 2.176e-3 98.182 2.447e-3 100.442
          2.177e-3 100.213 0.317 -64.717 203.3e-6 36.373
          2.433e-3 103.046 190.1e-6 37.217 0.322 -61.232
1194.15 0.99 -79.316 2.277e-3 97.924 2.57e-3 100.741
          2.372e-3 99.526 0.32 -66.273 169.9e-6 31.488
          2.706e-3 102.732 188e-6 51.615 0.325 -62.624
1224 0.988 -80.943 2.322e-3 98.326 2.584e-3 99.353
          2.386e-3 95.814 0.326 -67.238 208.7e-6 27.456
          2.692e-3 98.837 172.2e-6 44.385 0.33 -63.904
1253.85 0.987 -82.553 2.337e-3 99.725 2.618e-3 102.435
          2.221e-3 98.242 0.331 -67.443 188.2e-6 22.928
          2.546e-3 100.467 204.3e-6 31.749 0.338 -64.249
1283.7 0.986 -84.116 2.443e-3 100.379 2.736e-3 104.662
          2.346e-3 103.483 0.33 -68.005 193.1e-6 34.242
          2.665e-3 106.763 163.5e-6 36.978 0.341 -64.211
1313.55 0.987 -85.561 2.467e-3 100.018 2.832e-3 103.604
          2.614e-3 102.114 0.331 -69.485 168.5e-6 36.297
          3.003e-3 104.564 228.1e-6 37.739 0.34 -64.771
1343.4 0.987 -87.164 2.404e-3 100.352 2.799e-3 102.692
          2.505e-3 97.64 0.336 -70.984 215e-6 35.124
          2.894e-3 101.011 182.5e-6 32.444 0.34 -66.19
1373.25 0.986 -88.698 2.386e-3 102.986 2.764e-3 105.442
          2.37e-3 101.739 0.343 -71.542 190e-6 19.044
          2.726e-3 105.406 180.2e-6 29.574 0.346 -67.467
1403.1 0.983 -90.233 2.512e-3 105.252 2.88e-3 108.343
          2.564e-3 105.105 0.344 -71.651 197.7e-6 22.521
          2.954e-3 108.546 195e-6 23.842 0.352 -67.936
1432.95 0.985 -91.715 2.585e-3 105.08 3.023e-3 108.866
          2.651e-3 103.555 0.344 -72.219 159.6e-6 26.589
          3.053e-3 105.721 201.3e-6 18.292 0.354 -68.147
1462.8 0.983 -93.208 2.626e-3 106.319 3.119e-3 107.939
          2.552e-3 104.742 0.345 -73.552 186.5e-6 22.91
          2.956e-3 107.139 193.3e-6 20.753 0.355 -68.717
1492.65 0.982 -94.693 2.642e-3 105.624 3.154e-3 108.707
          2.621e-3 107.591 0.349 -74.623 217e-6 13.817
          3.092e-3 110.483 171.3e-6 15.488 0.358 -69.675
1522.5 0.98 -96.091 2.617e-3 106.843 3.125e-3 109.892
          2.685e-3 107.353 0.352 -74.869 232.1e-6 2.388
          3.246e-3 110.417 177.7e-6 10.357 0.362 -70.133
1552.35 0.981 -97.602 2.707e-3 109.048 3.176e-3 111.399
          2.663e-3 106.897 0.352 -75.264 240.7e-6 -4.697
          3.211e-3 109.895 191.5e-6 2.154 0.365 -70.245
1582.2 0.98 -99.15 2.763e-3 110.021 3.236e-3 111.825
          2.661e-3 109.321 0.352 -76.577 217.9e-6 -6.671
          3.184e-3 112.368 220.9e-6 -5.639 0.364 -70.803
1612.05 0.98 -100.614 2.724e-3 110.122 3.316e-3 112.742
          2.723e-3 112.032 0.356 -77.819 200.4e-6 -15.703
          3.287e-3 114.402 220.2e-6 -10.988 0.365 -71.851
1641.9 0.98 -102.129 2.726e-3 112.595 3.314e-3 114.763
          2.827e-3 116.316 0.363 -78.228 229.3e-6 -18.311
          3.411e-3 116.911 213.8e-6 -5.682 0.369 -72.755
1671.75 0.978 -103.634 2.778e-3 115.713 3.374e-3 117.003
          2.922e-3 117.144 0.364 -78.042 234.6e-6 -14.027
          3.499e-3 117.333 230.9e-6 -18.475 0.373 -73.01
1701.6 0.976 -105.095 2.936e-3 117.473 3.521e-3 118.186
          3.034e-3 118.139 0.361 -78.47 228.7e-6 -23.291
          3.629e-3 117.794 248.9e-6 -15.992 0.375 -72.984
1731.45 0.973 -106.571 3.045e-3 117.738 3.682e-3 118.762
          3.191e-3 117.816 0.359 -79.675 232e-6 -30.38
          3.799e-3 118.41 262.3e-6 -14.167 0.373 -73.342
1761.3 0.974 -108.031 3.016e-3 117.283 3.703e-3 116.621
          3.224e-3 113.707 0.361 -80.96 246.9e-6 -31.057
          3.938e-3 114.501 270e-6 -23.469 0.371 -74.402
1791.15 0.973 -109.554 2.874e-3 120.309 3.54e-3 118.905
          2.984e-3 114.194 0.364 -81.343 287.4e-6 -37.513
          3.65e-3 114.794 280.5e-6 -32.123 0.374 -75.167
1821 0.97 -111.145 3.044e-3 125.447 3.594e-3 125.199
          2.901e-3 122.085 0.366 -81.465 302e-6 -37.33
          3.541e-3 122.769 293.8e-6 -37.798 0.377 -75.329
1850.85 0.971 -112.716 3.36e-3 126.546 4.03e-3 126.551
          3.313e-3 125.624 0.364 -82.053 330.5e-6 -33.315
          4.046e-3 125.828 322.2e-6 -36.408 0.376 -75.44
1880.7 0.969 -114.328 3.329e-3 124.095 4.088e-3 123.387
          3.408e-3 121.608 0.364 -83.107 330e-6 -39.806
          4.202e-3 121.226 344.5e-6 -40.241 0.375 -76.202
1910.55 0.965 -115.779 3.212e-3 126.411 3.904e-3 125.402
          3.112e-3 123.832 0.368 -83.922 333.6e-6 -47.585
          3.832e-3 122.339 337.8e-6 -44.163 0.377 -77.18
1940.4 0.964 -117.284 3.346e-3 131.559 4.056e-3 130.193
          3.244e-3 130.664 0.368 -83.751 359.5e-6 -42.287
          3.941e-3 129.067 324.3e-6 -44.382 0.379 -77.389
1970.25 0.964 -118.971 3.576e-3 131.974 4.4e-3 130.063
          3.559e-3 130.946 0.363 -84.16 381.6e-6 -47.636
          4.36e-3 129.064 390.3e-6 -43.677 0.378 -77.383
2000.1 0.962 -120.631 3.622e-3 130.908 4.464e-3 128.755
          3.557e-3 129.932 0.359 -85.317 350.9e-6 -52.437
          4.362e-3 127.961 428.2e-6 -50.858 0.375 -77.736
2029.95 0.961 -122.222 3.581e-3 133.729 4.368e-3 130.534
          3.537e-3 132.209 0.36 -86.694 401.7e-6 -56.662
          4.336e-3 130.453 431.1e-6 -50.851 0.372 -78.767
2059.8 0.96 -123.933 3.667e-3 138.991 4.452e-3 134.724
          3.65e-3 133.919 0.363 -87.43 457.5e-6 -54.372
          4.502e-3 131.32 473.4e-6 -54.459 0.373 -79.836
2089.65 0.957 -125.596 4.002e-3 141.723 4.835e-3 137.874
          3.699e-3 137.65 0.363 -87.066 492.1e-6 -55.074
          4.481e-3 133.724 463.5e-6 -60.883 0.375 -79.979
2119.5 0.953 -127.291 4.331e-3 139.629 5.21e-3 136.584
          3.939e-3 140.93 0.359 -87.433 537.3e-6 -58.792
          4.748e-3 137.368 488.6e-6 -62.895 0.374 -80.128
2149.35 0.953 -129.081 4.285e-3 137.852 5.193e-3 134.485
          4.243e-3 139.89 0.354 -88.671 558.1e-6 -60.551
          5.142e-3 136.768 526.6e-6 -66.504 0.371 -80.684
2179.2 0.951 -130.712 4.174e-3 141.223 5.017e-3 136.455
          4.207e-3 139.727 0.353 -89.934 537.3e-6 -65.244
          4.997e-3 136.168 549.2e-6 -71.556 0.369 -81.475
2209.05 0.948 -132.547 4.345e-3 145.596 5.174e-3 140.172
          4.279e-3 144.575 0.353 -90.716 551e-6 -67.072
          5.033e-3 140.834 593.2e-6 -69.11 0.37 -82.058
2238.9 0.948 -134.474 4.69e-3 146.856 5.55e-3 141.682
          4.784e-3 146.47 0.351 -90.947 625.2e-6 -67.564
          5.622e-3 141.735 655.7e-6 -69.233 0.367 -82.15
2268.75 0.945 -136.28 4.916e-3 147.472 5.763e-3 142.412
          4.844e-3 143.125 0.346 -91.699 691.2e-6 -64.713
          5.687e-3 137.954 689.3e-6 -71.838 0.361 -82.807
2298.6 0.941 -138.161 5.11e-3 148.278 6.003e-3 143.08
          4.513e-3 145.157 0.344 -92.937 738.9e-6 -67.155
          5.312e-3 140.252 679.1e-6 -72.688 0.358 -84.139
2328.45 0.942 -140.193 5.327e-3 148.643 6.251e-3 143.887
          4.711e-3 153.595 0.344 -94.033 760.6e-6 -69.873
          5.548e-3 148.783 714.3e-6 -74.812 0.359 -85.276
2358.3 0.937 -142.137 5.547e-3 149.378 6.5e-3 144.663
          5.576e-3 156.579 0.341 -94.219 811.6e-6 -73.143
          6.484e-3 151.777 815.5e-6 -74.844 0.36 -85.164
2388.15 0.933 -144.169 5.752e-3 149.698 6.737e-3 144.146
          6.147e-3 151.042 0.336 -94.711 847.8e-6 -77.61
          7.127e-3 145.827 883.8e-6 -78.008 0.357 -84.874
2418 0.934 -146.15 5.792e-3 149.959 6.777e-3 144.222
          5.73e-3 147.607 0.329 -96.42 842.6e-6 -81.2
          6.723e-3 142.247 865.3e-6 -80.748 0.348 -85.699
2447.85 0.931 -148.115 5.929e-3 153.388 6.804e-3 147.33
          5.461e-3 154.649 0.325 -98.105 857.3e-6 -81.235
          6.355e-3 148.98 855.3e-6 -81.493 0.343 -87.251
2477.7 0.924 -150.546 6.442e-3 155.989 7.325e-3 150.473
          6.469e-3 161.589 0.326 -99.372 930.3e-6 -79.378
          7.421e-3 155.545 941.5e-6 -78.295 0.343 -88.667
2507.55 0.925 -152.859 6.917e-3 154.912 7.97e-3 149.578
          7.565e-3 155.35 0.324 -99.66 1.065e-3 -80.15
          8.698e-3 149.291 1.088e-3 -79.749 0.341 -88.948
2537.4 0.922 -154.995 7.076e-3 154.805 8.144e-3 148.278
          6.974e-3 149.034 0.318 -100.202 1.13e-3 -81.67
          7.954e-3 142.695 1.117e-3 -87.485 0.336 -89.389
2567.25 0.918 -157.195 7.438e-3 155.575 8.392e-3 149.352
          6.453e-3 157.075 0.312 -101.468 1.164e-3 -81.644
          7.292e-3 150.227 1.066e-3 -87.142 0.331 -90.463
2597.1 0.918 -159.552 7.884e-3 154.147 8.792e-3 148.363
          7.787e-3 163.033 0.308 -103.244 1.198e-3 -85.575
          8.688e-3 156.277 1.158e-3 -82.16 0.329 -91.794
2626.95 0.912 -162.048 7.758e-3 154.189 8.64e-3 147.855
          8.59e-3 155.89 0.304 -104.543 1.208e-3 -87.788
          9.523e-3 149.758 1.266e-3 -85.222 0.327 -92.093
2656.8 0.911 -164.519 7.911e-3 158.117 8.664e-3 151.487
          7.945e-3 154.363 0.301 -105.766 1.284e-3 -86.037
          8.773e-3 148.312 1.316e-3 -87.958 0.321 -92.217
2686.65 0.911 -166.782 8.734e-3 159.884 9.557e-3 153.891
          8.22e-3 161.087 0.295 -107.325 1.446e-3 -86.492
          9.124e-3 155.212 1.374e-3 -87.287 0.312 -93.448
2716.5 0.904 -169.171 9.287e-3 157.147 0.01 151.44
          9.382e-3 160.064 0.291 -109.317 1.541e-3 -89.744
          0.01 154.341 1.496e-3 -89.35 0.305 -95.774
2746.35 0.903 -172.016 9.368e-3 155.648 0.01 149.714
          9.436e-3 155.897 0.289 -110.564 1.527e-3 -92.73
          0.01 149.749 1.51e-3 -93.721 0.305 -97.305
2776.2 0.901 -174.675 9.546e-3 157.552 0.01 151.431
          9.243e-3 158.393 0.285 -111.4 1.527e-3 -92.411
          0.01 152.097 1.555e-3 -94.002 0.304 -97.685
2806.05 0.897 -177.268 0.01 158.729 0.011 152.843
          9.943e-3 161.23 0.277 -112.273 1.652e-3 -91.722
          0.011 155.211 1.651e-3 -93.434 0.297 -97.798
2835.9 0.893 -179.85 0.011 157.466 0.012 151.922
          0.011 160.491 0.269 -114.212 1.762e-3 -94.265
          0.012 154.534 1.741e-3 -94.667 0.288 -99.139
2865.75 0.892 177.515 0.011 156.016 0.012 150.123
          0.011 159.349 0.265 -117.118 1.804e-3 -97.415
          0.012 153.23 1.834e-3 -94.932 0.283 -101.322
2895.6 0.889 174.598 0.011 157.577 0.012 151.39
          0.011 158.224 0.263 -119.302 1.832e-3 -97.209
          0.012 152.227 1.869e-3 -96.565 0.281 -102.479
2925.45 0.887 171.682 0.012 160.275 0.012 154.44
          0.012 159.092 0.262 -120.838 1.917e-3 -94.8
          0.013 153.291 1.91e-3 -97.313 0.276 -103.022
2955.3 0.886 169.004 0.013 158.713 0.013 153.438
          0.012 160.66 0.257 -122.271 2.094e-3 -96.235
          0.013 154.894 2.023e-3 -96.452 0.266 -104.331
2985.15 0.884 166.267 0.013 155.837 0.014 150.315
          0.013 158.925 0.25 -123.948 2.157e-3 -100.244
          0.014 152.967 2.173e-3 -96.817 0.257 -106.786
3015 0.883 163.17 0.013 157.068 0.014 151.159
          0.013 158.642 0.246 -126.086 2.194e-3 -100.726
          0.014 152.78 2.272e-3 -98.476 0.255 -109.261
3044.85 0.88 160.126 0.014 158.213 0.014 152.779
          0.014 160.847 0.24 -127.978 2.339e-3 -100.03
          0.015 155.377 2.387e-3 -99.841 0.254 -109.895
3074.7 0.877 157.322 0.014 156.399 0.015 151.479
          0.015 158.069 0.234 -130.375 2.47e-3 -101.619
          0.016 152.796 2.56e-3 -100.457 0.247 -110.148
3104.55 0.878 154.595 0.014 156.228 0.015 150.998
          0.015 154.321 0.227 -133.629 2.504e-3 -103.878
          0.016 149.242 2.681e-3 -103.254 0.234 -111.77
3134.4 0.875 151.599 0.015 157.09 0.016 151.89
          0.015 157.304 0.226 -137.39 2.623e-3 -105.369
          0.016 152.153 2.709e-3 -105.216 0.225 -115.218
3164.25 0.876 148.464 0.016 156.629 0.016 151.665
          0.016 158.852 0.225 -139.629 2.772e-3 -106.722
          0.017 153.84 2.804e-3 -104.747 0.222 -118.032
3194.1 0.874 145.542 0.016 156.714 0.017 151.412
          0.017 155.246 0.223 -140.406 2.864e-3 -106.491
          0.018 150.496 2.924e-3 -106.398 0.219 -119.599
3223.95 0.872 142.729 0.017 156.084 0.018 151.027
          0.017 154.657 0.214 -141.859 3.055e-3 -107.017
          0.018 149.862 2.956e-3 -108.073 0.211 -120.999
3253.8 0.871 139.812 0.017 153.439 0.018 148.97
          0.018 155.037 0.206 -145.844 3.157e-3 -109.735
          0.019 150.338 3.098e-3 -108.467 0.202 -123.9
3283.65 0.87 136.889 0.017 152.475 0.018 147.906
          0.018 152.173 0.202 -150.998 3.161e-3 -110.707
          0.019 147.424 3.282e-3 -110.689 0.197 -127.082
3313.5 0.87 133.766 0.017 154.369 0.018 149.415
          0.018 152.229 0.204 -154.727 3.263e-3 -110.08
          0.019 147.441 3.358e-3 -112.037 0.194 -129.334
3343.35 0.872 130.856 0.019 155.26 0.019 150.604
          0.019 154.559 0.202 -156.877 3.535e-3 -109.641
          0.02 149.781 3.49e-3 -111.476 0.184 -131.229
3373.2 0.872 128.218 0.02 154.084 0.02 149.726
          0.02 152.669 0.198 -159.992 3.8e-3 -111.442
          0.021 147.856 3.684e-3 -112.751 0.174 -135.607
3403.05 0.872 125.317 0.021 151.607 0.021 147.399
          0.02 150.627 0.195 -164.199 3.911e-3 -115.498
          0.021 145.86 3.787e-3 -114.663 0.169 -141.486
3432.9 0.873 122.294 0.02 149.814 0.021 145.537
          0.021 151.206 0.195 -168.032 3.947e-3 -117.844
          0.021 146.692 3.875e-3 -115.47 0.17 -145.498
3462.75 0.871 119.624 0.02 150.899 0.021 146.537
          0.022 150.718 0.193 -170.96 3.982e-3 -117.307
          0.022 146.654 4.011e-3 -116.522 0.168 -147.149
3492.6 0.876 117.122 0.022 151.783 0.022 147.693
          0.022 150.213 0.188 -174.927 4.124e-3 -117.322
