! Hittite Microwave Corporation
! 20 Alpha Road
! Chelmsford, MA 01824
! Tel: 978-250-3343
! Fax: 978-250-3373
! Device: HMC321LP4, DC-8.0 GHz, GaAS MMIC SP8T Non-Reflective Positive 
!         Control Switch in Low Cost Leadless SMT Package
! Misc: Data was de-embedded to package pins.
!       Port 1 = RFC
!       Port 2 = RF1    Port 6 = RF5
!       Port 3 = RF2    Port 7 = RF6
!       Port 4 = RF3    Port 8 = RF7
!       Port 5 = RF4    Port 9 = RF8
!          Vee = +5 V
!         Vctl =  0 V[Logic 0] / +5 V[Logic 1]
!
!  RF8 Selected,  VA = 1,  VB = 1,  VC = 1
!
!  Data reformated to new Touchstone file format - Fri Jan 12 11:52:34 2007
!
# MHz S DB R 50
! 9 Port Network Data
! freq  dbS11  angS11  dbS12  angS12  dbS13  angS13  dbS14  angS14  
!       dbS15  angS15  dbS16  angS16  dbS17  angS17  dbS18  angS18  
!       dbS19  angS19  
!       dbS21  angS21  dbS22  angS22  dbS23  angS23  
!       dbS24  angS24  dbS25  angS25  dbS26  angS26  dbS27  angS27  
!       dbS28  angS28  dbS29  angS29  
!       dbS31  angS31  dbS32  angS32  
!       dbS33  angS33  dbS34  angS34  dbS35  angS35  dbS36  angS36  
!       dbS37  angS37  dbS38  angS38  dbS39  angS39  
!       dbS41  angS41  
!       dbS42  angS42  dbS43  angS43  dbS44  angS44  dbS45  angS45  
!       dbS46  angS46  dbS47  angS47  dbS48  angS48  dbS49  angS49  
!       dbS51  angS51  dbS52  angS52  dbS53  angS53  dbS54  angS54  
!       dbS55  angS55  dbS56  angS56  dbS57  angS57  dbS58  angS58  
!       dbS59  angS59  
!       dbS61  angS61  dbS62  angS62  dbS63  angS63  
!       dbS64  angS64  dbS65  angS65  dbS66  angS66  dbS67  angS67  
!       dbS68  angS68  dbS69  angS69  
!       dbS71  angS71  dbS72  angS72  
!       dbS73  angS73  dbS74  angS74  dbS75  angS75  dbS76  angS76  
!       dbS77  angS77  dbS78  angS78  dbS79  angS79  
!       dbS81  angS81  
!       dbS82  angS82  dbS83  angS83  dbS84  angS84  dbS85  angS85  
!       dbS86  angS86  dbS87  angS87  dbS88  angS88  dbS89  angS89  
!       dbS91  angS91  dbS92  angS92  dbS93  angS93  dbS94  angS94  
!       dbS95  angS95  dbS96  angS96  dbS97  angS97  dbS98  angS98  
!       dbS99  angS99  
!     
                54       -13.1911177              2.293        -67.3326511             81.306        -70.4517862           -100.697        -68.7066787             26.305
                      -69.8294056             -11.64        -66.0275514            135.438        -58.3730538            -81.366        -64.6479786            130.735
                      -2.09154908             -1.375
                      -66.3570985            131.024       -0.175478486             -8.215        -66.5839543           -178.319        -67.8444679             -69.97
                      -66.3951033            -75.641        -73.3310545              2.618        -65.9807364            -118.45        -62.5662067              57.74
                      -61.7364433             54.076
                      -77.6678451            -38.261        -68.6806837             97.576       -0.175478486             -8.167        -66.3824165             50.903
                      -67.6390381             42.466        -60.0575169            -12.195         -68.980765             61.651        -61.8689896            -65.641
                      -63.2722516              75.67
                      -67.2222315            -30.903         -63.780572           -100.103        -68.0548743             -56.51       -0.193222904             -8.226
                      -69.1709114              7.514        -71.3598663           -106.934        -74.5585242            -79.433        -75.6608559           -161.517
                      -70.2459227           -125.685
                      -66.7090408           -139.245         -71.710561            -99.572        -72.9024715             19.982        -68.4272158              48.59
                     -0.193222904             -8.391        -64.3162159           -160.681        -65.2656973           -109.138        -69.1984182            -94.823
                      -74.5585242             32.489
                      -71.8385943             76.874        -67.7189379             26.726        -72.2308709             36.064        -68.7660493             25.075
                      -77.6479462            -83.755       -0.184346164             -8.346        -62.0474582             91.284        -62.0145363            127.255
                      -73.7988852             54.189
                      -64.9467411            105.739        -71.1881148            131.533        -64.3763856             -2.561        -65.5325287           -132.052
                      -64.4196206            156.076        -74.9477932           -153.026       -0.184346164             -8.173        -61.2908624             97.212
                      -64.5315855              92.81
                      -65.4248105              97.83        -76.4781748             52.429        -62.3142908              46.46        -68.8306287            -73.984
                      -64.7015403            -68.976        -73.2988696            142.803        -67.6537013             18.166       -0.193222904             -8.244
                      -69.6851717            110.286
                      -2.06947565             -1.215         -65.929014            -95.558        -79.2196536            -86.509        -64.0394241             84.529
                      -63.9856584            150.854        -76.2495856             21.055        -76.1598081            160.036        -62.7109651             28.828
                      -13.6387333               1.74

             98.73       -13.1515464              1.091        -69.9296337            132.033        -73.9490526            -94.582        -83.2507566             54.414
                      -78.3946875            153.646        -77.3100829              29.92        -75.3910216             28.561        -64.8232755             65.139
                      -2.06947565             -2.569
                      -71.7273001             98.832       -0.528207531            -14.426        -78.1315663             22.842        -75.9339017             39.244
                      -81.7311409            165.659        -75.0503548            174.592         -70.226166             -7.312        -77.1584708            -42.664
                      -73.0183366            146.582
                      -74.0974583             140.96        -72.3596591            -69.539       -0.518981944            -14.338        -67.4056933             65.527
                      -71.5482032             91.745        -85.4817674            142.989        -77.2465893            -69.015        -73.9015768             -66.39
                      -73.4732828             25.081
                         -74.9916            -12.235        -70.8726793             39.374        -68.3860612             61.553       -0.518981944            -14.439
                      -63.0844007              77.19        -73.8714994            -95.586        -79.9566788           -169.568        -75.3961324            -82.308
                      -75.5508733            -35.821
                       -72.399395            178.834        -74.6050725           -171.278        -77.8490174            -49.955         -65.496474             94.531
                     -0.518981944            -14.786        -69.3093249            145.025         -72.117974             83.586        -69.5146746             -91.42
                      -71.7139062             -5.647
                      -78.2585759           -137.109        -68.2592576            -67.285        -72.0169133             35.816        -75.6608559            -43.677
                      -76.9787349             117.11       -0.509766145            -14.788        -67.3549045              90.06        -75.7137221              44.04
                      -74.3520899            -105.79
                      -72.5712537             69.706        -74.9235512            -29.721        -71.8521819            101.747        -69.1260874             66.001
                      -76.2948247              7.517        -65.5720325              74.79       -0.500560114            -14.373        -66.3625176             20.017
                      -66.5248413             81.743
                      -67.1467534             14.663        -76.4839673           -127.158        -86.7845871            113.454         -67.252207             25.066
                      -71.1598168            -98.008        -68.6242358             77.168        -66.5839543              4.996       -0.518981944            -14.484
                      -67.1784537             64.907
                      -2.01453625             -2.497         -73.010564            -92.167        -75.9447863            -17.417        -73.9837441            126.245
                       -81.325194             65.083         -72.421146            -53.174        -68.7493846             141.41        -64.7554343            107.716
                      -13.5970743               2.21

            143.46       -13.1515464              -0.06        -68.4916242             89.652        -73.2668035              8.587        -76.8026431            158.248
                      -73.5970743              2.294         -77.139704            -16.087        -77.4320146              56.68        -63.4759115             33.964
                      -2.06947565             -3.502
                      -72.1495782            148.609       -0.982970822             -19.79        -73.7226556             75.877        -80.1976647             72.144
                        -75.62404            -92.149        -77.4320146            -31.999        -74.9235512           -173.285        -96.7606677           -115.186
                      -76.6595641            -48.366
                      -77.1459551             29.108        -76.2948247             38.762       -0.982970822            -19.723        -68.5518626             75.381
                      -94.8897257             50.823        -76.6951135             98.374        -79.0156395              26.55        -77.4062022            -85.166
                      -87.3934769           -172.962
                      -80.5679896             114.29        -78.7408433            -49.388        -70.1895938             38.489       -0.963539294            -19.927
                      -66.2405076             75.328        -68.8643044            -94.215        -81.2757591           -171.171        -92.5638708            -70.238
                      -72.1954328             -11.15
                      -74.2708706             80.281        -98.9077389             159.85        -74.2663806            -40.869        -73.2468222             54.046
                     -0.973249624            -20.471        -81.9610307             95.129        -70.7251256            179.361        -77.0774393           -139.322
                      -74.1106755             91.459
                      -78.1736968             90.288        -74.8945499             -9.885        -78.2089623            116.574        -74.2574076            -97.494
                      -83.1278706              85.97       -0.963539294            -20.462        -81.8732992             90.452        -74.6847817           -116.106
                      -75.2040036             26.314
                      -72.6342623             76.275        -76.2552276            -128.87        -77.3548062             -4.615        -76.4147107            -64.923
                      -75.5093387           -144.451        -67.5164215             65.255       -0.963539294            -19.915        -74.3113853            -62.972
                      -77.8016827              88.94
                      -64.7614432             59.653        -71.4243498            -98.983        -76.8872073            133.228        -76.4781748           -112.615
                      -75.6819637            164.384        -79.5844902            -52.603        -68.8474502             35.221       -0.982970822            -19.923
                      -64.5550332             70.227
                      -2.02549637             -3.422        -72.4465912             63.378        -75.1095098             -25.67        -71.1566783            -41.001
                      -77.4062022              71.45        -84.3936538            127.351        -68.5681523              77.85        -67.5577928             70.457
                      -13.5970743              2.881

            188.19       -13.1911177             -0.883        -64.4442163             80.739        -72.6082622             95.622        -82.0595609             27.919
                      -79.4611674            140.613        -82.2375339             28.636        -69.8536792             69.933        -63.7940052             39.077
                      -2.06947565              -4.44
                      -65.8998408             88.489        -1.55587445            -24.289        -71.0382467             51.623        -77.7814752             87.323
                      -80.3581952             14.593        -75.9939363           -105.839        -73.5390853            -36.319        -77.2087147           -141.867
                      -69.8347939             55.677
                      -71.4211142             50.714        -69.9051473             91.099        -1.56627049            -24.209        -68.1920811             43.781
                      -77.6744882             84.101         -87.044519           -104.915        -75.2541532            -70.875        -76.8569112             79.387
                      -74.6612618             52.526
                      -78.7860432             101.73        -78.2301906            138.441        -70.6804526             92.423        -1.51441428            -24.542
                      -66.9860804             83.137        -75.4268608            -15.604        -75.4989861            121.282        -81.6069344             96.202
                      -75.5456706            -41.684
                      -81.4085564            115.146        -81.2166064            -45.186        -76.5479414             111.13        -67.3084395             76.598
                      -1.53511963            -25.238        -77.0774393            138.646        -84.0269871             -2.001        -75.8204297             10.303
                      -76.4319732              5.003
                      -68.4593603             95.092         -87.593114             26.483        -80.5125299             117.69        -76.0654255           -132.331
                      -77.8354669            119.548        -1.51441428            -25.273        -65.5555507             90.415        -76.9420081            175.085
                      -76.5537806             80.429
                       -72.512366              67.95        -77.8286995            139.542        -75.5145197            -77.455        -77.4190988             67.197
                      -79.1327544           -151.755        -64.8931763             75.929        -1.51441428            -24.586        -67.6202216             45.157
                      -72.0760131             85.304
                      -64.6643097             39.872        -72.7843462             10.788        -79.4204459            -57.162        -81.7353826            100.567
                      -82.5638727            112.456        -76.6418438            105.268        -69.1609305             56.824        -1.54549084            -24.491
                      -64.7930584             86.871
                      -2.03647033              -4.37         -68.172029             65.746        -75.6819637             55.372        -82.1303131            172.685
                      -93.3069047           -154.311        -77.1898391             14.222         -75.179037             65.184        -64.6139308             95.882
                      -13.5556141              3.257

            232.92       -13.1911177             -1.891        -67.5143581             84.851        -71.2007213             44.965        -80.2181261             94.407
                      -74.8945499             89.725        -72.3957752             58.283        -71.2640298             11.698        -62.9309032             32.222
                      -2.06947565             -5.399
                      -64.7855206             86.722        -2.16925085            -27.692         -66.556195             92.452        -71.7239497            102.542
                      -74.6612618           -148.094        -81.9251812             67.133        -90.7970837            -74.027        -76.6477465             33.488
                      -71.3984989             39.011
                      -78.1596306             65.968        -71.3054292             84.921        -2.16925085            -27.669        -73.2948549             82.708
                      -83.1191592             32.292         -75.676682            -43.983        -83.4927761             -8.124        -86.3408615             44.997
                      -78.0896392             49.481
                      -79.5349508             56.238        -73.0964477            116.034        -67.8358998            105.222        -2.11367875            -28.177
                      -66.2601287             69.172        -103.448738             -2.911        -81.8292274           -108.458        -79.9480404                148
                      -73.6889893            -46.396
                      -76.9971568             40.137        -76.1653921              58.41        -77.0341181           -142.817        -64.9605685            100.847
                      -2.13586494            -28.988        -82.8220409            168.375        -78.6066381            141.786         -85.321617            -80.205
                      -76.5246235              0.515
                      -71.0972606             76.356        -85.6549137            109.234        -79.2994144             24.345        -77.9444677             17.044
                      -76.3460019            176.625        -2.12476476              -29.1         -65.929014              98.85        -84.3290744             40.447
                      -70.4662651             91.948
                      -69.5955713             53.224        -76.8026431            -80.113        -96.0213626               35.3        -77.5885214           -120.213
                      -76.2495856            -77.868        -63.5854647             86.409        -2.11367875            -28.286        -68.7327518              95.22
                      -68.4478665             61.773
                      -66.1730647             26.476        -79.5844902             -37.09         -72.910148            126.646        -84.1213999             139.42
                      -79.7601377            -90.895        -95.4989861            -76.338         -70.333961             64.373        -2.14697932            -28.092
                      -60.5485384             84.377
                      -2.03647033             -5.338        -65.6499185             33.525        -75.9665964             15.658        -85.8724729            -57.369
                      -76.6713977             53.634        -77.1209777             53.232        -70.9734838             47.314        -60.4309113              86.08
                      -13.5556141              3.646

            277.65       -13.2708053             -2.238        -62.0959705             85.595        -73.4161117             89.298        -70.6153451             33.667
