!Hittite Microwave Corporation								
!12 Elizabeth Drive								
!Chelmsford, MA 01824							
!Tel: 978-250-3343								
!Fax: 978-250-3373								
!Device: HMC310MS8G, BLUETOOTH and 2.4 GHz WLAN Receiver in 8-lead MSOP package with ground slug								
!Misc: VDD=3.0 22.38MA TX , DEEMBEDDED TO THE PINS OF THE DEVICE								
!
# MHZ S MA R 50

1000 0.526 98.26 1.592 -150.48 0.011 -131.408 0.807 43.706
1030 0.531 100.036 1.702 -149.68 0.01 -138.656 0.799 44.4
1060 0.537 101.681 1.831 -148.963 9.99e-3 -134.064 0.785 45.245
1090 0.542 103.759 2.017 -149.134 0.011 -134.684 0.771 45.684
1120 0.553 106.577 2.154 -151.479 0.013 -135.049 0.757 46.492
1150 0.564 108.116 2.269 -152.096 0.015 -125.458 0.731 46.726
1180 0.565 109.812 2.393 -152.825 0.013 -114.529 0.718 47.21
1210 0.569 111.611 2.512 -152.773 0.011 -138.538 0.702 47.774
1240 0.576 113.635 2.657 -153.097 0.017 -110.677 0.68 47.962
1270 0.58 116.039 2.797 -154.127 0.016 -108.501 0.657 48.637
1300 0.597 116.778 2.905 -153.738 0.016 -122.64 0.644 49.222
1330 0.601 118.154 3.133 -155.168 0.019 -115.805 0.624 49.571
1360 0.607 120.051 3.257 -157.472 0.019 -110.034 0.594 50.184
1390 0.611 122.093 3.301 -159.186 0.017 -105.424 0.561 50.434
1420 0.627 123.265 3.309 -158.147 0.019 -116.877 0.471 50.724
1450 0.627 123.885 3.528 -157.697 0.017 -119.93 0.48 50.837
1480 0.631 125.485 3.721 -158.822 0.019 -109.676 0.504 51.801
1510 0.638 127.4 3.842 -161.025 0.019 -96.291 0.467 53.142
1540 0.649 128.387 3.871 -162.191 0.022 -106.374 0.462 54.379
1570 0.652 128.874 3.945 -162 0.023 -106.488 0.442 54.1
1600 0.656 129.981 4.055 -162.733 0.025 -105.36 0.409 54.155
1630 0.654 131.484 4.137 -163.1 0.024 -103.912 0.378 55.947
1660 0.658 132.537 4.259 -163.381 0.022 -108.133 0.358 56.913
1690 0.663 133.432 4.402 -164.301 0.024 -105.6 0.34 57.505
1720 0.662 134.58 4.474 -166.191 0.025 -103.633 0.309 58.741
1750 0.668 135.691 4.444 -166.292 0.027 -100.381 0.287 61.431
1780 0.665 136.85 4.545 -166.737 0.025 -103.486 0.249 63.96
1810 0.668 137.79 4.635 -167.421 0.027 -101.896 0.231 67.742
1840 0.666 138.847 4.696 -168.325 0.029 -99.954 0.225 69.764
1870 0.667 139.965 4.721 -169.056 0.028 -96.488 0.2 73.088
1900 0.674 140.749 4.725 -169.155 0.03 -92.69 0.19 77.974
1930 0.67 141.891 4.73 -169.653 0.029 -93.456 0.166 84.683
1960 0.672 143.323 4.723 -169.817 0.029 -87.056 0.156 91.508
1990 0.675 144.427 4.763 -169.688 0.029 -88.634 0.149 96.729
2020 0.673 144.638 4.839 -169.771 0.032 -89.82 0.142 99.654
2050 0.664 145.452 4.896 -170.655 0.03 -88.704 0.123 107.425
2080 0.66 146.297 4.84 -171.033 0.033 -89.867 0.126 115.482
2110 0.661 147.255 4.817 -170.405 0.032 -86.442 0.121 125.29
2140 0.655 148.342 4.847 -170.25 0.033 -88.711 0.124 131.836
2170 0.657 149.419 4.877 -170.294 0.032 -84.97 0.125 141.287
2200 0.655 150.307 4.883 -170.618 0.035 -81.979 0.132 145.827
2230 0.653 151.3 4.866 -170.872 0.035 -82.544 0.138 152.403
2260 0.648 152.424 4.85 -170.735 0.033 -82.267 0.137 159.202
2290 0.647 153.484 4.842 -170.233 0.032 -81.367 0.14 162.913
2320 0.649 154.161 4.835 -169.393 0.033 -75.147 0.156 167.451
2350 0.644 154.934 4.848 -169.05 0.035 -72.363 0.167 171.184
2380 0.638 155.965 4.85 -168.861 0.036 -75.539 0.17 176.104
2410 0.634 157.048 4.846 -168.63 0.035 -74.772 0.176 178.407
2440 0.623 157.945 4.855 -168.457 0.036 -78.801 0.179 179.916
2470 0.618 158.472 4.839 -167.99 0.037 -75.845 0.185 -177.335
2500 0.616 159.499 4.814 -167.502 0.036 -73.643 0.194 -174.528
2530 0.611 160.363 4.809 -166.917 0.036 -70.207 0.211 -172.612
2560 0.609 161.237 4.793 -166.532 0.038 -69.804 0.217 -170.79
2590 0.604 162.421 4.772 -165.824 0.037 -70.549 0.22 -168.264
2620 0.6 163.323 4.772 -164.974 0.035 -67.303 0.229 -165.346
2650 0.597 163.829 4.799 -164.343 0.037 -61.91 0.243 -165.039
2680 0.591 164.173 4.825 -164.282 0.04 -58.55 0.254 -165.607
2710 0.586 164.338 4.876 -163.889 0.042 -55.358 0.261 -173.932
2740 0.58 164.969 4.868 -162.843 0.043 -56.163 0.271 -175.645
2770 0.57 166.905 4.705 -161.948 0.041 -60.183 0.267 -159.953
2800 0.564 167.774 4.727 -160.984 0.04 -59.097 0.277 -157.958
2830 0.555 168.34 4.77 -160.533 0.042 -57.783 0.285 -156.914
2860 0.549 169.546 4.776 -160.259 0.042 -55.177 0.296 -156.324
2890 0.542 169.965 4.775 -160.032 0.043 -52.406 0.301 -155.831
2920 0.53 170.297 4.742 -160.253 0.043 -51.52 0.306 -154.014
2950 0.523 171.693 4.639 -159.616 0.04 -54.231 0.316 -152.173
2980 0.518 172.604 4.555 -157.309 0.042 -51.739 0.328 -151.581
3010 0.518 173.285 4.631 -155.019 0.042 -43.733 0.341 -151.806
3040 0.509 174.113 4.781 -155.03 0.043 -41.178 0.346 -151.714
3070 0.491 175.823 4.773 -156.675 0.042 -45.948 0.346 -149.828
3100 0.481 176.759 4.612 -156.991 0.041 -43.572 0.352 -147.787
3130 0.477 177.467 4.464 -155.194 0.04 -40.018 0.36 -147.053
3160 0.479 178.627 4.419 -152.575 0.041 -41.794 0.364 -146.493
3190 0.476 178.973 4.477 -150.545 0.042 -41.424 0.369 -145.585
3220 0.465 179.989 4.604 -149.577 0.043 -40.732 0.374 -144.601
3250 0.461 -179.06 4.707 -149.945 0.042 -38.169 0.383 -143.783
3280 0.455 -178.543 4.659 -151.292 0.041 -35.986 0.388 -142.893
3310 0.451 -178.345 4.444 -151.332 0.041 -34.426 0.39 -141.383
3340 0.445 -178.351 4.262 -148.422 0.042 -30.806 0.4 -140.306
3370 0.437 -178.05 4.319 -144.475 0.043 -29.973 0.409 -139.487
3400 0.423 -178.056 4.572 -143.435 0.047 -29.501 0.413 -139.07
3430 0.419 -177.242 4.657 -145.304 0.048 -27.558 0.418 -138.039
3460 0.42 -176.094 4.491 -146.228 0.042 -24.626 0.428 -136.499
3490 0.41 -174.902 4.324 -145.26 0.042 -25.073 0.419 -136.006
3520 0.403 -175.034 4.304 -142.921 0.042 -21.266 0.425 -135.951
3550 0.395 -175.352 4.302 -141.016 0.043 -20.616 0.445 -134.587
3580 0.389 -174.844 4.297 -139.76 0.041 -16.447 0.457 -133.012
3610 0.382 -174.677 4.34 -138.813 0.043 -16.306 0.461 -132.003
3640 0.366 -174.418 4.4 -138.811 0.046 -18.27 0.468 -130.921
3670 0.36 -173.829 4.337 -139.151 0.041 -17.515 0.475 -129.782
3700 0.35 -173.28 4.187 -138.347 0.043 -15.214 0.483 -128.932
3730 0.337 -174.08 4.143 -136.126 0.048 -13.542 0.487 -127.965
3760 0.335 -173.545 4.195 -134.736 0.045 -11.098 0.497 -126.71
3790 0.329 -173.476 4.172 -134.721 0.043 -14.278 0.501 -125.546
3820 0.324 -173.21 4.055 -133.388 0.044 -14.634 0.505 -124.666
3850 0.316 -173.324 4.076 -130.776 0.045 -13.366 0.513 -123.701
3880 0.307 -172.839 4.216 -130.693 0.046 -13.849 0.517 -122.854
3910 0.301 -172.677 4.143 -132.793 0.043 -9.514 0.528 -121.516
3940 0.296 -171.602 3.875 -132.464 0.038 -5.953 0.53 -120.43
3970 0.286 -173.855 3.737 -128.177 0.043 -5.671 0.541 -119.91
4000 0.283 -174.191 3.85 -124.572 0.044 -3.309 0.549 -118.796
