! Hittite Microwave Corporation					
! 20 Alpha Road
! Chelmsford, MA 01824
! Tel: 978-250-3343
! Fax: 978-250-3373
! Device: HMC344LH5, DC-12 GHz GaAs MMIC SP4T Non-Reflective Switch in Hermetic Leadless SMT Package
! Misc: Data was de-embedded to package pins.
!       Port 1 = RFC
!       Port 2 = RF1
!       Port 3 = RF2
!       Port 4 = RF3
!       Port 5 = RF4
!  
!  RF1 selected, Vctl= 0/-5 V
!
!  Data reformated to new Touchstone file format - Tue Jan 09 13:12:26 2007
!
# MHz S DB R 50
! 5 Port Network Data
! freq  dbS11  angS11  dbS12  angS12  dbS13  angS13  dbS14  angS14  
!       dbS15  angS15  
!       dbS21  angS21  dbS22  angS22  dbS23  angS23  
!       dbS24  angS24  dbS25  angS25  
!       dbS31  angS31  dbS32  angS32  
!       dbS33  angS33  dbS34  angS34  dbS35  angS35  
!       dbS41  angS41  
!       dbS42  angS42  dbS43  angS43  dbS44  angS44  dbS45  angS45  
!       dbS51  angS51  dbS52  angS52  dbS53  angS53  dbS54  angS54  
!       dbS55  angS55  
!     
                10        -15.139239              0.597        -1.83029962             -1.154         -64.540371            -46.739        -82.8497317             67.876
                      -68.9199136             54.066
                      -1.23961805             -0.344        -16.6536533             -0.204        -63.5789049           -172.684        -56.7906294            -76.986
                      -65.7100518             57.359
                      -67.3286111            -18.629        -65.2912159             48.902         -16.137508              1.842        -63.9294921           -147.427
                      -68.8090489             30.313
                      -58.8314795             55.657         -61.708906            -39.007        -67.5495028             48.583         -16.137508              1.872
                      -73.8415259            -78.107
                      -68.8884385            -46.489        -61.1004818             36.003        -62.4895147             40.313        -67.5702427             87.453
                      -15.8096997              1.694

             69.95       -16.7129429             -2.395        -1.51441428             -2.012        -76.7188942            165.038        -83.1728106           -171.228
                      -79.5267216             53.388
                      -1.50408008             -2.052        -16.5947657             -2.107        -80.0645146             80.917        -80.6715331             12.932
                       -84.301951            -53.269
                      -75.1640914           -162.739        -84.7689602           -151.501        -15.8096997             -1.518        -97.2655887           -124.479
                      -83.1728106            178.011
                      -81.7375042            -97.472        -86.4442122           -160.298         -82.392876           -132.369        -15.8096997             -1.657
                      -72.2735885            104.761
                      -79.1170476             69.181        -78.0132944            -91.947        -88.0636613            122.991        -81.4126434           -168.619
                      -15.4938144             -1.515

             129.9       -16.7129429             -4.876        -1.53511963             -3.451        -85.3505165           -134.505        -83.5239969            -55.942
                       -81.152893             40.725
                      -1.52476078             -3.501        -16.6536533             -4.507        -79.5514326             95.008        -88.4340939            139.576
                      -79.2674221           -166.054
                      -83.4694339              4.982        -72.9255212             90.162        -15.8096997             -3.329        -87.7231636             59.478
                      -83.0732578             30.297
                       -80.637816           -141.787        -90.9366921            128.132        -77.2846297             21.748        -15.7562479             -3.476
                       -82.354064            120.417
                      -89.9925257           -172.095        -85.4932037            178.485        -78.0548538            110.707        -79.3718307             79.977
                      -15.4938144             -3.195

            189.85       -16.7129429             -6.399        -1.52476078             -5.069        -89.5772383           -165.718        -89.0223887            123.183
                      -82.0200146             70.379
                      -1.52476078             -5.089        -16.5947657             -6.229         -76.730809             84.431        -87.7995795            171.205
                       -92.058589            147.265
                      -88.4409774            -148.43        -72.9834145            101.231        -15.8096997             -4.762        -77.4190988             74.307
                      -83.3065005             76.956
                      -102.043061            138.421        -88.6995814           -120.561        -79.6509854             87.647        -15.7562479             -5.006
                      -70.6360083             90.836
                      -118.658583             87.344        -82.1670211           -131.591        -75.9556845            100.666        -72.9679386             63.056
                      -15.4422659             -4.585

             249.8       -16.6536533              -8.55        -1.52476078             -6.484         -93.534958            -35.042        -92.4175171             146.11
                      -80.1189387            100.739
                      -1.52476078             -6.544        -16.5947657             -8.048        -75.9393423             88.664        -79.2994144             149.39
                      -92.2735885            108.208
                      -82.8016303            138.967         -73.424256             82.502        -15.7562479             -6.362        -80.3981137             92.886
                      -74.5864233             88.085
                      -81.5278671           -153.787        -87.1053215             41.427        -75.4783177             83.656         -15.703123             -6.573
                      -68.0373271             78.085
                      -76.0158704             96.335        -79.8024873             153.58         -77.727817             74.205        -67.6894155             72.495
                      -15.3910216             -6.025

            309.75       -16.6536533            -10.654        -1.54549084             -8.061        -85.1848535           -147.079        -93.4855828              5.276
                      -78.9230715             87.376
                      -1.53511963             -8.011        -16.5362746            -10.267        -72.5417599             98.261        -85.5292448             95.843
                      -85.1627921            141.301
                      -86.7902797           -173.861         -73.773401             93.146        -15.7562479             -8.002        -74.1018618             68.655
                      -76.1486509             70.683
                       -85.360171             148.06        -83.2849206             80.214        -74.9283942             79.435         -15.703123              -8.16
                      -66.2995043             80.833
                        -76.03786            102.361        -84.8672778              3.567        -76.5071761             35.493        -66.4789375             74.583
                      -15.3910216             -7.566

             369.7       -16.6536533            -12.663        -1.55587445             -9.516        -87.1033534           -158.414         -88.450164             146.76
                      -80.0566426            101.943
                      -1.54549084             -9.586        -16.4781748            -12.315         -71.597583              87.72        -88.4386823             67.222
                      -94.0491666            174.523
                      -86.8111844            139.506        -70.4200174             73.967         -15.703123             -9.689        -72.4030164             76.486
                       -75.676682             78.764
                      -85.8434886            144.702        -83.0140692             93.786        -73.5225879             80.356        -15.6503211             -9.796
                      -64.6139308             81.704
                      -77.0464735            108.614        -85.9720946            170.222        -72.7127329             78.374        -65.1848535             78.714
                      -15.3910216             -9.049

            429.65       -16.5947657            -14.447        -1.56627049            -10.991        -83.7190456            179.378        -84.5140412           -130.144
                       -75.815063            100.981
                      -1.55587445            -10.991        -16.4204611            -14.245        -68.9905409             86.605        -82.1436435             77.599
                      -85.6482541            170.464
                      -82.7740921           -141.905        -68.5891412             89.083        -15.6503211            -11.144        -70.3168515             70.718
                      -74.4340758             77.676
                       -83.323039            168.662        -86.9183953            112.842        -71.2672074             72.029        -15.5978382            -11.263
                      -64.4268474             81.816
                      -77.5295004             92.221         -92.432042             80.194        -73.3957843             93.016        -64.2267357             79.726
                      -15.3400778            -10.452

             489.6       -16.5362746            -16.608        -1.55587445            -12.505        -82.5825621           -169.932        -81.2056224            147.502
                      -75.7084209             84.528
                      -1.55587445            -12.505        -16.3631282            -16.209        -68.7398763             86.969        -89.1734084             114.08
                      -96.8387841            107.176
                      -87.5827105            -155.65        -68.0439032             86.195        -15.6503211            -12.657        -69.8780208             73.881
                      -71.7273001             83.728
                       -80.302256            117.902        -86.0015119             68.356        -71.3888246              76.11        -15.5978382            -12.878
                      -62.9687184             79.078
                      -74.4753608            101.368        -84.6183643           -164.983         -71.958213             80.398        -62.9382094             78.488
                      -15.3400778            -11.937

            549.55       -16.5362746             -18.75        -1.55587445            -13.956         -84.313361            174.555        -87.9674904            148.329
                      -75.1990046             99.018
                      -1.55587445            -13.996        -16.3061714            -18.447         -67.068005             87.947        -86.0205999            110.427
                      -84.0977003            170.595
                       -81.316093           -157.685        -67.8745229             90.339        -15.5978382            -14.262        -70.7131903             70.236
                      -71.1441355             81.183
                      -83.7524298             179.27        -80.0645146            108.123        -69.6640059             80.856        -15.5456706             -14.55
                      -62.3335864             81.103
                      -75.2793371                106        -86.2583431            145.372        -71.3630791             76.423        -61.8937988             77.963
                      -15.2894311              -13.5

             609.5       -16.4781748            -20.959        -1.57667899            -15.437        -80.2466747           -177.592        -82.2375339            157.965
                      -72.8374943             92.717
                      -1.57667899            -15.417        -16.2495856            -20.394        -66.3372574             87.872        -81.7375042            111.413
                      -85.5506123            155.924
                      -79.3718307            176.875        -67.1764691             89.515        -15.5456706            -15.738        -68.9466357             75.241
                      -70.3368158             82.578
                      -84.3893335            159.462        -85.0222912            107.896        -69.7170173             75.851        -15.5456706            -16.143
                      -61.4958216             79.978
                      -74.4524005             98.139        -84.6925904             178.39        -70.9244628             78.208        -61.0356541             77.538
                      -15.2390779            -14.987

            669.45       -16.4781748            -22.691        -1.58709997            -16.905        -80.5809813            173.523        -80.1136569            153.401
                      -72.6566102            102.442
                      -1.58709997            -16.925        -16.2495856            -21.949        -65.3424792             93.368        -79.9566788            108.047
                      -81.2626908            168.102
                      -78.9230715            179.297        -65.2593294             91.326        -15.4938144            -17.097        -68.4386823              75.95
                      -69.7783831             76.426
                      -79.4448559            145.438        -82.9430836            122.501        -68.4685663              70.87        -15.4938144            -17.654
                      -60.3482442             80.117
                      -71.7844553            101.836        -85.0688728            141.911        -69.5172725             71.776        -60.3990231             79.657
                      -15.2390779            -16.426

             729.4       -16.4204611             -24.49        -1.57667899            -18.313        -77.6678451            178.088        -79.4938827             147.32
                      -72.1144695             102.12
                      -1.57667899            -18.393         -16.193366            -23.768        -64.7224594             91.831        -79.4775097            111.411
                      -84.2649716            163.983
                      -78.3658546            179.314        -64.9115042             89.049        -15.4938144            -18.469        -66.9106933             76.098
                      -68.6901274             79.425
                      -78.9846738            156.913        -80.0321974            115.016         -66.970563             77.758        -15.4938144             -19.12
                      -59.8279966             77.616
                       -71.238651             98.091        -80.6172753            147.845        -69.5224705             72.615        -59.7601377             77.156
                      -15.2390779            -17.791

            789.35       -16.4781748            -26.722        -1.58709997            -19.828         -75.666128            162.231        -80.7516661            139.217
                      -71.2007213            104.955
                      -1.58709997            -19.848         -16.082007            -25.937        -64.2112063               93.8        -77.4255543            119.234
                      -79.5431878            160.596
                      -77.8219374            159.677        -64.4023007              94.29        -15.4422659             -20.07        -66.0275514             78.167
                      -68.1675792             77.773
                       -76.935902            133.349        -79.2594424            137.934        -66.6080844             73.948        -15.3910216            -20.719
                      -59.1484898             78.865
                      -70.8514461            100.612        -78.1666608            169.506        -68.6477111             77.103        -59.0156395             78.005
                       -15.189015            -19.325

             849.3       -16.4204611            -28.446        -1.59753347            -21.239        -75.1740523            168.531        -77.6744882            145.876
                      -70.3026193            105.295
                      -1.59753347            -21.299         -16.082007            -27.708        -63.2003888             92.425        -75.7190264            130.285
                       -78.555002            145.218
                      -76.8750762            160.478        -63.5239969             93.324        -15.3910216            -21.498        -65.8793068             78.798
                      -67.4383548             75.684
                      -75.2290422            149.227        -76.5947657            133.373        -65.6283056             71.828        -15.3400778            -22.218
                      -58.4817648             76.806
                      -69.4757999            109.162        -78.1455871            141.506         -67.878825             74.454         -58.525633             76.146
                      -15.0897466            -20.822

            909.25       -16.4204611            -29.781        -1.60797952            -22.723         -77.348403            164.138        -74.9138734            147.787
                       -69.195914            107.248
                      -1.60797952            -22.753         -16.082007            -28.933        -62.7776791             94.933        -76.1319419            122.854
                      -78.9615217            148.569
                      -74.2439654            155.244        -62.5580405             91.117        -15.3910216            -22.661         -65.132941             75.749
                       -68.052679             74.534
                      -75.7455969            140.875         -77.721133            122.294        -65.2022269             77.049        -15.3400778            -23.527
                      -58.1245644             78.356
                      -68.9636836            102.926        -77.7814752            146.377        -68.0922804             73.824        -57.8558006             77.716
                      -15.0897466            -22.027

             969.2       -16.4204611            -31.686        -1.59753347            -24.206        -74.1993078            172.445        -75.2240287            136.643
                      -69.1087181            102.959
                      -1.60797952            -24.206        -16.0268583            -30.642        -61.5309746             91.603        -76.2101937            117.172
                      -76.9237027            139.784
                      -75.6345429            154.707        -62.2769564             91.952        -15.2894311            -23.971        -64.7389312             75.393
                      -66.9492716             72.478
                      -75.4525512            149.536        -74.3249323            114.884         -64.608023             70.223        -15.2390779            -24.837
                      -57.5819436              76.59
                      -69.3576577            104.126        -77.8693829            142.331        -66.8378633             75.018        -57.4062022              76.56
                      -15.0405347            -23.322

