!Hittite Microwave Corporation								
!20 Alpha Rd								
!Chelmsford, MA 01824								
!Tel: 978-250-3343								
!Fax: 978-250-3373
!Device: HMC382LP3, 1700 - 2200MHz GaAs PHEMT LNA in 3x3mm SMT QFN package
!Misc: Data taken on a part mounted on evaluation PCB 112580-1, Bias: +5VDC,Rbias=16 Ohms
# MHZ S MA R 50

50 1.001 -9.063 328.2e-6 -148.997 1.502e-3 76.864 1.004 -2.839
79.75 1.003 -14.421 1.147e-3 -105.995 1.398e-3 -50.869 1.004 -4.439
109.5 1 -19.966 2.18e-3 159.551 480.9e-6 -155.93 1.004 -6.198
139.25 0.999 -25.421 534.9e-6 86.049 689.6e-6 167.401 1.005 -7.977
169 0.993 -31.171 1.944e-3 117.354 226.2e-6 153.815 1.004 -9.736
198.75 0.99 -36.995 373.9e-6 -30.859 275.6e-6 -36.025 1.005 -11.466
228.5 0.985 -42.937 2.492e-3 90.187 248e-6 -27.58 1.005 -13.207
258.25 0.979 -49.024 900.7e-6 123.737 330.2e-6 -22.672 1.004 -15.007
288 0.973 -55.396 2.272e-3 133.772 264.6e-6 -94.026 1.005 -16.734
317.75 0.966 -62.101 4.917e-3 126.903 283e-6 110.361 1.004 -18.496
347.5 0.958 -69.292 0.01 115.219 91.47e-6 -155.593 1.005 -20.285
377.25 0.95 -77.182 0.027 117.969 143.6e-6 -47.47 1.005 -22.106
407 0.937 -86.017 0.058 103.309 175.4e-6 -116.853 1.006 -23.917
436.75 0.906 -96.196 0.118 83.071 95.33e-6 -134.593 1.006 -25.797
466.5 0.843 -107.094 0.208 56.344 93.98e-6 -158.996 1.006 -27.591
496.25 0.752 -116.681 0.325 29.469 232.7e-6 153.926 1.005 -29.475
526 0.668 -124.316 0.441 4.174 72.82e-6 86.665 1.004 -31.369
555.75 0.605 -130.943 0.562 -16.832 185.4e-6 169.896 1.004 -33.317
585.5 0.557 -138.011 0.697 -34.441 313.5e-6 132.638 1.003 -35.306
615.25 0.516 -146.27 0.854 -50.639 255.2e-6 129.11 1.003 -37.346
645 0.476 -155.645 1.038 -65.267 294.9e-6 163.817 1.001 -39.358
674.75 0.438 -166.113 1.251 -79.203 395.9e-6 133.306 1 -41.457
704.5 0.402 -177.917 1.503 -92.475 563.2e-6 96.405 0.999 -43.384
734.25 0.369 168.843 1.793 -105.522 540.7e-6 110.659 0.996 -45.661
764 0.341 154.081 2.13 -118.393 505.5e-6 96.754 0.996 -47.863
793.75 0.318 137.971 2.509 -131.089 463.1e-6 85.838 0.992 -50.193
823.5 0.303 120.664 2.931 -143.69 678.7e-6 65.389 0.986 -52.444
853.25 0.299 102.904 3.417 -156.24 692.9e-6 61.135 0.982 -54.808
883 0.305 85.17 3.94 -169.192 770.4e-6 42.934 0.976 -57.217
912.75 0.317 68.241 4.501 177.8 806.6e-6 33.678 0.97 -59.685
942.5 0.335 52.384 5.094 164.729 893.8e-6 27.672 0.964 -62.139
972.25 0.355 37.837 5.706 151.587 1.167e-3 16.541 0.954 -64.64
1002 0.376 24.15 6.342 138.336 1.313e-3 1.384 0.943 -67.11
1031.75 0.393 11.677 6.957 124.908 1.419e-3 -6.412 0.933 -69.602
1061.5 0.406 -0.088 7.519 111.461 1.475e-3 -19.262 0.922 -72.177
1091.25 0.411 -10.979 8.028 98.114 1.815e-3 -27.753 0.911 -74.656
1121 0.411 -20.634 8.439 84.885 1.84e-3 -35.576 0.9 -77.262
1150.75 0.408 -29.628 8.775 72.147 2.224e-3 -42.501 0.886 -79.879
1180.5 0.401 -38.053 9.049 59.847 2.38e-3 -55.278 0.875 -82.625
1210.25 0.388 -45.69 9.235 47.956 2.588e-3 -62.089 0.863 -85.451
1240 0.371 -52.605 9.347 36.518 2.735e-3 -69.079 0.85 -88.318
1269.75 0.351 -58.779 9.429 25.457 3.046e-3 -75.299 0.836 -91.373
1299.5 0.33 -64.177 9.457 14.902 3.399e-3 -85.942 0.821 -94.599
1329.25 0.308 -68.653 9.434 4.653 3.534e-3 -90.218 0.805 -97.914
1359 0.287 -72.031 9.41 -5.251 4.02e-3 -92.78 0.786 -101.458
1388.75 0.266 -74.752 9.346 -14.778 4.372e-3 -101.015 0.766 -105.184
1418.5 0.246 -76.655 9.291 -24.076 4.816e-3 -103.652 0.745 -109.016
1448.25 0.227 -77.666 9.204 -33.213 5.213e-3 -109.086 0.721 -113.025
1478 0.211 -77.452 9.1 -42.149 5.55e-3 -113.587 0.695 -117.251
1507.75 0.198 -76.236 9.003 -50.843 6.106e-3 -119.996 0.668 -121.714
1537.5 0.189 -74.148 8.864 -59.472 6.533e-3 -126.041 0.638 -126.515
1567.25 0.183 -71.46 8.737 -67.894 7.246e-3 -129.665 0.605 -131.378
1597 0.181 -68.707 8.581 -76.272 7.841e-3 -135.336 0.571 -136.548
1626.75 0.183 -66.016 8.406 -84.519 8.491e-3 -139.421 0.535 -142.137
1656.5 0.188 -63.973 8.226 -92.539 9.057e-3 -145.168 0.498 -147.914
1686.25 0.195 -62.607 8.053 -100.51 9.862e-3 -152.004 0.46 -154.127
1716 0.203 -61.753 7.838 -108.411 0.01 -156.723 0.422 -160.902
1745.75 0.212 -61.639 7.623 -116.16 0.011 -163.369 0.383 -168.337
1775.5 0.221 -62.123 7.385 -123.746 0.012 -169.084 0.346 -176.445
1805.25 0.229 -63.062 7.133 -131.309 0.012 -174.31 0.31 174.238
1835 0.239 -64.062 6.877 -138.669 0.013 -178.596 0.277 163.707
1864.75 0.248 -65.407 6.61 -145.839 0.014 175.193 0.249 151.421
1894.5 0.256 -66.964 6.35 -152.884 0.014 169.087 0.227 137.664
1924.25 0.264 -68.787 6.089 -159.783 0.015 164.585 0.213 122.411
1954 0.272 -70.705 5.813 -166.607 0.015 159.148 0.209 106.432
1983.75 0.279 -72.712 5.553 -173.175 0.016 154.078 0.214 90.909
2013.5 0.286 -74.86 5.282 -179.496 0.016 148.94 0.227 76.646
2043.25 0.292 -76.902 5.021 174.246 0.017 144.346 0.246 64.208
2073 0.299 -79.135 4.764 168.32 0.017 139.476 0.268 53.477
2102.75 0.305 -81.411 4.522 162.426 0.017 134.632 0.294 44.242
2132.5 0.31 -83.71 4.284 156.766 0.018 130.142 0.32 36.241
2162.25 0.316 -85.938 4.062 151.281 0.018 125.249 0.347 29.36
2192 0.321 -88.266 3.846 145.901 0.018 121.199 0.374 23.095
2221.75 0.327 -90.592 3.648 140.701 0.019 116.851 0.4 17.54
2251.5 0.332 -93.102 3.449 135.677 0.019 112.563 0.426 12.399
2281.25 0.337 -95.628 3.261 130.859 0.019 108.241 0.45 7.731
2311 0.342 -98.23 3.082 126.048 0.019 104.065 0.473 3.26
2340.75 0.347 -100.791 2.912 121.438 0.019 100.403 0.496 -0.74
2370.5 0.352 -103.475 2.751 117.059 0.02 96.761 0.517 -4.616
2400.25 0.356 -106.185 2.601 112.782 0.02 92.875 0.537 -8.148
2430 0.36 -108.98 2.46 108.703 0.02 89.089 0.555 -11.658
2459.75 0.365 -111.804 2.33 104.58 0.02 85.764 0.573 -14.853
2489.5 0.369 -114.619 2.204 100.744 0.02 82.224 0.59 -17.941
2519.25 0.372 -117.547 2.086 96.952 0.02 79.245 0.606 -20.96
2549 0.375 -120.556 1.977 93.124 0.02 75.634 0.621 -23.908
2578.75 0.379 -123.625 1.869 89.675 0.02 72.824 0.635 -26.671
2608.5 0.382 -126.697 1.777 86.204 0.02 69.844 0.649 -29.386
2638.25 0.386 -129.723 1.686 82.796 0.02 66.517 0.661 -31.903
2668 0.388 -132.839 1.599 79.537 0.02 63.503 0.672 -34.343
2697.75 0.39 -135.981 1.519 76.464 0.02 61.124 0.684 -36.865
2727.5 0.391 -139.234 1.444 73.276 0.019 58.657 0.693 -39.313
2757.25 0.392 -142.441 1.373 70.308 0.019 55.604 0.703 -41.702
2787 0.394 -145.469 1.307 67.323 0.02 52.774 0.712 -43.884
2816.75 0.396 -148.504 1.247 64.388 0.02 50.571 0.72 -46.122
2846.5 0.398 -151.635 1.189 61.637 0.019 47.572 0.73 -48.298
2876.25 0.4 -154.902 1.136 58.87 0.019 45.131 0.737 -50.408
2906 0.4 -158.108 1.084 56.291 0.019 42.494 0.743 -52.478
2935.75 0.403 -161.338 1.034 53.503 0.019 39.924 0.75 -54.493
2965.5 0.404 -164.458 0.991 50.944 0.019 37.921 0.757 -56.499
2995.25 0.405 -167.752 0.946 48.48 0.019 35.119 0.763 -58.446
3025 0.406 -170.878 0.905 45.997 0.019 32.677 0.768 -60.38
3054.75 0.407 -174.184 0.866 43.595 0.019 30.111 0.774 -62.331
3084.5 0.409 -177.415 0.829 41.356 0.019 27.561 0.778 -64.241
3114.25 0.41 179.391 0.795 38.927 0.019 25.976 0.783 -66.13
3144 0.411 176.224 0.762 36.694 0.019 23.252 0.787 -68.038
3173.75 0.412 172.99 0.731 34.378 0.019 20.986 0.791 -69.821
3203.5 0.414 169.815 0.702 32.332 0.018 18.383 0.794 -71.758
3233.25 0.415 166.671 0.675 30.277 0.018 16.713 0.799 -73.45
3263 0.417 163.464 0.65 28.108 0.018 14.777 0.802 -75.25
3292.75 0.418 160.348 0.625 25.981 0.018 12.949 0.803 -76.924
3322.5 0.42 157.222 0.602 23.91 0.018 10.869 0.806 -78.674
3352.25 0.422 154.096 0.58 21.977 0.017 8.872 0.809 -80.36
3382 0.423 151.019 0.56 19.802 0.017 7.529 0.813 -82.055
3411.75 0.426 147.943 0.54 17.738 0.017 7.14 0.816 -83.643
3441.5 0.427 144.939 0.52 15.794 0.017 5.52 0.82 -85.386
3471.25 0.429 141.924 0.504 13.936 0.017 3.884 0.823 -87.002
3501 0.431 138.926 0.486 11.973 0.017 2.262 0.826 -88.732
3530.75 0.434 135.933 0.469 10.071 0.017 0.492 0.832 -90.445
3560.5 0.436 132.942 0.451 8.247 0.017 -1.342 0.834 -92.092
3590.25 0.439 129.969 0.438 6.275 0.017 -3.049 0.836 -93.794
3620 0.44 127.159 0.424 4.458 0.017 -4.819 0.839 -95.585
3649.75 0.443 124.315 0.409 2.769 0.017 -6.744 0.841 -97.22
3679.5 0.445 121.45 0.396 0.977 0.017 -8.302 0.844 -98.903
3709.25 0.448 118.686 0.383 -0.71 0.017 -9.194 0.846 -100.516
3739 0.45 115.912 0.371 -2.354 0.017 -11.125 0.846 -102.247
3768.75 0.453 113.165 0.359 -4.156 0.017 -13.175 0.849 -103.903
3798.5 0.455 110.47 0.348 -5.826 0.017 -15.102 0.851 -105.587
3828.25 0.457 107.821 0.337 -7.41 0.017 -16.011 0.852 -107.286
3858 0.46 105.146 0.328 -9.191 0.016 -17.966 0.855 -108.864
3887.75 0.462 102.566 0.318 -10.708 0.016 -19.787 0.856 -110.569
3917.5 0.464 99.871 0.309 -12.346 0.016 -20.84 0.858 -112.392
3947.25 0.467 97.415 0.3 -13.821 0.016 -21.716 0.86 -113.962
3977 0.469 94.852 0.291 -15.37 0.016 -23.889 0.861 -115.522
4006.75 0.472 92.322 0.283 -16.802 0.016 -25.042 0.863 -117.267
4036.5 0.473 89.793 0.275 -18.262 0.016 -26.442 0.865 -119.003
4066.25 0.476 87.282 0.268 -19.813 0.016 -27.887 0.865 -120.752
4096 0.478 84.835 0.261 -21.166 0.016 -28.8 0.868 -122.496
4125.75 0.479 82.415 0.254 -22.414 0.016 -30.144 0.868 -124.002
4155.5 0.481 80.08 0.249 -23.783 0.016 -31.108 0.87 -125.739
4185.25 0.483 77.595 0.243 -25.055 0.016 -32.201 0.87 -127.518
4215 0.485 75.217 0.238 -26.208 0.016 -33.439 0.875 -129.157
4244.75 0.486 72.905 0.234 -27.269 0.016 -34.627 0.877 -130.928
4274.5 0.486 70.549 0.231 -28.392 0.016 -35.115 0.879 -132.657
4304.25 0.486 68.183 0.23 -29.573 0.016 -35.758 0.879 -134.253
4334 0.483 65.961 0.23 -30.749 0.017 -37.169 0.88 -136.021
4363.75 0.48 63.887 0.233 -32.94 0.017 -37.459 0.879 -137.774
4393.5 0.476 62.293 0.236 -36.078 0.018 -39.631 0.879 -139.539
4423.25 0.474 61.189 0.237 -40.637 0.019 -42.906 0.88 -141.217
4453 0.477 60.269 0.231 -45.93 0.019 -48.094 0.881 -142.865
4482.75 0.484 58.97 0.218 -50.551 0.019 -52.452 0.882 -144.567
4512.5 0.493 57.248 0.205 -53.719 0.018 -56.409 0.885 -146.136
4542.25 0.5 55.113 0.193 -56.132 0.018 -58.838 0.887 -147.927
4572 0.507 53.007 0.181 -57.773 0.017 -61.578 0.888 -149.606
4601.75 0.511 50.842 0.171 -58.813 0.017 -63.249 0.889 -151.366
4631.5 0.513 48.616 0.163 -59.73 0.016 -64.447 0.892 -153.286
4661.25 0.518 46.544 0.158 -60.773 0.016 -66.532 0.894 -155.073
4691 0.519 44.39 0.152 -62.244 0.016 -67.622 0.896 -156.749
4720.75 0.522 42.444 0.146 -63.364 0.016 -68.914 0.897 -158.515
4750.5 0.523 40.401 0.141 -64.534 0.015 -69.917 0.899 -160.432
4780.25 0.526 38.397 0.136 -65.934 0.015 -71.42 0.901 -162.264
4810 0.526 36.445 0.131 -67.203 0.015 -73.098 0.902 -164.069
4839.75 0.529 34.502 0.128 -68.475 0.015 -74.316 0.901 -165.815
4869.5 0.532 32.591 0.124 -69.679 0.015 -76.016 0.905 -167.698
4899.25 0.533 30.665 0.119 -71.269 0.015 -77.927 0.906 -169.72
4929 0.535 28.789 0.116 -72.368 0.014 -78.985 0.907 -171.419
4958.75 0.536 26.922 0.112 -73.868 0.014 -79.875 0.91 -173.264
4988.5 0.537 25.079 0.109 -75.207 0.014 -82.136 0.908 -175.247
5018.25 0.539 23.206 0.105 -76.556 0.014 -84.102 0.913 -177.086
5048 0.54 21.402 0.102 -78.071 0.014 -85.755 0.912 -179.086
5077.75 0.541 19.585 0.099 -79.239 0.014 -86.491 0.914 179.157
5107.5 0.542 17.79 0.095 -80.705 0.014 -88.64 0.915 177.191
5137.25 0.543 16.041 0.092 -82.108 0.014 -90.661 0.917 175.36
5167 0.543 14.215 0.089 -83.623 0.014 -92.707 0.917 173.312
5196.75 0.544 12.422 0.086 -84.862 0.013 -94.781 0.92 171.462
5226.5 0.546 10.632 0.083 -86.447 0.013 -96.576 0.918 169.511
5256.25 0.547 8.869 0.08 -87.712 0.013 -98.405 0.921 167.513
5286 0.548 7.208 0.077 -89.386 0.013 -100.369 0.921 165.537
5315.75 0.549 5.481 0.074 -90.633 0.013 -103.39 0.921 163.564
5345.5 0.549 3.684 0.071 -92.372 0.012 -106.613 0.921 161.542
5375.25 0.55 2.003 0.068 -93.542 0.012 -108.007 0.922 159.507
5405 0.552 0.334 0.065 -95.221 0.012 -108.837 0.923 157.519
5434.75 0.553 -1.308 0.063 -96.27 0.011 -111.383 0.925 155.515
5464.5 0.553 -2.973 0.06 -97.544 0.012 -113.368 0.926 153.475
5494.25 0.554 -4.695 0.057 -98.872 0.011 -115.719 0.927 151.502
5524 0.556 -6.345 0.055 -99.961 0.011 -118.488 0.927 149.398
5553.75 0.557 -8.061 0.052 -101.072 0.01 -120.352 0.926 147.339
5583.5 0.557 -9.726 0.05 -102.792 0.011 -123.14 0.928 145.322
5613.25 0.557 -11.277 0.047 -103.711 0.01 -124.261 0.928 143.173
5643 0.557 -13.065 0.044 -105.477 9.361e-3 -127.74 0.927 141.127
5672.75 0.558 -14.697 0.042 -106.788 9.271e-3 -130.228 0.927 139.013
5702.5 0.56 -16.389 0.039 -107.185 8.836e-3 -132.833 0.927 137.042
5732.25 0.56 -17.816 0.037 -108.461 8.678e-3 -135.916 0.926 134.884
5762 0.561 -19.362 0.034 -109.231 8.119e-3 -139.339 0.928 132.788
5791.75 0.56 -21.098 0.031 -109.623 7.855e-3 -141.69 0.927 130.601
5821.5 0.561 -22.807 0.029 -110.654 7.477e-3 -146.359 0.926 128.338
5851.25 0.562 -24.393 0.027 -111.93 7.031e-3 -151.141 0.927 126.226
5881 0.563 -25.973 0.024 -112.401 6.429e-3 -152.416 0.926 124.141
5910.75 0.563 -27.51 0.021 -111.392 6.155e-3 -157.144 0.927 121.854
5940.5 0.564 -29.121 0.019 -109.156 5.626e-3 -161.423 0.925 119.607
5970.25 0.563 -30.786 0.017 -108.382 5.03e-3 -167.117 0.924 117.421
6000 0.564 -32.331 0.014 -104.769 4.586e-3 -173.88 0.924 115.242
