!Hittite Microwave Corporation								
!12 Elizabeth Drive								
!Chelmsford Massachusetts 01824								
!Tel: 978 250-3343								
!Fax: 978 250-3373								
!Device: HMC308, 1.3-3 GHz GaAs Amplifier								
!Misc: Vdd =  5V, ROOM TEMP , DEEMBEDDED TO THE PINS OF THE DEVICE								
!
# MHZ S MA R 50

1000 0.524 84.52 5.939 -128.271 2.038e-3 11.219 0.623 35.364
1025 0.525 87.307 6.442 -130.632 1.526e-3 -128.702 0.589 34.148
1050 0.539 88.921 7.126 -132.346 629.3e-6 -39.916 0.535 32.364
1075 0.525 90.374 7.882 -137.74 66.93e-6 -47.33 0.457 30.787
1100 0.522 93.123 8.078 -141.949 1.909e-3 -90.819 0.416 35.61
1125 0.529 95.293 8.582 -143.833 2.345e-3 -9.953 0.363 33.823
1150 0.529 96.342 9.346 -147.481 1.241e-3 -18.011 0.291 31.716
1175 0.515 98.273 9.722 -155.653 3.325e-3 -37.743 0.195 50.516
1200 0.528 101.555 9.701 -155.776 2.614e-3 -41.416 0.201 49.795
1225 0.525 102.126 10.493 -159.351 2.288e-3 -54.061 0.115 58.616
1250 0.515 103.693 10.944 -166.592 3.558e-3 -19.682 0.104 123.627
1275 0.509 107.915 10.222 -170.537 5.117e-3 -37.557 0.189 121.153
1300 0.513 109.331 10.607 -172.372 4.636e-3 -46.162 0.186 133.92
1325 0.507 112.11 10.583 -177.114 5.31e-3 -35.094 0.248 142.084
1350 0.505 114.558 10.298 -179.794 6.535e-3 -45.874 0.288 140.96
1375 0.508 117.468 10.181 178.571 6.781e-3 -38.409 0.304 143.263
1400 0.509 119.686 10.121 176.333 5.349e-3 -43.777 0.324 144.238
1425 0.514 121.47 9.954 174.722 6.991e-3 -47.998 0.349 146.064
1450 0.518 124.263 9.818 173.321 6.622e-3 -45.709 0.352 147.238
1475 0.522 125.605 9.864 172.667 6.033e-3 -54.303 0.356 150.562
1500 0.521 127.474 9.797 170.434 7.024e-3 -44.536 0.384 153.523
1525 0.523 130.276 9.672 169.183 6.959e-3 -45.777 0.392 154.915
1550 0.529 131.074 9.59 168.688 7.706e-3 -51.152 0.402 157.028
1575 0.53 133.106 9.581 167.19 7.094e-3 -46.52 0.41 159.828
1600 0.528 134.83 9.451 165.908 8.194e-3 -54.162 0.424 160.945
1625 0.535 136.08 9.361 165.28 7.912e-3 -45.5 0.428 163.415
1650 0.526 138.284 9.327 164.278 6.994e-3 -46.522 0.435 165.96
1675 0.532 139.152 9.22 163.38 7.775e-3 -46.98 0.447 168.209
1700 0.53 141.371 9.113 162.304 8.029e-3 -43.866 0.455 169.584
1725 0.526 143.008 8.985 161.73 7.781e-3 -48.13 0.457 171.507
1750 0.531 144.294 8.925 161.035 8.863e-3 -42.055 0.463 173.828
1775 0.523 146.259 8.867 160.344 8.097e-3 -39.776 0.472 176.211
1800 0.522 147.539 8.716 159.368 8.449e-3 -43.602 0.479 177.455
1825 0.525 149.199 8.596 159.402 8.635e-3 -40.828 0.478 179.649
1850 0.517 150.929 8.529 158.837 8.45e-3 -39.663 0.483 -178.371
1875 0.522 151.885 8.449 158.263 9.36e-3 -38.217 0.491 -176.018
1900 0.512 154.125 8.304 157.719 8.606e-3 -32.431 0.495 -174.634
1925 0.511 155.576 8.219 157.68 8.567e-3 -35.74 0.491 -172.595
1950 0.51 157.017 8.113 157.45 8.784e-3 -31.68 0.499 -170.33
1975 0.504 159.057 8.023 156.966 8.228e-3 -29.534 0.501 -168.722
2000 0.504 160.818 7.864 157.135 8.916e-3 -27.085 0.5 -167.18
2025 0.499 162.559 7.784 156.896 8.835e-3 -23.844 0.502 -164.75
2050 0.491 163.741 7.697 156.93 9.916e-3 -32.72 0.499 -163.464
2075 0.491 165.59 7.589 156.834 0.01 -26.796 0.502 -161.346
2100 0.488 166.555 7.538 157.161 9.801e-3 -24.469 0.503 -159.16
2125 0.485 168.468 7.423 157.121 0.011 -21.709 0.503 -157.297
2150 0.48 170.162 7.343 157.149 0.01 -20.001 0.503 -155.297
2175 0.475 171.49 7.248 157.435 0.01 -19.005 0.504 -153.289
2200 0.467 173.862 7.136 157.256 0.011 -16.384 0.503 -151.324
2225 0.463 174.899 7.078 157.694 0.01 -16.126 0.502 -149.22
2250 0.464 177.008 6.947 157.979 0.011 -14.671 0.502 -147.489
2275 0.459 178.728 6.889 158.365 0.012 -10.755 0.499 -145.697
2300 0.454 -179.881 6.789 158.981 0.011 -13.089 0.495 -143.551
2325 0.447 -177.903 6.724 159.377 0.012 -7.413 0.496 -141.561
2350 0.445 -176.302 6.672 159.996 0.012 -8.514 0.491 -139.559
2375 0.441 -175.145 6.578 160.445 0.013 -6.455 0.492 -137.756
2400 0.436 -173.202 6.521 160.842 0.012 -0.478 0.491 -135.345
2425 0.433 -172.215 6.454 161.465 0.013 -3.295 0.487 -133.263
2450 0.425 -170.527 6.4 162.006 0.013 -1.414 0.485 -131.445
2475 0.421 -168.563 6.343 162.507 0.013 1.347 0.483 -129.029
2500 0.414 -166.965 6.275 163.218 0.013 0.368 0.48 -126.904
2525 0.409 -165.071 6.239 163.65 0.013 4.51 0.479 -125.066
2550 0.404 -163.88 6.174 164.657 0.013 5.467 0.478 -122.973
2575 0.397 -162.48 6.108 165.063 0.014 6.893 0.474 -120.965
2600 0.39 -160.627 6.074 165.903 0.014 10.413 0.473 -118.889
2625 0.389 -158.776 6.009 166.588 0.013 8.308 0.468 -116.61
2650 0.376 -157.478 5.97 167.337 0.014 13.947 0.468 -114.664
2675 0.371 -156.177 5.911 168.288 0.014 14.418 0.464 -112.849
2700 0.371 -154.61 5.854 169.045 0.015 16.195 0.462 -110.654
2725 0.358 -153.105 5.821 169.951 0.014 19.941 0.46 -108.45
2750 0.354 -151.476 5.747 170.873 0.015 17.423 0.454 -106.615
2775 0.346 -150.217 5.713 171.69 0.016 21.07 0.454 -104.508
2800 0.339 -148.307 5.667 172.691 0.015 26.441 0.451 -102.367
2825 0.336 -146.662 5.611 173.444 0.016 24.724 0.447 -100.462
2850 0.325 -145.959 5.593 174.559 0.016 29.159 0.445 -98.658
2875 0.32 -143.906 5.541 175.559 0.016 29.849 0.441 -96.322
2900 0.312 -142.5 5.512 176.488 0.017 30.868 0.438 -94.505
2925 0.304 -141.811 5.46 177.765 0.017 33.925 0.436 -92.346
2950 0.299 -138.978 5.408 178.494 0.016 33.154 0.43 -90.157
2975 0.29 -138.265 5.397 179.712 0.017 37.582 0.428 -88.34
3000 0.283 -137.314 5.336 -179.177 0.017 39.243 0.426 -86.274
3025 0.276 -134.846 5.308 -178.233 0.018 40.017 0.421 -84.43
3050 0.268 -134.943 5.278 -176.914 0.017 44.306 0.421 -82.151
3075 0.262 -132.483 5.231 -176.057 0.018 41.753 0.416 -80.483
3100 0.254 -131.632 5.216 -174.781 0.018 46.659 0.415 -78.332
3125 0.246 -131.402 5.136 -173.519 0.018 51.301 0.412 -76.375
3150 0.238 -129.296 5.127 -172.573 0.019 49.917 0.406 -74.621
3175 0.235 -129.343 5.075 -171.069 0.019 52.191 0.405 -72.294
3200 0.227 -127.053 5.037 -170.219 0.018 52.931 0.4 -70.398
3225 0.218 -126.103 5.019 -168.768 0.02 56.182 0.398 -68.554
3250 0.216 -126.135 4.973 -167.561 0.019 59.849 0.397 -66.476
3275 0.205 -124.19 4.949 -166.427 0.019 58.163 0.392 -64.6
3300 0.205 -125.127 4.889 -164.855 0.021 64.405 0.392 -62.738
3325 0.194 -123.03 4.865 -163.847 0.02 62.733 0.386 -60.676
3350 0.187 -122.92 4.843 -162.4 0.02 65.58 0.384 -58.876
3375 0.186 -124.052 4.787 -160.985 0.021 69.095 0.382 -56.948
3400 0.173 -121.484 4.762 -160.019 0.021 68.931 0.38 -55.165
3425 0.171 -121.638 4.728 -158.368 0.022 72.282 0.375 -53.321
3450 0.166 -121.956 4.686 -157.202 0.02 77.048 0.375 -51.127
3475 0.157 -121.235 4.663 -155.552 0.021 77.068 0.372 -49.481
3500 0.158 -121.129 4.616 -154.378 0.021 80.792 0.368 -47.512
3525 0.152 -121.326 4.592 -152.954 0.021 81.066 0.367 -45.771
3550 0.141 -122.907 4.555 -151.445 0.023 84.635 0.363 -43.97
3575 0.141 -122.475 4.508 -150.176 0.021 87.734 0.36 -41.959
3600 0.132 -123.663 4.495 -148.732 0.022 86.608 0.357 -40.477
3625 0.137 -123.6 4.433 -147.248 0.023 92.142 0.356 -38.514
3650 0.131 -123.984 4.422 -145.9 0.022 91.53 0.352 -36.768
3675 0.127 -127.033 4.385 -144.267 0.023 94.173 0.35 -35.049
3700 0.126 -125.08 4.349 -143.209 0.023 97.611 0.348 -33.062
3725 0.12 -128.718 4.331 -141.437 0.024 97.103 0.344 -31.059
3750 0.125 -129.91 4.28 -140.03 0.024 100.83 0.343 -29.742
3775 0.12 -127.85 4.26 -138.647 0.024 103.533 0.341 -27.788
3800 0.118 -133.214 4.231 -137.075 0.025 104.515 0.339 -25.748
3825 0.118 -132.058 4.194 -135.614 0.025 108.666 0.336 -24.405
3850 0.121 -134.46 4.165 -134.046 0.025 109.754 0.336 -22.246
3875 0.122 -137.518 4.128 -132.496 0.025 112.834 0.332 -20.781
3900 0.122 -136.303 4.104 -131.081 0.026 116.179 0.331 -18.957
3925 0.122 -139.669 4.072 -129.487 0.025 113.403 0.327 -17.332
3950 0.127 -139.189 4.031 -128.32 0.027 118.74 0.326 -15.575
3975 0.121 -139.415 4.015 -126.638 0.025 120.952 0.325 -13.821
4000 0.132 -141.718 3.972 -125.186 0.027 121.624 0.324 -12.171
4025 0.128 -141.106 3.951 -123.797 0.027 126.783 0.322 -10.161
4050 0.13 -142.18 3.914 -122.117 0.026 125.453 0.319 -8.644
4075 0.136 -142.653 3.878 -120.781 0.027 129.629 0.318 -6.864
4100 0.135 -142.81 3.861 -119.172 0.026 132.758 0.316 -4.803
4125 0.144 -142.025 3.82 -117.759 0.027 132.241 0.314 -3.391
4150 0.146 -142.357 3.791 -116.262 0.028 137.408 0.315 -1.848
4175 0.144 -142.991 3.767 -114.643 0.027 137.067 0.311 0.068
4200 0.152 -141.886 3.73 -113.303 0.028 139.457 0.312 1.784
4225 0.154 -143.558 3.709 -111.663 0.028 142.527 0.31 3.484
4250 0.159 -141.652 3.679 -110.129 0.028 141.961 0.308 5.445
4275 0.163 -140.841 3.651 -108.589 0.029 147.291 0.307 6.848
4300 0.162 -141.275 3.613 -106.905 0.028 148.825 0.305 8.797
4325 0.169 -139.341 3.582 -105.546 0.029 148.664 0.305 10.36
4350 0.169 -140.243 3.558 -103.91 0.029 152.56 0.302 12.148
4375 0.172 -139.187 3.522 -102.453 0.028 153.227 0.302 13.968
4400 0.176 -137.075 3.502 -101.094 0.029 155.896 0.302 15.772
4425 0.18 -138.144 3.469 -99.208 0.029 161.132 0.299 17.609
4450 0.182 -135.097 3.445 -97.911 0.03 160.769 0.298 19.173
4475 0.186 -135.276 3.43 -96.197 0.03 163.923 0.298 21.125
4500 0.187 -135.393 3.391 -94.712 0.03 165.708 0.296 22.742
4525 0.191 -131.473 3.365 -93.387 0.031 166.403 0.296 24.762
4550 0.194 -132.63 3.349 -91.497 0.03 168.733 0.294 26.571
4575 0.196 -130.049 3.319 -90.108 0.031 171.072 0.292 28.747
4600 0.199 -127.935 3.3 -88.675 0.032 172.885 0.293 30.383
4625 0.205 -128.041 3.271 -86.83 0.031 176.3 0.291 32.453
4650 0.204 -125.377 3.25 -85.375 0.032 176.935 0.29 34.398
4675 0.21 -125.006 3.228 -83.859 0.032 -179.249 0.289 36.198
4700 0.213 -124.473 3.192 -82.33 0.032 -178.77 0.288 38.233
4725 0.213 -121.688 3.179 -80.839 0.033 -176.589 0.287 40.198
4750 0.223 -121.437 3.149 -79.324 0.032 -172.804 0.286 42.279
4775 0.219 -119.697 3.133 -78.016 0.033 -173.036 0.287 44.1
4800 0.224 -118.329 3.106 -76.146 0.033 -169.776 0.284 46.229
4825 0.229 -117.405 3.074 -74.95 0.032 -167.32 0.284 48.062
4850 0.227 -116.008 3.062 -73.259 0.034 -167.489 0.283 50.259
4875 0.235 -114.895 3.027 -71.83 0.033 -163.69 0.282 52.323
4900 0.236 -113.984 3.008 -70.316 0.033 -163.626 0.28 54.004
4925 0.236 -111.845 2.978 -68.737 0.034 -159.917 0.28 56.184
4950 0.242 -110.469 2.948 -67.369 0.034 -156.389 0.279 58.364
4975 0.241 -109.887 2.927 -65.651 0.033 -157.541 0.277 60.381
5000 0.244 -108.847 2.904 -64.199 0.035 -152.819 0.278 62.318
5025 0.247 -107.769 2.879 -62.679 0.034 -151.189 0.276 64.45
5050 0.244 -106.354 2.855 -60.98 0.034 -150.65 0.276 66.512
5075 0.249 -105.765 2.824 -59.416 0.035 -148.966 0.273 68.434
5100 0.25 -104.304 2.799 -57.741 0.035 -145.121 0.273 70.92
5125 0.249 -103.355 2.77 -56.123 0.036 -143.353 0.272 72.799
5150 0.256 -101.624 2.744 -54.72 0.034 -140.99 0.27 74.858
5175 0.252 -101.204 2.72 -52.678 0.036 -139.868 0.269 77.226
5200 0.253 -99.081 2.697 -51.348 0.035 -137.478 0.265 79.138
5225 0.255 -98.329 2.676 -49.459 0.035 -135.909 0.266 80.966
5250 0.247 -98.142 2.645 -47.718 0.035 -134.058 0.263 83.372
5275 0.254 -95.574 2.632 -46.139 0.036 -130.129 0.261 85.389
5300 0.251 -94.44 2.607 -44.366 0.036 -130.406 0.26 87.555
5325 0.25 -93.876 2.58 -42.725 0.036 -126.925 0.259 89.962
5350 0.253 -91.974 2.569 -40.936 0.036 -126.436 0.256 91.878
5375 0.253 -92.259 2.54 -39.106 0.036 -124.476 0.254 94.389
5400 0.249 -90.108 2.518 -37.439 0.036 -121.249 0.254 96.273
5425 0.246 -89.937 2.496 -35.447 0.035 -121.437 0.25 98.526
5450 0.245 -89.519 2.481 -33.541 0.036 -117.641 0.247 100.595
5475 0.242 -86.896 2.458 -31.507 0.035 -114.097 0.245 102.653
5500 0.239 -87.201 2.442 -29.522 0.036 -113.752 0.241 104.931
5525 0.232 -84.727 2.441 -27.622 0.036 -109.822 0.238 106.771
5550 0.228 -83.37 2.422 -25.66 0.035 -107.96 0.235 109.447
5575 0.228 -82.365 2.419 -23.827 0.037 -105.387 0.231 111.421
5600 0.22 -79.585 2.413 -22.095 0.034 -103.135 0.227 113.572
5625 0.226 -78.314 2.4 -20.022 0.036 -101.552 0.224 116.165
5650 0.221 -75.505 2.403 -18.45 0.036 -97.27 0.219 118.593
5675 0.214 -73.433 2.39 -16.351 0.036 -95.661 0.217 120.828
5700 0.219 -71.543 2.383 -15.063 0.037 -94.363 0.212 123.343
5725 0.212 -69.965 2.384 -13.348 0.036 -89.178 0.208 126.548
5750 0.211 -68.11 2.371 -11.523 0.037 -88.983 0.204 128.081
5775 0.214 -66.438 2.373 -9.966 0.037 -85.656 0.201 130.918
5800 0.202 -64.615 2.363 -8.046 0.037 -82.796 0.197 133.381
5825 0.21 -61.64 2.35 -6.295 0.038 -81.905 0.193 135.557
5850 0.205 -59.445 2.344 -4.627 0.039 -78.517 0.189 138.485
5875 0.201 -57.5 2.331 -2.907 0.038 -76.487 0.185 140.859
5900 0.208 -56.315 2.329 -1.219 0.039 -74.499 0.18 143.172
5925 0.201 -54.503 2.313 0.429 0.038 -72.121 0.178 145.512
5950 0.205 -51.062 2.306 1.999 0.039 -71.121 0.173 148.463
5975 0.203 -49.577 2.3 3.863 0.04 -67.627 0.169 150.606
6000 0.195 -49.404 2.287 5.555 0.039 -66.085 0.165 153.658
