!Hittite Microwave Corporation								
!20 Alpha Road								
!Chelmsford, MA 01824								
!Tel: 978-250-3343								
!Fax: 978-250-3373								
!Device: HMC342LC4, 13-25 GHz, GaAs PHEMT MMIC Low Noise Amplifier in Leadless "Pb Free" RoHS Compliant SMT Package.															
!Misc: +3V, Room, The data includes two Southwest K connectors							
!
# MHZ S MA R 50

6000 0.724 147.657 3.322 82.341 766.1e-6 -73.431 0.854 -23.256
6170 0.72 133.225 3.526 67.568 532.6e-6 -70.462 0.842 -33.243
6340 0.718 118.927 3.445 48.479 870.1e-6 -74.101 0.83 -43.104
6510 0.72 104.868 3.402 43.634 543.3e-6 -109.014 0.816 -52.919
6680 0.722 91.223 3.81 31.832 531.7e-6 -136.69 0.802 -62.857
6850 0.725 77.924 4.083 21.091 651.5e-6 -126.219 0.787 -72.827
7020 0.726 65.13 4.369 1.717 729.2e-6 -128.898 0.77 -83.049
7190 0.727 52.669 4.121 -1.501 419.9e-6 142.059 0.753 -93.305
7360 0.728 40.674 4.501 -11.332 423.4e-6 -147.19 0.735 -103.954
7530 0.727 29.002 5.129 -19.1 590.5e-6 -173.014 0.717 -114.595
7700 0.724 17.841 5.472 -37.615 119.9e-6 -110.217 0.698 -125.716
7870 0.721 6.849 5.183 -43.541 349.7e-6 135.68 0.679 -136.914
8040 0.714 -4.028 5.781 -54.084 74.9e-6 159.523 0.66 -148.521
8210 0.706 -14.753 6.332 -64.164 156.3e-6 18.359 0.643 -160.169
8380 0.693 -25.504 6.723 -78.624 338.9e-6 -70.025 0.624 -172.198
8550 0.679 -36.286 7 -89.8 199.9e-6 -17.711 0.606 175.546
8720 0.66 -47.007 7.598 -102.638 192.1e-6 -97.79 0.588 163.033
8890 0.634 -57.316 8.111 -117.398 996.6e-6 -71.844 0.57 150.43
9060 0.61 -66.93 8.173 -134.133 878.5e-6 -75.513 0.549 137.95
9230 0.597 -76.545 7.826 -146.634 788.9e-6 -80.965 0.531 125.676
9400 0.588 -86.866 7.658 -156.993 957.6e-6 -93.516 0.516 113.249
9570 0.578 -97.918 7.687 -166.288 1.101e-3 -105.124 0.501 100.968
9740 0.564 -109.354 7.814 -175.324 790.3e-6 -130.289 0.486 88.484
9910 0.549 -121.133 8.137 174.473 1.349e-3 -119.76 0.471 76.083
10080 0.531 -133.271 8.368 164.68 996.5e-6 -154.375 0.455 63.748
10250 0.514 -145.736 8.596 153.617 782.9e-6 -131.615 0.439 51.315
10420 0.497 -157.97 8.894 144.133 1.438e-3 -136.563 0.424 38.965
10590 0.479 -170.626 9.221 132.572 1.726e-3 -151.14 0.406 26.938
10760 0.46 176.457 9.497 122.359 1.859e-3 -159.751 0.39 14.85
10930 0.443 163.305 9.782 111.62 2.022e-3 -174.22 0.38 4.131
11100 0.426 150.401 10.468 101.36 1.837e-3 171.28 0.372 -8.287
11270 0.41 137.64 10.744 88.225 2.451e-3 -176.085 0.359 -20.21
11440 0.394 124.66 10.812 79.247 3.073e-3 157.217 0.349 -32.16
11610 0.375 111.481 11.531 68.716 3.179e-3 161.046 0.339 -43.303
11780 0.359 98.391 11.894 57.338 2.315e-3 143.875 0.327 -54.901
11950 0.344 84.958 12.369 44.71 2.179e-3 142.019 0.318 -65.972
12120 0.328 72.095 11.995 34.165 2.789e-3 131.945 0.307 -76.415
12290 0.311 59.104 12.503 24.846 2.786e-3 129.817 0.3 -86.235
12460 0.293 45.47 13.033 13.62 3.629e-3 105.056 0.286 -96.103
12630 0.278 31.494 13.404 -0.651 3.279e-3 99.345 0.279 -105.269
12800 0.261 17.543 12.777 -11.789 3.883e-3 86.092 0.27 -113.948
12970 0.24 5.203 12.969 -21.049 3.768e-3 74.943 0.261 -123.269
13140 0.224 -6.838 13.678 -32.166 3.938e-3 62.415 0.244 -130.459
13310 0.213 -19.258 14.073 -45.639 3.911e-3 57.208 0.231 -137.985
13480 0.198 -31.659 13.699 -57.54 3.521e-3 60.226 0.217 -144.336
13650 0.183 -43.372 14.044 -67.876 4.444e-3 44.932 0.205 -150.961
13820 0.168 -54.034 14.265 -78.315 4.244e-3 39.5 0.194 -156.391
13990 0.152 -64.31 15.193 -89.348 3.708e-3 28.57 0.177 -162.29
14160 0.133 -73.592 15.039 -103.9 4.264e-3 18.188 0.17 -168.008
14330 0.115 -80.463 14.971 -113.183 4.471e-3 13.635 0.154 -173.406
14500 0.096 -85.909 15.188 -123.27 4.946e-3 -2.321 0.145 -179
14670 0.079 -85.918 15.69 -134.56 5.851e-3 -10.718 0.126 177.291
14840 0.073 -83.836 15.625 -147.269 5.256e-3 -22.749 0.114 171.551
15010 0.067 -76.997 15.577 -157.893 5.489e-3 -29.284 0.103 168.173
15180 0.066 -68.97 15.336 -169.552 5.381e-3 -34.812 0.091 160.49
15350 0.072 -61.165 15.693 -179.987 5.762e-3 -50.347 0.082 155.659
15520 0.079 -57.946 15.615 167.393 5.947e-3 -61.329 0.067 143.835
15690 0.098 -60.34 15.372 156.596 5.562e-3 -65.551 0.047 138.443
15860 0.111 -65.907 15.255 145.478 6.163e-3 -83.048 0.038 136.869
16030 0.124 -71.135 15.209 135.251 5.889e-3 -85.823 0.032 130.618
16200 0.133 -77.324 15.166 123.906 5.185e-3 -94.712 0.021 123.285
16370 0.141 -84.628 15.058 112.979 6.058e-3 -103.613 0.018 99.277
16540 0.149 -91.819 14.937 102.028 5.81e-3 -111.238 0.013 59.976
16710 0.155 -99.747 14.793 91.234 5.977e-3 -123.754 0.017 22.929
16880 0.159 -108.484 14.661 80.265 6.12e-3 -130.676 0.021 -12.56
17050 0.159 -117.694 14.509 69.455 6.495e-3 -138.173 0.03 -22.898
17220 0.158 -127.19 14.335 58.789 6.02e-3 -151.358 0.037 -37.397
17390 0.153 -137.142 14.177 48.071 5.834e-3 -161.241 0.046 -43.624
17560 0.147 -146.375 13.947 37.443 6.53e-3 -164.966 0.053 -58.212
17730 0.141 -156.746 13.728 26.862 6.42e-3 -163.453 0.06 -70.033
17900 0.132 -167.897 13.427 16.57 6.521e-3 -178.434 0.063 -79.695
18070 0.123 -179.291 13.21 6.314 7.083e-3 169.578 0.067 -90.282
18240 0.113 170.513 12.979 -3.757 6.831e-3 162.565 0.067 -100.168
18410 0.106 160.171 12.782 -13.616 6.65e-3 158.226 0.069 -112.772
18580 0.097 150.976 12.608 -23.365 6.583e-3 149.584 0.066 -119.471
18750 0.092 140.119 12.461 -33.048 6.681e-3 141.66 0.067 -132.7
18920 0.089 126.892 12.349 -42.656 6.523e-3 132.226 0.062 -141.735
19090 0.082 115.344 12.305 -52.486 6.843e-3 123.442 0.061 -152.724
19260 0.078 104.602 12.24 -62.478 7.758e-3 120.362 0.058 -159.622
19430 0.072 89.342 12.193 -72.668 6.71e-3 107.648 0.058 -169.808
19600 0.066 73.244 12.166 -82.768 7.453e-3 104.933 0.059 -177.091
19770 0.061 56.656 12.007 -93.369 7.078e-3 93.287 0.061 172.168
19940 0.053 38.089 11.918 -103.702 8.126e-3 86.505 0.07 163.417
20110 0.045 15.704 11.801 -113.479 8.19e-3 75.291 0.07 149.625
20280 0.04 -18.292 11.72 -123.545 8.511e-3 68.45 0.072 142.422
20450 0.036 -53.725 11.629 -134.286 7.434e-3 57.626 0.076 130.356
20620 0.04 -91.887 11.405 -144.063 8.6e-3 52.162 0.083 124.593
20790 0.053 -127.93 11.157 -153.779 8.849e-3 40.923 0.081 118.314
20960 0.075 -152.366 11.039 -163.815 8.558e-3 33.52 0.087 112.221
21130 0.096 -172.212 10.834 -173.638 8.723e-3 22.167 0.091 106.63
21300 0.118 169.302 10.476 176.681 8.771e-3 16.615 0.098 101.487
21470 0.139 153.223 10.369 167.163 8.406e-3 4.393 0.101 99.704
21640 0.161 139.117 10.216 158.129 8.784e-3 -2.911 0.11 95.357
21810 0.178 126.101 10.138 148.068 9.625e-3 -19.175 0.119 91.442
21980 0.189 112.593 9.903 138.906 9.222e-3 -28.904 0.135 83.427
22150 0.196 100.799 9.965 129.746 8.378e-3 -39.202 0.148 77.995
22320 0.202 91.065 9.914 120.851 9.029e-3 -43.294 0.153 69.277
22490 0.208 81.827 10.034 110.498 8.257e-3 -52.493 0.16 62.034
22660 0.216 71.864 9.858 101.277 8.403e-3 -64.972 0.164 53.193
22830 0.223 61.211 10.019 92.059 6.775e-3 -60.694 0.172 45.63
23000 0.232 51.779 10.001 82.733 7.92e-3 -73.182 0.17 38.046
23170 0.238 40.745 10.143 72.242 7.568e-3 -79.786 0.176 28.744
23340 0.243 29.261 9.957 62.629 7.855e-3 -95.223 0.173 18.202
23510 0.25 16.506 10.081 52.927 7.058e-3 -98.883 0.18 8.607
23680 0.262 3.858 10.052 43.522 7.16e-3 -109.48 0.173 -1.298
23850 0.271 -9.009 10.338 30.708 6.729e-3 -118.021 0.179 -12.726
24020 0.283 -23.314 9.82 20.373 8.654e-3 -131.501 0.173 -24.738
24190 0.298 -36.8 9.934 8.921 8.263e-3 -131.904 0.181 -37.939
24360 0.316 -50.834 9.783 -1.626 8.342e-3 -144.335 0.182 -49.143
24530 0.335 -65.182 9.915 -14.791 9.339e-3 -154.324 0.192 -61.943
24700 0.358 -78.846 9.212 -26.134 8.908e-3 -155.244 0.196 -74.177
24870 0.379 -92.614 9.066 -36.978 8.88e-3 -172.921 0.208 -89.727
25040 0.396 -105.523 8.786 -45.005 8.483e-3 176.948 0.214 -100.225
25210 0.417 -117.915 8.806 -57.115 8.849e-3 176.263 0.225 -113.821
25380 0.446 -128.717 8.521 -66.479 8.545e-3 170.789 0.227 -123.509
25550 0.48 -139.296 8.416 -76.262 6.565e-3 168.722 0.236 -135.367
25720 0.522 -150.833 8.352 -84.233 9.905e-3 157.552 0.255 -141.98
25890 0.547 -164.763 8.364 -96.336 0.01 141.024 0.286 -153.472
26060 0.559 -177.307 8.031 -105.523 0.011 124.817 0.308 -165.174
26230 0.572 171.845 7.956 -116.921 0.011 116.164 0.316 -178.294
26400 0.577 161.278 7.651 -125.226 0.01 104.887 0.327 171.247
26570 0.583 150.566 7.644 -136.807 8.319e-3 89.914 0.336 159.705
26740 0.59 139.973 7.452 -147.732 8.953e-3 83.036 0.35 150.406
26910 0.61 129.095 7.117 -159.597 8.347e-3 77.482 0.35 139.277
27080 0.617 118.194 6.816 -167.772 8.939e-3 73.123 0.362 129.499
27250 0.612 107.321 6.766 -178.78 8.46e-3 49.86 0.362 119.251
27420 0.616 96.084 6.645 171.84 8.171e-3 51.416 0.375 109.752
27590 0.625 85.622 6.382 161.46 8.08e-3 33.669 0.376 100.654
27760 0.632 74.842 6.232 152.262 8.129e-3 22.924 0.393 91.789
27930 0.637 64.044 6.11 142.407 7.84e-3 19.917 0.401 82.604
28100 0.642 53.014 5.991 132.707 8.25e-3 7.206 0.425 73.516
28270 0.648 42.382 5.806 122.597 8.781e-3 -0.018 0.442 64.312
28440 0.656 32.541 5.657 112.339 8.207e-3 -9.141 0.464 53.919
28610 0.662 22.796 5.489 101.44 0.01 -20.441 0.479 43.761
28780 0.67 12.751 5.226 90.885 8.292e-3 -32.361 0.497 33.097
28950 0.684 3.038 4.985 81.134 8.201e-3 -46.564 0.505 23.344
29120 0.695 -6.213 4.777 71.355 6.048e-3 -51.565 0.505 13.336
29290 0.706 -15.478 4.581 63.131 6.067e-3 -66.855 0.511 4.939
29460 0.719 -24.789 4.431 53.355 5.49e-3 -51.966 0.513 -3.943
29630 0.732 -34.356 4.268 46.307 7.054e-3 -51.856 0.519 -11.703
29800 0.744 -43.405 4.23 38.116 7.228e-3 -62.709 0.522 -20.638
29970 0.751 -52.753 4.189 29.785 7.458e-3 -63.445 0.525 -28.798
30140 0.751 -62.119 4.181 20.33 8.478e-3 -62.27 0.524 -37.787
30310 0.749 -71.31 4.262 10.932 9.971e-3 -78.428 0.522 -46.464
30480 0.748 -80.624 4.143 -0.613 0.01 -84.703 0.516 -55.663
30650 0.74 -89.635 4.188 -11.089 0.011 -88.039 0.514 -64.921
30820 0.735 -98.717 4.048 -21.442 0.014 -96.042 0.505 -74.449
30990 0.738 -109.191 4.16 -34.439 0.017 -111.042 0.504 -84.711
31160 0.732 -119.68 3.978 -44.647 0.019 -129.717 0.483 -96.316
31330 0.726 -132.038 3.933 -57.605 0.02 -146.127 0.467 -109.059
31500 0.702 -144.449 3.875 -65.285 0.021 -159.349 0.434 -119.881
31670 0.672 -157.504 3.881 -78.71 0.019 -164.809 0.402 -131.869
31840 0.65 -171.294 3.643 -86.966 0.021 -172.101 0.354 -142.814
32010 0.624 173.646 3.471 -98.925 0.026 -179.33 0.326 -151.065
32180 0.583 157.039 3.329 -102.071 0.024 168.223 0.328 -157.993
32350 0.543 140.172 3.407 -114.475 0.022 161.792 0.352 -173.43
32520 0.509 123.003 3.499 -125.288 0.026 150.894 0.346 165.7
32690 0.465 105.475 3.377 -141.535 0.026 146.959 0.33 142.386
32860 0.44 86.818 3.25 -155.069 0.027 144.235 0.301 120.994
33030 0.428 62.407 2.958 -175.191 0.039 140.722 0.266 96.581
33200 0.349 32.392 2.53 170.542 0.05 108.63 0.205 78.709
33370 0.219 11.088 2.064 157.62 0.035 93.26 0.219 69.477
33540 0.127 17.21 1.781 150.526 0.045 120.497 0.277 45.587
33710 0.133 30.357 1.548 142.258 0.086 96.809 0.302 0.279
33880 0.136 32.18 1.377 132.589 0.103 61.719 0.251 -51.724
34050 0.176 38.601 1.171 133.386 0.098 27.416 0.202 -110.548
34220 0.253 23.456 1.156 132.384 0.079 8.964 0.192 -171.809
34390 0.274 -3.668 1.358 121.751 0.071 0.501 0.198 136.729
34560 0.232 -30.043 1.29 105.53 0.076 -14.047 0.198 100.291
34730 0.168 -46.229 1.141 89.058 0.073 -32.669 0.184 76.974
34900 0.098 -57.287 0.962 76.637 0.069 -52.53 0.155 55.993
35070 0.042 -54.022 0.752 63.386 0.053 -71.723 0.087 63.425
35240 0.017 64.608 0.534 57.588 0.029 -73.702 0.135 103.612
35410 0.105 89.183 0.398 61.49 0.029 -48.806 0.267 94.54
35580 0.215 67.313 0.34 71.494 0.043 -43.215 0.36 74.763
35750 0.316 47.639 0.331 77.172 0.058 -52.572 0.42 58.392
35920 0.415 30.545 0.329 85.689 0.076 -69.098 0.469 44.757
36090 0.497 14.466 0.383 92 0.088 -89.379 0.527 31.78
36260 0.565 -2.433 0.477 90.602 0.086 -110.785 0.583 17.236
36430 0.616 -18.43 0.579 81.038 0.087 -127.248 0.637 4.527
36600 0.646 -33.173 0.606 71.78 0.08 -143.787 0.669 -8.955
36770 0.654 -46.242 0.65 61.553 0.076 -154.577 0.699 -21.775
36940 0.656 -58.082 0.676 53.316 0.075 -164.62 0.723 -34.122
37110 0.652 -66.923 0.704 43.663 0.075 -174.115 0.749 -44.69
37280 0.674 -75.334 0.719 34.316 0.08 170.155 0.765 -56.696
37450 0.711 -84.412 0.763 24.353 0.082 159.533 0.794 -67.804
37620 0.73 -95.375 0.781 12.623 0.082 147.679 0.786 -79.549
37790 0.739 -105.842 0.797 1.615 0.085 131.675 0.789 -89.162
37960 0.732 -116.304 0.796 -9.59 0.09 116.258 0.767 -97.721
38130 0.715 -125.521 0.797 -20.448 0.083 101.187 0.752 -107.019
38300 0.697 -134.105 0.787 -30.427 0.078 85.588 0.739 -115.036
38470 0.683 -141.92 0.751 -40.804 0.068 74.168 0.728 -123.336
38640 0.669 -149.807 0.739 -48.421 0.06 66.005 0.701 -130.064
38810 0.651 -157.476 0.737 -60.656 0.061 65.093 0.67 -138.878
38980 0.637 -166.474 0.704 -70.304 0.06 58.111 0.646 -146.13
39150 0.595 -174.294 0.616 -82.771 0.061 45.984 0.62 -153.325
39320 0.555 177.922 0.591 -86.333 0.072 37.947 0.576 -158.17
39490 0.51 175.832 0.541 -96.32 0.086 23.993 0.544 -163.429
39660 0.483 171.614 0.555 -100.963 0.082 6.588 0.544 -168.007
39830 0.462 166.244 0.528 -108.801 0.084 -4.265 0.542 -173.091
40000 0.449 165.964 0.564 -113.217 0.083 -12.148 0.56 -179.391
