!Hittite Microwave Corporation								
!12 Elizabeth Drive								
!Chelmsford, MA 01824							
!Tel: 978-250-3343								
!Fax: 978-250-3373								
!Device: HMC320MS8G, 5-6 GHz LNA in 8-lead Grounded Base Surface Mount Plastic Package
!Misc: Room Temp Idd=7mA, VSET=0V , DEEMBEDDED TO THE PINS OF THE DEVICE								
!
# MHZ S MA R 50

4000 0.872 -120.583 1.497 44.094 5.928e-3 136.104 0.445 67.952
4030 0.873 -121.443 1.524 43.825 5.585e-3 132.595 0.452 65.803
4060 0.876 -122.376 1.65 47.931 4.641e-3 123.921 0.459 63.692
4090 0.874 -123.089 1.646 38.074 5.025e-3 136.277 0.465 61.821
4120 0.872 -124 1.644 36.757 4.994e-3 135.41 0.47 60.189
4150 0.869 -125.115 1.644 43.974 4.548e-3 121.314 0.473 58.777
4180 0.867 -126.095 1.808 34.311 4.498e-3 133.684 0.48 56.839
4210 0.867 -127.053 1.822 31.762 4.356e-3 131.575 0.484 55.32
4240 0.867 -127.994 1.684 36.319 4.121e-3 114.979 0.485 54.192
4270 0.862 -129.49 1.922 30.578 3.721e-3 129.765 0.492 52.577
4300 0.859 -130.818 1.977 28.048 3.47e-3 131.415 0.494 51.307
4330 0.859 -131.975 1.85 28.727 3.366e-3 119.927 0.494 50.371
4360 0.856 -133.234 2.033 25.506 2.99e-3 121.266 0.498 48.946
4390 0.852 -134.664 2.112 23.487 2.64e-3 122.26 0.5 47.812
4420 0.847 -136.269 2.083 22.661 2.313e-3 122.901 0.5 46.956
4450 0.84 -137.654 2.166 18.534 1.967e-3 115.134 0.501 45.805
4480 0.833 -139.165 2.223 17.343 1.614e-3 110.836 0.501 44.817
4510 0.825 -140.802 2.252 19.083 1.253e-3 110.003 0.5 43.979
4540 0.821 -142.638 2.378 12.376 1.06e-3 99.916 0.501 43.031
4570 0.813 -144.493 2.419 10.472 833.3e-6 78.185 0.499 42.243
4600 0.804 -146.362 2.373 13.364 573.2e-6 44.804 0.496 41.622
4630 0.795 -148.447 2.613 6.254 842.8e-6 12.027 0.496 40.554
4660 0.786 -150.612 2.656 3.523 1.131e-3 -9.943 0.494 39.851
4690 0.777 -152.853 2.498 5.166 1.437e-3 -21.114 0.489 39.507
4720 0.762 -155.116 2.809 0.128 2.117e-3 -22.526 0.487 38.418
4750 0.744 -157.567 2.873 -2.921 2.834e-3 -23.018 0.484 37.657
4780 0.723 -160.201 2.685 -3.985 3.589e-3 -22.595 0.479 37.225
4810 0.711 -162.965 3.002 -6.948 4.199e-3 -24.532 0.475 36.317
4840 0.692 -165.776 3.09 -10.054 5.529e-3 -24.6 0.47 35.506
4870 0.669 -168.615 2.945 -13.301 7.595e-3 -22.801 0.465 34.794
4900 0.64 -171.819 3.181 -15.74 8.224e-3 -25.106 0.46 33.841
4930 0.61 -175.227 3.265 -19.065 0.011 -26.979 0.453 32.814
4960 0.58 -178.843 3.194 -23.279 0.015 -28.419 0.446 31.732
4990 0.545 179.231 3.273 -25.677 0.017 -36.13 0.435 30.373
5020 0.511 177.644 3.319 -28.369 0.021 -44.052 0.421 29.149
5050 0.479 176.445 3.331 -31.355 0.026 -52.185 0.405 28.115
5080 0.46 175.667 3.31 -34.697 0.027 -63.947 0.39 27.459
5110 0.442 174.102 3.327 -36.769 0.029 -72.326 0.375 27.201
5140 0.423 171.669 3.382 -37.571 0.032 -77.321 0.362 27.364
5170 0.411 169.582 3.396 -42.483 0.031 -86.066 0.352 27.311
5200 0.395 166.972 3.4 -44.841 0.032 -91.985 0.342 27.431
5230 0.375 163.817 3.395 -44.644 0.034 -95.074 0.332 27.799
5260 0.355 160.182 3.506 -49.755 0.033 -97.665 0.325 27.871
5290 0.336 156.914 3.516 -52.689 0.034 -101.896 0.317 28.033
5320 0.316 154.038 3.422 -53.446 0.036 -107.766 0.307 28.303
5350 0.297 151.126 3.562 -57.309 0.035 -107.009 0.299 28.591
5380 0.277 147.34 3.575 -60.328 0.036 -109.185 0.29 28.687
5410 0.257 142.605 3.459 -62.5 0.038 -114.29 0.281 28.565
5440 0.24 139.175 3.556 -65.207 0.038 -115.257 0.272 28.978
5470 0.221 136.073 3.571 -67.796 0.038 -116.566 0.263 29.472
5500 0.2 133.301 3.504 -70.265 0.039 -118.215 0.255 30.039
5530 0.185 128.647 3.556 -73.103 0.04 -120.526 0.245 29.962
5560 0.171 124.241 3.55 -75.569 0.041 -122.305 0.236 30.36
5590 0.159 120.094 3.487 -77.663 0.041 -123.553 0.229 31.252
5620 0.142 116.515 3.547 -80.341 0.042 -125.325 0.22 31.445
5650 0.126 112.878 3.532 -82.889 0.043 -127.089 0.212 32.434
5680 0.111 109.042 3.442 -85.306 0.043 -128.846 0.204 34.277
5710 0.103 104.424 3.498 -87.282 0.044 -129.662 0.195 34.145
5740 0.096 101.761 3.498 -89.682 0.045 -130.959 0.186 35.01
5770 0.089 101.041 3.44 -92.509 0.045 -132.739 0.179 36.921
5800 0.075 98.661 3.448 -94.086 0.046 -134.029 0.171 38.328
5830 0.064 93.549 3.446 -96.291 0.047 -135.168 0.162 39.691
5860 0.057 85.691 3.434 -99.121 0.048 -136.151 0.154 41.011
5890 0.05 85.893 3.414 -100.891 0.049 -137.868 0.149 43.678
5920 0.042 88.625 3.399 -102.981 0.049 -139.121 0.143 46.19
5950 0.031 94.407 3.388 -105.395 0.051 -139.915 0.136 48.565
5980 0.025 100.91 3.379 -107.29 0.051 -141.25 0.132 52.404
6010 0.021 112.788 3.367 -109.466 0.052 -142.599 0.127 56.311
6040 0.021 129.288 3.351 -111.92 0.053 -143.96 0.121 60.323
6070 0.027 144.447 3.335 -113.596 0.053 -144.683 0.12 63.828
6100 0.034 159.792 3.326 -115.695 0.054 -145.645 0.118 67.844
6130 0.04 175.771 3.326 -118.22 0.055 -146.85 0.115 72.389
6160 0.045 173.495 3.301 -120.013 0.055 -148.103 0.116 76.621
6190 0.057 170.902 3.289 -122.109 0.056 -149.129 0.118 80.571
6220 0.077 169.503 3.289 -124.506 0.057 -149.926 0.121 84.268
6250 0.083 170.535 3.267 -126.275 0.058 -151.275 0.125 88.699
6280 0.092 170.852 3.254 -128.496 0.058 -152.386 0.128 92.347
6310 0.106 170.718 3.251 -131.169 0.059 -153.259 0.13 95.147
6340 0.113 165.715 3.227 -132.509 0.059 -154.226 0.138 96.807
6370 0.127 162.516 3.221 -134.656 0.06 -155.376 0.145 99.412
6400 0.146 161.136 3.233 -137.609 0.061 -156.709 0.152 102.95
6430 0.162 158.399 3.186 -139.169 0.061 -157.416 0.159 103.584
6460 0.178 155.947 3.179 -141.298 0.062 -158.555 0.166 104.955
6490 0.195 153.746 3.212 -143.997 0.063 -160.127 0.174 107.103
6520 0.211 150.767 3.15 -145.971 0.063 -160.741 0.182 107.666
6550 0.226 148.525 3.129 -148.077 0.064 -161.737 0.19 108.542
6580 0.241 146.981 3.149 -150.316 0.065 -163.116 0.197 109.728
6610 0.255 143.075 3.1 -152.563 0.065 -164.256 0.208 109.456
6640 0.272 139.986 3.076 -154.869 0.065 -165.285 0.217 109.797
6670 0.293 137.674 3.08 -157.233 0.066 -166.203 0.224 110.736
6700 0.305 134.948 3.033 -159.414 0.066 -167.504 0.234 110.413
6730 0.32 132.304 3.01 -161.745 0.067 -168.689 0.243 110.076
6760 0.339 129.729 3.013 -164.229 0.067 -169.759 0.253 109.727
6790 0.358 126.505 2.953 -166.464 0.067 -170.734 0.262 109.6
6820 0.377 123.736 2.926 -168.664 0.068 -171.808 0.271 108.948
6850 0.395 121.407 2.93 -170.828 0.068 -172.978 0.278 107.754
6880 0.407 118.185 2.876 -173.564 0.068 -174.207 0.289 107.673
6910 0.422 115.636 2.841 -175.925 0.068 -175.252 0.298 106.901
6940 0.439 113.739 2.825 -177.913 0.068 -176.113 0.305 105.414
6970 0.45 109.78 2.785 179.504 0.068 -177.509 0.315 105.318
7000 0.464 106.656 2.746 177.07 0.068 -178.76 0.324 104.573
