!Hittite Microwave Corporation								
!12 Elizabeth Drive								
!Chelmsford, MA 01824								
!Tel: 978-250-3343								
!Fax: 978-250-3373								
!Device: HMC314, 0.7-4 GHz, GaAs InGaP HBT MMIC Driver Amplifier in SOT26 package																
!Misc:  Vs=+5V, Pin=-20dBm, Rcc=10 Ohm, RVPD=160 Ohm. Icc=145mA, Room
!
# MHZ S MA R 50

10 0.997 -1.898 7.229e-3 -44.681 0.01 -176.755 0.969 -0.248
44.95 0.99 -9.03 0.011 -176.051 1.114e-3 -25.353 0.978 -11.861
79.9 0.966 -15.571 0.033 -175.465 241.5e-6 -60.213 0.96 -22.356
114.85 0.934 -21.768 0.071 -165.009 477.9e-6 -179.923 0.952 -32.247
149.8 0.895 -27.61 0.156 -156.727 508.1e-6 -103.483 0.939 -42.244
184.75 0.851 -32.903 0.335 -156.967 416.8e-6 -160.99 0.917 -52.29
219.7 0.805 -37.766 0.661 -167.079 720.1e-6 -172.47 0.882 -62.228
254.65 0.759 -42.08 1.145 176.6 1.215e-3 171.069 0.832 -71.272
289.6 0.714 -45.82 1.721 156.815 1.595e-3 160.857 0.774 -79.144
324.55 0.671 -48.898 2.274 136.547 1.855e-3 149.686 0.721 -85.323
359.5 0.633 -51.494 2.711 117.854 2.322e-3 144.574 0.68 -90.313
394.45 0.599 -53.701 3.023 101.621 2.334e-3 142.813 0.648 -94.85
429.4 0.57 -55.586 3.236 87.705 2.627e-3 139.251 0.623 -99.058
464.35 0.544 -57.302 3.38 75.813 3.147e-3 138.959 0.6 -103.046
499.3 0.522 -58.82 3.472 65.569 3.358e-3 134.715 0.578 -106.801
534.25 0.501 -60.193 3.539 56.53 3.7e-3 132.956 0.557 -110.122
569.2 0.483 -61.461 3.584 48.457 4.144e-3 128.4 0.539 -113.176
604.15 0.466 -62.653 3.606 41.251 4.437e-3 128.926 0.523 -115.901
639.1 0.451 -63.765 3.618 34.73 4.788e-3 126.399 0.508 -118.315
674.05 0.437 -64.841 3.621 28.718 5.204e-3 123.513 0.496 -120.564
709 0.424 -65.87 3.614 23.236 5.667e-3 121.842 0.486 -122.55
743.95 0.412 -66.789 3.601 18.134 6.109e-3 121.277 0.478 -124.421
778.9 0.402 -67.715 3.585 13.408 6.413e-3 118.129 0.471 -126.075
813.85 0.393 -68.548 3.564 9.035 6.87e-3 116.626 0.467 -127.673
848.8 0.385 -69.374 3.545 4.958 7.209e-3 116.017 0.462 -129.1
883.75 0.377 -70.076 3.525 1.082 7.669e-3 115.112 0.46 -130.465
918.7 0.37 -70.778 3.501 -2.552 8.051e-3 113.386 0.458 -131.819
953.65 0.363 -71.418 3.48 -5.966 8.524e-3 112.347 0.457 -133.189
988.6 0.357 -72.039 3.46 -9.189 9.03e-3 110.395 0.456 -134.71
1023.55 0.35 -72.723 3.435 -12.312 9.493e-3 109.566 0.456 -136.207
1058.5 0.345 -73.412 3.416 -15.241 9.794e-3 108.095 0.457 -137.696
1093.45 0.34 -74.176 3.398 -18.077 0.01 107.245 0.458 -139.172
1128.4 0.335 -74.767 3.384 -20.829 0.011 105.768 0.459 -140.813
1163.35 0.331 -75.428 3.367 -23.49 0.011 104.602 0.459 -142.442
1198.3 0.327 -76.037 3.355 -26.088 0.012 103.326 0.459 -144.13
1233.25 0.323 -76.649 3.34 -28.482 0.012 101.55 0.457 -145.653
1268.2 0.318 -77.24 3.324 -30.851 0.013 100.382 0.455 -147.267
1303.15 0.314 -77.882 3.307 -33.222 0.013 99.471 0.452 -148.974
1338.1 0.31 -78.581 3.288 -35.431 0.014 98.324 0.449 -150.546
1373.05 0.306 -79.271 3.274 -37.473 0.014 97.277 0.446 -151.999
1408 0.302 -79.964 3.261 -39.528 0.014 96.045 0.443 -153.55
1442.95 0.299 -80.604 3.244 -41.47 0.015 94.959 0.44 -154.918
1477.9 0.296 -81.243 3.237 -43.302 0.015 93.967 0.437 -156.263
1512.85 0.294 -81.829 3.234 -45.048 0.016 93.118 0.434 -157.517
1547.8 0.291 -82.374 3.23 -46.716 0.016 92.108 0.431 -158.848
1582.75 0.288 -82.917 3.23 -48.351 0.017 91.337 0.428 -160.223
1617.7 0.285 -83.427 3.237 -49.933 0.017 90.518 0.426 -161.623
1652.65 0.283 -84.03 3.25 -51.533 0.017 89.507 0.423 -162.958
1687.6 0.28 -84.59 3.265 -53.024 0.018 88.902 0.421 -164.367
1722.55 0.278 -85.152 3.29 -54.502 0.018 87.823 0.42 -165.658
1757.5 0.276 -85.677 3.32 -56.063 0.019 87.335 0.419 -166.962
1792.45 0.274 -86.121 3.355 -57.635 0.019 86.417 0.418 -168.222
1827.4 0.272 -86.554 3.398 -59.349 0.02 85.416 0.417 -169.495
1862.35 0.27 -86.966 3.443 -61.096 0.02 85.125 0.416 -170.758
1897.3 0.267 -87.428 3.489 -62.861 0.021 84.105 0.416 -172.054
1932.25 0.263 -87.922 3.54 -64.797 0.022 83.682 0.416 -173.368
1967.2 0.259 -88.526 3.595 -66.815 0.022 82.527 0.416 -174.711
2002.15 0.256 -89.197 3.648 -68.905 0.022 82.09 0.417 -176.172
2037.1 0.252 -89.898 3.7 -71.049 0.023 81.022 0.418 -177.727
2072.05 0.248 -90.665 3.751 -73.254 0.024 80.325 0.419 -179.294
2107 0.244 -91.404 3.8 -75.524 0.024 79.561 0.42 179.232
2141.95 0.239 -92.109 3.847 -77.834 0.025 78.878 0.422 177.748
2176.9 0.235 -92.885 3.896 -80.179 0.026 78.116 0.423 176.211
2211.85 0.229 -93.556 3.942 -82.602 0.026 77.272 0.424 174.603
2246.8 0.224 -94.306 3.986 -85.003 0.027 76.389 0.426 172.992
2281.75 0.218 -95.205 4.03 -87.488 0.027 75.078 0.43 171.344
2316.7 0.211 -96.07 4.07 -89.965 0.028 74.28 0.433 169.533
2351.65 0.205 -97.038 4.107 -92.543 0.029 73.084 0.436 167.78
2386.6 0.199 -98.008 4.148 -95.081 0.029 72.106 0.441 166.151
2421.55 0.192 -98.912 4.181 -97.754 0.03 71.302 0.447 164.324
2456.5 0.186 -99.878 4.212 -100.398 0.03 70.249 0.452 162.379
2491.45 0.179 -100.742 4.24 -103.12 0.031 69.322 0.458 160.476
2526.4 0.172 -101.696 4.264 -105.821 0.032 68.523 0.465 158.426
2561.35 0.164 -102.664 4.283 -108.54 0.032 67.37 0.471 156.217
2596.3 0.157 -103.674 4.297 -111.302 0.033 66.493 0.477 153.944
2631.25 0.149 -104.701 4.309 -114.022 0.034 65.546 0.484 151.599
2666.2 0.142 -105.784 4.315 -116.768 0.034 64.217 0.49 149.16
2701.15 0.134 -106.607 4.314 -119.501 0.035 63.195 0.496 146.727
2736.1 0.127 -107.502 4.304 -122.262 0.035 62.215 0.501 144.338
2771.05 0.12 -108.275 4.292 -124.984 0.036 61.332 0.504 142.004
2806 0.113 -108.536 4.277 -127.594 0.036 60.307 0.507 139.737
2840.95 0.106 -108.922 4.266 -130.176 0.037 59.161 0.511 137.539
2875.9 0.098 -109.177 4.252 -132.782 0.038 58.228 0.515 135.42
2910.85 0.09 -109.146 4.235 -135.412 0.038 57.4 0.518 133.321
2945.8 0.082 -108.881 4.217 -137.949 0.039 56.061 0.522 131.098
2980.75 0.075 -108.693 4.196 -140.477 0.039 55.042 0.526 129.158
3015.7 0.067 -108.283 4.172 -143.062 0.039 53.984 0.53 127.211
3050.65 0.06 -107.582 4.148 -145.577 0.04 52.888 0.533 125.293
3085.6 0.052 -106.235 4.12 -148.058 0.04 52.073 0.537 123.415
3120.55 0.046 -104.086 4.09 -150.456 0.041 51.199 0.54 121.683
3155.5 0.039 -101.017 4.061 -152.857 0.041 50.235 0.543 119.934
3190.45 0.032 -96.091 4.036 -155.254 0.042 49.426 0.547 118.216
3225.4 0.025 -87.307 4.004 -157.674 0.042 48.321 0.551 116.5
3260.35 0.019 -74.391 3.975 -160 0.043 47.541 0.556 114.895
3295.3 0.015 -52.745 3.946 -162.391 0.043 46.574 0.561 113.315
3330.25 0.014 -16.818 3.917 -164.836 0.044 45.79 0.566 111.614
3365.2 0.017 8.683 3.884 -167.255 0.044 44.931 0.57 110.04
3400.15 0.022 23.457 3.85 -169.633 0.044 43.957 0.573 108.45
3435.1 0.028 32.603 3.807 -171.98 0.045 43.109 0.576 106.782
3470.05 0.035 37.965 3.767 -174.332 0.045 42.311 0.577 105.25
3505 0.041 41.55 3.724 -176.569 0.046 41.416 0.578 103.802
3539.95 0.047 44.3 3.679 -178.787 0.046 40.59 0.579 102.323
3574.9 0.055 47.12 3.64 178.993 0.046 39.664 0.579 100.948
3609.85 0.061 49.114 3.596 176.949 0.047 39.081 0.58 99.81
3644.8 0.066 51.317 3.559 174.821 0.047 37.996 0.581 98.662
3679.75 0.072 52.891 3.516 172.615 0.048 37.308 0.581 97.501
3714.7 0.078 54.324 3.473 170.579 0.048 36.527 0.582 96.441
3749.65 0.082 55.946 3.436 168.547 0.048 35.842 0.581 95.513
3784.6 0.087 57.441 3.397 166.595 0.049 35.125 0.581 94.567
3819.55 0.091 58.365 3.361 164.647 0.049 34.538 0.58 93.602
3854.5 0.095 59.339 3.331 162.681 0.05 33.804 0.582 92.719
3889.45 0.099 60.084 3.297 160.707 0.05 33.067 0.581 91.809
3924.4 0.104 60.843 3.261 158.754 0.05 32.332 0.581 91.004
3959.35 0.107 61.739 3.227 156.892 0.051 31.823 0.581 90.329
3994.3 0.11 62.273 3.194 154.971 0.051 31.004 0.581 89.618
4029.25 0.114 62.8 3.158 153.06 0.052 30.479 0.581 88.959
4064.2 0.117 63.331 3.129 151.187 0.052 29.81 0.58 88.399
4099.15 0.12 63.666 3.1 149.431 0.053 29.266 0.58 87.883
4134.1 0.123 63.983 3.07 147.559 0.053 28.367 0.58 87.251
4169.05 0.127 63.962 3.041 145.731 0.053 27.863 0.579 86.674
4204 0.129 64.043 3.012 143.853 0.054 27.202 0.579 86.104
4238.95 0.133 63.869 2.984 142.048 0.054 26.439 0.579 85.538
4273.9 0.136 63.772 2.957 140.253 0.055 25.954 0.579 85.099
4308.85 0.14 63.67 2.932 138.462 0.056 25.426 0.579 84.707
4343.8 0.143 63.326 2.903 136.707 0.056 24.657 0.578 84.283
4378.75 0.148 63.132 2.88 134.894 0.057 24.081 0.578 83.872
4413.7 0.152 62.699 2.854 133.066 0.057 23.341 0.577 83.528
4448.65 0.156 62.385 2.831 131.33 0.058 22.716 0.576 83.176
4483.6 0.161 62.068 2.806 129.56 0.058 22.191 0.575 82.822
4518.55 0.166 62.012 2.786 127.787 0.059 21.408 0.575 82.459
4553.5 0.171 61.695 2.763 125.939 0.059 20.832 0.574 82.031
4588.45 0.177 61.564 2.74 124.256 0.06 20.113 0.573 81.735
4623.4 0.182 61.406 2.718 122.478 0.06 19.402 0.573 81.425
4658.35 0.186 61.424 2.695 120.768 0.061 18.819 0.571 81.17
4693.3 0.191 61.429 2.675 119.005 0.062 18.064 0.57 80.834
4728.25 0.196 61.42 2.654 117.232 0.062 17.452 0.57 80.524
4763.2 0.2 61.443 2.634 115.454 0.063 16.715 0.569 80.172
4798.15 0.206 61.484 2.614 113.644 0.064 15.935 0.568 79.764
4833.1 0.211 61.574 2.597 111.954 0.064 15.272 0.567 79.354
4868.05 0.216 61.558 2.578 110.171 0.065 14.576 0.566 78.991
4903 0.221 61.707 2.557 108.404 0.066 13.78 0.566 78.56
4937.95 0.225 61.9 2.539 106.685 0.066 13.091 0.565 78.115
4972.9 0.228 62.085 2.52 104.925 0.067 12.44 0.565 77.745
5007.85 0.232 62.33 2.499 103.194 0.068 11.568 0.564 77.327
5042.8 0.236 62.602 2.481 101.481 0.069 10.818 0.564 76.867
5077.75 0.239 62.777 2.462 99.764 0.069 10.082 0.563 76.431
5112.7 0.242 62.877 2.443 98 0.07 9.336 0.561 75.947
5147.65 0.245 62.827 2.425 96.246 0.07 8.577 0.561 75.372
5182.6 0.247 62.878 2.408 94.5 0.071 7.745 0.56 74.848
5217.55 0.249 62.879 2.39 92.735 0.072 6.958 0.559 74.338
5252.5 0.251 62.815 2.371 90.971 0.072 6.155 0.559 73.831
5287.45 0.252 62.686 2.355 89.237 0.073 5.408 0.558 73.218
5322.4 0.253 62.493 2.337 87.439 0.074 4.59 0.557 72.673
5357.35 0.254 62.223 2.321 85.688 0.075 3.76 0.555 72.073
5392.3 0.253 61.704 2.305 83.904 0.075 2.952 0.554 71.486
5427.25 0.253 61.155 2.288 82.11 0.076 2.111 0.552 70.803
5462.2 0.252 60.332 2.272 80.33 0.077 1.238 0.55 70.13
5497.15 0.252 59.41 2.255 78.523 0.078 0.374 0.548 69.451
5532.1 0.251 58.346 2.237 76.71 0.078 -0.426 0.545 68.728
5567.05 0.251 57.301 2.218 74.954 0.079 -1.463 0.543 67.932
5602 0.251 56.166 2.202 73.178 0.08 -2.341 0.539 67.286
5636.95 0.251 54.975 2.184 71.386 0.081 -3.134 0.536 66.606
5671.9 0.251 53.723 2.167 69.583 0.082 -4.138 0.532 65.846
5706.85 0.251 52.46 2.15 67.797 0.082 -5.056 0.528 65.063
5741.8 0.251 51.007 2.133 65.999 0.083 -5.859 0.524 64.187
5776.75 0.252 49.58 2.117 64.197 0.084 -6.861 0.52 63.333
5811.7 0.252 48.07 2.097 62.401 0.085 -7.757 0.515 62.393
5846.65 0.254 46.497 2.08 60.595 0.086 -8.719 0.511 61.487
5881.6 0.256 45.039 2.061 58.822 0.086 -9.666 0.507 60.61
5916.55 0.257 43.656 2.042 57.055 0.087 -10.591 0.502 59.753
5951.5 0.259 42.312 2.022 55.258 0.088 -11.557 0.498 58.826
5986.45 0.261 41.027 2.002 53.482 0.089 -12.519 0.493 57.957
6021.4 0.262 39.879 1.983 51.674 0.09 -13.508 0.487 57.004
6056.35 0.264 38.787 1.962 49.946 0.091 -14.602 0.481 56.083
6091.3 0.264 37.866 1.94 48.302 0.091 -15.729 0.475 55.317
6126.25 0.265 36.97 1.925 46.558 0.092 -16.469 0.472 54.395
6161.2 0.266 35.873 1.907 44.727 0.093 -17.397 0.467 53.3
6196.15 0.267 34.824 1.888 42.949 0.094 -18.493 0.461 52.222
6231.1 0.266 33.719 1.865 41.148 0.095 -19.682 0.455 51.125
6266.05 0.265 32.713 1.845 39.399 0.096 -20.777 0.448 50.158
6301 0.263 31.661 1.823 37.636 0.097 -21.993 0.441 49.121
6335.95 0.26 30.588 1.801 35.864 0.099 -23.26 0.434 47.983
6370.9 0.256 29.345 1.778 34.04 0.1 -24.49 0.426 46.863
6405.85 0.251 28.008 1.754 32.277 0.101 -25.989 0.418 45.74
6440.8 0.246 26.401 1.728 30.527 0.102 -27.515 0.408 44.589
6475.75 0.239 24.699 1.7 28.856 0.103 -29.192 0.398 43.651
6510.7 0.23 22.859 1.67 27.318 0.104 -30.97 0.388 42.917
6545.65 0.222 20.98 1.639 26.003 0.105 -32.898 0.376 42.607
6580.6 0.213 19.156 1.615 24.951 0.105 -34.652 0.368 42.847
6615.55 0.202 17.41 1.599 24.058 0.104 -36.691 0.363 43.337
6650.5 0.198 17.922 1.611 23.084 0.101 -36.7 0.371 43.439
6685.45 0.202 15.112 1.617 20.525 0.104 -36.003 0.374 40.659
6720.4 0.199 9.947 1.59 17.798 0.109 -37.399 0.362 37.702
6755.35 0.191 4.281 1.541 15.669 0.112 -40.211 0.343 35.767
6790.3 0.178 -1.198 1.484 14.537 0.114 -44.13 0.32 35.818
6825.25 0.161 -2.315 1.459 15.126 0.109 -47.461 0.312 39.368
6860.2 0.169 -2.511 1.494 13.415 0.107 -45.746 0.33 38.173
6895.15 0.175 -9.899 1.463 10.29 0.113 -46.78 0.318 34.663
6930.1 0.172 -17.959 1.403 8.466 0.118 -50.324 0.296 33.767
6965.05 0.163 -25.321 1.345 7.811 0.119 -54.642 0.275 35.393
7000 0.15 -31.25 1.303 8.261 0.118 -59.175 0.263 39.414
