!Hittite Microwave Corporation								
!12 Elizabeth Drive								
!Chelmsford, MA 01824							
!Tel: 978-250-3343								
!Fax: 978-250-3373								
!Device: HMC318MS8G, 5-6 GHz LNA with AGC in 8-lead Grounded Base Surface Mount Plastic Package
!Misc: Room Temp Vdd = +3V Idd = 5.7 mA. Vctl =1.4 V	 , DEEMBEDDED TO THE PINS OF THE DEVICE							
!
# MHZ S MA R 50

4000 0.751 -124.523 0.667 -48.519 0.026 121.961 0.627 39.639
4030 0.744 -125.33 0.691 -50.368 0.026 121.089 0.629 38.901
4060 0.736 -126.227 0.76 -55.679 0.024 123.471 0.632 38.291
4090 0.729 -127.048 0.692 -57.009 0.028 124.228 0.632 37.672
4120 0.719 -127.905 0.699 -58.424 0.028 121.886 0.632 37.014
4150 0.709 -128.799 0.781 -59.925 0.025 116.445 0.633 36.32
4180 0.701 -129.923 0.727 -63.775 0.029 117.809 0.633 35.832
4210 0.692 -130.84 0.727 -65.946 0.03 118.658 0.634 35.297
4240 0.684 -131.543 0.783 -66.436 0.028 118.994 0.634 34.711
4270 0.67 -132.423 0.757 -70.098 0.03 115.999 0.633 34.197
4300 0.659 -133.567 0.763 -73.014 0.03 114.163 0.632 33.657
4330 0.649 -134.99 0.803 -75.185 0.031 113.485 0.63 33.085
4360 0.64 -135.686 0.769 -76.967 0.033 111.83 0.629 32.604
4390 0.629 -136.571 0.782 -79.237 0.033 111.503 0.626 32.087
4420 0.615 -137.647 0.842 -82 0.032 112.5 0.623 31.531
4450 0.604 -139.057 0.797 -84.361 0.034 108.532 0.62 31.036
4480 0.593 -140.113 0.8 -86.558 0.035 105.989 0.616 30.572
4510 0.583 -140.811 0.852 -88.586 0.036 104.874 0.611 30.133
4540 0.567 -142.087 0.825 -91.287 0.036 105.493 0.607 29.498
4570 0.554 -143.453 0.827 -93.993 0.037 104.36 0.602 29.001
4600 0.545 -144.927 0.859 -96.703 0.037 101.477 0.596 28.645
4630 0.531 -145.522 0.845 -97.673 0.037 97.307 0.589 28.035
4660 0.516 -146.591 0.856 -100.666 0.038 96.287 0.583 27.501
4690 0.501 -148.157 0.892 -105.686 0.041 98.414 0.577 27.038
4720 0.493 -149.533 0.847 -104.975 0.04 94.185 0.567 26.612
4750 0.48 -150.705 0.861 -106.837 0.039 90.943 0.557 26.039
4780 0.464 -151.645 0.934 -111.273 0.038 88.687 0.548 25.323
4810 0.453 -153.305 0.862 -112.764 0.042 86.216 0.538 25.185
4840 0.442 -154.737 0.862 -114.059 0.042 83.641 0.526 25.001
4870 0.432 -155.931 0.936 -115.158 0.038 80.962 0.513 24.774
4900 0.419 -157.812 0.896 -119.566 0.039 80.927 0.504 24.848
4930 0.41 -159.601 0.887 -121.453 0.038 77.863 0.494 25.025
4960 0.404 -161.298 0.909 -120.817 0.037 71.773 0.482 25.312
4990 0.392 -163.184 0.942 -124.336 0.036 76.707 0.476 25.427
5020 0.382 -165.925 0.952 -127.387 0.035 79.623 0.473 25.604
5050 0.374 -169.59 0.937 -129.977 0.035 80.513 0.471 25.838
5080 0.364 -171.469 0.983 -130.747 0.036 81.303 0.465 24.669
5110 0.349 -174.056 1.005 -134.212 0.039 81.425 0.46 23.504
5140 0.33 -177.383 1.003 -140.372 0.042 80.878 0.454 22.346
5170 0.324 179.525 1.002 -139.875 0.044 78.755 0.44 21.452
5200 0.314 177.206 1.018 -142.376 0.045 77.014 0.427 20.313
5230 0.299 175.723 1.05 -147.868 0.044 75.662 0.414 18.915
5260 0.288 171.435 1.025 -149.23 0.048 71.04 0.4 18.023
5290 0.281 168.201 1.023 -151.569 0.049 67.724 0.384 17.03
5320 0.278 166.119 1.044 -154.886 0.049 65.714 0.367 15.944
5350 0.264 163.709 1.045 -157.285 0.051 63.755 0.351 14.863
5380 0.254 160.355 1.04 -160.252 0.052 60.448 0.334 13.924
5410 0.249 156.025 1.03 -163.789 0.052 55.791 0.317 13.141
5440 0.247 153.783 1.05 -165.196 0.053 53.177 0.298 11.982
5470 0.241 150.86 1.053 -168.285 0.054 51.075 0.279 10.878
5500 0.233 147.209 1.04 -173.052 0.056 49.488 0.261 9.834
5530 0.234 143.496 1.045 -173.753 0.055 44.874 0.243 9.015
5560 0.233 140.396 1.05 -176.415 0.055 41.345 0.223 8.091
5590 0.229 137.894 1.054 178.965 0.056 38.905 0.203 7.109
5620 0.227 133.825 1.045 177.44 0.057 35.2 0.185 6.428
5650 0.227 130.206 1.044 174.893 0.058 31.989 0.164 5.625
5680 0.229 127.062 1.048 171.323 0.057 29.273 0.142 4.891
5710 0.23 123.608 1.044 168.698 0.057 25.982 0.122 3.221
5740 0.234 120.362 1.038 165.861 0.058 22.001 0.102 2.739
5770 0.24 117.351 1.029 162.814 0.059 17.334 0.082 4.172
5800 0.241 114.898 1.034 160.138 0.059 15.544 0.058 2.821
5830 0.245 111.748 1.029 157.145 0.059 12.512 0.036 3.357
5860 0.251 107.948 1.014 153.837 0.059 8.237 0.018 10.273
5890 0.26 106.007 1.013 151.282 0.059 4.268 9.207e-3 142.248
5920 0.266 103.655 1.007 148.338 0.059 0.925 0.03 163.893
5950 0.268 100.896 0.997 144.999 0.061 -1.801 0.052 166.899
5980 0.281 97.974 0.989 142.166 0.06 -6.154 0.074 166.304
6010 0.291 95.902 0.981 139.231 0.06 -9.799 0.097 165.607
6040 0.298 94.633 0.97 136.19 0.06 -12.74 0.123 164.375
6070 0.305 91.433 0.96 133.172 0.061 -17.291 0.144 163.81
6100 0.316 88.823 0.949 130.091 0.062 -21.292 0.166 162.399
6130 0.33 86.771 0.937 126.949 0.062 -24.741 0.191 160.287
6160 0.337 84.932 0.921 123.91 0.062 -27.866 0.214 159.669
6190 0.346 82.599 0.908 120.89 0.062 -32.077 0.237 158.301
6220 0.358 79.788 0.9 117.889 0.062 -37.371 0.259 156.33
6250 0.37 77.991 0.876 114.58 0.063 -40.627 0.284 154.947
6280 0.381 75.878 0.86 111.544 0.064 -43.999 0.308 153.414
6310 0.39 73.459 0.852 108.781 0.065 -47.489 0.329 151.816
6340 0.403 71.16 0.827 105.394 0.064 -52.002 0.354 149.833
6370 0.414 68.777 0.808 102.31 0.065 -56.337 0.377 148.1
6400 0.423 66.31 0.795 99.526 0.066 -60.494 0.399 146.656
6430 0.437 63.949 0.77 96.369 0.066 -63.811 0.422 144.858
6460 0.448 61.642 0.751 93.302 0.066 -67.628 0.443 143.144
6490 0.456 59.393 0.738 90.325 0.066 -71.945 0.465 141.527
6520 0.465 56.648 0.708 87.53 0.067 -75.853 0.485 139.646
6550 0.476 54.044 0.687 84.603 0.068 -79.94 0.505 137.696
6580 0.488 51.57 0.676 81.543 0.069 -84.207 0.526 135.681
6610 0.495 49.16 0.648 78.75 0.068 -87.433 0.546 133.918
6640 0.503 46.542 0.626 75.921 0.069 -91.133 0.564 132.049
6670 0.513 43.71 0.611 73.055 0.069 -95.305 0.582 130.076
6700 0.523 41.449 0.584 70.397 0.069 -99.316 0.6 128.183
6730 0.529 38.989 0.563 67.712 0.069 -102.978 0.617 126.294
6760 0.533 36.33 0.549 64.997 0.07 -106.293 0.633 124.41
6790 0.541 33.366 0.523 62.505 0.07 -109.872 0.648 122.41
6820 0.549 30.793 0.502 59.86 0.07 -113.324 0.663 120.527
6850 0.556 28.608 0.486 57.06 0.07 -116.65 0.68 118.763
6880 0.559 25.97 0.464 54.878 0.07 -120.379 0.692 116.9
6910 0.563 23.212 0.445 52.532 0.07 -123.715 0.703 114.936
6940 0.57 20.328 0.427 50.023 0.069 -126.657 0.715 112.87
6970 0.574 17.973 0.409 47.719 0.07 -130.374 0.728 111.177
7000 0.579 15.403 0.391 45.404 0.07 -133.556 0.738 109.454
