!Hittite Microwave Corporation								
!12 Elizabeth Drive								
!Chelmsford, MA 01824								
!Tel: 978-250-3343								
!Fax: 978-250-3373
!Device: HMC347LP3, DC - 14 GHz GaAs MMIC SPDT Non-Reflective Switch in leadless QFN SMT package
!Misc: Port1=RFC, Port2= RF1, Port3=RF2, RF2 ON, Data includes two SRI SMA sonnectors, Bias: -5VDC								
!
# MHZ S MA R 50

10 0.119 4.232 0.013 143.622 0.919 -3.043
          0.013 -175.34 0.307 178.302 0.018 -173.132
          0.886 -3.115 6.543e-3 -90.382 0.146 21.814
109.95 0.135 -3.341 249.4e-6 -93.669 0.865 -4.996
          766.4e-6 -66.359 0.322 174.304 297.4e-6 -112.414
          0.861 -5.174 561.4e-6 -13.482 0.121 -3.441
209.9 0.135 -4.677 470.1e-6 54.285 0.863 -9.515
          526.2e-6 54.247 0.32 169.793 332.8e-6 81.935
          0.864 -9.417 378.2e-6 -81.951 0.12 -7.935
309.85 0.133 -7.321 56.58e-6 -28.381 0.862 -13.797
          552.5e-6 57.963 0.32 165.166 118e-6 -42.697
          0.863 -13.685 207.6e-6 -26.946 0.124 -9.409
409.8 0.136 -11.658 350.7e-6 68.651 0.864 -18.059
          336.7e-6 76.579 0.321 160.005 277e-6 -87.211
          0.86 -18.28 388.3e-6 -103.018 0.121 -13.105
509.75 0.14 -14.45 551.7e-6 46.815 0.859 -22.416
          716.3e-6 63.603 0.322 155.787 85.48e-6 -88.748
          0.859 -22.417 275.3e-6 -88.777 0.122 -16.369
609.7 0.143 -16.51 548.3e-6 60.407 0.859 -26.51
          579.5e-6 60.608 0.32 152.011 205.3e-6 -113.626
          0.857 -26.742 60.81e-6 -89.715 0.121 -20.902
709.65 0.141 -19.004 504.3e-6 58.822 0.857 -31.303
          506.8e-6 64.828 0.314 147.575 352.9e-6 -131.383
          0.856 -31.03 366e-6 -163.326 0.126 -24.745
809.6 0.141 -23.457 631.9e-6 42.523 0.86 -35.105
          584e-6 53.306 0.312 141.762 261.3e-6 -111.923
          0.856 -35.219 412.6e-6 -139.315 0.13 -27.105
909.55 0.146 -27.282 713.4e-6 40.455 0.856 -39.54
          692.9e-6 59.571 0.316 136.967 463e-6 -160.839
          0.856 -39.451 278e-6 -141.734 0.128 -28.738
1009.5 0.149 -29.714 782.1e-6 58.889 0.857 -43.841
          795.8e-6 44.618 0.319 133.216 396.8e-6 -126.913
          0.853 -43.882 539.9e-6 -143.173 0.127 -33.159
1109.45 0.147 -31.761 833.4e-6 40.676 0.855 -48.151
          970.3e-6 46.781 0.313 129.063 469.8e-6 -152.908
          0.852 -48.111 398.4e-6 -150.516 0.131 -36.965
1209.4 0.144 -36.188 999.6e-6 40.844 0.856 -52.366
          908.9e-6 39.436 0.311 123.34 456.1e-6 -155.511
          0.853 -52.328 500.1e-6 -168.305 0.132 -39.665
1309.35 0.146 -41.703 980.6e-6 38.688 0.854 -56.804
          948.7e-6 40.183 0.316 118.077 555.3e-6 -157.146
          0.853 -56.665 433.7e-6 -155.437 0.13 -42.552
1409.3 0.151 -44.636 951.7e-6 39.259 0.851 -61.027
          1.019e-3 45.44 0.32 114.811 547.1e-6 -177.98
          0.853 -60.938 505.6e-6 -165.491 0.131 -46.449
1509.25 0.152 -46.469 1.182e-3 37.351 0.852 -65.228
          1.027e-3 34.986 0.315 111.713 517.6e-6 -177.754
          0.852 -65.162 605.5e-6 -169.331 0.132 -51.251
1609.2 0.149 -50.735 1.277e-3 30.176 0.851 -69.299
          1.157e-3 33.905 0.309 106.077 725.2e-6 -176.251
          0.85 -69.387 725.3e-6 173.18 0.135 -55.26
1709.15 0.149 -55.812 1.281e-3 19.646 0.849 -73.834
          1.111e-3 35.953 0.311 100.169 821.7e-6 177.559
          0.851 -73.675 761.8e-6 169.533 0.135 -57.813
1809.1 0.155 -58.791 1.348e-3 28.945 0.852 -77.823
          1.505e-3 28.224 0.317 96.512 657.2e-6 156.468
          0.85 -77.754 741.2e-6 163.663 0.133 -59.856
1909.05 0.157 -60.487 1.447e-3 27.595 0.851 -82.23
          1.483e-3 19.884 0.315 93.401 733.1e-6 172.323
          0.851 -82.229 769.4e-6 156.133 0.133 -64.184
2009 0.152 -63.236 1.416e-3 26.728 0.848 -86.427
          1.302e-3 23.176 0.307 88.891 840.7e-6 160.377
          0.846 -86.394 798.8e-6 158.372 0.137 -67.865
2108.95 0.152 -67.629 1.575e-3 20.176 0.846 -90.8
          1.612e-3 18.291 0.307 82.727 1.067e-3 162.213
          0.848 -90.57 864.5e-6 145.862 0.139 -70.389
2208.9 0.157 -71.747 1.671e-3 12.955 0.846 -95.159
          1.433e-3 12.147 0.312 78.098 800.7e-6 152.893
          0.848 -95.062 817.3e-6 145.643 0.139 -73.148
2308.85 0.16 -73.282 1.568e-3 15.069 0.849 -99.27
          1.705e-3 14.257 0.313 74.873 994.7e-6 137.2
          0.847 -99.14 1.183e-3 130.599 0.14 -76.589
2408.8 0.16 -74.567 1.678e-3 12.482 0.846 -103.693
          1.819e-3 9.988 0.306 70.83 918.4e-6 152.373
          0.844 -103.585 1.018e-3 139.451 0.144 -80.592
2508.75 0.156 -77.093 1.756e-3 4.867 0.845 -107.68
          1.681e-3 12.458 0.3 65.032 1.065e-3 131.108
          0.845 -107.788 943.9e-6 124.5 0.149 -83.579
2608.7 0.157 -80.622 1.922e-3 4.941 0.844 -112.142
          1.795e-3 1.977 0.304 59.215 1.241e-3 120.261
          0.844 -112.048 848.6e-6 126.186 0.152 -85.283
2708.65 0.162 -84.001 1.837e-3 0.766 0.84 -116.353
          2.043e-3 1.632 0.308 55.168 1.145e-3 121.88
          0.844 -116.308 1.174e-3 116.316 0.153 -87.611
2808.6 0.165 -85.77 1.993e-3 -7.557 0.843 -120.525
          2.087e-3 -2.045 0.304 51.523 1.289e-3 116.72
          0.842 -120.628 1.315e-3 111.971 0.155 -91.139
2908.55 0.166 -88.057 2.03e-3 0.125 0.84 -125.179
          2.045e-3 -4.297 0.298 45.754 1.258e-3 111.039
          0.838 -124.776 1.226e-3 101.51 0.161 -93.204
3008.5 0.167 -90.429 2.238e-3 -6.752 0.839 -129.264
          2.32e-3 -8.777 0.298 39.159 1.41e-3 100.993
          0.84 -128.977 1.281e-3 98.917 0.166 -95.047
3108.45 0.172 -94.382 2.301e-3 -11.547 0.841 -133.433
          2.293e-3 -8.263 0.307 34.376 1.525e-3 90.669
          0.839 -133.21 1.531e-3 97.868 0.166 -97.149
3208.4 0.18 -96.585 2.338e-3 -11.945 0.838 -137.404
          2.149e-3 -16.352 0.307 30.742 1.49e-3 92.316
          0.841 -137.501 1.336e-3 88.573 0.17 -97.813
3308.35 0.187 -97.91 2.434e-3 -15.046 0.836 -141.749
          2.251e-3 -17.568 0.299 25.858 1.563e-3 83.235
          0.837 -141.794 1.553e-3 81.923 0.174 -102.555
3408.3 0.19 -99.865 2.407e-3 -20.191 0.835 -146.06
          2.531e-3 -22.855 0.298 19.03 1.549e-3 77.607
          0.833 -145.796 1.477e-3 81.622 0.18 -104.307
3508.25 0.193 -103.371 2.649e-3 -23.832 0.838 -150.244
          2.429e-3 -23.259 0.305 13.417 1.502e-3 73.76
          0.835 -150.152 1.494e-3 76.909 0.183 -104.899
3608.2 0.204 -107.17 2.648e-3 -28.416 0.834 -154.256
          2.44e-3 -24.47 0.313 9.61 1.61e-3 74.217
          0.832 -154.429 1.48e-3 77.077 0.186 -107.076
3708.15 0.214 -109.37 2.554e-3 -28.84 0.834 -158.842
          2.554e-3 -29.995 0.305 5.18 1.814e-3 65.396
          0.835 -158.442 1.64e-3 70.151 0.191 -110.653
3808.1 0.221 -110.784 2.793e-3 -29.221 0.829 -163.105
          2.655e-3 -30.984 0.302 -1.328 1.782e-3 66.61
          0.829 -162.987 1.949e-3 61.347 0.2 -113.391
3908.05 0.226 -113.165 2.777e-3 -36.908 0.828 -166.908
          2.762e-3 -38.98 0.309 -7.917 1.779e-3 61.261
          0.833 -167.011 1.928e-3 54.906 0.206 -115.199
4008 0.232 -117.888 2.732e-3 -38.603 0.833 -171.262
          2.659e-3 -37.576 0.319 -11.936 1.933e-3 54.521
          0.827 -171.328 1.858e-3 51.469 0.209 -116.898
4107.95 0.244 -121.62 3.082e-3 -41.127 0.827 -175.749
          2.823e-3 -43.525 0.316 -15.969 1.944e-3 46.968
          0.825 -175.505 2.124e-3 43.397 0.214 -119.773
4207.9 0.254 -123.18 2.91e-3 -45.852 0.824 -179.385
          3.042e-3 -46.152 0.315 -21.952 1.951e-3 46.775
          0.828 -179.737 2.144e-3 38.87 0.224 -123.02
4307.85 0.257 -125.616 3.003e-3 -44.742 0.826 176.287
          3.061e-3 -49.015 0.32 -28.95 2.115e-3 34.595
          0.825 176.245 2.007e-3 39.022 0.232 -124.308
4407.8 0.259 -130.689 3.033e-3 -52.51 0.824 172.056
          3.11e-3 -51.282 0.334 -33.005 2.164e-3 31.638
          0.825 171.944 2.174e-3 29.243 0.233 -127.303
4507.75 0.269 -135.793 3.102e-3 -54.525 0.826 167.802
          3.047e-3 -52.691 0.338 -36.487 2.275e-3 24.17
          0.823 167.903 2.113e-3 29.244 0.234 -128.724
4607.7 0.282 -139.169 3.25e-3 -57.168 0.82 163.57
          3.143e-3 -58.29 0.338 -41.375 2.315e-3 23.6
          0.822 163.732 2.327e-3 19.815 0.237 -131.976
4707.65 0.285 -141.428 3.325e-3 -61.335 0.825 159.53
          3.25e-3 -59.771 0.341 -47.396 2.356e-3 18.222
          0.821 159.435 2.231e-3 17.631 0.239 -133.216
4807.6 0.287 -145.404 3.378e-3 -62.177 0.822 155.29
          3.245e-3 -63.379 0.355 -52.227 2.478e-3 11.443
          0.821 155.38 2.344e-3 11.962 0.245 -136.289
4907.55 0.292 -150.713 3.336e-3 -67.912 0.819 151.002
          3.396e-3 -65.964 0.365 -54.975 2.575e-3 4.954
          0.82 151.289 2.501e-3 7.417 0.247 -137.966
5007.5 0.305 -155.218 3.402e-3 -71.111 0.817 147.028
          3.412e-3 -66.31 0.364 -58.596 2.418e-3 1.079
          0.822 147.029 2.532e-3 6.922 0.248 -140.925
5107.45 0.312 -157.541 3.63e-3 -72.817 0.82 143.028
          3.513e-3 -73.186 0.365 -63.946 2.499e-3 -1.049
          0.815 142.855 2.675e-3 0.556 0.25 -143.626
5207.4 0.31 -161.015 3.603e-3 -74.599 0.819 138.811
          3.537e-3 -75.072 0.376 -69.127 2.646e-3 -6.271
          0.819 138.917 2.725e-3 -3.574 0.254 -147.067
5307.35 0.31 -166.135 3.724e-3 -78.035 0.818 134.613
          3.602e-3 -78.276 0.387 -72.296 2.72e-3 -10.537
          0.819 134.558 2.696e-3 -12.726 0.253 -150.169
5407.3 0.317 -170.521 3.815e-3 -80.2 0.82 130.523
          3.756e-3 -81.08 0.39 -75.062 2.77e-3 -14.717
          0.821 130.606 2.727e-3 -14.824 0.252 -152.606
5507.25 0.322 -173.617 3.775e-3 -85.081 0.816 126.221
          3.86e-3 -82.125 0.388 -79.518 2.734e-3 -19.71
          0.819 126.391 2.875e-3 -21.175 0.25 -156.46
5607.2 0.319 -176.252 4.024e-3 -86.93 0.819 122.303
          3.91e-3 -88.18 0.396 -84.759 3e-3 -24.703
          0.812 122.041 2.963e-3 -25.625 0.251 -160.297
5707.15 0.315 179.479 4.031e-3 -91.035 0.82 117.809
          3.935e-3 -90.27 0.406 -88.306 2.928e-3 -30.881
          0.819 118.35 2.928e-3 -30.603 0.252 -163.994
5807.1 0.313 174.789 4.025e-3 -94.776 0.819 113.788
          4.045e-3 -93.528 0.415 -90.67 2.92e-3 -36.444
          0.821 113.797 2.999e-3 -36.463 0.247 -167.168
5907.05 0.316 171.382 4.211e-3 -96.708 0.825 109.634
          4.221e-3 -96.832 0.413 -94.235 3.035e-3 -39.278
          0.822 109.812 3.126e-3 -38.194 0.245 -171.735
6007 0.312 168.898 4.46e-3 -101.079 0.823 105.588
          4.311e-3 -99.691 0.413 -99.109 3.248e-3 -43.617
          0.824 105.65 3.054e-3 -44.766 0.242 -176.799
6106.95 0.303 165.378 4.318e-3 -104 0.825 101.63
          4.276e-3 -103.957 0.427 -103.288 3.112e-3 -49.569
          0.826 101.388 3.15e-3 -47.774 0.241 179.391
6206.9 0.296 160.224 4.526e-3 -109.104 0.828 97.276
          4.421e-3 -108.943 0.436 -105.769 3.228e-3 -51.816
          0.83 97.072 3.08e-3 -53.625 0.231 175.71
6306.85 0.295 156.366 4.426e-3 -111.78 0.829 92.813
          4.553e-3 -110.864 0.437 -108.334 3.243e-3 -59.344
          0.831 92.764 3.383e-3 -57.048 0.224 172.816
6406.8 0.292 153.332 4.408e-3 -113.96 0.83 88.572
          4.667e-3 -115.002 0.435 -112.178 3.357e-3 -63.36
          0.83 88.787 3.363e-3 -61.069 0.218 166.874
6506.75 0.284 151.146 4.657e-3 -117.04 0.833 84.482
          4.656e-3 -118.298 0.443 -116.552 3.346e-3 -66.986
          0.83 84.301 3.35e-3 -66.561 0.212 163.086
6606.7 0.271 147.276 4.567e-3 -121.612 0.832 80.467
          4.787e-3 -122.532 0.45 -118.963 3.464e-3 -71.821
          0.832 80.182 3.323e-3 -74.106 0.206 157.413
6706.65 0.265 142.396 4.72e-3 -127.027 0.839 75.894
          4.879e-3 -125.94 0.453 -121 3.522e-3 -76.958
          0.835 76.007 3.436e-3 -77.125 0.192 151.63
6806.6 0.264 138.9 4.74e-3 -128.866 0.838 71.618
          4.895e-3 -129.976 0.448 -124.029 3.67e-3 -81.503
          0.835 71.392 3.433e-3 -80.367 0.188 145.753
6906.55 0.259 137.6 4.937e-3 -132.187 0.84 67.625
          5.004e-3 -131.761 0.447 -128.562 3.601e-3 -86.863
          0.837 67.575 3.492e-3 -86.012 0.184 138.616
7006.5 0.247 135.758 5.039e-3 -136.822 0.843 63.096
          4.949e-3 -136.337 0.455 -132.065 3.646e-3 -92.074
          0.843 62.852 3.551e-3 -91.988 0.176 129.866
7106.45 0.234 132.183 5.056e-3 -138.881 0.84 58.992
          4.927e-3 -139.206 0.46 -134.431 3.649e-3 -96.364
          0.843 58.598 3.619e-3 -94.872 0.171 122.941
7206.4 0.229 128.573 5.109e-3 -142.998 0.848 54.539
          5.257e-3 -144.946 0.455 -137.159 3.709e-3 -101.148
          0.842 54.394 3.649e-3 -100.629 0.164 114.681
7306.35 0.225 127.232 5.171e-3 -146.163 0.847 50.154
          5.236e-3 -147.187 0.451 -140.933 3.725e-3 -106.46
          0.846 49.885 3.653e-3 -105.35 0.16 106.188
7406.3 0.214 126.914 5.248e-3 -150.808 0.847 46.051
          5.317e-3 -150.394 0.454 -145.042 3.765e-3 -110.177
          0.846 45.77 3.639e-3 -111.133 0.163 96.372
7506.25 0.196 125.298 5.386e-3 -155.71 0.849 41.328
          5.371e-3 -154.621 0.459 -147.824 3.718e-3 -114.485
          0.847 41.571 3.775e-3 -114.737 0.163 88.059
7606.2 0.183 120.903 5.458e-3 -157.602 0.848 37.182
          5.399e-3 -157.971 0.458 -150.097 3.879e-3 -118.155
          0.849 37.047 3.884e-3 -120.198 0.152 79.134
7706.15 0.181 118.353 5.557e-3 -161.534 0.851 32.687
          5.531e-3 -161.834 0.452 -152.952 3.92e-3 -125.748
          0.848 32.583 3.856e-3 -126.55 0.15 68.654
7806.1 0.175 119.112 5.663e-3 -165.581 0.846 28.064
          5.713e-3 -163.896 0.45 -157.501 3.706e-3 -129.358
          0.852 28.347 3.862e-3 -130.3 0.159 57.615
7906.05 0.158 119.986 5.591e-3 -169.974 0.852 24.136
          5.765e-3 -169.441 0.453 -161.009 3.958e-3 -132.603
          0.848 23.763 3.935e-3 -134.555 0.162 49.844
8006 0.143 116.907 5.688e-3 -172.801 0.855 19.321
          5.707e-3 -172.703 0.454 -162.781 4.153e-3 -136.687
          0.852 19.583 3.898e-3 -137.708 0.163 41.812
8105.95 0.134 113.426 5.889e-3 -177.493 0.851 14.864
          5.691e-3 -176.623 0.447 -165.669 4.031e-3 -142.305
          0.852 14.99 4.097e-3 -143.859 0.168 32.228
8205.9 0.133 113.453 5.875e-3 179.087 0.851 10.677
          5.789e-3 179.194 0.438 -169.985 3.987e-3 -148.001
          0.85 10.705 4.059e-3 -146.65 0.173 23.74
8305.85 0.127 116.074 5.925e-3 174.816 0.853 6.302
          6.054e-3 175.011 0.442 -174.396 4.125e-3 -149.813
          0.852 6.355 4.02e-3 -151.856 0.179 18.905
8405.8 0.114 117.204 5.864e-3 170.915 0.848 1.786
          5.979e-3 170.485 0.445 -176.995 4.073e-3 -155.402
          0.846 1.693 4.115e-3 -157.477 0.183 11.247
8505.75 0.107 115.58 5.93e-3 168.524 0.847 -2.356
          5.981e-3 166.259 0.438 -179.318 4.015e-3 -160.7
          0.847 -2.454 4.072e-3 -160.421 0.191 3.632
8605.7 0.109 115.163 6.039e-3 163.23 0.852 -6.874
          5.99e-3 163.117 0.428 176.805 4.169e-3 -165.619
          0.849 -7.166 4.142e-3 -165.741 0.2 -3.879
8705.65 0.112 120.643 6.122e-3 158.882 0.844 -11.254
          6.19e-3 158.374 0.425 172.204 4.314e-3 -168.457
          0.843 -11.391 4.24e-3 -171.378 0.208 -9.428
8805.6 0.107 126.655 6.12e-3 154.853 0.848 -15.556
          6.2e-3 154.69 0.429 168.892 4.3e-3 -174.54
          0.848 -15.562 4.386e-3 -174.003 0.215 -16.33
8905.55 0.099 129.071 6.17e-3 150.325 0.844 -20.188
          6.311e-3 150.78 0.423 166.403 4.295e-3 -179.917
          0.844 -20.056 4.309e-3 -179.91 0.224 -22.076
9005.5 0.099 126.795 6.283e-3 146.21 0.846 -24.353
          6.272e-3 146.741 0.411 162.208 4.314e-3 174.557
          0.843 -24.154 4.381e-3 175.343 0.232 -27.276
9105.45 0.107 127.027 6.293e-3 142.131 0.842 -28.59
          6.292e-3 142.151 0.405 156.678 4.421e-3 170.344
          0.84 -28.734 4.366e-3 169.857 0.235 -32.433
9205.4 0.114 131.891 6.26e-3 138.938 0.842 -33.051
          6.252e-3 136.679 0.411 152.265 4.347e-3 165.487
          0.843 -32.914 4.366e-3 163.831 0.234 -36.776
9305.35 0.113 135.878 6.216e-3 133.92 0.845 -37.241
          6.301e-3 132.788 0.412 149.424 4.411e-3 160.525
          0.84 -37.128 4.426e-3 160.253 0.235 -42.035
9405.3 0.109 135.755 6.385e-3 128.955 0.844 -41.476
          6.4e-3 129.841 0.404 146.28 4.492e-3 155.445
          0.841 -41.47 4.432e-3 156.299 0.24 -48.883
9505.25 0.112 132.03 6.356e-3 124.396 0.843 -46.037
          6.257e-3 124.357 0.398 141.093 4.35e-3 149.474
          0.843 -46.038 4.424e-3 149.789 0.234 -54.006
9605.2 0.121 130.59 6.182e-3 120.862 0.842 -50.155
          6.206e-3 119.901 0.399 136.173 4.477e-3 145.219
          0.839 -50.327 4.454e-3 145.482 0.231 -58.984
9705.15 0.126 132.833 6.178e-3 116.751 0.84 -54.411
          6.059e-3 116.353 0.401 133.161 4.358e-3 138.979
          0.839 -54.374 4.361e-3 140.23 0.238 -65.455
9805.1 0.121 133.196 6.091e-3 111.492 0.844 -58.97
          5.975e-3 111.877 0.393 130.041 4.398e-3 136.033
          0.841 -58.903 4.282e-3 134.949 0.236 -72.156
9905.05 0.114 128.163 6.014e-3 107.81 0.841 -63.269
          5.946e-3 107.84 0.383 125.706 4.341e-3 132.074
          0.839 -63.052 4.33e-3 130.99 0.234 -76.752
10005 0.12 121.317 5.934e-3 104.754 0.838 -68.246
          5.984e-3 103.571 0.379 118.929 4.296e-3 126.22
          0.838 -68.328 4.416e-3 125.547 0.234 -81.309
10104.95 0.129 120.458 5.787e-3 102.126 0.842 -72.608
          5.962e-3 101.953 0.38 114.245 4.283e-3 122.371
          0.838 -72.542 4.291e-3 122.315 0.23 -84.948
10204.9 0.126 122.096 5.844e-3 98.085 0.84 -76.983
          5.984e-3 98.01 0.378 110.815 4.337e-3 118.837
          0.837 -77.023 4.215e-3 117.201 0.228 -91.586
10304.85 0.115 119.736 5.749e-3 94.825 0.841 -81.145
          5.786e-3 93.77 0.372 105.789 4.385e-3 113.508
          0.837 -81.129 4.447e-3 114.293 0.224 -96.722
10404.8 0.112 112.054 5.71e-3 90.872 0.84 -85.757
          5.685e-3 92.055 0.364 100.18 4.462e-3 108.263
          0.838 -85.51 4.428e-3 109.776 0.221 -100.117
10504.75 0.118 108.127 5.747e-3 86.523 0.838 -90.101
          5.832e-3 87.77 0.369 94.67 4.413e-3 104.768
          0.839 -90.071 4.438e-3 105.121 0.212 -105.743
10604.7 0.122 110.617 5.557e-3 83.522 0.841 -94.401
          5.756e-3 83.6 0.374 90.281 4.423e-3 99.445
          0.839 -94.152 4.511e-3 100.024 0.205 -111.427
10704.65 0.112 112.362 5.66e-3 80.295 0.839 -98.703
          5.617e-3 79.746 0.37 86.723 4.579e-3 93.786
          0.842 -98.768 4.576e-3 94.698 0.2 -119.698
10804.6 0.101 109.17 5.583e-3 77.651 0.845 -103.027
          5.483e-3 77.707 0.365 81.527 4.575e-3 90.176
          0.84 -103.256 4.534e-3 87.898 0.195 -126.839
10904.55 0.103 105.037 5.515e-3 75.382 0.843 -107.553
          5.625e-3 73.926 0.366 75.539 4.476e-3 84.598
          0.84 -107.509 4.647e-3 84.45 0.188 -131.599
11004.5 0.108 107.946 5.56e-3 71.393 0.845 -111.817
          5.475e-3 70.283 0.375 70.892 4.484e-3 80.162
          0.843 -112.162 4.571e-3 79.295 0.178 -138.848
11104.45 0.106 115.578 5.575e-3 68.372 0.841 -116.428
          5.634e-3 68.613 0.379 67.292 4.468e-3 75.906
          0.839 -116.465 4.606e-3 74.253 0.169 -149.613
11204.4 0.096 120.073 5.619e-3 65.042 0.842 -120.911
          5.593e-3 63.877 0.37 63.349 4.577e-3 68.21
          0.841 -120.877 4.496e-3 68.553 0.171 -160.702
11304.35 0.092 119.781 5.621e-3 60.983 0.843 -125.428
          5.568e-3 61.078 0.369 57.544 4.567e-3 63.931
          0.841 -125.357 4.569e-3 64.093 0.158 -165.556
11404.3 0.1 120.962 5.554e-3 56.37 0.842 -129.968
          5.555e-3 57.71 0.38 52.302 4.417e-3 59.117
          0.841 -129.896 4.47e-3 59.011 0.151 -174.075
11504.25 0.11 126.478 5.468e-3 52.607 0.843 -134.205
          5.656e-3 52.923 0.386 49.135 4.349e-3 53.204
          0.838 -134.419 4.376e-3 54.899 0.153 172.028
11604.2 0.115 132.518 5.797e-3 51.47 0.843 -138.874
          5.532e-3 51.529 0.381 45.79 4.355e-3 48.748
          0.838 -138.754 4.263e-3 49.193 0.156 160.42
11704.15 0.116 133.82 5.766e-3 46.985 0.838 -143.193
          5.666e-3 47.774 0.377 40.076 4.207e-3 44.831
          0.839 -143.379 4.348e-3 44.2 0.155 155.258
11804.1 0.123 131.583 5.868e-3 43.584 0.84 -147.744
