!Hittite Microwave Corporation								
!12 Elizabeth Drive								
!Chelmsford, MA 01824								
!Tel: 978-250-3343								
!Fax: 978-250-3373								
!Device: HMC344LP3, DC-8 GHz GaAs MMIC SP4T Non-Reflective Switch in Leadless LP3 SMT Package							
!Misc: Room Temp Vctl=-5V Port1=RFC, Port2=RF1, Port3=RF2, Port4=RF3, Port5=RF4, RF1 ON.								
!
# MHZ S MA R 50

10	1.158	29.606	0.157	-75.95	0.002488	33.968	0.007728	-6.355
	0.002581	106.272	0.155	-79.929	1.15	30.735	0.0002688	152.857
	0.005752	90.007	0.006993	55.934	0.024	81.967	0.016	74.164
	0.86	35.376	0.007852	-32.784	0.002389	-141.077	0.011	86.818
	0.012	68.618	0.019	-27.929	0.861	35.39	0.0069	-52.68
	0.011	86.714	0.009261	91.86	0.028	-39.333	0.02	-29.974
	0.862	35.416						
69.82	0.291	44.116	0.827	-17.108	0.0005682	123.118	0.0006029	153.779
	0.0007518	-79.096	0.825	-16.941	0.292	43.51	0.001028	99.27
	0.0008881	-74.527	0.00051	14.695	0.0002509	24.855	0.001001	148.172
	0.31	9.233	0.0008755	-68.108	0.0008582	-177.228	0.001443	-167.677
	0.000854	68.327	0.0004605	-60.495	0.314	8.607	0.0005305	-173.917
	0.0008478	17.934	0.001059	-121.794	0.002639	-97.322	0.001358	-162.323
	0.312	10.105						
129.641	0.194	30.03	0.845	-12.031	0.0002782	-176.174	0.0005745	18.534
	0.0005207	77.186	0.843	-11.94	0.193	29.361	0.0007262	94.756
	0.0001384	159.779	0.0003895	151.393	0.000351	32.476	0.000713	43.768
	0.307	-0.314	0.0000867	158.284	0.000395	19.145	0.000589	22.273
	0.0004256	58.933	0.00009648	103.497	0.306	-0.234	0.0002139	133.579
	0.0008281	101.274	0.0005242	-32.252	0.0004754	64.026	0.00009089	137.426
	0.305	-0.269						
189.461	0.163	17.287	0.844	-10.483	0.0001312	77.523	0.00021	19.812
	0.0004571	92.399	0.841	-10.313	0.162	15.772	0.0007416	79.676
	0.0001482	91.472	0.0001501	175.682	0.000103	66.411	0.0005797	80.575
	0.305	-6.172	0.0001419	154.211	0.0002568	49.762	0.0001371	-102.307
	0.00009677	147.425	0.0002009	53.973	0.305	-5.974	0.0003527	83.849
	0.0007336	70.053	0.0003754	173.158	0.0003354	53.64	0.0001606	128.56
	0.303	-6.104						
249.281	0.15	5.948	0.85	-10.442	0.0001447	66.271	0.0001469	46.998
	0.0006025	79.678	0.848	-10.262	0.149	4.225	0.0006723	73.865
	0.00008252	98.469	0.0002612	51.869	0.00009467	-11.697	0.0005202	96.913
	0.304	-11.171	0.0001931	50.853	0.0001703	1.275	0.0004895	75.715
	0.0004778	69.786	0.0002204	-27.504	0.304	-10.778	0.0005696	79.576
	0.0005416	80.832	0.0002327	58.882	0.00007798	-113.041	0.0005463	122.986
	0.304	-10.961						
309.102	0.145	-4.782	0.851	-11.061	0.0004516	137.476	0.0005124	162.082
	0.001087	71.551	0.846	-11.137	0.145	-6.229	0.0008647	103.402
	0.000501	21.775	0.0003599	95.623	0.0001442	-163.817	0.0003704	104.445
	0.307	-15.549	0.0001566	60.129	0.0001971	-126.432	0.000591	-18.827
	0.0003385	29.556	0.0003656	15.715	0.306	-15.193	0.0009197	57.694
	0.000829	126.904	0.0005589	-71.885	0.0004176	-94.473	0.001295	100.302
	0.305	-15.37						
368.922	0.142	-12.702	0.848	-11.866	0.0004087	-87.648	0.0003244	45.474
	0.001204	86.742	0.844	-11.926	0.143	-14.775	0.0009155	76.779
	0.0001264	25.973	0.0004945	139.598	0.0003956	106.427	0.0008277	81.55
	0.308	-19.745	0.0003036	73.73	0.000256	124.231	0.0006177	30.097
	0.0003074	-46.275	0.0004872	40.342	0.307	-19.161	0.0008234	79.047
	0.001107	51.522	0.0003346	-29.479	0.0005286	16.384	0.0009308	94.641
	0.306	-19.608						
428.743	0.142	-20.015	0.846	-12.839	0.0004491	-63.5	0.0002374	10.768
	0.001336	66.937	0.841	-12.879	0.143	-22.182	0.0007611	77.903
	0.0001728	140.532	0.0001869	128.641	0.0002073	116.999	0.000943	98.454
	0.311	-23.577	0.0004613	-107.722	0.0001756	21.039	0.0003392	-149.765
	0.0001858	-72.502	0.00017	47.169	0.308	-22.895	0.0008741	78.988
	0.001266	79.85	0.0006418	27.445	0.0001425	-136.739	0.0009763	63.603
	0.308	-23.409						
488.563	0.141	-27.028	0.85	-13.892	0.0002314	-90.501	0.0003746	62.421
	0.001377	87.248	0.845	-13.668	0.144	-29.061	0.001074	77.997
	0.0002451	137.709	0.0004068	70.963	0.00029	30.022	0.0009931	74.133
	0.313	-27.207	0.000429	49.945	0.0003084	-122.882	0.0002558	61.978
	0.0002164	63.097	0.0002861	151.32	0.31	-26.583	0.001089	93.783
	0.0008505	53.094	0.0005596	84.85	0.00008341	16.865	0.001074	98.816
	0.31	-27.076						
548.383	0.142	-33.455	0.846	-15.176	0.0001136	-48.019	0.0003216	46.674
	0.001387	77.069	0.844	-15.014	0.146	-35.398	0.0009157	81.938
	0.000248	99.1	0.0001771	35.372	0.0001871	149.01	0.001368	97.665
	0.314	-30.995	0.0002386	75.886	0.0004402	62.944	0.0003758	158.582
	0.0001655	50.764	0.00005617	74.158	0.312	-30.275	0.001417	76.192
	0.00167	77.817	0.0004107	52.123	0.0002902	132.817	0.001152	79.544
	0.312	-30.973						
608.204	0.145	-39.47	0.844	-16.39	0.0004139	-91.455	0.000313	84.338
	0.001627	76.984	0.84	-16.21	0.147	-41.207	0.001229	87.706
	0.0003765	40.732	0.0002709	6.365	0.0002702	-105.23	0.001279	80.355
	0.317	-34.565	0.000204	70.452	0.0001744	153.766	0.000134	57.733
	0.0003313	51.929	0.0003173	88.08	0.314	-33.99	0.001278	78.426
	0.001576	64.181	0.0003191	96.942	0.0001655	60.683	0.001382	75.702
	0.314	-34.546						
668.024	0.146	-44.612	0.843	-17.139	0.0001187	-87.416	0.0003286	59.021
	0.001737	78.132	0.838	-17.2	0.15	-46.577	0.001391	78.135
	0.00004526	-126.894	0.0003634	79.334	0.0003032	-5.479	0.001265	87.593
	0.321	-37.939	0.0004413	29.002	0.00007918	78.764	0.0004353	126.7
	0.00007815	174.866	0.0007686	65.802	0.316	-37.309	0.00128	72.737
	0.001685	80.729	0.0006553	76.164	0.0003155	102.77	0.001083	71.076
	0.318	-38.063						
727.844	0.145	-49.364	0.847	-18.783	0.0001228	176.677	0.0003751	109.39
	0.001885	69.015	0.845	-18.487	0.152	-51.437	0.001668	74.631
	0.0003155	87.505	0.000551	39.588	0.0001522	0.332	0.001202	70.525
	0.323	-41.346	0.0003021	71.619	0.0001464	63.062	0.0002856	68.077
	0.0001405	63.169	0.0004238	80.887	0.318	-40.719	0.001438	71.117
	0.001782	76.997	0.0003093	89.523	0.0004221	-131.508	0.001189	84.642
	0.319	-41.439						
787.665	0.147	-54.72	0.836	-20.178	0.0002985	-68.834	0.0002621	69.356
	0.002119	73.41	0.838	-20.3	0.156	-56.122	0.001528	85.654
	0.00008527	92.208	0.0004298	49.425	0.0002382	-79.301	0.001522	72.888
	0.326	-44.59	0.0004059	124.833	0.0002809	69.21	0.0004473	54.159
	0.0001889	71.081	0.00042	54.53	0.321	-43.8	0.001717	70.22
	0.001844	71.348	0.00009681	104.106	0.000279	89.68	0.001136	90.893
	0.323	-44.785						
847.485	0.148	-59.035	0.837	-20.924	0.0003933	-110.418	0.0001412	21.972
	0.001916	74.154	0.83	-20.921	0.157	-60.116	0.001547	89.837
	0.0001817	87.358	0.0001955	63.507	0.0001225	-153.146	0.001607	77.447
	0.329	-47.734	0.0004937	66.145	0.0001358	110.957	0.0002871	60.556
	0.0002574	32.268	0.0006815	69.141	0.324	-46.81	0.001467	75.069
	0.001895	75.887	0.0001767	36.02	0.0002767	53.875	0.001843	81.867
	0.326	-47.882						
907.305	0.149	-62.505	0.838	-22.533	0.0004501	-86.751	0.0004356	64.526
	0.002156	82.055	0.838	-22.093	0.158	-63.832	0.001845	80.108
	0.0000465	68.202	0.0003357	81.186	0.0003219	-106.03	0.002024	86.431
	0.332	-50.801	0.0003733	99.519	0.000282	74.823	0.0003087	41.749
	0.0002999	103.2	0.0003174	108.066	0.326	-49.96	0.001703	79.509
	0.002236	75.509	0.0003032	51.77	0.0001125	34.732	0.001567	84.237
	0.329	-51.018						
967.126	0.149	-66.18	0.832	-23.597	0.0003255	-93.879	0.0004401	68.157
	0.00241	81.379	0.831	-23.766	0.159	-67.641	0.001917	80.479
	0.00016	3.025	0.0003512	68.226	0.0002352	-77.1	0.001789	82.828
	0.335	-53.91	0.0004402	74.049	0.0003169	69.269	0.0002075	54.878
	0.0003105	85.557	0.0004962	69.415	0.328	-53.241	0.001885	72.849
	0.002472	78.293	0.0003487	50.092	0.0002443	63.987	0.001536	74.767
	0.331	-54.205						
1026.946	0.148	-69.811	0.835	-24.922	0.0002974	-86.027	0.0003301	96.58
	0.002257	74.097	0.829	-24.591	0.162	-71.225	0.002021	80.715
	0.0002548	64.907	0.0003567	58.712	0.000305	-77.202	0.002004	78.149
	0.339	-56.902	0.0004482	73.665	0.0002404	94.147	0.0002052	98.346
	0.0002388	137.324	0.0004904	61.313	0.332	-56.374	0.001963	76.488
	0.002414	72.429	0.000465	27.455	0.00009989	6.864	0.002069	74.974
	0.335	-57.263						
1086.766	0.15	-72.727	0.828	-26.344	0.000332	-42.491	0.0005192	76.23
	0.002359	74.37	0.829	-26.429	0.164	-74.427	0.002113	75.425
	0.0001494	60.03	0.0004435	37.196	0.000505	-64.925	0.001905	82.569
	0.342	-59.711	0.0003344	48.508	0.000211	102.01	0.0003213	73.901
	0.0001562	91.733	0.0004242	75.915	0.334	-59.343	0.002097	73.592
	0.002467	69.002	0.0003742	44.439	0.0004074	25.358	0.002259	74.182
	0.338	-60.249						
1146.587	0.15	-74.698	0.825	-27.155	0.0004342	-85.078	0.0002523	84.785
	0.002492	73.667	0.82	-27.161	0.164	-77.181	0.002093	80.543
	0.0002267	61.332	0.0002533	37.85	0.0004102	-93.561	0.002071	75.109
	0.344	-62.387	0.0006202	58.225	0.0003191	61.55	0.0004764	90.555
	0.0002346	102.546	0.0004344	46.258	0.336	-62.105	0.002042	79.068
	0.002668	72.777	0.0002242	49.165	0.0003195	1.263	0.002114	72.243
	0.34	-63.001						
1206.407	0.149	-76.91	0.829	-28.458	0.000386	-84.357	0.0003717	88.968
	0.002743	73.79	0.829	-28.298	0.164	-79.843	0.002105	76.971
	0.0001413	48.087	0.0003108	55.295	0.0003914	-85.403	0.002321	75.703
	0.347	-65.165	0.0004651	75.411	0.0002547	50.45	0.0005632	91.236
	0.0003671	57.419	0.0005489	53.004	0.338	-64.878	0.002286	75.529
	0.002769	72.792	0.0005019	49.982	0.0002206	86.7	0.002308	69.922
	0.343	-65.835						
1266.228	0.15	-79.24	0.824	-30.088	0.0004287	-83.991	0.0003678	79.442
	0.002853	70.871	0.825	-30.153	0.166	-82.245	0.002506	77.647
	0.0002194	62.688	0.0004178	46.682	0.0005841	-102.695	0.002429	73.092
	0.35	-67.751	0.0004536	81.192	0.0003416	86.427	0.0004714	100.83
	0.0000602	7.974	0.000257	39.847	0.341	-67.601	0.002268	71.728
	0.002835	75.18	0.0004539	33.883	0.0001899	125.914	0.002555	68.833
	0.347	-68.562						
1326.048	0.152	-81.51	0.816	-31.098	0.0003219	-97.084	0.0004338	90.98
	0.002927	70.867	0.813	-31.374	0.166	-84.554	0.002515	75.772
	0.0002503	73.54	0.0001901	24.461	0.0004193	-109.072	0.002517	74.58
	0.353	-70.147	0.0004724	56.599	0.0001759	43.822	0.0006169	80.46
	0.0002198	62.708	0.0004215	64.882	0.344	-70.093	0.00228	72.465
	0.002907	70.266	0.0003781	39.034	0.0003028	78.6	0.0024	72.248
	0.35	-70.959						
1385.868	0.153	-82.657	0.812	-31.906	0.0004344	-102.18	0.0006266	90
	0.003229	75.021	0.81	-31.796	0.165	-86.211	0.002497	80.243
	0.0002923	74.882	0.0003805	27.412	0.0004902	-113.966	0.002353	75.998
	0.357	-72.425	0.0005014	64.702	0.0002296	60.569	0.0004576	97.594
	0.0001653	17.796	0.0006719	77.057	0.348	-72.371	0.002411	72.299
	0.003103	72.042	0.0003059	26.339	0.0002655	66.442	0.002388	70.872
	0.354	-73.238						
1445.689	0.152	-83.508	0.818	-32.949	0.0005111	-91.3	0.0005606	91.27
	0.003354	72.452	0.816	-32.846	0.164	-87.844	0.002728	77.582
	0.000269	58.891	0.0004295	46.089	0.0005847	-118.546	0.002682	79.487
	0.359	-74.645	0.0005732	67.465	0.0002114	46.419	0.0003951	88.699
	0.0001981	82.439	0.000541	78.77	0.35	-74.645	0.002567	70.872
	0.003298	73.914	0.0003145	12.764	0.0003605	59.974	0.002527	71.737
	0.357	-75.53						
1505.509	0.153	-84.482	0.811	-34.66	0.0006498	-92.473	0.0005666	84.143
	0.003422	70.61	0.816	-34.422	0.164	-89.166	0.00264	77.615
	0.0002025	50.459	0.0003454	18.23	0.0007574	-97.534	0.002775	77.145
	0.363	-76.985	0.0005828	51.713	0.000257	88.201	0.0006483	68.351
	0.0002506	58.77	0.0005735	55.144	0.352	-77.053	0.002737	71.321
	0.003645	76.63	0.0004027	36.83	0.0004207	62.488	0.002681	68.587
	0.36	-77.976						
1565.329	0.153	-86.163	0.808	-34.778	0.001083	-101.849	0.0005323	76.533
	0.003545	73.375	0.808	-35.865	0.163	-90.67	0.002783	76.356
	0.0003573	23.341	0.0004236	31.472	0.0009623	-98.862	0.002872	78.074
	0.366	-79.275	0.000491	75.668	0.0003403	64.168	0.0007825	77.311
	0.0002957	56.386	0.000566	48.32	0.355	-79.442	0.002677	69.852
	0.003649	72.16	0.0003015	26.05	0.0003099	72.51	0.00278	67.909
	0.364	-80.374						
1625.15	0.155	-86.452	0.818	-36.449	0.0008487	-110.757	0.000541	66.593
	0.003809	72.311	0.804	-36.087	0.162	-91.657	0.003001	78.016
	0.0002713	39.047	0.0005507	11.667	0.001073	-108.568	0.003024	78.746
	0.37	-81.502	0.000579	68.012	0.0003928	71.113	0.0004844	80.315
	0.0003756	6.714	0.0005566	78.595	0.356	-81.812	0.002791	70.867
	0.00374	67.367	0.0005221	16.702	0.0003754	66.112	0.002846	69.164
	0.367	-82.767						
1684.97	0.156	-85.86	0.808	-37.703	0.001089	-115.862	0.0005833	96.162
	0.003666	71.031	0.817	-37.506	0.161	-92.343	0.002946	76.385
	0.0004357	30.703	0.0005015	27.201	0.001042	-108.638	0.003232	77.66
	0.372	-83.813	0.000674	70.329	0.0003632	106.609	0.0006013	85.517
	0.0002909	21.864	0.0006392	60.3	0.358	-84.328	0.002991	69.389
	0.003724	68.243	0.0004793	42.195	0.0003375	67.26	0.002849	71.474
	0.369	-85.142						
1744.79	0.156	-85.261	0.81	-38.547	0.001165	-120.923	0.0005426	94.625
	0.003809	71.371	0.807	-39.254	0.159	-93.488	0.003118	77.848
	0.0003698	33.603	0.0004883	-5.81	0.001185	-122.391	0.003061	82.067
	0.374	-86.064	0.0005634	65.374	0.0002629	76.153	0.0005491	84.614
	0.0003998	45.478	0.0005727	57.161	0.359	-86.76	0.003057	68.664
	0.003897	69.429	0.0003119	7.166	0.0003498	60.203	0.002674	70.82
	0.372	-87.632						
1804.611	0.161	-84.724	0.811	-39.795	0.001074	-123.869	0.0005077	99.936
	0.003961	72.231	0.806	-39.748	0.156	-94.692	0.003259	75.577
	0.0002895	10.375	0.0005044	2.5	0.0009657	-122.888	0.003231	79.855
	0.376	-88.103	0.0007217	68.504	0.0002832	59.251	0.0007033	75.381
	0.0003748	11.966	0.000589	64.114	0.361	-89.054	0.003035	69.096
	0.003964	72.768	0.0004352	32.793	0.0002831	87.298	0.00304	72.827
	0.374	-89.8						
1864.431	0.167	-85.478	0.809	-41.249	0.001095	-121.931	0.0007073	89.157
	0.004089	68.254	0.813	-41.001	0.152	-94.168	0.003477	77.768
	0.0003248	-8.195	0.0004641	4.363	0.001111	-125.745	0.00343	79.961
	0.378	-90.298	0.00067	61.752	0.0004191	65.051	0.0005465	74.446
	0.0002139	-4.905	0.0005299	57.519	0.362	-91.348	0.003124	67.249
	0.004003	71.519	0.0003648	21.471	0.0005503	80.026	0.002941	67.119
	0.376	-92.072						
1924.251	0.17	-85.706	0.808	-41.572	0.001056	-132.024	0.0006139	93.187
	0.004108	70.59	0.812	-42.551	0.149	-93.698	0.003458	79.247
	0.0003056	56.532	0.0005096	8.859	0.001138	-128.69	0.003661	80.536
	0.379	-92.461	0.0006653	55.073	0.0002959	52.947	0.0005889	82.748
	0.0002949	20.661	0.0005971	53.192	0.362	-93.681	0.003118	70.201
	0.004233	70.018	0.0004809	6.557	0.0003833	69.156	0.003245	66.912
	0.377	-94.29						
1984.072	0.174	-85.316	0.821	-43.632	0.001333	-129.562	0.0006904	83.666
	0.004463	67.264	0.807	-43.57	0.149	-93.004	0.003579	77.044
	0.0002839	47.186	0.0003891	-17.504	0.001228	-127.319	0.003565	81.362
	0.38	-94.539	0.0006427	68.258	0.0003589	78.846	0.0005521	81.709
	0.0001879	28.896	0.0006421	61.492	0.363	-95.858	0.003339	66.568
	0.004358	67.916	0.0003102	3.414	0.0003654	53.717	0.003205	66.909
	0.379	-96.486						
2043.892	0.178	-85.358	0.802	-44.886	0.001347	-130.224	0.0005783	82.861
	0.004167	68.211	0.812	-44.929	0.149	-92.258	0.003684	75.041
	0.0002504	20.229	0.0004393	-3.299	0.001182	-130.063	0.00396	75.793
	0.381	-96.427	0.0007811	62.008	0.0004081	64.814	0.0005933	81.007
	0.0003376	-25.228	0.0008294	57.372	0.363	-97.789	0.003265	64.035
	0.004604	68.412	0.0004325	-10.662	0.0004101	69.845	0.00345	64.428
	0.38	-98.4						
2103.713	0.185	-85.055	0.813	-45.435	0.001465	-134.59	0.0007823	84.248
	0.004717	69.478	0.798	-46.095	0.148	-90.59	0.003898	78.352
	0.000177	5.362	0.0003268	-36.445	0.001246	-130.387	0.003919	75.818
	0.381	-98.228	0.0007336	70.638	0.0005395	81.115	0.000776	92.24
	0.0002589	36.919	0.0006882	50.748	0.362	-99.688	0.003357	66.871
	0.004511	69.261	0.0001605	1.76	0.0003806	85.397	0.003326	66.352
	0.38	-100.334						
2163.533	0.193	-84.457	0.81	-47.273	0.001414	-136.288	0.0006777	88.659
	0.004702	67.989	0.814	-46.174	0.146	-89.148	0.004141	76.57
	0.0001558	19.505	0.0003251	-16.155	0.001367	-137.137	0.003882	78.092
	0.379	-100.223	0.0007203	61.839	0.0003919	90.928	0.0007218	87.208
	0.0002668	59.7	0.0007867	55.904	0.36	-101.762	0.003533	64.012
	0.004786	69.178	0.0001376	35.42	0.0005473	74.008	0.003645	66.818
	0.378	-102.298						
2223.353	0.2	-84.383	0.806	-48.192	0.001451	-138.152	0.0007028	86.892
	0.004756	67.24	0.82	-49.327	0.147	-88.189	0.004241	72.554
	0.0002518	37.249	0.0002952	-14.066	0.001417	-143.516	0.004245	75.273
	0.377	-102.166	0.0008872	53.823	0.0005726	71.622	0.0008337	87.902
	0.0002395	22.027	0.0008363	71.723	0.358	-104.113	0.003527	65.808
	0.004811	64.493	0.00035	-7.119	0.0005162	42.262	0.003686	60.474
	0.378	-104.527						
2283.174	0.207	-85.006	0.805	-49.278	0.00151	-137.972	0.0007885	94.075
	0.004777	66.127	0.794	-50.549	0.149	-87.519	0.00433	73.404
	0.0002342	50.228	0.0004438	-16.726	0.001633	-135.418	0.004061	74.317
	0.378	-104.16	0.0008018	58.815	0.0006931	69.853	0.0007716	97.055
	0.0001513	-102.752	0.0008922	63.332	0.357	-106.161	0.003721	62.457
	0.004662	63.621	0.0001526	-29.79	0.0004111	75.289	0.00369	63.776
	0.378	-106.594						
2342.994	0.216	-85.51	0.81	-50.523	0.001583	-138.015	0.0006878	87.907
	0.005004	65.539	0.791	-50.218	0.151	-86.203	0.004336	73.167
	0.000276	23.218	0.0003673	-47.562	0.001584	-133.008	0.004203	73.621
	0.377	-105.831	0.0009281	61.462	0.0004969	61.872	0.0009919	93.014
	0.0002376	51.525	0.00107	56.465	0.355	-108.156	0.003854	63.552
	0.004888	66.91	0.0001482	-41.548	0.0006031	69.284	0.003805	64.342
	0.377	-108.441						
2402.814	0.227	-85.745	0.806	-51.826	0.001662	-139.82	0.0009017	99.043
	0.005147	64.736	0.812	-50.664	0.152	-84.31	0.0045	72.926
	0.0001428	34.913	0.0003396	-31.614	0.001646	-150.731	0.004234	74.058
	0.374	-107.6	0.0007388	57.477	0.0006443	61.274	0.0008562	91.459
	0.000343	32.532	0.001004	51.699	0.352	-110.18	0.003964	62.734
	0.005243	67.035	0.0001323	-20.781	0.0003939	72.247	0.00399	63.738
	0.374	-110.379						
2462.635	0.239	-86.235	0.808	-53.104	0.001733	-144.505	0.0008606	86.754
	0.005122	63.796	0.824	-53.968	0.154	-83.119	0.004596	70.539
	0.0001262	35.027	0.0003405	-35.497	0.001863	-148.735	0.004678	71.617
	0.371	-109.499	0.0008452	49.309	0.0005802	70.727	0.0006942	100.715
	0.0002319	-26.381	0.0009762	46.27	0.349	-112.333	0.003944	61.688
	0.005213	66	0.0003515	-4.511	0.0003947	79.894	0.003858	59.213
	0.373	-112.379						
2522.455	0.247	-87.646	0.795	-54.21	0.001895	-149.884	0.0008827	92.043
	0.005183	63.863	0.798	-55.537	0.156	-82.271	0.004495	70.881
	0.0002996	46.942	0.0002313	-51.308	0.001626	-149.56	0.004619	71.77
	0.369	-111.347	0.0008877	56.036	0.0005119	62.491	0.0008424	81.852
	0.0001778	-13.439	0.001023	46.006	0.347	-114.455	0.00383	62.661
	0.005162	63.922	0.0002853	-46.904	0.0005737	56.27	0.00391	61.011
	0.372	-114.411						
2582.275	0.257	-89.097	0.81	-54.547	0.001812	-150.076	0.0009887	93.7
	0.005523	64.852	0.788	-55.844	0.16	-81.277	0.004808	71.184
	0.000209	35.365	0.0002986	-57.161	0.001754	-148.777	0.004754	67.698
	0.367	-113.193	0.0009533	42.843	0.0005433	63.252	0.0008014	82.044
	0.0003996	23.68	0.0009362	53.912	0.344	-116.35	0.00413	61.061
	0.005065	63.173	0.0003743	-57.491	0.0006258	47.47	0.003885	63.33
	0.371	-116.222						
2642.096	0.266	-90.319	0.807	-56.961	0.001845	-146.303	0.000976	85.545
	0.005569	63.334	0.796	-55.351	0.164	-79.98	0.004678	67.488
	0.0002286	69.271	0.0001043	-39.237	0.00208	-147.829	0.004796	68.833
	0.363	-114.844	0.0009808	56.339	0.0004861	59.755	0.0009419	91.604
	0.0003305	68.925	0.001149	53.489	0.34	-118.075	0.004234	60.16
	0.005376	65.951	0.0003199	-27.475	0.000636	56.312	0.00405	64.569
	0.367	-117.847						
2701.916	0.277	-91.438	0.803	-57.419	0.002078	-154.089	0.001209	90.514
	0.005574	64.504	0.822	-58.034	0.168	-79.345	0.004893	67.556
	0.0002761	68.4	0.0002869	-47.146	0.002108	-151.505	0.004988	68.009
	0.359	-116.647	0.0008052	52.28	0.000632	48.506	0.001023	86.229
	0.0002363	93.741	0.001072	47.996	0.335	-120.013	0.004272	62.763
	0.005796	63.253	0.0003681	-71.088	0.0006608	41.377	0.004309	58.829
	0.363	-119.628						
2761.737	0.286	-92.959	0.804	-59.164	0.002097	-154.207	0.001036	78.652
