! Hittite Microwave Corporation
! 20 Alpha Road
! Chelmsford, MA 01824
! Tel: 978-250-3343
! Fax: 978-250-3373
! Device: HMC321LP4, DC-8.0 GHz, GaAS MMIC SP8T Non-Reflective Positive 
!         Control Switch in Low Cost Leadless SMT Package
! Misc: Data was de-embedded to package pins.
!       Port 1 = RFC
!       Port 2 = RF1    Port 6 = RF5
!       Port 3 = RF2    Port 7 = RF6
!       Port 4 = RF3    Port 8 = RF7
!       Port 5 = RF4    Port 9 = RF8
!          Vee = +5 V
!         Vctl =  0 V[Logic 0] / +5 V[Logic 1]
!
!  RF1 Selected,  VA = 0,  VB = 0,  VC = 0
!
!  Data reformated to new Touchstone file format - Fri Jan 12 11:42:37 2007
!
# MHz S DB R 50
! 9 Port Network Data
! freq  dbS11  angS11  dbS12  angS12  dbS13  angS13  dbS14  angS14  
!       dbS15  angS15  dbS16  angS16  dbS17  angS17  dbS18  angS18  
!       dbS19  angS19  
!       dbS21  angS21  dbS22  angS22  dbS23  angS23  
!       dbS24  angS24  dbS25  angS25  dbS26  angS26  dbS27  angS27  
!       dbS28  angS28  dbS29  angS29  
!       dbS31  angS31  dbS32  angS32  
!       dbS33  angS33  dbS34  angS34  dbS35  angS35  dbS36  angS36  
!       dbS37  angS37  dbS38  angS38  dbS39  angS39  
!       dbS41  angS41  
!       dbS42  angS42  dbS43  angS43  dbS44  angS44  dbS45  angS45  
!       dbS46  angS46  dbS47  angS47  dbS48  angS48  dbS49  angS49  
!       dbS51  angS51  dbS52  angS52  dbS53  angS53  dbS54  angS54  
!       dbS55  angS55  dbS56  angS56  dbS57  angS57  dbS58  angS58  
!       dbS59  angS59  
!       dbS61  angS61  dbS62  angS62  dbS63  angS63  
!       dbS64  angS64  dbS65  angS65  dbS66  angS66  dbS67  angS67  
!       dbS68  angS68  dbS69  angS69  
!       dbS71  angS71  dbS72  angS72  
!       dbS73  angS73  dbS74  angS74  dbS75  angS75  dbS76  angS76  
!       dbS77  angS77  dbS78  angS78  dbS79  angS79  
!       dbS81  angS81  
!       dbS82  angS82  dbS83  angS83  dbS84  angS84  dbS85  angS85  
!       dbS86  angS86  dbS87  angS87  dbS88  angS88  dbS89  angS89  
!       dbS91  angS91  dbS92  angS92  dbS93  angS93  dbS94  angS94  
!       dbS95  angS95  dbS96  angS96  dbS97  angS97  dbS98  angS98  
!       dbS99  angS99  
!     
                54       -14.1106755               1.25        -2.05845994             -1.415        -62.7252179             60.823        -62.7585656             75.212
                      -72.4977063            114.557        -74.1593113              9.549        -70.6006158              46.46        -77.3037126            -29.827
                       -66.210271             -42.88
                      -2.04745817             -1.339        -13.6805931              0.898        -72.5823397             77.138        -66.1237029            -22.567
                      -74.4157897            -114.51        -70.1419998           -141.455        -67.9609719            161.445        -68.1586866             -8.757
                      -66.3372574             64.689
                      -64.2083858            141.922        -69.4991039             49.583       -0.175478486             -8.162        -64.6896091            161.904
                      -65.0953803             70.732        -66.9608786            128.929        -65.6449261           -155.221        -72.2308709            -96.677
                      -68.8474502           -154.963
                       -64.972878            115.139         -61.712079            123.691        -67.0210964              6.267       -0.175478486             -8.206
                      -78.1245644            122.618        -65.8895677             47.787        -71.2862972           -152.981        -64.3534146           -134.294
                      -66.3824165            132.329
                      -64.8931763            -35.675        -63.1166718              6.833        -65.7352308            -83.784         -60.550389               7.92
                     -0.184346164             -8.364        -66.0049794           -139.699        -70.3969855             58.671         -65.321617            -104.96
                      -64.5844321              70.73
                      -66.3156641           -105.571        -73.6931905            153.756        -64.9621062            -87.407        -71.0135181             -3.446
                      -65.9720946            123.018       -0.184346164             -8.374        -73.1633989             57.159        -63.7377249            -52.964
                       -64.351981             16.742
                      -61.3474811            -32.306        -68.4985535             85.799        -66.1783702            -53.516        -73.1318281             36.623
                      -66.2833745           -115.182        -62.4157879            -13.368       -0.184346164             -8.146        -77.6016918            153.288
                      -69.6534424            157.322
                      -73.0846861             152.21        -67.1983254            -19.275        -66.2762153            139.906        -62.3848711             11.406
                       -72.334467            122.965        -76.3688445            -74.973        -61.0434863             33.848       -0.184346164             -8.262
                      -69.4602986            -94.489
                      -68.2682539             53.937        -70.2148966             34.832        -66.2529886            177.339        -68.8522624            -92.005
                      -70.4402205            -28.107        -67.4301779            -73.755        -62.5837315             25.617        -66.9647511            -52.569
                     -0.175478486             -8.222

             98.73       -14.0229385              1.305        -2.05845994             -2.593         -68.898111             60.411        -68.8763631             61.412
                       -73.676398             70.044        -69.6613638           -165.639        -79.6093663              31.55         -75.540471             40.617
                      -75.1144576            130.462
                      -2.02549637             -2.532        -13.6387333              1.729        -67.5288122             77.852         -72.174239            148.395
                      -76.8872073               9.11        -75.5041609            -98.542        -77.0279469             15.339        -78.9384311            -25.416
                      -69.1012847              47.11
                      -67.2102702             68.623         -70.268557             61.788       -0.528207531            -14.336        -72.8298818             15.129
                      -75.2240287             34.995         -74.567814           -166.595        -79.0233983             -5.244        -75.9121734            173.199
                      -71.3695083              65.77
                      -77.6877898            127.597        -67.4383548             94.063        -66.4496859             12.614       -0.518981944            -14.428
                      -68.3587327             -1.706        -70.1755685           -167.633        -79.9653257           -135.542        -76.3118503             -1.256
                       -76.577177            126.726
                      -69.8428826             27.159        -80.6294071            -92.617        -73.6053901            -30.709        -72.8222759              40.67
                     -0.518981944            -14.819        -73.3755044            -14.904        -77.4190988           -147.467         -77.457904            -87.052
                      -71.9238678             90.629
                      -79.1958674            -80.785        -67.8723727            -58.482        -72.9602109            -81.201        -78.3874703            -79.495
                       -75.179037             51.654       -0.509766145            -14.788        -71.8013375             82.859        -74.3702422            -70.292
                      -73.9274405            128.158
                      -76.1709797             50.166        -75.3859137            164.988        -71.3406142             77.697        -72.4721112             -8.224
                      -70.1867869            -60.981        -68.1520231             11.446       -0.500560114            -14.406        -77.9513259             81.494
                       -83.059658            147.832
                      -75.5352745              61.33        -71.4502778           -134.117        -71.2007213           -115.552         -77.721133              1.655
                      -85.0844556           -150.585         -71.238651            -54.061        -66.8092819               7.66       -0.518981944            -14.484
                      -72.4429516             95.368
                      -70.7850492             70.019        -72.1848294             51.552         -73.424256             12.267        -76.0764763             40.519
                      -73.7776431              83.41        -71.8691964             -2.892        -74.5122241            122.087        -77.7680295             55.316
                     -0.528207531            -14.426

            143.46       -14.0229385              1.522        -2.05845994             -3.491        -66.4936003             53.139        -76.8811396            120.927
                      -79.7940009             86.951        -79.7685911             50.014        -74.6942075             37.967         -75.766912             24.847
                      -71.7912043             56.872
                      -2.03647033             -3.441        -13.6387333              2.404        -65.4524286             82.682        -72.7805623             80.019
                      -68.4685663             96.935        -72.1390307            102.053        -77.5491295            -21.537         -98.861903             -2.294
                       -75.055269              76.86
                      -68.7541427              0.267        -65.1423566             78.604       -0.992702912            -19.731        -69.7864194             18.567
                      -73.5267093             -6.817        -81.9251812            102.881        -74.5910818             37.906        -72.0551084            -63.243
                      -79.9307894            149.744
                      -77.7680295            140.577        -76.4435006            136.308        -73.6137139             77.396       -0.963539294            -19.905
                       -73.274809             73.683        -74.1548786              72.23        -78.4671911             -15.09         -81.008297           -168.056
                      -74.1504481             -22.27
                      -68.5938123            120.574        -68.7446291             56.952        -77.9307676            -60.499        -65.1785446             84.591
                     -0.973249624            -20.472        -80.3554802           -159.362        -84.6035948             89.594        -84.9360017           -145.716
                      -76.1041648            -60.365
                      -74.0142133             47.275        -72.0446749            -90.647         -71.273566           -131.683        -69.5328759            140.138
                      -71.6074928            -48.191       -0.963539294            -20.462        -68.4363878             62.988        -76.4550433             77.791
                      -77.0526578            154.123
                      -84.9990938            119.601        -76.6773206            132.372        -71.2767471            120.282        -83.7845998            130.329
                      -79.6010664            -85.372        -67.7719072             95.608       -0.963539294            -19.905        -74.6237619             47.002
                      -87.1487313            -11.363
                      -70.6330534              9.949        -81.3302542            -19.716        -85.8520034            101.989         -86.682754             32.853
                      -80.4455279             40.824        -81.0014711            -84.042        -67.2262223             54.071       -0.982970822            -19.945
                      -65.0828961             76.193
                       -69.671937             86.104        -70.9489387             27.561        -80.2699397            136.187        -75.7190264             -33.52
                      -74.8897257            -42.233        -72.5675615             77.404        -77.2592509            111.161        -73.6178788            126.829
                     -0.992702912            -19.821

            188.19       -13.9794001              1.702        -2.06947565             -4.421        -65.4102246             44.715        -68.9636836             48.373
                       -71.906746            127.501         -77.503397            -39.392        -80.8968323             -1.949        -81.5351196            148.309
                      -72.9872878             78.272
                      -2.04745817             -4.352        -13.5970743              2.881        -66.2067207             89.463        -67.1408224             78.588
                      -74.4203577              79.31        -99.5102866            -30.196        -74.6097411             28.608        -77.1584708             30.093
                      -71.5449212            -14.182
                      -64.2182617             44.412        -63.1765661             88.556        -1.55587445            -24.223        -69.8455805             30.238
                      -82.7920419            110.172        -79.3395711            -96.949        -88.8956919            167.988        -78.1315663            -80.419
                      -82.9114499            -51.677
                      -73.9015768             92.938        -69.9952705             87.634        -71.9033257             77.986        -1.52476078            -24.528
                      -64.9836631             58.912        -73.1239533             51.067        -77.4062022            -92.652        -80.1568858           -126.147
                      -75.5717152              87.11
                       -74.009854             73.004         -72.887139             94.097        -88.2795124             44.247        -67.3569303             67.335
                      -1.53511963            -25.227        -73.2308701             61.263         -81.836736           -142.982        -77.9102578            115.628
                       -76.577177            105.526
                       -76.137508           -153.623        -76.2665227             -0.198        -82.8244453             84.457        -86.3138671            -28.831
                      -83.1166718           -175.969        -1.51441428            -25.273        -68.7803589             88.513         -76.351707            144.755
                      -74.1504481             70.125
                      -74.5076076            104.218        -77.6811365            103.034        -77.4190988             28.712        -87.7591651           -128.655
                      -83.3574891             32.965        -67.7953165             96.934        -1.51441428            -24.608        -70.6537587             21.569
                      -81.7917812             41.336
                      -85.4118441             139.32        -80.8373265            -175.96         -75.815063             27.733         -76.542106            -38.897
                      -80.1630789            -66.489         -78.861903             57.703        -70.7640288             46.195        -1.53511963            -24.515
                      -68.3906243            104.997
                      -67.0016256             72.117        -68.4754773             29.046        -77.1584708            -42.842        -76.7786323           -171.629
                      -80.0182595           -128.308        -79.3961043             47.646         -72.237976             117.37        -68.7161508             85.431
                      -1.55587445             -24.29

            232.92       -13.9360789              1.854        -2.05845994             -5.345        -67.3366929             70.101        -67.7889259             53.887
                      -72.8222759             72.787        -77.4062022             23.737        -73.9404013             88.056        -78.7408433             79.041
                      -66.3444671               67.6
                      -2.03647033             -5.285        -13.5970743              3.337        -62.2386577             87.885        -69.3908831             56.159
                      -79.0622962             39.642        -87.7570432             -9.599        -79.9307894            -58.418        -75.2140104             58.373
                      -71.0630458             29.416
                      -67.0016256             49.999         -61.048385             90.448        -2.16925085            -27.681        -69.6984265             82.989
                      -74.5817672             122.73        -77.9307676            -60.781        -79.6593332             49.283        -77.3037126             25.199
                      -90.3511042            -42.392
                      -73.8372524             73.187        -72.3668703             63.149        -70.7940735             65.349        -2.11367875            -28.187
                      -65.1549266            106.333         -80.932539             -1.016        -73.3310545             -92.94        -75.4628486             99.802
                         -83.2938           -161.848
                      -75.8526993             59.452        -70.8423621            109.874        -78.2160327           -162.971        -66.3444671             89.087
                      -2.14697932            -28.942        -78.1948389             147.01        -84.2253228           -128.121         -78.322784            -19.945
                      -76.9176095            -42.472
                      -73.1594462            122.711        -84.3634569               66.4        -78.0548538            -47.729        -74.9138734             -12.97
                       -80.199442           -119.873        -2.12476476            -29.057        -67.5660908             78.132        -76.7427401            131.319
                      -78.2799259            138.324
                       -74.212681             77.097        -86.8168944           -176.079        -74.8320439              0.176        -76.3688445             95.358
                      -102.335859            101.542        -66.3192593             96.702        -2.11367875            -28.275         -70.061407             77.308
                       -76.972603             37.886
                      -75.9556845            110.188        -72.2486444             57.319        -73.8031399            140.287        -72.4030164            -58.339
                      -81.7046773              1.489         -84.577073            152.908        -67.6160457             68.473        -2.14697932            -28.092
                        -64.49799             86.882
                      -71.2354838            100.265        -67.2883147             18.677         -82.355203            109.518        -79.3154548            158.262
                      -85.1360784             11.409        -86.7128025            -74.543        -80.2413147            116.462        -65.4410458             90.733
                      -2.16925085            -27.736

            277.65       -13.9360789              1.941        -2.08050535             -6.244        -64.1018779             43.465        -67.9783654             48.511
