!Hittite Microwave Corporation								
!12 Elizabeth Drive								
!Chelmsford, MA 01824							
!Tel: 978-250-3343								
!Fax: 978-250-3373								
!Device: HMC313, DC-6 GHz HBT Broadband Amplifier Gain Block
!Misc: Vcc=5V, Room							
!								
# MHZ S MA R 50

50 0.561 -1.684 6.408 -0.513 0.038 0.677 0.412 178.438
99.75 0.562 -3.23 6.405 -0.849 0.038 1.786 0.411 177.173
149.5 0.563 -4.764 6.401 -1.185 0.038 2.895 0.41 175.895
199.25 0.564 -6.443 6.397 -1.358 0.038 3.847 0.409 174.807
249 0.565 -8.098 6.392 -1.53 0.038 4.8 0.408 173.694
298.75 0.566 -9.477 6.412 -1.823 0.038 6.022 0.405 172.483
348.5 0.566 -10.825 6.432 -2.115 0.038 7.245 0.403 171.235
398.25 0.567 -12.325 6.426 -2.361 0.038 8.359 0.402 170.092
448 0.568 -13.785 6.42 -2.605 0.037 9.475 0.401 168.9
497.75 0.569 -15.118 6.45 -2.908 0.037 10.662 0.4 167.663
547.5 0.57 -16.408 6.481 -3.209 0.037 11.851 0.399 166.37
597.25 0.571 -17.812 6.452 -3.511 0.037 12.869 0.398 165.001
647 0.573 -19.167 6.423 -3.81 0.037 13.89 0.398 163.57
696.75 0.574 -20.441 6.472 -3.912 0.037 15.298 0.397 162.178
746.5 0.575 -21.668 6.521 -4.012 0.037 16.708 0.396 160.724
796.25 0.576 -22.922 6.518 -4.479 0.037 17.786 0.396 159.156
846 0.577 -24.13 6.515 -4.945 0.037 18.865 0.396 157.523
895.75 0.577 -25.194 6.524 -4.882 0.037 20.313 0.396 155.881
945.5 0.576 -26.218 6.533 -4.819 0.037 21.761 0.396 154.183
995.25 0.577 -27.196 6.546 -5.503 0.037 22.282 0.398 152.292
1045 0.577 -28.137 6.56 -6.189 0.037 22.801 0.4 150.352
1094.75 0.577 -29.039 6.532 -5.969 0.037 24.251 0.402 148.472
1144.5 0.577 -29.914 6.503 -5.75 0.037 25.7 0.403 146.559
1194.25 0.577 -30.991 6.578 -6.586 0.037 26.344 0.406 144.552
1244 0.576 -32.048 6.652 -7.424 0.038 26.986 0.409 142.528
1293.75 0.575 -32.971 6.632 -7.558 0.037 28.707 0.412 140.568
1343.5 0.574 -33.883 6.613 -7.693 0.037 30.427 0.416 138.608
1393.25 0.572 -34.772 6.728 -7.983 0.037 31.847 0.42 136.55
1443 0.57 -35.662 6.843 -8.276 0.037 33.264 0.424 134.514
1492.75 0.57 -36.349 6.791 -8.703 0.037 34.222 0.43 132.42
1542.5 0.569 -37.046 6.738 -9.131 0.036 35.179 0.436 130.364
1592.25 0.568 -38.056 6.832 -8.797 0.036 36.183 0.442 128.487
1642 0.566 -39.092 6.926 -8.466 0.037 37.184 0.448 126.661
1691.75 0.566 -39.982 6.887 -9.435 0.037 37.885 0.455 124.438
1741.5 0.565 -40.903 6.849 -10.405 0.037 38.585 0.463 122.285
1791.25 0.561 -42.019 6.892 -9.842 0.036 39.083 0.47 120.507
1841 0.556 -43.18 6.935 -9.281 0.036 39.579 0.478 118.8
1890.75 0.554 -44.129 6.989 -10.783 0.036 41.847 0.486 117.023
1940.5 0.551 -45.127 7.043 -12.285 0.036 44.115 0.494 115.321
1990.25 0.55 -46.002 7.142 -11.981 0.035 44.434 0.502 113.633
2040 0.549 -46.929 7.241 -11.675 0.035 44.755 0.51 112.02
2089.75 0.55 -48.144 7.301 -12.597 0.035 46.743 0.518 110.351
2139.5 0.551 -49.424 7.362 -13.518 0.035 48.732 0.525 108.758
2189.25 0.547 -50.95 7.353 -13.573 0.035 49.082 0.534 107.274
2239 0.544 -52.551 7.344 -13.63 0.035 49.43 0.542 105.855
2288.75 0.537 -54.032 7.427 -14.378 0.034 50.927 0.55 104.445
2338.5 0.531 -55.586 7.51 -15.126 0.033 52.424 0.557 103.094
2388.25 0.527 -56.906 7.54 -16.151 0.034 54.114 0.567 101.881
2438 0.523 -58.291 7.571 -17.173 0.034 55.807 0.575 100.712
2487.75 0.523 -59.817 7.644 -18.017 0.033 57.568 0.584 99.414
2537.5 0.523 -61.402 7.717 -18.859 0.032 59.331 0.591 98.152
2587.25 0.522 -63.462 7.797 -19.681 0.033 60.489 0.6 96.93
2637 0.522 -65.585 7.878 -20.504 0.033 61.646 0.608 95.732
2686.75 0.518 -67.674 7.821 -20.672 0.032 63.033 0.616 94.437
2736.5 0.514 -69.816 7.765 -20.837 0.032 64.423 0.623 93.156
2786.25 0.508 -71.511 7.877 -21.836 0.032 65.274 0.63 91.842
2836 0.501 -73.239 7.99 -22.828 0.032 66.132 0.637 90.528
2885.75 0.499 -74.926 7.837 -23.8 0.033 68.26 0.645 89.232
2935.5 0.496 -76.628 7.686 -24.767 0.033 70.393 0.652 87.923
2985.25 0.496 -78.414 7.743 -25.659 0.033 71.721 0.659 86.537
3035 0.496 -80.201 7.802 -26.55 0.032 73.05 0.664 85.13
3084.75 0.495 -82.522 7.799 -27.875 0.032 75.03 0.67 83.716
3134.5 0.496 -84.826 7.796 -29.198 0.031 77.012 0.676 82.27
3184.25 0.492 -86.963 7.943 -28.958 0.031 78.267 0.68 80.893
3234 0.489 -89.073 8.09 -28.717 0.031 79.523 0.684 79.473
3283.75 0.485 -91.033 8.205 -29.847 0.031 80.823 0.688 77.929
3333.5 0.482 -92.953 8.322 -30.976 0.03 82.124 0.691 76.335
3383.25 0.481 -94.5 8.242 -31.001 0.031 83.434 0.694 74.779
3433 0.481 -95.998 8.163 -31.028 0.031 84.742 0.697 73.166
3482.75 0.481 -97.827 8.192 -31.983 0.031 86.252 0.7 71.497
3532.5 0.481 -99.596 8.223 -32.94 0.031 87.76 0.703 69.769
3582.25 0.482 -101.803 8.181 -33.881 0.031 89.974 0.705 68.099
3632 0.483 -103.935 8.139 -34.822 0.031 92.188 0.707 66.371
3681.75 0.48 -106.057 8.286 -35.862 0.031 94.103 0.708 64.647
3731.5 0.478 -108.106 8.433 -36.902 0.03 96.018 0.71 62.867
3781.25 0.474 -109.933 8.451 -38.695 0.03 97.96 0.71 61.105
3831 0.47 -111.697 8.469 -40.489 0.03 99.901 0.71 59.296
3880.75 0.467 -113.3 8.557 -41.274 0.03 101.631 0.71 57.513
3930.5 0.465 -114.844 8.645 -42.058 0.03 103.362 0.71 55.689
3980.25 0.462 -116.591 8.668 -43.053 0.03 104.882 0.711 53.812
4030 0.46 -118.284 8.69 -44.046 0.03 106.404 0.711 51.905
4079.75 0.457 -120.432 8.664 -45.123 0.03 108.322 0.711 50.061
4129.5 0.454 -122.529 8.638 -46.196 0.03 110.244 0.711 48.199
4179.25 0.448 -124.786 8.65 -47.813 0.03 112.062 0.711 46.312
4229 0.441 -127.007 8.662 -49.427 0.03 113.883 0.711 44.417
4278.75 0.434 -129.097 8.614 -50.77 0.03 115.88 0.709 42.643
4328.5 0.426 -131.169 8.565 -52.109 0.031 117.881 0.707 40.873
4378.25 0.42 -133.249 8.517 -53.539 0.031 119.721 0.706 39.142
4428 0.414 -135.327 8.468 -54.963 0.031 121.567 0.705 37.425
4477.75 0.408 -137.352 8.41 -56.293 0.031 123.457 0.704 35.684
4527.5 0.402 -139.392 8.351 -57.617 0.032 125.353 0.703 33.967
4577.25 0.397 -141.809 8.279 -58.864 0.032 127.111 0.702 32.242
4627 0.39 -144.256 8.205 -60.104 0.032 128.876 0.701 30.549
4676.75 0.383 -146.669 8.11 -61.094 0.033 130.506 0.699 28.898
4726.5 0.376 -149.128 8.015 -62.078 0.033 132.142 0.697 27.283
4776.25 0.368 -151.738 7.949 -63.286 0.033 133.659 0.695 25.712
4826 0.36 -154.409 7.883 -64.488 0.034 135.182 0.692 24.181
4875.75 0.353 -156.859 7.77 -65.635 0.034 136.735 0.69 22.694
4925.5 0.346 -159.377 7.657 -66.775 0.034 138.295 0.688 21.247
4975.25 0.342 -161.847 7.582 -67.695 0.035 139.825 0.684 19.802
5025 0.337 -164.38 7.507 -68.61 0.035 141.36 0.68 18.395
5074.75 0.333 -167.024 7.405 -69.822 0.036 142.818 0.678 16.876
5124.5 0.33 -169.722 7.303 -71.03 0.036 144.28 0.675 15.389
5174.25 0.327 -172.524 7.233 -71.571 0.036 145.869 0.671 13.975
5224 0.324 -175.359 7.164 -72.11 0.037 147.46 0.666 12.585
5273.75 0.322 -178.452 7.125 -73.406 0.037 148.354 0.662 11.147
5323.5 0.319 178.439 7.086 -74.7 0.038 149.25 0.657 9.727
5373.25 0.318 176.047 6.896 -75.571 0.038 150.819 0.654 8.387
5423 0.317 173.659 6.706 -76.442 0.038 152.388 0.649 7.052
5472.75 0.317 171.099 6.715 -77.068 0.039 152.942 0.642 5.647
5522.5 0.318 168.576 6.725 -77.698 0.039 153.492 0.634 4.238
5572.25 0.321 166.804 6.474 -78.725 0.039 154.74 0.629 2.68
5622 0.324 165.073 6.222 -79.759 0.039 155.981 0.624 1.1
5671.75 0.328 162.855 6.261 -80.398 0.04 157.212 0.616 -0.414
5721.5 0.333 160.716 6.302 -81.045 0.04 158.435 0.607 -1.959
5771.25 0.335 159.113 6.143 -82.533 0.04 159.697 0.6 -3.713
5821 0.338 157.576 5.984 -84.033 0.041 160.947 0.593 -5.519
5870.75 0.341 156.011 5.963 -84.225 0.041 162.065 0.583 -7.094
5920.5 0.344 154.529 5.941 -84.429 0.042 163.171 0.573 -8.73
5970.25 0.347 153.437 5.809 -86.005 0.043 163.825 0.563 -10.594
6020 0.35 152.41 5.675 -87.596 0.043 164.464 0.554 -12.533
6069.75 0.354 151.443 5.582 -86.912 0.043 165.913 0.545 -14.46
6119.5 0.358 150.548 5.487 -86.24 0.043 167.35 0.535 -16.476
6169.25 0.363 149.72 5.448 -88.087 0.043 168.678 0.526 -18.635
6219 0.368 148.955 5.408 -89.948 0.043 169.992 0.516 -20.895
6268.75 0.371 148.297 5.238 -89.657 0.043 170.293 0.508 -23.199
6318.5 0.373 147.702 5.066 -89.379 0.043 170.581 0.5 -25.608
6368.25 0.377 147.063 5.037 -90.299 0.043 171.701 0.489 -27.776
6418 0.38 146.482 5.008 -91.226 0.043 172.814 0.478 -30.043
6467.75 0.38 146.11 4.824 -91.283 0.044 172.702 0.472 -32.495
6517.5 0.381 145.792 4.638 -91.349 0.044 172.581 0.466 -35.04
6567.25 0.383 145.884 4.61 -90.923 0.045 174.107 0.457 -37.514
6617 0.386 146.011 4.58 -90.502 0.045 175.628 0.449 -40.077
6666.75 0.386 145.792 4.417 -92.132 0.045 176.623 0.445 -42.685
6716.5 0.386 145.616 4.254 -93.766 0.046 177.614 0.441 -45.351
6766.25 0.389 145.641 4.275 -93.222 0.046 179.018 0.434 -47.932
6816 0.39 145.69 4.295 -92.676 0.046 -179.576 0.428 -50.564
6865.75 0.389 145.433 4.216 -94.654 0.046 -178.134 0.423 -53.263
6915.5 0.386 145.211 4.136 -96.629 0.046 -176.689 0.419 -55.981
6965.25 0.383 145.332 4.117 -95.528 0.045 -175.998 0.418 -58.404
7015 0.38 145.48 4.098 -94.426 0.045 -175.306 0.419 -60.803
7064.75 0.376 145.777 4.156 -95.628 0.046 -174.623 0.417 -62.95
7114.5 0.372 146.084 4.214 -96.823 0.046 -173.933 0.416 -65.058
7164.25 0.369 146.272 4.084 -95.695 0.046 -172.715 0.417 -67.308
7214 0.367 146.463 3.953 -94.558 0.046 -171.488 0.419 -69.485
7263.75 0.364 146.495 3.948 -94.635 0.046 -170.8 0.42 -71.366
7313.5 0.361 146.528 3.942 -94.704 0.047 -170.104 0.422 -73.178
7363.25 0.353 146.074 3.732 -95.885 0.047 -168.675 0.425 -75.002
7413 0.344 145.647 3.523 -97.063 0.047 -167.243 0.429 -76.745
7462.75 0.336 145.828 3.591 -97.599 0.047 -166.249 0.431 -78.077
7512.5 0.326 146.028 3.659 -98.131 0.047 -165.251 0.433 -79.335
7562.25 0.317 146.476 3.549 -99.525 0.047 -164.025 0.436 -80.643
7612 0.307 146.952 3.44 -100.911 0.048 -162.791 0.44 -81.877
7661.75 0.301 147.197 3.477 -100.869 0.048 -161.464 0.444 -82.794
7711.5 0.294 147.434 3.514 -100.82 0.049 -160.13 0.448 -83.647
7761.25 0.286 147.232 3.47 -102.034 0.049 -159.164 0.45 -84.603
7811 0.278 147.026 3.428 -103.242 0.049 -158.192 0.452 -85.498
7860.75 0.266 146.332 3.358 -101.5 0.049 -157.065 0.458 -86.247
7910.5 0.253 145.726 3.289 -99.759 0.049 -155.939 0.464 -86.939
7960.25 0.237 145.478 3.23 -100.888 0.049 -154.958 0.466 -87.545
8010 0.222 145.402 3.17 -102.016 0.05 -153.976 0.468 -88.111
8059.75 0.208 146.42 3.092 -101.878 0.05 -153.053 0.472 -88.78
8109.5 0.194 147.662 3.015 -101.734 0.051 -152.124 0.477 -89.414
8159.25 0.182 147.53 2.989 -102.687 0.051 -151.137 0.481 -89.577
8209 0.17 147.579 2.963 -103.638 0.051 -150.148 0.484 -89.723
8258.75 0.161 146.84 2.898 -104.19 0.052 -149.16 0.487 -90.016
8308.5 0.151 146.165 2.833 -104.74 0.052 -148.17 0.49 -90.297
8358.25 0.133 143.275 2.832 -104.362 0.052 -147.537 0.494 -90.312
8408 0.116 141.168 2.83 -103.996 0.053 -146.916 0.499 -90.327
8457.75 0.098 137.505 2.767 -104.057 0.053 -145.922 0.501 -90.638
8507.5 0.079 134.683 2.704 -104.131 0.053 -144.941 0.504 -90.951
8557.25 0.059 134.054 2.683 -104.117 0.054 -144.022 0.506 -90.977
8607 0.04 139.62 2.661 -104.108 0.054 -143.108 0.509 -91.015
8656.75 0.029 140.904 2.593 -104.282 0.054 -142.132 0.513 -91.365
8706.5 0.018 147.91 2.524 -104.456 0.055 -141.156 0.517 -91.733
8756.25 9.861e-3 135.872 2.505 -104.248 0.055 -140.168 0.52 -91.751
8806 3.809e-3 77.399 2.485 -104.042 0.055 -139.182 0.523 -91.794
8855.75 0.021 6.434 2.442 -103.978 0.055 -138.548 0.525 -91.959
8905.5 0.041 0.186 2.398 -103.919 0.055 -137.919 0.528 -92.153
8955.25 0.063 -11.142 2.367 -103.599 0.055 -137.124 0.532 -92.327
9005 0.085 -19.122 2.336 -103.295 0.055 -136.345 0.536 -92.532
9054.75 0.103 -26.478 2.31 -103.406 0.055 -135.591 0.537 -92.569
9104.5 0.122 -33.154 2.284 -103.531 0.056 -134.851 0.538 -92.638
9154.25 0.127 -36.708 2.258 -103.408 0.056 -133.793 0.542 -93.267
9204 0.132 -40.258 2.232 -103.294 0.056 -132.744 0.546 -93.932
9253.75 0.135 -36.902 2.212 -102.812 0.056 -131.632 0.548 -94.23
9303.5 0.137 -33.611 2.192 -102.335 0.057 -130.525 0.55 -94.562
9353.25 0.156 -29.073 2.159 -102.052 0.057 -129.482 0.552 -95.073
9403 0.175 -25.088 2.126 -101.768 0.057 -128.438 0.554 -95.618
9452.75 0.204 -26.93 2.082 -101.404 0.057 -127.559 0.559 -95.92
9502.5 0.233 -28.887 2.038 -101.06 0.057 -126.7 0.563 -96.252
9552.25 0.247 -34.046 2.046 -101.378 0.058 -125.868 0.562 -96.836
9602 0.261 -39.192 2.054 -101.719 0.058 -125.059 0.562 -97.45
9651.75 0.253 -41.95 2.004 -102.04 0.058 -123.985 0.564 -98.082
9701.5 0.246 -44.856 1.953 -102.373 0.058 -122.923 0.567 -98.737
9751.25 0.241 -40.933 2.006 -101.601 0.058 -122.426 0.565 -99.572
9801 0.237 -36.925 2.059 -100.832 0.058 -121.932 0.564 -100.431
9850.75 0.268 -31.468 1.997 -100.194 0.059 -120.824 0.567 -101.562
9900.5 0.299 -26.358 1.935 -99.539 0.06 -119.699 0.57 -102.695
9950.25 0.34 -29.899 1.98 -97.17 0.061 -119.21 0.571 -103.397
10000 0.381 -33.415 2.025 -94.847 0.062 -118.767 0.573 -104.105
