!Hittite Microwave Corporation								
!12 Elizabeth Drive								
!Chelmsford, MA 01824								
!Tel: 978-250-3343								
!Fax: 978-250-3373								
!Device: HMC344LP3, DC-8 GHz GaAs MMIC SP4T Non-Reflective Switch in Leadless LP3 SMT Package							
!Misc: Room Temp Vctl=-5V Port1=RFC, Port2=RF1, Port3=RF2, Port4=RF3, Port5=RF4, RF4 ON.								
!
# MHZ S MA R 50

10	1.153	29.739	0.004306	80.676	0.016	42.121	0.007142	82.044
	0.15	-77.804	0.005717	7.707	0.858	35.385	0.005591	169.296
	0.006233	129.87	0.011	53.484	0.007245	84.864	0.035	-20.229
	0.862	35.403	0.013	161.457	0.011	59.93	0.001335	-46.075
	0.034	43.212	0.03	-29.638	0.856	35.234	0.012	42.143
	0.145	-84.795	0.001916	-11.843	0.006763	-26.571	0.005807	-8.6
	1.117	32.427						
69.82	0.292	43.625	0.0007232	-153.912	0.000731	26.462	0.0006074	-127.917
	0.827	-17.071	0.001851	13.602	0.307	8.306	0.0006053	110.559
	0.0009132	-81.258	0.0009788	121.296	0.0009863	-3.682	0.001856	-139.019
	0.32	8.227	0.001156	-111.187	0.000298	-92.522	0.001213	-120.336
	0.0007145	176.725	0.0007138	-173.474	0.315	8.509	0.0003633	32.541
	0.822	-16.943	0.001458	96.585	0.001735	-29.646	0.00165	-119.281
	0.294	43.561						
129.641	0.195	28.898	0.00008755	-148.11	0.000323	126.033	0.0005968	86.477
	0.844	-12.104	0.0009711	56.685	0.305	-0.377	0.0003707	78.668
	0.0002017	-25.604	0.0002118	112.922	0.001001	7.994	0.0002352	67.192
	0.307	-0.53	0.0003493	68.432	0.00005787	-5.557	0.0004746	-131.226
	0.0002966	6.145	0.0007931	123.868	0.306	-0.244	0.0006868	43.944
	0.841	-11.984	0.001062	133.721	0.000686	-128.423	0.0003495	71.005
	0.193	29.265						
189.461	0.164	16.059	0.0003589	117.682	0.0002579	-34.098	0.0001593	87.453
	0.843	-10.479	0.0005933	29.983	0.304	-6.112	0.0006499	46.058
	0.0002226	69.872	0.0002555	-43.957	0.00008983	-79.084	0.0004248	94.091
	0.305	-6.134	0.0001689	-3.497	0.00006892	18.255	0.000176	-121.835
	0.00009774	-144.621	0.0001034	103.303	0.304	-5.96	0.0004314	60.936
	0.84	-10.17	0.0001905	144.797	0.000156	114.616	0.0007702	48.553
	0.163	16.087						
249.281	0.15	5.156	0.0004124	103.634	0.0005223	48.324	0.0002389	19.643
	0.849	-10.4	0.0008103	111.994	0.303	-11.118	0.0004891	80.733
	0.0001416	-19.702	0.00025	31.031	0.000519	56.788	0.0005979	90.918
	0.305	-11.102	0.00029	15.937	0.0002297	43.729	0.0005573	153.297
	0.0005033	143.883	0.0002334	67.76	0.304	-10.857	0.0003538	75.37
	0.845	-10.129	0.0004288	163.833	0.0002449	147.481	0.0006225	99.596
	0.148	4.743						
309.102	0.144	-5.727	0.0005356	101.804	0.0004215	22.684	0.0007048	80.856
	0.851	-10.981	0.001229	71.589	0.306	-15.568	0.0008558	69.079
	0.0002639	61.274	0.00029	141.12	0.0002367	-48.087	0.0004298	36.997
	0.307	-15.445	0.0001118	-167.327	0.0004597	172.148	0.0003807	-52.218
	0.0004804	-169.079	0.0003412	-178.291	0.306	-15.123	0.000523	119.442
	0.844	-11.115	0.001137	-88.592	0.0003803	114.865	0.0009354	-23.549
	0.146	-5.303						
368.922	0.143	-14.21	0.000853	61.617	0.00008867	12.3	0.0003163	2.304
	0.848	-11.787	0.0007928	105.52	0.306	-19.642	0.0009867	69.965
	0.0002553	155.947	0.0003113	120.68	0.0003241	24.191	0.0005274	51.043
	0.308	-19.591	0.000385	2.014	0.0006893	108.346	0.000616	-126.1
	0.0004654	-89.432	0.0001061	-62.711	0.306	-19.13	0.0006724	68.117
	0.844	-11.868	0.0003623	-2.551	0.0002621	-9.609	0.0006962	49.045
	0.142	-13.786						
428.743	0.141	-21.208	0.0008317	71.25	0.0002513	-106.538	0.00005262	-83.936
	0.846	-12.735	0.0007267	85.462	0.308	-23.286	0.0009614	81.234
	0.0004597	-59.539	0.0002927	54.1	0.0003032	162.898	0.001027	92.639
	0.31	-23.309	0.0003396	148.592	0.0003178	14.216	0.00008682	-171.193
	0.0004811	-103.527	0.0006922	148.247	0.308	-22.972	0.0007941	89.534
	0.839	-12.786	0.0005421	-82.566	0.00003915	96.203	0.0007621	86.382
	0.141	-20.922						
488.563	0.139	-28.132	0.0005509	94.32	0.000319	-148.961	0.0003067	86.616
	0.851	-13.79	0.0009401	60.687	0.31	-27.213	0.001185	86.718
	0.000141	43.641	0.0001126	21.518	0.0003705	75.362	0.001339	73.147
	0.312	-27.109	0.0003537	-99.357	0.0002629	113.632	0.0003017	13.189
	0.0004491	-2.282	0.0004051	111.697	0.31	-26.702	0.0006335	83.029
	0.844	-13.489	0.0001173	72.629	0.00005106	155.949	0.0009435	84.564
	0.142	-28.036						
548.383	0.139	-35.049	0.0009139	82.151	0.0003766	-178.391	0.0002008	117.266
	0.845	-15.096	0.0007792	88.607	0.312	-30.88	0.001512	73.332
	0.0002965	95.47	0.0002596	69.416	0.000439	35.668	0.001695	83.167
	0.314	-30.93	0.0005139	69.161	0.0004599	121.126	0.0002439	-33.978
	0.0002313	-76.357	0.0006298	32.966	0.311	-30.524	0.0008122	74.352
	0.843	-14.835	0.0003802	87.116	0.0003138	22.692	0.001168	81.592
	0.144	-34.675						
608.204	0.142	-40.462	0.0009439	78.583	0.0002187	-129.246	0.0001227	-139.548
	0.843	-16.288	0.001047	86.016	0.315	-34.573	0.001465	71.432
	0.0004002	55.253	0.0002327	63.533	0.0001298	42.619	0.001412	75.054
	0.317	-34.548	0.0002295	107.45	0.0001612	54.364	0.0001655	15.689
	0.0001299	130.943	0.0004121	24.062	0.314	-34.049	0.001164	80.411
	0.838	-16.067	0.0002757	84.874	0.00033	18.658	0.0007381	55.17
	0.146	-40.583						
668.024	0.142	-45.356	0.001211	85.744	0.0005419	130.992	0.0001763	-148.563
	0.844	-17.009	0.001661	88.028	0.319	-37.97	0.001536	82.237
	0.0001065	93.046	0.0002838	59.427	0.0002309	-153.411	0.001422	89.246
	0.321	-37.98	0.0004719	112.752	0.00009976	141.855	0.0002765	176.696
	0.0002235	46.439	0.0005066	61.794	0.316	-37.254	0.001239	82.093
	0.836	-17.098	0.0001679	40.878	0.0004918	-174.962	0.0008572	99.601
	0.147	-45.939						
727.844	0.141	-49.984	0.001236	75.031	0.000259	112.178	0.0001167	-11.883
	0.847	-18.623	0.001348	75.72	0.321	-41.355	0.001759	79.921
	0.0002937	143.793	0.0003604	95.055	0.0003083	119.71	0.001716	90.387
	0.324	-41.448	0.0004039	76.217	0.000225	34.63	0.00009829	28.682
	0.0005411	84.296	0.0002264	15.784	0.318	-40.68	0.001237	76.911
	0.842	-18.232	0.0004639	107.697	0.0002604	114.073	0.001495	74.536
	0.148	-50.735						
787.665	0.143	-55	0.001277	73.582	0.0003169	55.413	0.00007423	-128.816
	0.836	-19.988	0.0008835	83.431	0.325	-44.734	0.001983	84.964
	0.0003998	44.558	0.0002017	54.531	0.0003373	78.219	0.001854	75.659
	0.327	-44.58	0.0005464	78.264	0.00009276	134.205	0.0002796	-143.017
	0.0001647	72.927	0.0004782	64.344	0.322	-43.969	0.001188	77.61
	0.837	-20.165	0.0003347	106.294	0.0004404	27.963	0.001223	86.122
	0.152	-55.95						
847.485	0.145	-58.975	0.001573	80.091	0.0002281	129.575	0.0001798	-85.76
	0.838	-20.74	0.001296	77.788	0.328	-47.742	0.001844	73.183
	0.000244	24.041	0.0002344	58.511	0.0004736	49.761	0.002083	78.72
	0.33	-47.627	0.0003479	78.172	0.000321	43.364	0.0001754	-13.514
	0.0002126	31.487	0.00006491	177.918	0.325	-47.018	0.001499	78.878
	0.829	-20.787	0.0004976	28.457	0.0002372	22.269	0.001352	82.444
	0.154	-60.102						
907.305	0.146	-61.928	0.001457	82.264	0.0002862	75.47	0.0001208	6.935
	0.838	-22.309	0.001379	73.015	0.331	-50.824	0.00197	71.997
	0.0002417	30.817	0.0004887	54.369	0.0004139	88.918	0.002195	85.132
	0.333	-50.666	0.0005625	52.521	0.0002582	76.159	0.0001768	78.229
	0.00008734	8.573	0.0002877	92.303	0.327	-49.955	0.001498	75.433
	0.837	-21.929	0.0002924	66.794	0.0003854	70.74	0.00165	80.796
	0.154	-63.875						
967.126	0.145	-65.379	0.001466	80.707	0.0002816	64.782	0.00006748	-105.573
	0.833	-23.382	0.001458	81.055	0.333	-53.935	0.002088	75.743
	0.0002108	105.059	0.0001662	78.399	0.0002452	111.064	0.002168	74.95
	0.335	-53.763	0.0003972	49.56	0.000319	63.282	0.0002258	-55.33
	0.00008167	130.072	0.0004718	98.203	0.329	-53.059	0.001418	81.511
	0.831	-23.667	0.0003888	32.349	0.0001389	-30.929	0.001544	82.641
	0.155	-67.935						
1026.946	0.146	-68.537	0.001585	78.513	0.0001978	84.766	0.0001682	-105.926
	0.835	-24.715	0.001284	77.414	0.337	-56.865	0.0023	75.106
	0.0001677	102.06	0.0003837	39.082	0.00032	71.567	0.002311	70.569
	0.339	-56.711	0.0003978	58.686	0.0002084	64.904	0.0002268	-65.552
	0.00049	53.305	0.0006312	63.178	0.332	-56.163	0.001581	75.11
	0.827	-24.389	0.0001516	172.141	0.00005258	58.863	0.001631	81.255
	0.157	-71.691						
1086.766	0.15	-71.201	0.001583	76.836	0.0003907	98.357	0.0001177	159.379
	0.827	-26.117	0.002008	75.905	0.341	-59.712	0.002378	77.518
	0.0002672	97.681	0.0004663	32.445	0.0003736	81.253	0.002327	70.217
	0.343	-59.499	0.0005945	58.287	0.0001923	20.297	0.0003387	-111.344
	0.0001425	-14.198	0.0004824	63.067	0.334	-59.037	0.001771	80.265
	0.828	-26.277	0.0004378	47.942	0.0002851	-29.895	0.001796	74.934
	0.158	-75.221						
1146.587	0.151	-73.135	0.001801	79.611	0.000573	72.962	0.00009939	-151.292
	0.826	-26.879	0.001682	82.698	0.343	-62.351	0.002444	74.965
	0.0001752	43.009	0.0003112	37.13	0.0005091	90.989	0.002394	74.183
	0.345	-62.205	0.0005206	56.505	0.0003577	51.8	0.00001822	33.106
	0.0001864	118.232	0.0006926	75.081	0.336	-61.945	0.001767	80.678
	0.818	-26.881	0.0005773	56.436	0.0001499	9.96	0.001787	83.823
	0.158	-78.235						
1206.407	0.15	-74.909	0.002022	78.896	0.0003692	111.707	0.0001302	-130.976
	0.829	-28.169	0.00187	74.784	0.346	-65.148	0.002801	73.34
	0.0002991	58.595	0.0002948	6.228	0.000322	73.495	0.002564	70.45
	0.347	-64.922	0.0005739	46.871	0.0002276	68.535	0.0001383	-139.857
	0.0001471	72.137	0.0006419	56.982	0.338	-64.75	0.001851	78.269
	0.827	-27.989	0.0004567	64.608	0.0003792	84.856	0.001867	75.419
	0.159	-81.08						
1266.228	0.151	-77.373	0.001924	73.213	0.0003235	99.036	0.0001354	-102.508
	0.824	-29.779	0.002047	81.145	0.349	-67.799	0.002672	71.718
	0.0002436	47.488	0.000481	29.097	0.0005752	80.825	0.002832	72.875
	0.351	-67.556	0.0003397	68.795	0.0004334	47.657	0.0001699	-58.841
	0.0001597	100.739	0.0006426	62.306	0.341	-67.362	0.001882	73.399
	0.824	-29.861	0.0003352	16.965	0.0003538	27.404	0.001861	72.063
	0.161	-83.623						
1326.048	0.155	-79.421	0.001885	73.778	0.0004528	82.979	0.00009615	-124.916
	0.816	-30.721	0.00206	78.024	0.353	-70.119	0.002849	69.266
	0.0002288	51.918	0.0003311	29.437	0.0004698	83.544	0.002612	68.726
	0.354	-69.805	0.0004789	58.707	0.0003072	60.092	0.0001006	172.204
	0.0004202	49.106	0.0004269	66.233	0.344	-69.775	0.001824	75.893
	0.812	-31.13	0.0003734	23.902	0.0005266	85.213	0.00194	73.799
	0.161	-86.15						
1385.868	0.158	-80.354	0.002039	72.429	0.0003809	77.42	0.0001091	-120.882
	0.813	-31.505	0.002149	70.865	0.355	-72.32	0.002955	72.796
	0.0003725	68.727	0.00009146	139.841	0.0003534	88.358	0.002825	71.083
	0.358	-71.951	0.0005751	68.904	0.000428	49.082	0.00003219	-65.674
	0.0003021	30.821	0.0007099	70.902	0.347	-72.076	0.00203	77.79
	0.809	-31.479	0.0001193	33.504	0.0003827	31.172	0.002127	74.759
	0.159	-87.906						
1445.689	0.158	-80.983	0.002087	81.087	0.0004932	85.152	0.0002896	-89.416
	0.819	-32.537	0.002062	76.662	0.357	-74.527	0.002993	71.224
	0.0005011	50.23	0.0002459	85.14	0.000643	83.758	0.003059	70.046
	0.36	-74.142	0.0006285	61.385	0.000474	32.201	0.0001367	-95.309
	0.000343	59.648	0.0005457	75.862	0.349	-74.454	0.001956	76.47
	0.815	-32.458	0.0003841	81.474	0.0004616	27.028	0.001994	77.285
	0.158	-89.889						
1505.509	0.159	-82.316	0.002266	77.514	0.0004751	89.111	0.0003538	-106.035
	0.812	-34.27	0.002353	78.496	0.36	-77.005	0.00302	69.991
	0.000358	72.79	0.0001548	109.329	0.0004616	77.175	0.003168	70.887
	0.363	-76.579	0.000622	56.994	0.0004959	22.156	0.000217	-55.474
	0.0001773	103.124	0.0006138	56.126	0.352	-76.979	0.002073	74.356
	0.817	-34.134	0.0002947	80.341	0.0003631	3.668	0.002161	72.676
	0.159	-91.827						
1565.329	0.161	-84	0.002325	75.318	0.0005286	102.686	0.0004438	-106.055
	0.81	-34.361	0.0022	80.829	0.365	-79.298	0.003103	70.05
	0.0002389	67.05	0.0002662	110.504	0.0005843	92.708	0.003043	68.842
	0.367	-78.878	0.0007044	53.75	0.0005362	17.764	0.0003737	-96.616
	0.0005583	62.936	0.0005127	67.94	0.355	-79.398	0.002012	77.345
	0.807	-35.53	0.0005025	113.11	0.0005453	16.913	0.002153	71.96
	0.158	-93.423						
1625.15	0.165	-84.691	0.002398	83.931	0.0005832	77.975	0.0004019	-112.272
	0.82	-36.06	0.002443	80.017	0.367	-81.584	0.003233	70.435
	0.0002561	71.356	0.0005188	103.505	0.0004994	89.686	0.003213	74.283
	0.37	-81.065	0.0006281	54.978	0.0006209	-17.71	0.0003751	-134.128
	0.0004536	65.002	0.0005732	74.19	0.357	-81.67	0.002088	79.421
	0.804	-35.722	0.0006498	112.082	0.0007248	-26.575	0.002039	86.645
	0.156	-94.849						
1684.97	0.169	-84.643	0.002695	79.213	0.0005056	89.944	0.0003376	-143.001
	0.81	-37.236	0.00268	80.968	0.368	-83.874	0.003365	67.774
	0.0003247	71.256	0.001396	95.654	0.0006	77.795	0.003585	72.487
	0.371	-83.305	0.0007223	62.372	0.0006225	-55.064	0.0002614	-91.477
	0.0004417	72.227	0.0008006	49.205	0.357	-84.06	0.002284	82.942
	0.818	-37.159	0.001461	100.429	0.0007355	-48.571	0.002446	83.783
	0.153	-95.846						
1744.79	0.17	-84.852	0.002833	86.591	0.000542	98.189	0.0004223	-121.596
	0.812	-38.102	0.002711	89.687	0.368	-86.47	0.00342	69.967
	0.0004562	62.811	0.001263	69.647	0.0004659	64.311	0.003287	69.74
	0.373	-85.718	0.0006451	57.559	0.0006294	-103.803	0.0004305	-88.29
	0.0004452	67.871	0.0007537	51.536	0.358	-86.67	0.002549	84.672
	0.808	-38.866	0.001106	62.503	0.0006841	-99.523	0.002438	84.61
	0.15	-97.006						
1804.611	0.174	-85.759	0.003738	78.872	0.0005819	84.141	0.0005692	-118.509
	0.816	-39.439	0.003775	77.762	0.37	-87.803	0.003477	72.816
	0.0004936	37.237	0.001969	16.879	0.0007049	83.596	0.003669	72.898
	0.376	-87.821	0.0007293	60.109	0.0005662	176.821	0.00053	-132.334
	0.0004293	49.181	0.0006034	66.617	0.361	-89.029	0.002687	85.507
	0.808	-39.278	0.002043	20.048	0.0004939	-165.406	0.002669	85.277
	0.149	-97.614						
1864.431	0.18	-86.459	0.003431	68.27	0.0006385	79.045	0.0003451	-140.28
	0.811	-40.988	0.003523	67.906	0.374	-90.008	0.003484	66.562
	0.0004317	20.172	0.0002788	-87.287	0.0007063	89.622	0.00362	69.153
	0.377	-89.963	0.0008362	55.736	0.0002925	105.811	0.0005706	-128.527
	0.0004739	-1.648	0.0008084	50.377	0.361	-91.201	0.002809	80.51
	0.814	-40.846	0.0003033	-130.966	0.0002535	95.975	0.002937	83.349
	0.149	-98.08						
1924.251	0.185	-86.716	0.003174	69.77	0.0005803	90.815	0.0004702	-126.52
	0.81	-41.266	0.003435	66.034	0.375	-92.239	0.003585	71.23
	0.0003284	69.56	0.001015	-26.821	0.0007588	87.067	0.003643	67.352
	0.378	-92.131	0.000717	60.735	0.0004445	107.711	0.0004807	-150.635
	0.0003602	42.296	0.0006316	66	0.362	-93.424	0.002999	81.555
	0.811	-42.33	0.0007884	-28.939	0.0001724	112.934	0.003074	76.827
	0.146	-98.17						
1984.072	0.189	-87.003	0.003426	65.824	0.0007123	86.671	0.0004204	-132.142
	0.822	-43.325	0.003356	69.349	0.377	-94.381	0.003766	69.433
	0.0002083	24.304	0.0005167	-142.665	0.0007426	80.172	0.003736	68.611
	0.38	-94.19	0.0007214	61.669	0.0002284	94.64	0.0007231	-154.549
	0.0002228	21.37	0.0008139	56.178	0.363	-95.622	0.003189	76.357
	0.806	-43.316	0.0002858	-139.207	0.0003786	63.619	0.00312	77.851
	0.145	-97.721						
2043.892	0.194	-87.99	0.003261	63.402	0.0006252	74.737	0.0006418	-137.121
	0.803	-44.422	0.003518	68.12	0.378	-96.284	0.003869	67.713
	0.0003076	63.79	0.0004412	18.863	0.0008705	76.271	0.003762	68.678
	0.381	-96.037	0.0007402	68.061	0.0001843	77.423	0.0006003	-135.362
	0.00006631	-106.937	0.0006351	50.526	0.362	-97.606	0.003176	73.812
	0.812	-44.633	0.0005156	16.294	0.000148	70.693	0.00329	74.93
	0.144	-97.163						
2103.713	0.201	-88.699	0.003558	66.799	0.0006654	91.632	0.0005099	-137.641
	0.816	-45.059	0.00349	68.288	0.377	-98.12	0.004081	71.16
	0.0002731	73.994	0.000333	43.801	0.0007832	84.881	0.004035	69.675
	0.38	-97.742	0.0007656	59.6	0.0002329	116.663	0.0006055	-136.117
	0.0003793	96.686	0.0006232	71.449	0.361	-99.59	0.003265	74.615
	0.799	-45.748	0.0005808	47.979	0.000304	86.859	0.003023	73.328
	0.142	-96.081						
2163.533	0.207	-89.019	0.003539	66.142	0.0007482	84.83	0.0006475	-135.147
	0.812	-46.873	0.003556	65.861	0.376	-100.102	0.004017	67.604
	0.0003498	67.697	0.0005162	22.929	0.0007138	95.264	0.004515	69.998
	0.378	-99.776	0.0008718	50.04	0.0002407	115.373	0.0007228	-143.415
	0.0002278	63.02	0.0008304	52.363	0.359	-101.811	0.003287	74.525
	0.815	-45.837	0.000581	44.403	0.000332	100.633	0.003337	75.61
	0.14	-95.214						
2223.353	0.213	-89.617	0.003611	66.37	0.0007779	80.759	0.000626	-150.86
	0.81	-47.819	0.003721	64.007	0.375	-102.256	0.004145	68.189
	0.0002716	75.577	0.0004761	29.727	0.0007008	89.447	0.004272	64.766
	0.377	-101.826	0.0008717	59.562	0.0002211	91.161	0.0005209	-162.387
	0.0004628	46.193	0.0007051	60.376	0.358	-103.981	0.003322	73.118
	0.821	-49.095	0.0004253	37.605	0.0003255	66.322	0.003398	72.222
	0.14	-94.69						
2283.174	0.218	-91	0.003633	65.128	0.0005576	90.093	0.0006864	-159.007
	0.809	-48.932	0.00367	66.001	0.375	-104.195	0.004096	68.357
	0.0003866	75.396	0.0005053	23.321	0.0009346	81.88	0.004021	68.916
	0.377	-103.778	0.001008	56.943	0.0002744	54.411	0.0006577	-167.313
	0.0004587	55.46	0.0008318	53.458	0.357	-106.047	0.003467	73.035
	0.794	-50.176	0.0002385	16.074	0.0003349	48.944	0.003271	73.07
	0.142	-94.038						
2342.994	0.226	-92.2	0.003955	63.763	0.0006612	80.947	0.0006939	-151.241
	0.813	-50.175	0.00394	64.314	0.375	-105.983	0.0045	65.7
	0.0003565	63.254	0.000652	30.505	0.000842	89.041	0.004264	70.951
	0.376	-105.489	0.0008192	57.461	0.0003476	85.541	0.0008028	-160.169
	0.0005045	80.992	0.001013	57.361	0.354	-107.846	0.003503	69.734
	0.792	-49.873	0.0005031	43	0.0004281	77.786	0.003419	76.211
	0.141	-92.444						
2402.814	0.234	-92.751	0.00386	61.243	0.0007791	92.267	0.0007822	-150.268
	0.808	-51.472	0.003971	65.884	0.371	-107.868	0.004568	68.348
	0.0004406	60.549	0.0004853	33.448	0.0008688	93.595	0.004491	63.997
	0.373	-107.269	0.0009652	52.051	0.000225	76.85	0.0009296	-155.906
	0.0004811	80.379	0.0007343	53.693	0.35	-109.963	0.00358	71.405
	0.815	-50.452	0.0004866	-5.495	0.0001633	75.966	0.003793	73.425
	0.141	-90.564						
2462.635	0.241	-93.19	0.003944	60.614	0.0007948	82.166	0.0007836	-154.713
	0.81	-52.796	0.004045	61.873	0.368	-110.001	0.0047	67.514
	0.0004692	56.763	0.0003325	44.472	0.0008868	102.992	0.004805	63.783
	0.37	-109.331	0.0008706	55.247	0.0002136	142.789	0.0007699	-154.65
	0.0004636	73.193	0.0009029	55.002	0.348	-112.24	0.003547	72.075
	0.823	-53.723	0.000315	31.778	0.0004218	120.917	0.003495	69.464
	0.144	-89.786						
2522.455	0.245	-94.505	0.003748	64.423	0.0008577	85.233	0.000834	-155.264
	0.797	-53.797	0.003866	60.971	0.367	-111.958	0.004592	64.801
	0.0003935	61.272	0.0003303	46.105	0.001002	84.156	0.004603	64.009
	0.369	-111.17	0.0008847	53.008	0.0002774	82.797	0.0008317	-156.232
	0.0005412	37.912	0.0009647	51.264	0.347	-114.372	0.003642	69.529
	0.798	-55.2	0.0003568	33.386	0.0001622	107.856	0.003641	70.906
	0.147	-89.598						
2582.275	0.251	-96.127	0.004028	62.801	0.0007754	83.605	0.0009822	-160.109
	0.813	-54.301	0.004023	64.179	0.366	-113.6	0.004883	65.564
	0.0003643	45.859	0.0002236	29.88	0.0008859	80.254	0.004647	63.638
	0.367	-112.7	0.0008766	51.341	0.0003859	80.774	0.0008725	-157.332
	0.000318	21.094	0.0008544	54.258	0.344	-116.096	0.003679	70.365
	0.788	-55.496	0.000485	61.952	0.000236	52.927	0.003785	73.061
	0.151	-88.354						
2642.096	0.259	-97.479	0.00402	60.897	0.0008042	85.592	0.0008589	-154.877
	0.808	-56.585	0.004195	64.121	0.361	-115.086	0.004898	63.787
	0.000576	72.873	0.0004023	44.639	0.0009752	88.218	0.004947	64.572
	0.363	-114.142	0.0008668	55.03	0.0003878	50.357	0.0009873	-170.61
	0.0004353	40.943	0.001072	47.537	0.339	-117.744	0.003948	69.598
	0.797	-55.114	0.0003518	43.095	0.0002509	55.385	0.003662	73.386
	0.153	-86.258						
2701.916	0.268	-98.157	0.004204	61.018	0.0008262	86.117	0.0009993	-149.557
	0.805	-57.067	0.004324	62.129	0.356	-117.01	0.005006	64.754
	0.00074	59.438	0.0006023	45.181	0.000828	91.516	0.004771	62.307
	0.358	-115.929	0.0008898	50.592	0.0003458	59.789	0.001171	-168.378
	0.0005708	52.154	0.001095	38.666	0.334	-119.88	0.003966	70.562
	0.821	-57.845	0.0002856	49.061	0.000144	93.14	0.004072	64.967
	0.156	-85.168						
