! Hittite Microwave Corporation
! 20 Alpha Road
! Chelmsford, MA 01824
! Tel: 978-250-3343
! Fax: 978-250-3373
! Device: HMC321LP4, DC-8.0 GHz, GaAS MMIC SP8T Non-Reflective Positive 
!         Control Switch in Low Cost Leadless SMT Package
! Misc: Data was de-embedded to package pins.
!       Port 1 = RFC
!       Port 2 = RF1    Port 6 = RF5
!       Port 3 = RF2    Port 7 = RF6
!       Port 4 = RF3    Port 8 = RF7
!       Port 5 = RF4    Port 9 = RF8
!          Vee = +5 V
!         Vctl =  0 V[Logic 0] / +5 V[Logic 1]
!
!  RF7 Selected,  VA = 0,  VB = 1,  VC = 1
!
!  Data reformated to new Touchstone file format - Fri Jan 12 11:51:12 2007
!
# MHz S DB R 50
! 9 Port Network Data
! freq  dbS11  angS11  dbS12  angS12  dbS13  angS13  dbS14  angS14  
!       dbS15  angS15  dbS16  angS16  dbS17  angS17  dbS18  angS18  
!       dbS19  angS19  
!       dbS21  angS21  dbS22  angS22  dbS23  angS23  
!       dbS24  angS24  dbS25  angS25  dbS26  angS26  dbS27  angS27  
!       dbS28  angS28  dbS29  angS29  
!       dbS31  angS31  dbS32  angS32  
!       dbS33  angS33  dbS34  angS34  dbS35  angS35  dbS36  angS36  
!       dbS37  angS37  dbS38  angS38  dbS39  angS39  
!       dbS41  angS41  
!       dbS42  angS42  dbS43  angS43  dbS44  angS44  dbS45  angS45  
!       dbS46  angS46  dbS47  angS47  dbS48  angS48  dbS49  angS49  
!       dbS51  angS51  dbS52  angS52  dbS53  angS53  dbS54  angS54  
!       dbS55  angS55  dbS56  angS56  dbS57  angS57  dbS58  angS58  
!       dbS59  angS59  
!       dbS61  angS61  dbS62  angS62  dbS63  angS63  
!       dbS64  angS64  dbS65  angS65  dbS66  angS66  dbS67  angS67  
!       dbS68  angS68  dbS69  angS69  
!       dbS71  angS71  dbS72  angS72  
!       dbS73  angS73  dbS74  angS74  dbS75  angS75  dbS76  angS76  
!       dbS77  angS77  dbS78  angS78  dbS79  angS79  
!       dbS81  angS81  
!       dbS82  angS82  dbS83  angS83  dbS84  angS84  dbS85  angS85  
!       dbS86  angS86  dbS87  angS87  dbS88  angS88  dbS89  angS89  
!       dbS91  angS91  dbS92  angS92  dbS93  angS93  dbS94  angS94  
!       dbS95  angS95  dbS96  angS96  dbS97  angS97  dbS98  angS98  
!       dbS99  angS99  
!     
                54       -12.9950396              3.296        -70.8242224             65.372        -63.9322235             65.463        -72.8070841            -80.023
                      -73.3593145             33.608        -64.1549686             -51.46        -76.5479414            -98.237        -2.08050535             -1.523
                      -63.7270461             43.806
                      -78.3013285           -120.967       -0.184346164             -8.214        -67.2802778             99.538        -69.6798754              64.55
                      -68.4754773            -99.528        -69.0150289             -144.8        -61.9948428            -57.452        -78.6585829             37.123
                      -60.8593537            -22.376
                      -75.9939363            134.746        -70.2374501            144.848       -0.175478486             -8.131        -76.0654255             -7.122
                      -69.3806464            -31.608        -76.6477465            -117.86        -62.4272665             84.787        -67.7464416            133.052
                      -66.0658844            -59.634
                      -67.0171987            -22.953        -68.3929068             88.567        -66.7071605             21.188       -0.175478486             -8.231
                      -66.4423884            158.076        -64.1423651            122.785        -69.8671939             -75.22        -65.5325287           -168.871
                      -59.0389365            -67.231
                      -64.6687689             46.186        -74.8368361             16.649         -65.296009            -22.116        -69.6534424           -107.219
                     -0.184346164             -8.413        -68.6830436            -90.471        -63.9363222            -68.553        -75.2390779            135.381
                      -67.6160457            166.061
                      -63.6579519            -94.681        -64.0118104            162.312        -67.5267459             72.611        -71.1441355            -97.157
                      -65.5720325            172.224       -0.184346164             -8.336         -67.460881            -33.489        -72.7994982            143.164
                      -61.7555589            -59.617
                      -61.0896436             -1.527        -64.9375351            -170.66        -63.4049216            106.753         -68.149803             69.058
                      -67.5432904            115.337        -66.5987957             12.636       -0.184346164             -8.163        -76.5888988           -109.949
                      -73.7310926           -124.627
                      -2.03647033             -1.344        -67.0915546            121.072        -64.1535673            152.664        -59.3234861            -14.623
                      -64.8931763             76.576        -67.9936134             45.121        -71.4697748            130.682        -13.7649228              2.536
                      -66.8512335             30.242
                      -63.4036363            -70.676        -65.0564266           -121.286        -70.1924016           -141.033        -64.7164774            175.361
                      -68.8546694             47.445        -73.5804665            -80.303        -62.2600391            144.818        -67.9914335             92.866
                     -0.175478486             -8.215

             98.73       -12.9563496              1.204        -66.6565466             74.717        -83.2267955             59.555        -68.1653552             49.078
                      -74.9138734           -100.053        -79.3961043              9.023        -66.4624714            136.368        -2.04745817             -2.642
                      -68.2368077              8.141
                      -71.3920482            127.351       -0.518981944            -14.417        -78.7483603            -81.268        -73.2149473            156.958
                      -77.1147445            -34.642        -77.8625891            157.899        -74.3838814           -127.497        -71.6472452             88.255
                      -72.2664543            155.878
                      -71.9204407             28.423        -72.4977063             80.214       -0.528207531            -14.325        -75.8473127            -83.924
                       -73.655453           -132.627        -75.9013296            -61.133        -75.3706082           -171.899        -75.1491714             94.639
                      -83.4487378             58.359
                      -71.1755265             77.541        -78.0826709           -142.164        -74.8560315             81.598       -0.500560114             -14.43
                      -64.9944617             73.881        -76.8267204             25.534        -72.7052289            -29.709        -78.0687512             -71.88
                      -82.7728968              36.04
                       -66.878036             34.522        -79.2994144            139.062        -75.5665001            -89.729        -66.3102742             81.805
                     -0.518981944            -14.787        -68.2368077            117.077        -77.2213212            -156.34        -74.9187109            109.853
                       -69.421666            107.326
                      -75.9502337            134.524        -70.5185899            109.765        -71.6141056              9.793         -69.195914           -113.995
                      -72.3380614             40.225       -0.518981944            -14.785        -70.6094504            127.754        -72.5454412            103.568
                      -74.8945499            140.819
                       -84.698556            136.373        -82.2566596           -122.822        -74.4524005            119.027        -75.3400778             98.916
                      -75.8904993            173.483        -72.3849246             71.225       -0.500560114            -14.384        -68.8691258            140.151
                       -72.058589             -33.34
                      -2.00358995              -2.54        -70.2855715             66.796        -72.6305432            114.172        -82.6341662           -179.405
                      -72.4502323            -41.313        -65.4167042             52.222         -68.697217            129.732        -13.7226556              2.863
                      -69.2637827             59.742
                      -69.5485073             32.619        -72.5417599            -20.493        -72.5270506            166.402        -78.2089623             23.311
                      -71.3246033             87.489        -68.6078406             12.567        -72.8489256             142.99        -66.0292901             74.962
                     -0.528207531            -14.437

            143.46       -12.9563496             -0.319        -66.3210574            108.745        -74.9138734            106.016        -82.3688834             82.318
                      -82.1670211             40.205        -67.7337368              24.95         -69.141003             24.718        -2.04745817              -3.57
                      -64.9191523             66.247
                      -65.4556836              90.13       -0.982970822            -19.812        -71.9650984            113.094        -74.7652291             37.739
                      -79.4448559            112.153        -78.9692322             89.397        -74.8608369            154.036        -71.5023673             49.081
                      -77.9444677           -164.488
                      -79.4611674           -146.273        -87.4016193             30.824       -0.992702912            -19.731        -68.3837805             12.096
                      -78.1948389            -84.869        -75.5041609             96.088        -73.9404013             50.604        -78.7333328             91.323
                      -77.6082845             55.403
                       -75.179037           -101.036        -74.4937729            -55.308         -67.266231             53.726       -0.963539294            -19.894
                      -76.7846288              88.11        -75.7936296            -49.532         -73.428331            -21.816        -71.2007213           -178.101
                      -72.9756731           -141.002
                      -72.6566102            105.676        -75.0700284             13.124        -72.9950396            159.814        -74.4799602             81.955
                     -0.973249624             -20.46        -71.6207234            142.668        -88.0658594            -27.335        -77.5951041            -17.533
                      -71.0289652              75.55
                      -71.9823357             75.886         -82.140309             168.75        -75.1840246            132.359        -74.6894933             -38.67
                      -71.0196937             11.129       -0.963539294            -20.462        -69.4499798            124.513        -81.9479774            -39.976
                      -74.3430279              112.4
                       -64.864236             37.974        -82.5849011            105.451        -70.7640288            170.698        -79.3315249           -138.431
                      -74.2798576            -49.722        -70.8666074             55.919       -0.963539294            -19.904        -66.0554131             90.646
                      -75.5508733            176.108
                      -1.99265743              -3.49        -69.2587371             64.062        -77.2150156             74.955        -76.5129881            -82.457
                      -77.7345062             44.982        -70.2064542             41.375        -70.6419211            120.784        -13.6805931              3.203
                      -66.0432126             52.304
                      -65.6499185             35.694        -76.7606677             56.366        -77.5556824             31.992        -83.9240318           -163.409
                      -83.3792503             -32.44        -80.0452845            146.336        -76.5129881            -84.851        -62.2285481             58.127
                     -0.992702912            -19.843

            188.19       -12.9950396             -1.619        -65.5868929             89.914        -73.9015768             86.092        -79.9307894            170.848
                      -79.0935404             38.585        -77.7747497              63.92        -68.8787768             15.801        -2.04745817             -4.527
                       -65.203808             51.233
                      -66.7675318             84.025        -1.54549084            -24.292        -68.9612461             102.96        -88.5031761            164.244
                      -76.6595641           -149.157        -83.3972123            -83.315        -73.9794001              -51.6        -70.6419211             31.189
                      -88.1965434           -170.664
                      -70.4517862              80.21        -70.0420651             74.881        -1.56627049            -24.198        -71.7777116             18.517
                      -78.7634139             -5.519        -82.7585656            -40.733        -77.1710045            -72.519        -84.7119935             -2.683
                      -84.2479571             79.813
                      -78.2089623             84.466        -86.9164692           -141.674        -68.1898508             28.971        -1.51441428            -24.542
                      -65.8485965             66.815         -74.001142             -60.83         -78.351474            158.551        -81.1986397            123.494
                      -75.0454433               3.59
                       -76.193366            109.252        -82.6541866             32.266        -74.1904037             24.298        -69.4113929             93.724
                      -1.53511963            -25.238        -74.1548786            -28.102        -81.4423318           -112.676        -74.4112242             32.509
                      -81.0817697            158.151
                      -71.7979585             57.635        -83.9063097             -0.864        -78.8087316            -59.068        -87.7719072            -71.352
                      -78.9307479            -98.217        -1.51441428            -25.284        -68.0768584            110.205        -83.0337539             91.392
                      -80.1551171            169.235
                      -66.3444671             35.136        -72.2986045            177.668        -76.1709797           -169.346         -76.137508             143.82
                      -83.0967984            -49.549        -68.0045212             84.554        -1.51441428            -24.586          -63.94863              81.87
                      -81.6593476           -136.169
                      -2.01453625             -4.457        -73.7184402             33.519        -78.5844707             56.804        -90.9122507             54.835
                      -74.5957429             132.61        -72.7089801            124.344        -63.0905973             97.835        -13.6387333              3.458
                      -62.7490246             71.016
                      -63.5448733             55.673        -73.9967893            -68.487        -73.6303855            134.055        -85.1360784            168.201
                      -79.4448559            -34.483         -77.290986           -127.531        -79.2754091             18.349        -64.6346397             71.899
                      -1.55587445            -24.301

            232.92       -13.0729405             -2.836        -63.7671596            100.306        -82.6482935             75.762        -73.1871524             51.169
                      -73.6053901             79.163        -69.8590826             31.486         -66.556195              32.64        -2.03647033             -5.501
                      -63.1228915             53.314
                      -64.6657959             92.734        -2.15810795             -27.76        -67.1546676             87.896        -76.8086561             -82.09
                      -73.6429102             92.034         -77.139704            144.514        -87.7041642            101.128        -68.5891412             36.303
                      -76.1041648           -122.303
                      -75.9067498             95.359        -67.7400869             84.659        -2.16925085            -27.691        -70.3282541             85.661
                      -74.5771136              3.288         -85.434548            172.042        -73.5432145            124.508        -73.2229051             58.522
                      -72.8032904           -122.936
                      -74.6612618             64.271        -83.3882266             57.574        -69.7676796             83.329        -2.11367875            -28.166
                      -66.6341458             94.186        -77.7882058             59.319        -83.2305744             30.092        -80.8344575            143.391
                      -80.9800533            119.412
                      -80.7867799             18.667        -86.7052806            -12.496        -78.8087316            165.971        -68.6008236             80.599
                      -2.13586494            -28.988        -75.9447863           -134.378        -72.1883624            133.543        -75.6083095           -171.743
                      -82.6212364             40.335
                      -68.0373271             37.488        -82.2330398             -169.1        -76.6536533            148.991        -76.0323574             56.479
                      -77.0836457            175.177        -2.11367875             -29.06         -65.442671             95.021        -70.2657245            106.946
                      -71.9375896            139.603
                      -65.9651874               9.15        -89.1609305             56.389        -73.1475991            106.447         -73.663825             39.721
                      -75.2995368            -91.901        -64.8384236             88.671        -2.11367875            -28.308        -64.5535659             96.536
                      -77.0402936            119.294
                      -2.00358995              -5.46        -70.0200127             41.727        -77.8693829            135.268        -77.7144541            133.439
                      -78.0132944            135.139        -68.6877655             82.409        -62.5697088             86.326        -13.6387333              3.816
                      -61.4238926              66.69
                       -63.052249             57.352         -77.139704            134.923        -82.0882345            137.691        -79.5927743            143.242
                      -80.7384168            -87.435        -86.5746913             -30.45        -77.2782781             79.461        -61.1717592             88.739
                      -2.16925085            -27.747

            277.65       -13.1515464             -3.495        -62.2420302             96.389        -69.0297549             52.852        -92.7465814            174.089
