! Hittite Microwave Corporation					
! 20 Alpha Road
! Chelmsford, MA 01824
! Tel: 978-250-3343
! Fax: 978-250-3373
! Device: HMC344LH5, DC-12 GHz GaAs MMIC SP4T Non-Reflective Switch in Hermetic Leadless SMT Package
! Misc: Data was de-embedded to package pins.
!       Port 1 = RFC
!       Port 2 = RF1
!       Port 3 = RF2
!       Port 4 = RF3
!       Port 5 = RF4
!  
!  RF4 selected, Vctl= 0/-5 V
!
!  Data reformated to new Touchstone file format - Tue Jan 09 16:01:08 2007
!
# MHz S DB R 50
! 5 Port Network Data
! freq  dbS11  angS11  dbS12  angS12  dbS13  angS13  dbS14  angS14  
!       dbS15  angS15  
!       dbS21  angS21  dbS22  angS22  dbS23  angS23  
!       dbS24  angS24  dbS25  angS25  
!       dbS31  angS31  dbS32  angS32  
!       dbS33  angS33  dbS34  angS34  dbS35  angS35  
!       dbS41  angS41  
!       dbS42  angS42  dbS43  angS43  dbS44  angS44  dbS45  angS45  
!       dbS51  angS51  dbS52  angS52  dbS53  angS53  dbS54  angS54  
!       dbS55  angS55  
!     
                10       -16.4204611             -0.815        -59.5679457            110.636        -60.3103539            138.366        -63.5383441            -90.545
                       -1.7875119             -1.154
                      -59.6593332             75.409        -15.4938144              1.586        -63.2494938             87.273        -63.1403306             79.793
                      -65.8298824            -87.236
                      -67.2702421            -52.179        -65.1801214            -26.637         -16.137508              1.692        -83.9705537            114.183
                      -70.1587679            -63.644
                      -69.4396732            -26.615        -61.0798023            -41.837        -84.2805975            112.433         -16.137508              1.802
                      -63.0905973             23.602
                       -1.1896703             -0.264        -69.1161578             11.284        -65.5177609             54.881        -62.1603354              5.595
                      -17.3933246             -1.123

             69.95       -17.2655887              -2.78        -73.4364868             49.552        -78.8542871              3.219        -78.0896392            160.495
                      -1.46286582             -1.981
                      -74.2708706              85.08         -15.139239             -1.611        -78.8542871            138.761        -82.8424995             27.091
                      -82.2871226           -167.293
                      -72.5823397           -134.945        -70.8242224            107.631        -15.8634825             -1.529        -74.8608369             48.631
                      -86.2833745             15.305
                       -84.969799              2.917        -78.0826709             54.671        -75.0749538           -140.059        -15.8096997             -1.697
                      -76.5013681            -45.499
                      -1.45259274             -2.051        -75.0700284              5.103        -75.2290422            103.132        -73.7988852             32.775
                      -17.3292218             -2.062

             129.9       -17.3292218               -5.2         -78.525633             74.749        -80.0837874            -74.737         -85.321617           -178.983
                      -1.48344851             -3.389
                      -78.3156263             81.662         -15.139239              -3.34        -71.5023673             77.877        -85.0533178             25.526
                      -84.6613381            -31.519
                      -76.9481184            128.939        -69.2738826             76.527        -15.8634825             -3.281        -84.9836631             77.228
                      -85.4638263              13.32
                      -82.7002908            -76.239        -87.2242267            138.826        -77.2150156             94.888        -15.8096997             -3.477
                      -82.2746988            144.524
                      -1.47315107             -3.489        -89.0420456            -61.477        -76.8387841             19.895        -78.9615217             87.116
                      -17.3292218             -4.477

            189.85       -17.3292218             -7.243         -80.699731              67.29        -93.1871524           -132.749        -89.5406881            -85.892
                      -1.47315107             -4.986
                       -90.331107             91.291        -15.0897466             -4.789        -68.6265804             82.375        -84.7975843             28.785
                      -82.1703659            110.433
                      -90.4488934            138.094        -69.5772383             67.885        -15.8096997             -4.773        -78.4091399            100.647
                      -98.6362828              4.867
                      -80.1719339           -127.815        -76.4089642            111.855        -74.7985722             81.847        -15.7562479             -4.997
                      -77.1647354             58.983
                      -1.47315107             -5.046         -88.176481             50.681        -78.4526419            103.787        -77.4968834            112.214
                      -17.3292218             -6.146

             249.8       -17.2655887             -9.395        -81.9121816            117.148        -80.9800533            -146.91        -80.0943178           -123.445
                      -1.48344851               -6.4
                      -82.1792917             49.946        -15.0897466             -6.329        -68.1077298             74.254        -82.2882529             59.074
                       -81.505113            155.981
                      -79.9135725            110.636        -68.5588402             86.074        -15.7562479             -6.325         -75.676682             90.996
                      -84.2309759             43.191
                      -83.9376889            163.328         -77.721133             74.974        -73.5267093             80.236         -15.703123             -6.555
                      -72.6008479             70.362
                      -1.48344851              -6.49        -98.9846738             54.245        -98.8924334           -178.124        -75.7775892             82.604
                      -17.3292218             -7.957

            309.75       -17.2655887            -11.576         -79.667689             75.676        -84.2253228            -10.781        -81.8152999           -146.192
                      -1.49375817             -7.947
                      -79.1170476             93.517        -15.0405347             -7.918        -65.8895677             85.522        -75.4319928             78.051
                      -85.5885456            132.772
                      -92.2522035            174.514        -66.1096509             78.692        -15.7562479             -8.023         -74.009854             74.225
                      -94.1371703            130.809
                      -115.836549              -1.69        -78.0617997             76.491        -74.0798666             62.085         -15.703123             -8.182
                      -71.7912043             68.531
                      -1.50408008             -7.937        -90.5098472            -52.128        -82.7872517           -125.957        -72.7390481             92.093
                      -17.2655887            -10.036

             369.7       -17.2655887            -13.885        -77.8625891            102.573        -86.3228559             26.678        -82.3245008            131.844
                      -1.50408008             -9.381
                      -78.4890608            103.145           -14.9916             -9.534        -65.5341711             79.342        -74.5353433             90.462
                      -85.5325287            102.486
                      -80.9383431            103.932        -64.8947022             79.422         -15.703123             -9.651        -75.6819637             75.706
                      -88.4272158            107.081
                      -81.9588538            166.786        -74.2663806             78.622        -73.9620457             75.196        -15.6503211              -9.76
                      -71.7541498             81.582
                      -1.49375817             -9.491        -80.5652082            107.388         -86.025813            138.106        -70.4315562             84.574
                      -17.2024183            -12.011

            429.65       -17.2655887            -15.925        -76.1598081            104.779        -84.7045257            135.496        -88.5774745            120.887
                      -1.50408008            -10.844
                      -75.3299248            106.419        -14.9429394             -10.98        -63.8357805             78.924        -72.7352839             76.874
                      -88.2502707            151.697
                      -82.1592216            135.605        -63.7363893             83.004        -15.6503211            -11.166        -71.2672074             83.279
                      -89.3321858            112.854
                      -81.9882883            161.794        -74.3249323             87.864        -72.0864843             72.559        -15.6503211            -11.275
                      -70.7880562             84.884
                      -1.50408008            -10.864          -87.60353           -147.297         -91.315011             69.223        -70.6567207             93.686
                       -17.139704            -14.028

             489.6       -17.2655887            -18.108        -76.1598081            103.179        -83.2633943            159.162         -81.122199            165.062
                      -1.50408008            -12.347
                      -74.3385005             91.343        -14.9429394            -12.449        -62.5080446             78.476        -72.9178312             79.076
                       -93.832981            131.999
                      -86.2637009            101.505        -62.6282867             76.396        -15.6503211             -12.66        -71.0879159             73.021
                      -80.8239459            117.087
                      -80.1180582            152.101        -71.2196654             84.676        -70.2487488             80.911        -15.5978382            -12.871
                      -67.9631442             89.183
                      -1.50408008            -12.407        -86.7372937            160.808        -83.8384826            104.142        -68.9005308             89.333
                       -17.139704            -16.183

            549.55       -17.2655887            -20.385         -74.498382             94.546        -85.7824276            113.673        -81.1291205             169.99
                      -1.51441428            -13.787
                      -75.7722489             98.551        -14.8464285            -13.979        -61.6740801             80.151        -71.6339742             76.401
                      -90.7042496            168.807
                       -83.643406            117.769        -61.6236722             79.851        -15.5978382            -14.245        -70.0724789             83.086
                      -83.5540226            128.487
                      -83.1104565            152.434        -71.3342063             81.751        -70.2742248             80.156        -15.5978382            -14.565
                      -67.0386574             92.593
                      -1.51441428            -13.887        -83.5318197            139.039         -81.490664             97.086         -67.965317             95.156
                      -17.0774393            -18.614

             609.5       -17.2655887             -22.51        -73.2668035            100.678        -81.0454455            124.319        -81.7598125            148.986
                      -1.52476078            -15.257
                      -73.6178788             96.167        -14.7985722            -15.442        -60.8258562             79.905        -70.5771007             80.555
                      -84.3634569            123.681
                      -86.7184482             88.961        -60.8258562             78.365        -15.5456706            -15.721        -69.5850906             81.541
                       -90.047587            131.354
                      -78.0271255             161.45         -70.547796             77.115        -68.5658234             77.841        -15.5456706            -16.127
                      -66.7071605             92.885
                      -1.52476078            -15.297         -82.004684            152.671        -82.1170031            110.078          -66.60251             93.577
                      -17.0156177             -20.79

            669.45       -17.2655887            -24.167        -72.3813107            100.197        -79.0779043            131.617        -78.1807385            146.671
                      -1.53511963            -16.705
                      -72.6268258             92.749        -14.7985722            -16.722        -60.1189387             77.873        -70.6804526             82.133
                       -84.301951            159.954
                      -81.4341318             148.53        -60.1489296             78.123        -15.4938144            -17.081        -67.9674904              74.47
                      -78.6511431            131.674
                      -77.9856983            143.867        -69.8294056             72.813        -68.0592667              72.89        -15.4938144            -17.628
                      -65.6649129             90.006
                      -1.53511963            -16.765        -79.4693347             167.85        -82.2061242            128.859        -66.1448236             91.434
                      -17.0156177            -22.493

             729.4       -17.3292218            -25.908        -70.9031028             94.982        -83.2318344            142.722        -77.5951041            149.339
                      -1.52476078            -18.101
                      -72.2735885             96.326        -14.7509782             -18.06        -59.4938827             76.232        -69.5720074             74.502
                      -82.9236031            153.042
                      -78.6214478            125.689        -59.5927743             77.222        -15.4938144            -18.514        -67.2202368             73.749
                      -80.0881735            124.598
                      -81.9839213            141.539        -69.6113161             77.422        -67.7612875             72.119        -15.4938144            -19.094
                       -65.089136             95.375
                      -1.52476078            -18.171        -82.9078072            161.333        -83.0189862            108.925        -65.1063187              93.33
                      -17.0156177             -24.43

            789.35       -17.3292218            -27.888        -70.5331807             107.83        -78.2301906            138.279        -75.4217319            158.129
                      -1.53511963            -19.597
                      -70.1169081            106.297        -14.7036435            -19.562        -58.8011622              76.89        -68.5193746               76.9
                      -84.1563701            173.382
                      -80.3094537            125.663        -58.8771548              77.09        -15.4422659            -20.064        -67.4773004             71.758
                      -78.5770942             110.79
                      -76.5830359            156.796        -68.0988982              78.09        -66.9763788             83.167        -15.3910216            -20.713
                      -64.8399398             90.499
                      -1.53511963            -19.617        -78.6809404            156.338        -79.1958674            109.242        -64.2507905             95.349
                      -16.8932793            -26.758

             849.3       -17.3292218             -29.32         -69.634987             96.893        -79.1721463            136.065        -75.0111408            152.263
                      -1.54549084            -21.017
                      -70.5682989            108.442        -14.6097411            -20.906        -57.8966114             77.221        -67.7697823             76.281
                      -80.1763648            153.892
                      -79.5927743            145.498        -58.0617997             74.091        -15.3910216            -21.491        -66.0886155             71.438
                      -78.4236163             114.03
                      -75.6292899             150.27        -67.4097693             76.401         -65.908411             75.258        -15.3400778             -22.23
                      -63.7953496             93.868
                      -1.54549084            -21.047        -80.9956247            152.186        -78.9461212            110.042        -64.1942967             94.514
                      -16.8932793            -28.728

            909.25       -17.3292218            -30.564        -69.8267127            100.619         -77.271931            120.976        -75.7137221            152.921
                      -1.54549084            -22.471
                      -69.4036961            102.013        -14.6097411            -22.041        -57.6148822             76.851        -67.6327614             70.651
                      -78.5183062            144.691
                      -75.6345429            140.079        -57.8966114             76.101        -15.3910216            -22.689        -65.6715853             75.869
                      -76.5013681            115.807
                      -74.7036435            163.002        -67.6936269             71.371        -65.5720325             74.359        -15.3400778            -23.521
                      -63.0054711             93.897
                      -1.55587445            -22.571        -78.5476505            159.071        -75.6925369            130.245         -63.298878             93.053
                      -16.8932793            -30.182

             969.2       -17.3292218            -32.132        -68.2885296             108.79        -74.7699845            126.818        -73.0729405            151.199
                      -1.54549084            -23.934
                      -68.3360245            100.489         -14.516843            -23.291        -57.3612141             74.224        -66.9106933             75.245
                      -76.7966341              154.2
                      -77.8625891            132.156        -56.9298002             75.044        -15.3400778            -23.937        -64.9390688             74.803
                      -76.5071761            114.362
                      -72.7729995            149.591        -67.0308481             75.385        -65.0083653             72.933        -15.2390779            -24.803
                      -62.5977769             95.708
                      -1.55587445            -23.944        -79.8450444            159.229        -75.2340586            122.774        -62.0672714             94.833
                      -16.8327502            -31.955

