! Hittite Microwave Corporation
! 20 Alpha Road
! Chelmsford, MA 01824
! Tel: 978-250-3343
! Fax: 978-250-3373
! Device: HMC321LP4, DC-8.0 GHz, GaAS MMIC SP8T Non-Reflective Positive 
!         Control Switch in Low Cost Leadless SMT Package
! Misc: Data was de-embedded to package pins.
!       Port 1 = RFC
!       Port 2 = RF1    Port 6 = RF5
!       Port 3 = RF2    Port 7 = RF6
!       Port 4 = RF3    Port 8 = RF7
!       Port 5 = RF4    Port 9 = RF8
!          Vee = +5 V
!         Vctl =  0 V[Logic 0] / +5 V[Logic 1]
!
!  RF2 Selected,  VA = 1,  VB = 0,  VC = 0
!
!  Data reformated to new Touchstone file format - Fri Jan 12 11:45:23  2007
!
# MHz S DB R 50
! 9 Port Network Data
! Created Fri Jan 12 11:45:23 2007
! freq  dbS11  angS11  dbS12  angS12  dbS13  angS13  dbS14  angS14  
!       dbS15  angS15  dbS16  angS16  dbS17  angS17  dbS18  angS18  
!       dbS19  angS19  
!       dbS21  angS21  dbS22  angS22  dbS23  angS23  
!       dbS24  angS24  dbS25  angS25  dbS26  angS26  dbS27  angS27  
!       dbS28  angS28  dbS29  angS29  
!       dbS31  angS31  dbS32  angS32  
!       dbS33  angS33  dbS34  angS34  dbS35  angS35  dbS36  angS36  
!       dbS37  angS37  dbS38  angS38  dbS39  angS39  
!       dbS41  angS41  
!       dbS42  angS42  dbS43  angS43  dbS44  angS44  dbS45  angS45  
!       dbS46  angS46  dbS47  angS47  dbS48  angS48  dbS49  angS49  
!       dbS51  angS51  dbS52  angS52  dbS53  angS53  dbS54  angS54  
!       dbS55  angS55  dbS56  angS56  dbS57  angS57  dbS58  angS58  
!       dbS59  angS59  
!       dbS61  angS61  dbS62  angS62  dbS63  angS63  
!       dbS64  angS64  dbS65  angS65  dbS66  angS66  dbS67  angS67  
!       dbS68  angS68  dbS69  angS69  
!       dbS71  angS71  dbS72  angS72  
!       dbS73  angS73  dbS74  angS74  dbS75  angS75  dbS76  angS76  
!       dbS77  angS77  dbS78  angS78  dbS79  angS79  
!       dbS81  angS81  
!       dbS82  angS82  dbS83  angS83  dbS84  angS84  dbS85  angS85  
!       dbS86  angS86  dbS87  angS87  dbS88  angS88  dbS89  angS89  
!       dbS91  angS91  dbS92  angS92  dbS93  angS93  dbS94  angS94  
!       dbS95  angS95  dbS96  angS96  dbS97  angS97  dbS98  angS98  
!       dbS99  angS99  
!     
                54       -13.7649228              1.607        -68.6736076            -42.771        -2.04745817             -1.426        -65.1486393             54.681
                      -81.9013635            -66.276        -68.6500622            -70.087        -66.7165659              51.49        -74.2171433            168.295
                      -66.6509409           -131.695
                      -63.3574891             97.422       -0.184346164              -8.22        -66.6958874             70.968        -67.9544583           -106.985
                      -69.7223363             47.421         -72.156617             18.975        -61.9284341             55.388        -72.7767801             17.745
                      -75.6345429            151.989
                      -2.01453625             -1.298         -66.326454           -127.302        -13.7226556              1.653        -72.6752775             61.626
                      -68.4295079            -33.005        -65.7571117            170.011        -69.0346691             41.629        -65.3843545            -93.047
                       -64.010432             90.252
                      -73.9794001             10.758        -76.3917473            165.118        -66.9010755            156.096       -0.184346164             -8.147
                      -61.5829301             58.317        -68.5379243             173.25        -64.7825072            -164.26        -67.0778096            144.518
                      -67.8444679              0.368
                      -71.8419892             89.321         -62.922387            -86.204        -71.9788855             69.722        -63.4513221            -46.546
                     -0.184346164             -8.381        -69.2764094             91.882         -63.184082              1.566        -72.9679386            123.745
                      -63.4345378            101.803
                      -66.7090408             57.903        -73.8116555               2.87        -63.7417329             93.038        -68.1387114           -174.953
                      -64.7764837             78.411       -0.193222904              -8.36        -70.5244233             39.486        -72.7578936             30.121
                       -72.887139              1.084
                      -62.2871226             92.996        -75.4268608            -69.066        -64.3105071            151.035        -65.9720946             60.382
                      -68.2840198             13.867        -67.3225547             52.608       -0.184346164             -8.161        -61.6383443            -34.457
                       -72.910148           -165.393
                      -63.4720244             91.141        -68.3997577             -99.35        -64.0283681             23.038        -66.2726379             91.559
                      -66.6322817             86.923        -64.4210654             68.513        -68.4662639            -24.275       -0.193222904             -8.248
                      -65.8264841             91.516
                      -65.1000665            131.507         -70.544871             80.247        -70.1196925            -46.054         -70.562436           -165.868
                      -59.5349508            102.293        -64.0366588            -68.051        -66.0484393            -95.729        -65.4736078            -79.256
                     -0.175478486             -8.232

             98.73       -13.8073967              1.375        -63.7671596             68.626        -2.03647033             -2.585        -67.5040484             44.228
                      -66.0188629            144.068        -76.7966341           -139.057        -84.4355275            142.894        -74.9138734            164.776
                      -73.0144495             26.225
                      -60.9819982             71.075       -0.528207531            -14.415        -66.2744264             21.826        -72.8146767            -32.495
                      -76.2214303             26.052        -67.9783654            -93.965        -77.1835564            -51.047        -72.1954328           -177.674
                      -73.6303855             47.114
                      -2.00358995             -2.494         -66.999681             61.408        -13.7226556              2.255        -75.6187934            114.508
                      -78.9307479             49.422        -76.3004962           -136.625         -68.936909            121.931        -67.9544583             67.046
                      -77.0156177            102.918
                      -74.7652291             47.965        -68.3360245             62.907        -65.6100597             87.124       -0.500560114             -14.44
                      -77.5229672            100.173        -72.7390481             16.188        -71.5876846             88.624        -70.0918887             101.86
                      -72.4648121            168.621
                      -75.9775221             152.45        -69.3169385             78.581        -73.5143509             89.025        -64.8126876             74.266
                     -0.518981944            -14.797        -84.9574939             30.797        -71.1881148             89.053         -76.437735             89.319
                      -79.8279966             84.911
                      -75.1194082              4.186        -72.7240011            -25.132        -80.7393625             92.673        -73.9490526            -98.225
                      -75.5352745             87.281       -0.509766145            -14.777        -64.5917974             43.066        -74.0404151            146.391
                      -77.9102578              38.91
                      -73.2348554             46.086        -72.0065256             42.307        -70.6212439            -12.447        -70.9214082            -36.669
                      -84.3204999              174.9        -79.5844902             13.765       -0.500560114            -14.384        -67.0542971             57.892
                      -100.182572            -74.635
                      -71.2354838             17.862        -77.2402653             29.796        -77.5556824             21.232        -67.0367044             53.802
                      -68.3883425            -80.022         -76.862962             72.865        -70.7550357              29.44       -0.518981944            -14.506
                      -77.4903747             41.737
                      -77.4708777             52.126        -70.0503493              9.323        -69.0445059             54.898         -68.026378            -81.306
                      -75.3045941             97.906        -72.9602109             130.26        -71.2958579             -2.735        -69.6428916            146.276
                     -0.528207531            -14.426

            143.46       -13.7649228               1.05        -62.5417312             82.714        -2.04745817              -3.47         -64.577073             34.974
                      -71.5843876             -5.053        -80.2932672              8.809        -80.3283763              1.444        -80.4629171            163.121
                      -83.2570731            118.295
                      -62.7621462             68.101       -0.982970822            -19.823        -65.5095675             66.695        -79.5514326             -3.689
                      -70.8696428           -174.351        -77.8219374            176.252        -79.5185003            -51.373        -68.5588402             164.65
                      -74.4295007            -65.688
                      -2.00358995              -3.42        -62.9565019             74.353        -13.7226556              2.884        -66.7770029             75.355
                      -68.8932734             74.408        -75.6292899              62.91        -80.2717319            113.486        -71.0972606             85.231
                      -67.5040484             28.134
                      -69.3347297             36.336        -78.8695255             36.106        -68.7589034            105.335       -0.963539294            -19.905
                       -74.057927             98.825        -79.6928049            106.904        -75.4731583             176.28        -75.8365495            -29.077
                      -74.3385005            177.677
                      -69.3042528             41.401        -74.0798666            -46.364        -73.0222255              79.82        -77.4062022             53.413
                     -0.973249624            -20.471        -74.8272543             23.893        -78.2231087           -166.061        -80.6837409           -138.321
                      -83.8479466            -85.014
                      -75.1990046                115        -82.7264066            131.463        -89.6455281           -166.827        -77.1898391            -71.777
                      -82.6271112           -134.762       -0.963539294            -20.451        -65.0751026             55.861        -68.7970832             110.94
                      -75.8473127            147.901
                      -72.4247765            138.086        -73.1318281            -98.002        -88.9832079              76.26        -85.9272952             41.008
                      -77.7747497             25.814        -68.3655568             82.761       -0.963539294            -19.882        -72.9950396              65.16
                      -82.7896465              7.396
                      -72.6193956            154.837        -79.3961043             71.282        -78.1455871             75.339        -72.1074647            -140.16
                      -80.1905589             88.447        -80.6182079              8.704        -69.5380832             59.282       -0.973249624            -19.948
                      -67.7485609             73.215
                      -71.2576781             22.402         -79.576214             99.743          -76.03786            -70.755        -76.2834928             69.849
                      -67.7910556             14.925        -72.1320061           -125.159        -88.1742547             24.372        -68.1653552             99.792
                     -0.992702912             -19.81

            188.19       -13.7649228               0.78        -62.0265931             72.932        -2.04745817              -4.38        -69.8726057             34.978
                      -67.8294793             52.643        -83.7123841             68.247        -70.3854924            140.556        -73.4528213             77.881
                      -69.7730297             117.05
                      -62.4976167             63.394        -1.55587445            -24.279        -62.4284152             70.926        -75.5508733             98.432
                      -81.1429799              7.339        -80.5079242            174.581        -77.7613145            150.003        -84.9206827             64.312
                      -77.3228375            158.392
                      -2.01453625             -4.301         -64.575602             71.704        -13.6805931              3.318        -63.8479466             91.245
                      -69.4913289             75.099         -73.010564            165.397        -74.3249323            104.791        -74.4891662             -2.858
                      -71.3118158             20.079
                      -70.0891132             55.551          -79.25147             16.056        -64.7299427             90.183        -1.51441428            -24.553
                      -69.8807296             86.476        -78.5770942            -84.298        -74.5864233            -48.109        -73.4405675            -67.341
                      -82.5359138            -75.845
                      -84.4340802            -36.713        -75.5093387             32.914        -69.0568176             79.452        -67.2062868             46.577
                      -1.53511963             -25.26        -75.6187934            179.663        -84.3390886            -20.203         -89.791781            -17.381
                      -81.5839724           -151.124
                      -77.3228375            120.396        -86.2672746             36.085         -76.542106            -90.743        -76.0158704            -22.474
                      -78.0896392            -15.896        -1.51441428            -25.273        -67.2382056             84.137        -81.7992575             112.26
                      -83.9527365           -158.027
                      -84.0588061              43.83         -81.316093             31.554        -81.4372059             40.296        -71.9341571            -27.916
                      -72.7277604           -104.005        -64.7524314             80.361        -1.51441428            -24.585        -68.2637546              85.17
                      -80.4968804             60.583
                      -73.3512308             68.303         -86.622967           -129.807        -79.3074309             25.257        -78.6884057           -168.087
                      -80.0680155              0.264        -78.5844707            168.681        -65.9600105             68.924        -1.54549084            -24.524
                      -69.5250707             43.014
                       -70.417135              85.43        -77.0094597             14.187        -71.5350825             31.674        -77.5688031            -32.637
                      -85.8247855            -44.454        -82.8738827             50.621        -83.6354821           -105.826        -66.1854491            114.278
                      -1.55587445              -24.3

            232.92       -13.7226556              0.335        -61.0297846             65.187        -2.04745817             -5.283        -67.6557981              28.57
                      -71.0568394             62.931        -79.3799144             27.069         -74.498382             74.885        -75.3248527             72.443
                      -68.0570702             77.121
                      -59.7770528             83.808        -2.15810795            -27.728        -62.7418757             70.319        -78.1035924            -84.975
                      -86.4789375            -13.271        -76.7906294            -26.168        -77.2213212             85.346        -71.0692567            135.184
                       -70.296933             68.131
                      -2.01453625             -5.252        -61.8453253             67.137        -13.6805931               3.68        -60.1648492             99.935
                      -72.0411998              74.66          -75.98299              12.85        -77.0279469             53.572        -88.9077943              79.42
                      -70.2402734              8.934
                      -65.1564991             24.108         -85.929014            119.141        -63.4190733             95.788        -2.11367875            -28.144
                      -65.8196917             89.741        -74.0142133              0.022          -76.77264            104.248        -83.1328524            164.188
                      -73.6262146            -80.462
                      -70.2346277              48.54        -78.9615217             32.427        -68.8811912             90.407         -65.117271            104.065
                      -2.13586494            -28.989         -81.558992             73.734        -79.7179936            108.896        -76.6300503           -176.365
                      -79.8963897           -145.406
                      -72.9524901             14.999        -83.6051741            150.668        -72.9950396             51.936         -80.609818            -97.603
                       -75.411483              84.64        -2.12476476            -29.079         -65.296009             88.722        -69.6666488             28.276
                      -78.9924049             -34.83
                      -75.8311729             85.607        -82.4330116             65.091        -72.4903857             96.841        -76.1486509           -157.294
                      -78.1105774             26.266        -63.5448733             89.844        -2.11367875            -28.264        -66.2209307            100.554
                      -81.5631504           -146.862
                      -69.6745823              87.07        -75.3706082             43.839        -73.7988852             71.455        -75.6083095            -63.604
                      -82.2611659             -6.884        -76.2834928             40.213        -69.2764094              49.18        -2.14697932            -28.103
                       -64.826303             57.742
                      -70.0035101             99.297        -76.1208204             86.893         -74.212681             53.346        -81.2616864            130.358
                      -78.7258288            -71.296         -78.322784             86.079        -76.3061714             18.824        -69.6481654             90.183
                      -2.16925085            -27.779

            277.65       -13.7226556              0.343        -58.8542871             85.086        -2.05845994             -6.164        -66.4734453             15.546
