!Hittite Microwave Corporation								
!12 Elizabeth Drive								
!Chelmsford, MA 01824								
!Tel: 978-250-3343								
!Fax: 978-250-3373								
!Device: HMC356LP3, 350-550 MHz, GaAs PHEMT MMIC Low Noise Amplifier in leadless QFN SMT package																
!Misc: Vs = 5V, data is deembedded to the pins of the device, Room
!
# MHZ S MA R 50

50 0.93 -70.786 0.722 -57.518 7.994e-3 -55.378 0.997 -16.527
79.5 0.9 -64.728 1.813 -70.992 7.286e-3 172.311 0.984 -26.043
109 0.806 -67.069 2.97 -84.635 7.506e-3 137.643 0.967 -37.196
138.5 0.708 -70.649 4.167 -98.117 0.017 140.954 0.923 -47.919
168 0.611 -75.112 5.318 -111.196 0.024 130.578 0.865 -59.367
197.5 0.515 -78.272 6.322 -123.543 0.028 122.32 0.782 -70.752
227 0.427 -80.406 7.127 -135.443 0.036 115.171 0.693 -81.793
256.5 0.352 -79.677 7.682 -146.663 0.04 106.895 0.59 -92.006
286 0.294 -76.599 7.985 -156.829 0.045 100.098 0.49 -101.191
315.5 0.258 -70.426 8.116 -165.649 0.05 95.511 0.399 -108.855
345 0.237 -63.232 8.133 -173.671 0.053 90.314 0.316 -115.408
374.5 0.23 -57.227 8.031 179.371 0.056 85.708 0.243 -120.484
404 0.232 -52.479 7.86 173.116 0.06 82.239 0.18 -123.524
433.5 0.237 -49.307 7.666 167.88 0.062 80.173 0.131 -124.087
463 0.244 -47.476 7.491 163.025 0.064 77.272 0.087 -119.024
492.5 0.25 -46.627 7.291 158.611 0.067 76.145 0.058 -105.216
522 0.256 -46.562 7.074 154.732 0.069 74.863 0.044 -75.457
551.5 0.261 -47.069 6.885 151.16 0.07 73.173 0.048 -43.018
581 0.265 -47.775 6.702 147.874 0.072 72.305 0.063 -27.356
610.5 0.268 -48.983 6.525 144.822 0.075 71.356 0.078 -20.047
640 0.27 -50.225 6.349 141.919 0.077 70.079 0.094 -16.827
669.5 0.273 -51.572 6.188 139.355 0.078 69.5 0.108 -15.93
699 0.274 -53.033 6.037 136.709 0.081 68.594 0.12 -15.55
728.5 0.274 -54.688 5.874 134.527 0.083 68.052 0.13 -15.939
758 0.274 -56.333 5.754 132.272 0.085 67.657 0.141 -16.518
787.5 0.275 -57.923 5.614 129.86 0.087 66.812 0.15 -17.284
817 0.275 -59.408 5.467 128.01 0.088 66.568 0.158 -18.083
846.5 0.274 -61.277 5.36 126.082 0.091 66.129 0.165 -18.731
876 0.274 -63.112 5.241 124.104 0.093 65.83 0.172 -19.886
905.5 0.273 -64.804 5.133 122.169 0.095 64.99 0.179 -20.676
935 0.273 -66.487 5.001 120.44 0.096 64.911 0.186 -21.747
964.5 0.271 -68.244 4.915 119.076 0.099 64.959 0.191 -22.467
994 0.271 -70.125 4.837 116.903 0.101 64.252 0.197 -23.511
1023.5 0.271 -71.907 4.699 115.429 0.103 64.026 0.202 -24.545
1053 0.27 -73.601 4.635 114.124 0.106 63.594 0.207 -25.465
1082.5 0.269 -75.436 4.541 112.282 0.107 63.377 0.212 -26.408
1112 0.269 -77.296 4.445 110.985 0.11 62.97 0.217 -27.347
1141.5 0.268 -79.179 4.376 109.523 0.112 62.402 0.221 -28.385
1171 0.268 -80.993 4.302 108.04 0.115 61.992 0.225 -29.34
1200.5 0.269 -82.799 4.221 106.503 0.116 61.703 0.229 -30.337
1230 0.268 -84.702 4.135 105.504 0.119 62.273 0.233 -31.139
1259.5 0.268 -86.519 4.099 104.147 0.123 61.107 0.238 -31.998
1289 0.268 -88.549 4.007 102.199 0.123 60.328 0.24 -33.01
1318.5 0.268 -90.408 3.916 101.472 0.125 60.997 0.243 -33.756
1348 0.268 -92.281 3.89 100.286 0.129 60.38 0.247 -34.423
1377.5 0.268 -94.358 3.822 98.648 0.131 59.303 0.25 -35.414
1407 0.269 -96.314 3.754 97.415 0.131 59.117 0.252 -36.128
1436.5 0.27 -98.332 3.676 96.28 0.134 59.668 0.255 -36.831
1466 0.271 -100.263 3.639 95.429 0.138 58.616 0.258 -37.473
1495.5 0.272 -102.443 3.598 93.786 0.139 57.765 0.261 -38.375
1525 0.273 -104.508 3.513 92.695 0.141 57.875 0.263 -39.062
1554.5 0.274 -106.478 3.48 91.744 0.143 57.441 0.266 -39.738
1584 0.275 -108.513 3.416 90.395 0.146 57.274 0.268 -40.411
1613.5 0.277 -110.563 3.378 89.664 0.149 56.499 0.271 -40.964
1643 0.279 -112.854 3.351 87.773 0.15 55.594 0.273 -41.698
1672.5 0.28 -114.962 3.255 86.655 0.151 55.568 0.275 -42.201
1702 0.282 -116.976 3.226 86.233 0.155 56.006 0.277 -42.612
1731.5 0.285 -118.96 3.21 84.927 0.16 54.677 0.28 -43.299
1761 0.287 -121.436 3.17 83.2 0.158 52.994 0.28 -44.102
1790.5 0.289 -123.515 3.073 81.86 0.157 54.78 0.282 -44.346
1820 0.292 -125.647 3.045 82.242 0.167 54.086 0.285 -44.697
1849.5 0.296 -127.997 3.083 80.31 0.167 51.456 0.287 -45.636
1879 0.297 -130.171 2.968 78.319 0.165 51.868 0.287 -45.959
1908.5 0.301 -132.525 2.913 78.464 0.169 52.359 0.29 -46.441
1938 0.305 -134.519 2.92 77.312 0.173 51.659 0.292 -46.743
1967.5 0.308 -136.783 2.892 75.573 0.176 50.091 0.294 -47.444
1997 0.311 -139.151 2.823 74.152 0.173 50.005 0.294 -47.748
2026.5 0.314 -141.339 2.772 73.924 0.178 50.192 0.296 -47.947
2056 0.319 -143.58 2.782 72.665 0.181 49.035 0.298 -48.429
2085.5 0.323 -145.911 2.724 70.89 0.183 48.549 0.3 -48.844
2115 0.327 -148.206 2.69 70.515 0.184 47.261 0.301 -49.326
2144.5 0.331 -150.432 2.679 68.918 0.183 47.211 0.303 -49.65
2174 0.337 -152.566 2.61 67.888 0.187 48.02 0.306 -49.883
2203.5 0.342 -154.847 2.598 67.302 0.194 46.085 0.307 -50.474
2233 0.346 -157.196 2.57 65.553 0.19 44.684 0.308 -50.812
2262.5 0.35 -159.591 2.526 64.65 0.189 45.472 0.31 -50.988
2292 0.355 -161.762 2.494 63.34 0.196 45.572 0.313 -51.406
2321.5 0.362 -163.959 2.447 62.619 0.202 43.434 0.314 -51.828
2351 0.365 -166.404 2.447 61.44 0.196 42.189 0.316 -52.039
2380.5 0.371 -168.734 2.395 59.746 0.198 43.696 0.318 -52.236
2410 0.377 -170.997 2.376 59.255 0.204 42.617 0.323 -52.741
2439.5 0.382 -173.055 2.349 57.526 0.206 41.488 0.323 -53.11
2469 0.389 -175.444 2.315 57.09 0.206 39.593 0.326 -53.38
2498.5 0.392 -177.79 2.322 55.144 0.201 40.662 0.328 -53.463
2528 0.4 179.896 2.233 53.784 0.212 40.558 0.332 -53.939
2557.5 0.406 177.539 2.216 53.92 0.212 38.169 0.334 -54.196
2587 0.411 175.414 2.212 52.232 0.212 37.75 0.337 -54.866
2616.5 0.418 172.988 2.189 50.762 0.211 36.726 0.34 -55.027
2646 0.424 170.633 2.123 48.957 0.214 38.446 0.344 -55.382
2675.5 0.43 168.486 2.074 49.629 0.225 36.073 0.348 -55.861
2705 0.437 166.263 2.126 47.668 0.216 33.997 0.35 -56.322
2734.5 0.442 163.894 2.037 44.87 0.215 35.351 0.355 -56.657
2764 0.447 161.541 2.003 45.662 0.222 34.998 0.359 -57.415
2793.5 0.455 159.342 2.016 43.806 0.229 33.288 0.363 -57.688
2823 0.46 157.002 1.966 42.478 0.224 31.126 0.367 -58.07
2852.5 0.466 154.564 1.943 41.292 0.221 32.284 0.373 -58.618
2882 0.471 152.221 1.897 40.315 0.228 31.468 0.377 -59.29
2911.5 0.478 149.945 1.898 39.347 0.228 29.672 0.383 -59.835
2941 0.485 147.681 1.846 37.249 0.232 29.069 0.388 -60.565
2970.5 0.489 145.294 1.812 37.818 0.228 26.835 0.394 -61.285
3000 0.496 143.007 1.845 35.326 0.226 28.512 0.399 -61.99
