!Hittite Microwave Corporation								
!20 Alpha Road								
!Chelmsford, MA 01824								
!Tel: 978-250-3343								
!Fax: 978-250-3373								
!Device: HMC383, 12-30 GHz, Driver Amplifier Die																
!Misc: Vcc = 5V, data includes two K connectors, Room	
!
# MHZ S MA R 50

10037.5 0.233 -160.622 4.032 142.675 1.62e-3 -18.472 0.373 -129.045
10237.25 0.23 -171.632 4.437 129.263 1.63e-3 -28.895 0.345 -140.522
10437 0.227 176.075 4.692 115.576 1.91e-3 -27.179 0.322 -151.577
10636.75 0.226 165.537 4.885 103.081 1.781e-3 -23.445 0.299 -162.538
10836.5 0.223 153.506 5.181 89.318 1.657e-3 -30.318 0.274 -173.74
11036.25 0.223 143.774 5.411 75.499 1.655e-3 -24.382 0.255 175.114
11236 0.218 131.972 5.621 62.315 1.717e-3 -40.071 0.238 165.543
11435.75 0.22 121.153 5.833 49.997 1.721e-3 -35.27 0.222 155.91
11635.5 0.217 111.1 5.969 37.8 1.534e-3 -44.278 0.211 146.126
11835.25 0.218 100.186 6.014 24.674 1.508e-3 -37.736 0.202 136.289
12035 0.216 91.329 6.04 12.263 1.449e-3 -50.81 0.196 127.339
12234.75 0.212 80.519 6.245 0.351 1.908e-3 -44.283 0.191 118.335
12434.5 0.215 71.109 6.229 -11.338 1.459e-3 -55.902 0.189 108.568
12634.25 0.212 62.392 6.264 -21.675 1.608e-3 -56.366 0.19 99.776
12834 0.21 52.792 6.369 -32.145 1.779e-3 -59.029 0.191 90.901
13033.75 0.209 43.852 6.279 -43.714 1.55e-3 -57.622 0.194 80.596
13233.5 0.21 35.207 6.223 -53.564 1.474e-3 -59.8 0.196 71.107
13433.25 0.209 27.282 6.41 -63.054 1.596e-3 -65.889 0.198 62.441
13633 0.204 19.127 6.346 -75.22 1.626e-3 -70.53 0.203 53.33
13832.75 0.203 11.025 6.233 -84.119 1.526e-3 -67.998 0.207 43.719
14032.5 0.201 2.243 6.335 -92.867 1.509e-3 -74.653 0.212 34.14
14232.25 0.202 -4.812 6.286 -105.001 1.484e-3 -76.62 0.213 25.417
14432 0.197 -12.542 6.224 -113.747 1.293e-3 -83.223 0.214 16.226
14631.75 0.197 -20.134 6.409 -121.108 1.577e-3 -76.922 0.222 7.519
14831.5 0.193 -27.534 6.405 -130.644 1.364e-3 -84.033 0.225 -0.556
15031.25 0.193 -34.798 6.202 -140.126 1.548e-3 -85.22 0.224 -9.863
15231 0.19 -41.871 6.29 -148.052 1.477e-3 -89.361 0.228 -18.653
15430.75 0.191 -49.355 6.315 -157.941 1.399e-3 -85.981 0.23 -25.947
15630.5 0.192 -55.207 6.277 -167.848 1.704e-3 -88.872 0.229 -33.969
15830.25 0.19 -61.618 6.451 -175.543 1.556e-3 -96.057 0.232 -42.395
16030 0.188 -67.996 6.593 176.161 1.443e-3 -96.002 0.236 -50.581
16229.75 0.189 -75.088 6.449 166.94 1.557e-3 -103.842 0.235 -57.948
16429.5 0.194 -80.876 6.497 157.45 1.477e-3 -105.573 0.231 -65.233
16629.25 0.195 -86.114 6.786 149.679 1.252e-3 -112.838 0.236 -73.062
16829 0.194 -91.859 6.728 141.036 1.106e-3 -109.988 0.24 -80.149
17028.75 0.195 -98.964 6.531 132.428 1.1e-3 -102.106 0.232 -87.151
17228.5 0.199 -105.277 6.767 122.606 1.213e-3 -97.843 0.232 -94.467
17428.25 0.206 -110.457 6.856 113.831 1.115e-3 -107.893 0.235 -101.256
17628 0.208 -114.899 6.786 105.637 1.198e-3 -126.271 0.233 -107.067
17827.75 0.211 -121.114 6.919 96.864 1.134e-3 -111.983 0.232 -113.64
18027.5 0.215 -127.07 6.948 88.423 1.442e-3 -112.618 0.231 -121.171
18227.25 0.221 -133.796 6.917 79.743 1.287e-3 -119.447 0.229 -127.295
18427 0.228 -138.8 6.975 70.988 1.069e-3 -114.149 0.23 -131.95
18626.75 0.23 -145.099 7.035 62.294 1.227e-3 -128.365 0.226 -138.327
18826.5 0.239 -151.326 7.066 53.781 1.047e-3 -120.381 0.227 -145.208
19026.25 0.244 -157.952 7.094 45.034 1.113e-3 -134.478 0.228 -150.214
19226 0.254 -164.055 7.157 36.243 1.017e-3 -123.577 0.222 -154.97
19425.75 0.258 -170.025 7.185 28.06 1.222e-3 -136.853 0.222 -159.961
19625.5 0.267 -175.966 7.154 18.998 906.6e-6 -128.108 0.227 -165.565
19825.25 0.269 178.867 7.222 9.603 994e-6 -148.08 0.223 -170.653
20025 0.273 172.263 7.307 1.933 1.07e-3 -143.46 0.22 -173.945
20224.75 0.275 166.116 7.205 -6.077 1.323e-3 -146.195 0.223 -179.074
20424.5 0.281 158.983 7.231 -15.98 884.7e-6 -153.874 0.226 176.682
20624.25 0.288 153.58 7.19 -23.163 777.4e-6 -150.654 0.225 174.126
20824 0.291 147.919 6.979 -32.864 844.4e-6 -144.389 0.227 168.628
21023.75 0.291 142.681 7.201 -42.858 821.6e-6 -145.767 0.229 165.068
21223.5 0.288 136.373 7.363 -49.224 819.2e-6 -145.648 0.236 164.038
21423.25 0.29 130.435 6.913 -55.666 848.5e-6 -134.888 0.242 158.703
21623 0.291 124.494 6.962 -67.815 461.9e-6 -177.721 0.243 154.015
21822.75 0.293 118.924 7.207 -74.857 638e-6 -164.345 0.248 152.848
22022.5 0.289 113.627 6.876 -81.286 656e-6 -161.129 0.261 149.173
22222.25 0.288 107.805 6.869 -91.019 407.2e-6 -170.671 0.266 144.915
22422 0.283 102.597 7.029 -100.111 550.9e-6 -157.493 0.273 141.008
22621.75 0.28 96.362 6.859 -107.19 611.4e-6 -131.1 0.284 137.691
22821.5 0.275 91.53 7.023 -115.098 835.2e-6 -168.159 0.29 135.079
23021.25 0.268 86.162 7.033 -123.793 795.6e-6 174.81 0.3 130.627
23221 0.263 81.756 6.673 -132.232 764.3e-6 -171.718 0.317 126.485
23420.75 0.253 76.229 6.778 -139.812 569.1e-6 153.591 0.329 123.113
23620.5 0.251 71.025 6.912 -149.971 628.7e-6 162.245 0.337 118.539
23820.25 0.243 66.356 6.69 -158.986 518.9e-6 169.292 0.349 113.964
24020 0.237 62.489 6.896 -164.179 149.3e-6 131.689 0.366 109.962
24219.75 0.223 58.566 6.805 -171.669 371e-6 161.634 0.382 105.358
24419.5 0.212 53.388 6.469 178.494 214.8e-6 148.531 0.389 100.075
24619.25 0.201 49.015 6.359 171.547 238.2e-6 -170.092 0.401 94.642
24819 0.192 45.373 6.551 160.332 347.9e-6 -173.731 0.417 90.874
25018.75 0.176 42.657 6.627 151.095 527.1e-6 149.92 0.428 85.987
25218.5 0.163 38.498 6.729 148.088 154.6e-6 -16.954 0.445 79.167
25418.25 0.149 34.949 6.576 139.157 351.4e-6 149.67 0.455 74.936
25618 0.137 33.79 6.537 128.693 306.1e-6 25.811 0.46 70.509
25817.75 0.121 35.332 6.556 123.772 194.6e-6 9.632 0.476 63.634
26017.5 0.105 37.856 6.514 114.989 275.6e-6 11.571 0.483 58.749
26217.25 0.091 45.767 6.685 103.359 171.1e-6 14.937 0.493 54.655
26417 0.079 53.921 6.714 98.495 851.4e-6 79.985 0.506 47.795
26616.75 0.085 66.171 6.621 89.592 192.5e-6 -4.124 0.508 41.045
26816.5 0.093 78.819 6.741 78.978 405e-6 -72.825 0.512 37.186
27016.25 0.116 83.675 6.834 70.032 663.7e-6 -29.224 0.521 32.195
27216 0.144 89.524 7.007 62.377 621.1e-6 -39.495 0.531 25.375
27415.75 0.173 88.798 6.918 53.215 293.2e-6 -82.703 0.541 18.499
27615.5 0.208 87.292 6.771 43.81 533.2e-6 -114.424 0.532 13.335
27815.25 0.238 82.637 6.758 33.021 452.4e-6 -49.72 0.529 8.241
28015 0.28 76.872 6.746 23.922 878.3e-6 -41.064 0.551 2.091
28214.75 0.317 71.902 6.64 14.433 1.062e-3 -77.398 0.548 -4.531
28414.5 0.359 65.64 6.531 4.842 582.6e-6 -102.38 0.538 -11.062
28614.25 0.392 60.122 6.405 -3.885 636.5e-6 -97.675 0.546 -16.822
28814 0.428 52.486 6.349 -13.762 817.1e-6 -99.312 0.545 -22.603
29013.75 0.464 45.707 6.268 -21.262 1.095e-3 -100.332 0.548 -28.46
29213.5 0.496 38.074 5.818 -29.914 1.371e-3 -134.117 0.553 -36.158
29413.25 0.529 31.083 5.868 -41.497 926.2e-6 -120.725 0.551 -43.766
29613 0.559 23.084 5.95 -50.372 914.5e-6 -105.766 0.539 -49.507
29812.75 0.59 15.929 5.684 -56.828 574.1e-6 -95.069 0.542 -55.938
30012.5 0.614 8.165 5.527 -67.479 987.3e-6 -131.425 0.55 -63.403
30212.25 0.64 0.271 5.312 -77.896 943.2e-6 -134.428 0.552 -70.394
30412 0.66 -7.867 4.994 -87.979 262.5e-6 -140.825 0.551 -79.12
30611.75 0.683 -15.779 5.227 -102.667 1.02e-3 -117.125 0.542 -86.73
30811.5 0.698 -23.853 5.273 -108.944 802.4e-6 -116.394 0.536 -92.606
31011.25 0.715 -32.225 5.076 -109.718 813.9e-6 -94.232 0.554 -99.734
31211 0.729 -41.006 4.203 -122.606 762.8e-6 -136.423 0.561 -108.888
31410.75 0.746 -49.171 3.673 -136.64 1.24e-3 -143.688 0.547 -118.562
31610.5 0.754 -56.896 3.828 -150.877 945.7e-6 -154.619 0.535 -125.485
31810.25 0.758 -65.714 4.181 -159.243 1.955e-3 -179.598 0.537 -130.894
32010 0.767 -74.215 3.605 -158.363 1.021e-3 172.716 0.559 -140.468
32209.75 0.775 -83.079 3.235 -167.549 549.3e-6 152.893 0.555 -150.241
32409.5 0.782 -90.655 3.056 177.859 630.2e-6 -178.795 0.536 -157.501
32609.25 0.776 -98.72 2.994 174.137 1.011e-3 147.87 0.538 -164.957
32809 0.778 -107.07 2.793 170.345 980.7e-6 95.099 0.54 -172.558
33008.75 0.782 -116.033 2.663 159.172 572.8e-6 109.802 0.538 179.727
33208.5 0.79 -124.312 2.408 153.089 794e-6 106.267 0.54 171.852
33408.25 0.793 -132.02 2.39 147.001 688.4e-6 107.53 0.538 163.262
33608 0.792 -139.977 2.391 135.992 238.2e-6 -32.265 0.532 155.292
33807.75 0.795 -148.177 2.175 128.835 912.2e-6 22.615 0.523 148.558
34007.5 0.797 -156.366 2.27 124.832 639.2e-6 56.154 0.526 141.447
34207.25 0.802 -164.334 2.292 115.775 1.2e-3 72.506 0.544 133.571
34407 0.803 -172.174 1.871 112.041 660e-6 69.5 0.532 123.899
34606.75 0.808 -179.763 1.831 101.124 1.474e-3 25.46 0.519 115.008
34806.5 0.805 172.557 1.906 86.864 1.322e-3 45.132 0.518 109.963
35006.25 0.803 164.176 1.794 83.186 1.04e-3 72.712 0.525 102.088
