! Hittite Microwave Corporation
! 20 Alpha Road
! Chelmsford, MA 01824
! Tel: 978-250-3343
! Fax: 978-250-3373
! Device: HMC321LP4, DC-8.0 GHz, GaAS MMIC SP8T Non-Reflective Positive 
!         Control Switch in Low Cost Leadless SMT Package
! Misc: Data was de-embedded to package pins.
!       Port 1 = RFC
!       Port 2 = RF1    Port 6 = RF5
!       Port 3 = RF2    Port 7 = RF6
!       Port 4 = RF3    Port 8 = RF7
!       Port 5 = RF4    Port 9 = RF8
!          Vee = +5 V
!         Vctl =  0 V[Logic 0] / +5 V[Logic 1]
!
!  RF6 Selected,  VA = 1,  VB = 0,  VC = 1
!
!  Data reformated to new Touchstone file format - Fri Jan 12 11:50:14  2007
!
# MHz S DB R 50
! 9 Port Network Data
! freq  dbS11  angS11  dbS12  angS12  dbS13  angS13  dbS14  angS14  
!       dbS15  angS15  dbS16  angS16  dbS17  angS17  dbS18  angS18  
!       dbS19  angS19  
!       dbS21  angS21  dbS22  angS22  dbS23  angS23  
!       dbS24  angS24  dbS25  angS25  dbS26  angS26  dbS27  angS27  
!       dbS28  angS28  dbS29  angS29  
!       dbS31  angS31  dbS32  angS32  
!       dbS33  angS33  dbS34  angS34  dbS35  angS35  dbS36  angS36  
!       dbS37  angS37  dbS38  angS38  dbS39  angS39  
!       dbS41  angS41  
!       dbS42  angS42  dbS43  angS43  dbS44  angS44  dbS45  angS45  
!       dbS46  angS46  dbS47  angS47  dbS48  angS48  dbS49  angS49  
!       dbS51  angS51  dbS52  angS52  dbS53  angS53  dbS54  angS54  
!       dbS55  angS55  dbS56  angS56  dbS57  angS57  dbS58  angS58  
!       dbS59  angS59  
!       dbS61  angS61  dbS62  angS62  dbS63  angS63  
!       dbS64  angS64  dbS65  angS65  dbS66  angS66  dbS67  angS67  
!       dbS68  angS68  dbS69  angS69  
!       dbS71  angS71  dbS72  angS72  
!       dbS73  angS73  dbS74  angS74  dbS75  angS75  dbS76  angS76  
!       dbS77  angS77  dbS78  angS78  dbS79  angS79  
!       dbS81  angS81  
!       dbS82  angS82  dbS83  angS83  dbS84  angS84  dbS85  angS85  
!       dbS86  angS86  dbS87  angS87  dbS88  angS88  dbS89  angS89  
!       dbS91  angS91  dbS92  angS92  dbS93  angS93  dbS94  angS94  
!       dbS95  angS95  dbS96  angS96  dbS97  angS97  dbS98  angS98  
!       dbS99  angS99  
!     
                54       -13.8500792              1.856        -78.8542871             43.331        -69.0716147            160.489        -71.3246033            160.073
                      -70.3826215            -54.062        -62.4941435              48.01        -2.00358995              -1.35        -77.0898566            135.181
                      -66.9049213            -55.017
                      -62.5463879            117.246       -0.193222904             -8.239        -67.7782853            -83.933        -65.8281831            -28.964
                      -64.5520988              40.29        -65.1141403              31.17        -71.6273463           -174.146        -64.3505475            163.039
                      -65.8196917             79.074
                       -68.799475            -17.092        -68.4043281              7.794       -0.175478486             -8.173        -64.8490429              9.333
                      -68.9832079            -54.429        -72.4429516            130.188        -68.9734402            -56.755         -63.109214            -59.039
                      -73.8886737           -143.944
                      -68.0790598             80.164        -67.9827193             87.797        -75.3502427             -42.13       -0.193222904              -8.19
                      -65.4086055            147.328        -70.8696428           -121.218        -72.1671859           -167.105        -66.8378633             -7.897
                      -61.2326081            -55.288
                      -68.7208907             21.914        -70.9765568             -46.31         -72.237976             82.331        -70.3998611            131.597
                     -0.184346164              -8.37        -62.0694757            172.451        -65.8964151            141.055        -68.6406619             48.201
                      -68.8066544           -100.707
                      -64.4210654            116.968        -66.9415422            -51.175        -65.3280308            158.818        -73.3391194            -48.109
                      -65.8298824            -94.795       -0.184346164             -8.394        -66.4332751             43.206        -62.4767983            -48.696
                      -77.0279469           -108.913
                      -1.97083357             -1.209        -71.6905166            120.889        -70.6834237             67.037        -66.9106933             14.135
                       -66.500941             87.692        -64.9038629            100.331        -13.9360789              1.813        -66.1237029            170.434
                      -65.7571117              3.221
                      -67.7591651            121.495        -71.8114826             57.133         -71.047538            168.534         -73.773401            -21.085
                      -64.5550332            -89.448        -65.9513893            177.428        -64.0311308             10.708       -0.184346164             -8.268
                      -61.3474811           -125.833
                      -69.3653138           -103.393         -70.906151           -139.994        -65.9066963            -32.595        -68.6148633            -12.625
                      -75.7509208             87.432        -77.1022916             13.171        -68.4295079            -14.147        -66.3066827           -179.158
                     -0.193222904             -8.246

             98.73       -13.8073967              1.581        -70.8909206             -7.205        -82.0024961             83.306        -73.1160857            121.055
                      -75.1690704           -124.334        -66.2780046             27.488        -1.99265743             -2.647        -65.6565795             88.409
                      -67.5370825             71.877
                      -65.4524286             73.641       -0.528207531            -14.415        -72.9370691               4.19         -71.597583             61.941
                       -72.910148            -34.614        -75.9393423            -65.299        -75.0749538             45.621        -71.5712122            -31.127
                      -69.0003278             45.997
                      -72.3596591             22.444        -70.2827334             91.553       -0.518981944            -14.338        -69.7944631             82.934
                      -72.7277604            135.811        -77.4062022             28.497        -73.7437635             79.305        -71.2070314             74.243
                      -67.3447822           -175.923
                      -69.8186391             29.372        -72.0655544             132.08        -79.0467161              -75.1       -0.518981944             -14.45
                      -62.8581769             41.618        -70.7730313            -56.986        -83.5501003            127.792        -81.2336091             80.903
                      -76.9420081           -138.045
                      -79.3234861            -80.736        -75.3604195            127.825        -73.4569098           -125.104        -70.5947311            126.563
                     -0.518981944            -14.808        -72.6864972             -0.914        -68.5402458            -12.498        -70.2770601           -171.766
                      -72.5786428             53.333
                      -65.3312395             61.654        -68.4962431            -84.726        -74.2260748            -120.25        -74.8129015             26.659
                      -76.7846288            -32.043       -0.509766145            -14.777        -66.2744264             93.699        -69.3525573            166.657
                       -78.861903            151.216
                      -1.94906441             -2.516        -72.7957077             50.222        -82.6648043            -87.015        -92.9872878             68.517
                      -77.8761821            -91.193        -65.9479432            101.659        -13.8929726              2.719        -64.7644492             89.984
                       -64.010432             46.868
                      -71.4340637             83.967        -74.4295007            -94.695        -78.8011622            -21.844        -73.9533814           -104.259
                      -69.5172725           -112.296        -66.7523996             -2.544        -66.1536391             62.653       -0.518981944            -14.473
                      -68.7090458             47.418
                      -67.5288122             51.761        -81.6477895            124.206        -70.9122507            -57.059         -75.666128            159.144
                       -73.274809           -140.639        -72.9255212            -15.719        -68.6406619             49.759        -64.7855206             52.059
                     -0.528207531            -14.438

            143.46       -13.8073967              1.221        -71.2481594            114.012        -69.1784046            129.416        -74.5585242             96.751
                      -76.4839673             38.139        -71.9926945             31.946        -1.99265743             -3.569        -67.6831023             69.538
                      -69.2461361             62.476
                      -70.5800366             86.093       -0.992702912            -19.821        -70.2064542             67.569        -72.6454291            118.918
                      -73.8159164             15.419        -78.5403051           -116.143        -79.1327544             44.043         -75.798983            108.434
                      -73.5680314            -64.296
                      -72.2700207              2.934        -70.8757169             81.788       -0.992702912             -19.72        -66.7448434              64.78
                      -82.5138433             66.237        -81.1717592            150.482        -69.7944631             83.401        -72.3596591            111.304
                      -74.9623709            110.627
                      -76.8146734             -15.55        -76.4897637            -25.492        -69.3678674             64.878       -0.963539294            -19.916
                      -73.3674056             77.505        -81.0591719             70.164        -75.4217319            176.426        -79.3961043              -5.11
                      -76.8026431           -104.572
                      -81.0444658             60.748        -74.1548786            145.497        -77.4449497            173.477        -66.6155225             71.074
                     -0.973249624             -20.46        -73.4896867              4.178        -74.4937729            -176.57        -88.0220023            170.188
                      -80.0750217            -70.669
                       -71.408184             28.549        -82.5813928             79.023        -82.8437044            -36.282        -84.3577171              16.47
                      -76.5362746           -115.953       -0.963539294             -20.44        -64.3276447            107.654         -74.972103              14.31
                      -93.3028862            164.969
                      -1.95994217             -3.517        -79.2754091             44.802        -77.9650585            138.501        -77.8625891            -70.883
                      -73.9837441             110.01        -65.7352308              83.97        -13.8929726               3.51        -64.3634569             82.226
                      -69.0272988             71.298
                      -64.4326331               59.9        -84.3048021            103.532        -74.3611613             -159.4        -72.5197052            176.113
                      -82.4929861           -109.683        -75.2591842             73.661        -63.7886294             77.792       -0.973249624            -19.936
                       -66.269062                 91
                       -67.593114             43.054        -85.3489084            -34.492        -93.7353142           -115.727        -72.1495782            149.882
                      -71.8555821           -108.285        -83.6685461           -105.734        -67.8508995             45.155        -67.8230636             89.876
                     -0.992702912            -19.821

            188.19       -13.7649228              0.975        -65.0704298            100.312        -77.2402653            126.304        -79.1170476             64.224
                      -79.2117176             43.233        -66.8378633             27.224        -2.00358995              -4.53        -63.1953681             57.375
                      -65.5868929             70.843
                      -65.6067463             91.042        -1.55587445            -24.301        -69.2335533             71.343        -83.0967984            130.455
                      -78.6511431            -18.466        -71.7072171           -108.155        -70.6656126             45.969         -74.516843           -120.276
                      -81.1777255             -7.773
                      -68.4409774             60.663        -83.6064896              85.24        -1.55587445            -24.222        -71.6771794             76.697
                      -72.5086988             24.175        -83.0695466            -97.617        -76.6359451              5.794        -76.0543888             -2.407
                      -81.7141949            -57.013
                      -81.9523263              82.53        -86.4078086           -109.679        -68.0351362             48.222        -1.52476078            -24.561
                      -67.7464416             67.112        -75.2190181           -138.955        -72.8298818             60.493        -73.1752675           -143.904
                      -73.2149473             41.585
                      -74.0754743             77.743        -81.5434156             62.952        -86.5266825             97.138        -69.0716147             90.511
                      -1.53511963            -25.216        -78.3299476             84.675        -75.1640914             43.498        -79.2994144             114.56
                      -81.8657589            -10.445
                      -67.7083827             42.093        -75.8796825            -76.359        -83.0214457           -144.628        -84.8141993              8.281
                      -76.9054359              -34.8        -1.51441428            -25.284          -63.57235            110.207        -76.0930788             49.691
                      -88.1675792           -165.333
                      -1.97083357              -4.47        -69.5432937             69.978        -81.6477895             69.211        -80.8699082            -131.28
                      -73.4120424             67.273        -61.3444386            117.388        -13.8500792              4.002        -62.5662067             72.123
                      -66.7203309             37.774
                       -61.579804             54.476        -81.2176056           -119.912        -78.2870542           -148.165        -74.7842666             30.414
                        -81.83459           -137.199        -83.1890962            110.539        -65.0315876             76.563        -1.53511963            -24.472
                      -70.2177126             55.604
                      -65.6966528             68.858        -82.2589124           -100.874        -79.8963897             47.871        -78.8314795             40.358
                      -91.9033257            -43.822        -79.4611674            106.717        -67.3650385             68.188        -68.4089008             53.959
                      -1.55587445            -24.322

            232.92       -13.7649228              0.502        -65.4475484            100.289        -75.9994147             48.664        -74.2082209             63.683
                      -72.5197052            108.456         -63.681807             21.426        -1.99265743             -5.515         -65.434548              34.58
                      -61.9545016             76.146
                      -62.6435818             95.627        -2.16925085            -27.747        -66.0921178             94.167        -85.3827402             91.537
                      -80.5420643            136.926        -76.0986201            129.288        -68.5402458             55.206        -72.8032904             27.102
                      -74.1371703            103.225
                      -71.2007213             90.629        -68.3564592             70.642        -2.16925085             -27.67        -68.3020731              90.36
                      -78.2514709           -161.321        -80.1630789             100.72         -76.193366             76.544        -78.0826709            147.107
                      -74.4891662            174.339
                      -75.7402763             42.172        -79.0389365              25.23        -65.1943256              80.54        -2.11367875            -28.144
                      -67.3346718             88.733         -87.411808           -145.855        -74.5817672             61.296        -72.9950396            114.525
                      -72.3596591             28.709
                      -77.1710045           -162.294        -87.9284526             -9.974        -82.4872013            142.162         -66.622967             87.548
                      -2.13586494            -28.988        -74.2978594             34.895        -76.4319732             94.837        -82.4872013            -23.797
                      -78.4163751            -21.623
                      -66.1219452              3.226        -82.6683465           -151.436        -79.6343138             115.21        -77.6347055            -67.565
                      -84.4805134             84.229        -2.12476476            -29.057        -59.3074309            101.822        -78.5770942             89.523
                      -77.2655887             59.181
                      -1.97083357             -5.445        -69.8644893             40.652        -75.7509208             74.684        -80.5125299             -2.046
                      -75.8311729             26.753        -59.7770528            100.501        -13.8500792               4.48        -61.9959357             77.332
                      -64.8977547             44.841
                      -63.8750435             60.132        -75.9230307             61.483        -70.2233473             19.143        -73.7226556             -19.92
                      -89.5328759           -162.668        -79.4530078             23.952        -62.4318622             86.338        -2.14697932            -28.059
                      -65.5259621             82.916
                      -62.3700244             73.586         -80.691262            149.595        -89.8644893             20.456        -75.1243617           -122.642
                      -72.4284085            129.419        -75.4012463            112.116        -66.8397721             55.458        -70.4720635             68.643
                      -2.16925085            -27.758

            277.65       -13.7649228              0.472        -60.2413147             94.952        -71.3662931             86.122        -72.5344021             11.654
