!Hittite Microwave Corporation								
!12 Elizabeth Drive								
!Chelmsford, MA 01824								
!Tel: 978-250-3343								
!Fax: 978-250-3373								
!Device: HMC344, DC-8 GHz GaAs MMIC SP4T Non-Reflective Switch Die							
!Misc: Room Temp Vctl=-5V Port1=RFC, Port2=RF1, Port3=RF2, Port4=RF3, Port5=RF4, RF2 ON.								
!
# MHZ S MA R 50

10	0.918	17.919	0.000103	56.688	0.32	-71.91	0.0001212	118.937
	0.0003029	-50.55	0.000357	154.214	0.747	27.48	0.0003069	-170.368
	0.00006702	48.231	0.00005039	152.88	0.32	-71.78	0.00008689	18.766
	0.92	17.709	0.0003666	115.846	0.000326	-59.601	0.0003341	56.043
	0.000285	48.63	0.0005858	56.965	0.747	27.442	0.000173	-89.454
	0.0003114	-29.25	0.0003516	114.522	0.0002331	-34.408	0.0004509	-134.243
	0.747	27.46						
99.9	0.236	37.493	0.0004092	125.077	0.838	-16.703	0.0002412	174.428
	0.0004096	85.349	0.0004052	104.278	0.308	4.037	0.0005561	79.786
	0.0003571	23.434	0.0003083	108.926	0.836	-16.752	0.0000297	-173.034
	0.236	36.03	0.0001605	130.214	0.0003608	147.497	0.0002612	-127.807
	0.0002777	-114.396	0.0001327	-105.981	0.309	3.942	0.0006319	135.9
	0.00009941	131.185	0.0002179	15.641	0.0001607	158.114	0.0001035	65.621
	0.308	3.942						
189.8	0.178	20.856	0.0002452	62.544	0.847	-16.608	0.00008035	-171.703
	0.0005293	86.442	0.0003691	76.084	0.301	-6.271	0.0005074	89.076
	0.00008408	125.272	0.0000735	-79.322	0.846	-16.656	0.0004829	83.433
	0.175	18.019	0.000108	-33.143	0.00001803	176.484	0.00009309	-86.74
	0.00009724	123.734	0.0002342	43.485	0.302	-6.377	0.0004515	41.057
	0.0005212	77.554	0.0002039	-59.674	0.0001429	152.357	0.0002403	112.792
	0.302	-6.381						
279.7	0.164	9.389	0.0005559	76.548	0.849	-19.773	0.0001095	105.357
	0.0008063	63.464	0.0006359	65.399	0.298	-13.736	0.0005683	68.015
	0.0001346	48.31	0.00009159	73.852	0.848	-19.782	0.0006621	78.66
	0.159	4.779	0.0001172	51.619	0.00004626	48.203	0.0001309	-102.187
	0.00006847	51.839	0.0002177	69.412	0.3	-13.518	0.0004213	69.697
	0.0006665	76.955	0.00007616	-20.756	0.00009463	-167.592	0.0005799	57.772
	0.301	-13.593						
369.6	0.159	0.766	0.0007581	69.262	0.849	-23.814	0.0001125	116.02
	0.001003	70.609	0.0007772	74.883	0.298	-20.624	0.0007814	72.062
	0.00008589	43.33	0.00005015	81.085	0.849	-23.764	0.0009479	73.681
	0.153	-6.294	0.0002575	64.118	0.0001709	86.599	0.0001111	61.528
	0.0001053	35.647	0.0001992	50.146	0.299	-20.011	0.0007547	56.528
	0.001015	69.083	0.00007837	47.051	0.0001084	95.867	0.000831	62.408
	0.299	-20.107						
459.5	0.157	-6.527	0.0009823	69.714	0.849	-28.281	0.00008618	78.937
	0.001157	68.672	0.0009608	66.809	0.298	-27.147	0.001069	60.828
	0.00007423	58.337	0.0001855	89.734	0.849	-28.216	0.0009838	63.41
	0.151	-16.242	0.000313	61.168	0.0001758	101.772	0.0001523	95.098
	0.0001342	81.442	0.0002124	74.717	0.298	-26.377	0.0009725	65.871
	0.001155	67.374	0.000153	52.015	0.0001022	118.287	0.0009408	60.714
	0.298	-26.52						
549.4	0.156	-13.187	0.001107	61.884	0.849	-32.908	0.0001284	81.068
	0.001394	59.949	0.00109	60.684	0.301	-33.563	0.00117	63.01
	0.0002183	64.694	0.0001754	71.45	0.848	-32.87	0.001273	60.113
	0.151	-24.955	0.000254	52.764	0.0001604	61.248	0.000193	43.765
	0.0001302	61.938	0.0003116	62.648	0.297	-32.985	0.00113	60.628
	0.001381	61.889	0.0001911	59.901	0.000114	59.843	0.001107	58.487
	0.299	-33.22						
639.3	0.157	-20.262	0.001228	58.695	0.847	-37.657	0.00009801	79.146
	0.001633	58.816	0.001213	60.7	0.303	-39.609	0.001453	61.656
	0.00008864	1.268	0.0002446	51.93	0.846	-37.623	0.001418	58.175
	0.155	-32.218	0.0004049	58.758	0.0001797	88.069	0.0001193	49.351
	0.00008368	25.304	0.0002793	60.093	0.299	-39.109	0.001295	54.87
	0.001576	58.074	0.000237	56.905	0.0001205	47.779	0.001334	56.619
	0.3	-39.695						
729.2	0.153	-26.4	0.001345	53.08	0.847	-42.189	0.0001698	55.917
	0.001802	54.061	0.00141	53.44	0.307	-45.435	0.001574	53.862
	0.0001398	21.068	0.0002703	47.955	0.846	-42.213	0.00156	54.725
	0.16	-41.166	0.0004538	38.531	0.0001176	48.892	0.0001417	84.608
	0.0001421	49.457	0.0003969	42.431	0.304	-45.792	0.001511	53.4
	0.001816	55.962	0.0002003	69.05	0.0001848	55.873	0.001522	51.786
	0.304	-45.833						
819.1	0.152	-32.138	0.001579	50.662	0.848	-47.031	0.0001762	83.584
	0.002069	51.586	0.001541	50.85	0.31	-50.963	0.001779	49.068
	0.000141	57.201	0.0002409	43.212	0.847	-47.035	0.001746	52.987
	0.162	-48.088	0.0004509	39.889	0.0002335	40.264	0.0001351	89.261
	0.0001649	53.8	0.0005146	42.352	0.307	-51.55	0.001686	50.37
	0.002059	51.687	0.0002462	41.093	0.0002621	37.762	0.001638	47.723
	0.308	-51.403						
909	0.152	-38.154	0.001714	46.644	0.848	-51.856	0.0002024	78.124
	0.002269	48.601	0.001701	45.389	0.313	-56.191	0.001905	48.049
	0.0001489	48.287	0.000338	34.381	0.846	-51.844	0.001812	45.081
	0.164	-54.473	0.0005153	38.684	0.0002397	24.661	0.0001448	62.287
	0.0001764	42.786	0.0005067	34.823	0.31	-56.905	0.001792	43.137
	0.002233	50.114	0.00028	43.402	0.0001834	32.768	0.001763	43.868
	0.312	-56.671						
998.9	0.152	-44.241	0.001848	40.358	0.848	-56.756	0.000191	70.135
	0.002475	45.307	0.001871	43.361	0.315	-61.33	0.002056	42.787
	0.0002014	38.453	0.0002835	42.268	0.846	-56.744	0.002109	42.986
	0.166	-60.517	0.000554	29.032	0.000217	25.372	0.0001878	74.514
	0.0001941	26.333	0.0005695	30.481	0.311	-62.064	0.001942	41
	0.002437	44.062	0.0002908	43.285	0.0002254	31.871	0.001961	41.18
	0.314	-61.752						
1088.8	0.152	-50.091	0.001949	38.725	0.847	-61.636	0.0002291	81.714
	0.002657	41.501	0.00196	38.646	0.316	-66.424	0.002271	38.968
	0.000205	40.871	0.0003105	25.773	0.846	-61.603	0.002246	38.723
	0.166	-66.787	0.0006383	24.037	0.0002313	13.771	0.0002361	79.402
	0.000244	45.797	0.0006183	26.001	0.312	-67.24	0.002132	36.706
	0.002645	41.071	0.0003412	32.393	0.0002088	6.627	0.002095	36.928
	0.316	-66.77						
1178.7	0.152	-55.836	0.002132	32.693	0.847	-66.572	0.0002527	85.382
	0.002911	37.06	0.002109	33.419	0.316	-71.762	0.002382	34.656
	0.0002458	38.805	0.000376	24.815	0.846	-66.566	0.002428	34.207
	0.165	-73.334	0.0006796	20.731	0.0002306	-2.018	0.0002772	70.657
	0.0002076	27.816	0.0006526	20.133	0.311	-72.501	0.002263	31.335
	0.002847	36.73	0.0004081	28.274	0.0002413	6.142	0.002249	31.694
	0.315	-71.812						
1268.6	0.151	-61.812	0.002263	29.884	0.847	-71.502	0.0002573	87.235
	0.002962	32.983	0.002209	30.171	0.317	-77.141	0.002544	29.795
	0.0002618	20.233	0.0004116	19.473	0.846	-71.505	0.002577	31.663
	0.166	-79.895	0.000705	18.68	0.0002493	8.874	0.0002615	93.457
	0.000237	21.78	0.0007107	17.785	0.31	-77.954	0.002446	26.612
	0.003011	33.112	0.0004145	16.592	0.0002606	5.906	0.002457	26.041
	0.315	-77.156						
1358.5	0.15	-67.893	0.002355	25.846	0.846	-76.487	0.0003865	84.896
	0.003237	29.685	0.00234	25.322	0.317	-82.577	0.002744	26.45
	0.0002718	16.372	0.0004142	20.739	0.845	-76.425	0.002748	25.46
	0.167	-86.459	0.0008342	13.304	0.0002374	-17.523	0.0003742	78.835
	0.0002643	15.12	0.0007668	11.445	0.309	-83.862	0.002474	23.557
	0.003354	29.679	0.000465	18.874	0.0002398	-27.577	0.00247	23.382
	0.314	-82.862						
1448.4	0.151	-74.072	0.002377	24.616	0.845	-81.484	0.0004421	75.101
	0.003515	25.408	0.002296	24.312	0.317	-88.225	0.002862	21.535
	0.0002961	22.507	0.0004726	15.408	0.844	-81.473	0.002891	22.03
	0.166	-93.334	0.0007727	5.622	0.000198	-19.462	0.000397	68.657
	0.000301	10.039	0.0008148	6.905	0.31	-89.963	0.002667	19.881
	0.003493	25.721	0.0005226	12.555	0.000169	-15.093	0.002664	19.78
	0.315	-88.735						
1538.3	0.152	-79.919	0.002499	26.911	0.844	-86.452	0.0004396	65.721
	0.003702	22.066	0.002522	27.85	0.317	-93.81	0.003027	18.913
	0.0002844	18.234	0.0005515	10.689	0.843	-86.491	0.003011	17.752
	0.165	-100.051	0.0008543	-1.377	0.0002293	-2.836	0.0003909	58.335
	0.0002971	13.807	0.0008489	-1.449	0.313	-95.74	0.002741	14.675
	0.003645	22.099	0.0005166	-1.628	0.0002774	-8.59	0.002793	15.593
	0.318	-94.301						
1628.2	0.153	-85.122	0.002999	18.779	0.841	-91.455	0.0004623	69.302
	0.00385	18.227	0.003033	19.922	0.319	-98.952	0.003205	13.997
	0.000316	6.453	0.0005269	-1.16	0.841	-91.435	0.003218	13.684
	0.165	-106.549	0.0008439	-3.679	0.0002105	-42.657	0.0004608	72.093
	0.000266	10.171	0.0008555	-5.197	0.315	-101.288	0.002916	11.564
	0.003779	18.111	0.0004791	-8.618	0.0002349	-45	0.002913	11.503
	0.321	-99.67						
1718.1	0.154	-90.082	0.002993	12.676	0.839	-96.41	0.000533	65.956
	0.003993	14.79	0.002979	14.141	0.321	-104.071	0.003359	10.064
	0.0003289	4.061	0.0004399	-3.771	0.838	-96.391	0.003329	9.436
	0.166	-112.555	0.0009312	-9.934	0.00003471	-68.334	0.0004841	59.649
	0.0002889	-1.317	0.0008918	-7.418	0.316	-106.411	0.002997	7.112
	0.003945	14.617	0.0004243	-7.098	0.000104	-107.39	0.003004	7.084
	0.323	-104.638						
1808	0.156	-94.478	0.003006	12.099	0.835	-101.283	0.0005456	51.127
	0.004154	10.983	0.002955	12.85	0.322	-108.868	0.003467	6.093
	0.0003333	3.912	0.0004449	-1.772	0.834	-101.267	0.00343	7.579
	0.165	-117.638	0.000902	-19.734	0.0002632	16.29	0.0005684	55.45
	0.0003662	4.92	0.0008988	-17.832	0.318	-111.269	0.003146	3.939
	0.004209	10.893	0.0004735	-0.548	0.0001843	15.376	0.003125	3.949
	0.325	-109.47						
1897.9	0.158	-98.201	0.003558	14.151	0.833	-106.001	0.0004646	56.979
	0.004313	7.171	0.00357	13.013	0.321	-113.085	0.003547	2.388
	0.0003404	0.155	0.0004783	-10.408	0.832	-106.006	0.003565	2.552
	0.163	-122.07	0.0009267	-18.436	0.0002211	-32.514	0.0005267	45.429
	0.0003644	-2.823	0.0009357	-21.155	0.323	-115.877	0.003248	-0.553
	0.004314	7.012	0.0005231	-8.114	0.0002191	-49.902	0.003288	0.43
	0.33	-114.068						
1987.8	0.162	-101.335	0.003869	0.738	0.833	-110.762	0.0004777	52.415
	0.004479	4.006	0.003838	-0.468	0.328	-117.267	0.003689	-2.294
	0.0003286	-13.759	0.0004933	-17.55	0.832	-110.728	0.003704	-1.715
	0.162	-126.432	0.0009327	-27.691	0.0001705	-1.036	0.0005364	56.117
	0.0003672	-12.092	0.001011	-25.128	0.328	-120.514	0.003334	-3.707
	0.004463	3.877	0.0005087	-11.411	0.0001114	-3.785	0.003369	-4.551
	0.334	-118.666						
2077.7	0.164	-104.301	0.003712	-5.442	0.834	-115.623	0.0006068	54.016
	0.004691	0.169	0.003722	-5.845	0.333	-122.16	0.003878	-6.906
	0.0003259	-11.301	0.0005251	-20.907	0.832	-115.562	0.00377	-6.694
	0.163	-130.441	0.0009714	-28.705	0.0002223	3.761	0.0005542	55.482
	0.0003125	-15.924	0.0009875	-30.977	0.331	-125.261	0.003472	-7.002
	0.004646	0.191	0.0004946	-15.778	0.000206	14.818	0.003512	-6.712
	0.337	-123.242						
2167.6	0.167	-107.495	0.003652	-8.638	0.833	-120.538	0.0006737	56.423
	0.004832	-2.04	0.003673	-7.589	0.336	-126.75	0.00398	-10.17
	0.0003706	-20.756	0.0005246	-7.705	0.833	-120.538	0.003994	-10.601
	0.162	-134.414	0.000954	-35.273	0.0002762	0.548	0.0007249	53.844
	0.0003813	-6.565	0.0009775	-33.985	0.333	-130.084	0.003617	-10.867
	0.004846	-2.395	0.0005435	-14.437	0.0002786	-2.695	0.003587	-11.145
	0.339	-127.863						
2257.5	0.17	-110.818	0.003744	-9.654	0.834	-125.461	0.0007294	49.812
	0.00504	-6.608	0.003799	-8.315	0.337	-131.127	0.004042	-13.753
	0.0004344	-11.458	0.0006063	-17.958	0.832	-125.518	0.003996	-14.405
	0.16	-138.263	0.001062	-38.599	0.0003514	-6.209	0.0007096	52.832
	0.000434	-11.222	0.001015	-35.699	0.335	-134.867	0.003777	-14.812
	0.005089	-6.53	0.0005859	-16.259	0.0004491	-9.834	0.003757	-13.879
	0.34	-132.428						
2347.4	0.175	-113.864	0.004144	-12.871	0.833	-130.387	0.0008002	47.289
	0.005267	-9.943	0.004202	-13.998	0.337	-135.481	0.00421	-18.036
	0.0004784	-22.281	0.0006902	-26.159	0.832	-130.45	0.004166	-17.63
	0.155	-142.105	0.001106	-39.385	0.0004701	-33.44	0.0008076	43.658
	0.0004192	-18.892	0.001126	-40.582	0.337	-139.483	0.00392	-20.028
	0.005305	-9.881	0.0005902	-23.657	0.0004842	-26.273	0.003958	-20.671
	0.342	-136.873						
2437.3	0.181	-116.725	0.004292	-20.47	0.831	-135.362	0.0008438	41.934
	0.005479	-13.977	0.00426	-21.391	0.337	-139.801	0.004251	-21.981
	0.0004549	-22.717	0.0006059	-28.878	0.83	-135.387	0.004297	-22.423
	0.151	-145.809	0.00112	-46.753	0.0004504	-47.352	0.0008386	45.991
	0.0004362	-28.998	0.00111	-46.869	0.338	-143.855	0.004058	-23.633
	0.005436	-14.07	0.0006214	-23.556	0.0004392	-48.577	0.00403	-24.058
	0.343	-141.092						
2527.2	0.187	-119.722	0.004197	-25.608	0.83	-140.303	0.0008912	34.324
	0.00563	-18.275	0.004157	-26.322	0.336	-143.959	0.004414	-25.726
	0.0004927	-32.127	0.0005631	-19.226	0.829	-140.306	0.004402	-25.959
	0.147	-148.602	0.001168	-48.118	0.0004294	-64.754	0.0008947	41.044
	0.0004786	-31.848	0.001139	-49.23	0.338	-148.024	0.004112	-28.482
	0.005588	-17.669	0.0005917	-18.707	0.0004285	-59.726	0.004074	-28.063
	0.343	-145.129						
2617.1	0.194	-122.962	0.00419	-27.805	0.83	-145.296	0.0009618	32.382
	0.005805	-21.968	0.004166	-27.992	0.335	-148.077	0.00447	-29.925
	0.0004731	-37.71	0.0008563	-20.894	0.829	-145.304	0.004538	-29.758
	0.14	-151.104	0.001136	-53.379	0.0003752	-60.759	0.0009813	30.823
	0.0005024	-31.929	0.001175	-53.716	0.336	-152.296	0.004115	-31.804
	0.00577	-21.698	0.0008337	-14.289	0.0004079	-54.724	0.004151	-32.228
	0.341	-149.233						
2707	0.204	-125.978	0.004339	-32.287	0.828	-150.227	0.0009844	28.016
	0.005914	-25.513	0.004371	-31.959	0.332	-152.222	0.004571	-32.937
	0.0004932	-47.701	0.0009562	-35.192	0.827	-150.247	0.004545	-33.015
	0.132	-152.986	0.00132	-57.366	0.0004943	-68.315	0.0009494	29.592
	0.0005206	-40.868	0.001238	-55.492	0.334	-156.498	0.004236	-36.177
	0.005837	-25.599	0.0009488	-34.648	0.000506	-69.317	0.004252	-35.287
	0.339	-153.277						
2796.9	0.213	-128.742	0.004391	-36.895	0.826	-155.256	0.001004	23.711
	0.006054	-29.575	0.004366	-37.081	0.328	-156.534	0.004718	-36.862
	0.0004895	-48.61	0.0008698	-41.447	0.826	-155.194	0.004647	-36.664
	0.123	-154.186	0.001377	-63.972	0.0005958	-90.45	0.000979	26.602
	0.0004883	-47.924	0.001323	-63.999	0.331	-160.56	0.004384	-40.183
	0.005982	-29.862	0.000887	-43.22	0.0005849	-90.725	0.004395	-40.454
	0.335	-157.232						
2886.8	0.222	-131.196	0.004296	-39.928	0.825	-160.154	0.00101	23.317
	0.00614	-32.523	0.004296	-40.775	0.324	-160.965	0.004883	-41.092
	0.0005083	-44.715	0.0008951	-47.182	0.824	-160.153	0.004821	-40.706
	0.116	-154.833	0.001365	-71.931	0.0005478	-119.805	0.001028	23.285
	0.0005906	-50.883	0.001365	-70.743	0.326	-164.69	0.004478	-44.05
	0.006158	-33.334	0.0009562	-47.029	0.0005627	-118.283	0.004504	-43.699
	0.33	-161.232						
2976.7	0.231	-133.945	0.00436	-43.549	0.823	-165.143	0.001085	21.86
	0.006305	-35.957	0.004326	-43.13	0.319	-165.369	0.004947	-44.516
	0.0005476	-56.272	0.001004	-50.364	0.822	-165.113	0.004979	-44.635
	0.109	-154.656	0.001398	-73.887	0.0004273	-134.275	0.001121	21.752
	0.0006077	-54.831	0.001328	-74.871	0.32	-168.966	0.004626	-46.958
	0.006298	-35.907	0.001015	-50.989	0.0004493	-137.079	0.004603	-46.438
	0.324	-165.413						
3066.6	0.24	-136.692	0.004431	-46.239	0.82	-170.045	0.001134	19.616
	0.006504	-39.978	0.004402	-46.812	0.313	-169.78	0.005103	-48.571
	0.0006291	-63.98	0.001072	-60.375	0.819	-170.012	0.005115	-48.079
	0.103	-153.519	0.001452	-81.66	0.000363	-137.518	0.00119	20.409
	0.0006265	-60.383	0.00137	-78.037	0.314	-173.436	0.004882	-49.785
	0.006489	-40.121	0.001086	-57.736	0.0003389	-136.903	0.004826	-49.674
	0.318	-169.795						
3156.5	0.25	-139.148	0.004361	-48.979	0.817	-174.912	0.001227	15.08
	0.006553	-43.32	0.004409	-48.463	0.307	-174.228	0.005275	-52.077
	0.0006263	-64.17	0.001027	-65.82	0.816	-174.929	0.005246	-52.477
	0.098	-151.403	0.001428	-86.41	0.0004639	-139.323	0.001291	12.127
	0.0006167	-69.375	0.001433	-84.407	0.308	-177.826	0.005147	-55.11
	0.006596	-43.303	0.001059	-66.873	0.00043	-145.401	0.005169	-54.601
	0.311	-174.179						
3246.4	0.259	-141.399	0.004491	-51.306	0.814	-179.756	0.001278	9.886
	0.006727	-46.81	0.004547	-51.49	0.301	-178.614	0.005369	-55.991
	0.0006305	-64.903	0.001035	-72.121	0.813	-179.782	0.005382	-55.782
	0.095	-148.368	0.001403	-89.481	0.0004351	-172.859	0.001233	10.504
	0.0006542	-70.828	0.001476	-88.134	0.302	178.074	0.005302	-60.299
	0.006792	-46.942	0.001009	-67.972	0.0004106	-170.983	0.005297	-60.655
	0.305	-178.35						
3336.3	0.267	-143.818	0.004622	-54.857	0.812	175.479	0.001365	5.473
	0.006893	-50.387	0.004619	-55.081	0.295	177.167	0.005593	-59.616
	0.0006701	-75.88	0.001085	-75.24	0.811	175.479	0.005557	-59.261
	0.095	-144.936	0.001477	-94.034	0.0003856	167.606	0.001332	6.892
	0.0006776	-72.64	0.001482	-94.755	0.295	174.207	0.005453	-65.369
	0.006908	-50.346	0.001061	-76.738	0.0003527	163.753	0.005406	-65.462
	0.299	177.623						
3426.2	0.276	-146.592	0.004684	-57.385	0.81	170.731	0.001384	0.556
	0.007037	-54.133	0.004647	-57.726	0.289	172.904	0.005712	-63.892
	0.0006304	-80.367	0.001073	-80.23	0.81	170.705	0.005689	-63.777
	0.097	-142.118	0.001484	-100.591	0.000305	147.927	0.001413	4.379
	0.0006216	-80.261	0.001502	-100.319	0.289	170.209	0.005503	-71.21
	0.007055	-53.953	0.001078	-79.726	0.0003286	145.876	0.005502	-71.266
	0.292	173.494						
3516.1	0.285	-149.715	0.004739	-60.684	0.809	165.958	0.001452	-0.831
	0.007158	-57.481	0.004751	-60.047	0.282	168.576	0.00587	-68.416
	0.0006405	-85.506	0.001087	-82.443	0.809	165.927	0.005865	-68.042
	0.1	-139.285	0.001474	-105.672	0.0002017	139.749	0.001373	0.141
	0.0006435	-81.25	0.001478	-104.838	0.281	166.131	0.005574	-74.694
	0.007161	-57.571	0.00105	-80.322	0.000278	133.587	0.005517	-75.016
	0.284	169.215						
3606	0.294	-152.858	0.004817	-63.038	0.809	161.227	0.001475	-1.201
	0.007278	-60.905	0.004786	-63.086	0.274	163.953	0.006023	-72.192
	0.0006489	-84.582	0.001167	-87.709	0.808	161.249	0.006005	-71.407
	0.103	-137.59	0.001523	-108.04	0.0002724	151.766	0.001527	-0.354
	0.0006722	-87.749	0.001525	-106.145	0.274	161.908	0.005772	-78.616
	0.007282	-60.969	0.001149	-87.513	0.000208	153.886	0.005742	-78.474
	0.277	164.762						
3695.9	0.301	-156.144	0.004936	-65.588	0.809	156.381	0.001612	-4.41
	0.007451	-64.051	0.004884	-65.521	0.267	159.093	0.006262	-75.871
	0.0007325	-91.904	0.001132	-91.206	0.808	156.441	0.006282	-75.59
	0.107	-137.169	0.001492	-113.38	0.0004062	131.777	0.001633	-5.824
	0.0007313	-96.784	0.001516	-111.931	0.265	157.503	0.005915	-83.401
	0.007407	-63.998	0.001145	-95.548	0.0003804	125.857	0.005951	-83.211
	0.268	160.18						
3785.8	0.306	-159.592	0.005071	-68.276	0.81	151.627	0.00165	-9.589
	0.007559	-68.079	0.005019	-68.837	0.259	154.004	0.006459	-80.547
	0.0006718	-96.096	0.0011	-96.16	0.809	151.611	0.006392	-80.218
	0.109	-137.337	0.00159	-116.488	0.0004159	101.683	0.001668	-7.856
	0.0007325	-98.407	0.001568	-116.47	0.256	152.809	0.006111	-87.792
	0.007586	-67.282	0.001126	-97.3	0.0003841	111.412	0.006128	-87.906
	0.259	155.295						
3875.7	0.311	-163.287	0.005183	-71.889	0.81	146.758	0.001778	-11.134
	0.007724	-70.831	0.005186	-71.958	0.25	148.431	0.006627	-84.977
	0.0006789	-101.829	0.001104	-100.962	0.809	146.72	0.006588	-84.962
	0.11	-137.788	0.001664	-122.16	0.0004006	94.733	0.001714	-10.528
	0.0007219	-101.283	0.001658	-122.986	0.246	147.662	0.006269	-91.872
	0.007746	-71.462	0.001159	-100.63	0.0004515	96.563	0.006294	-92.456
	0.249	149.956						
3965.6	0.315	-166.887	0.005329	-75.284	0.809	141.912	0.001877	-14.657
	0.007933	-74.605	0.005329	-75.927	0.242	142.436	0.006771	-88.844
	0.0007163	-109.856	0.00115	-102.978	0.809	141.934	0.006783	-88.704
	0.11	-138.63	0.001701	-129.3	0.0005016	81.215	0.001856	-16.257
	0.0007343	-105.387	0.001614	-130.11	0.235	142.175	0.006559	-97.425
	0.007933	-74.192	0.001126	-105.789	0.0004844	76.562	0.006508	-97.329
	0.239	144.121						
4055.5	0.318	-170.337	0.005339	-78.964	0.81	137.03	0.001961	-21.045
	0.008076	-78.309	0.005309	-79.099	0.234	135.903	0.00711	-92.942
	0.0007523	-113.599	0.001179	-109.847	0.809	137.003	0.007045	-93.251
	0.109	-139.482	0.001641	-136.109	0.0006413	58.573	0.001946	-20.774
	0.0007105	-111.701	0.001642	-136.882	0.225	136.108	0.00668	-102.857
	0.008107	-78.232	0.001178	-109.854	0.0006739	60.412	0.006696	-102.746
	0.229	137.736						
