!Hittite Microwave Corporation								
!12 Elizabeth Drive								
!Chelmsford, MA 01824							
!Tel: 978-250-3343								
!Fax: 978-250-3373								
!Device: HMC318MS8G, 5-6 GHz LNA with AGC in 8-lead Grounded Base Surface Mount Plastic Package
!Misc: Room Temp Vdd = +3V Idd = 5.7 mA. Vctl =1.0 V	 , DEEMBEDDED TO THE PINS OF THE DEVICE							
!
# MHZ S MA R 50

4000 0.816 -127.39 1.172 -27.947 0.021 102.92 0.641 32.519
4030 0.81 -128.564 1.228 -29.734 0.021 101.922 0.643 31.72
4060 0.805 -129.883 1.356 -35.444 0.02 105.426 0.645 31.067
4090 0.798 -131.112 1.248 -35.656 0.023 106.074 0.644 30.376
4120 0.789 -132.452 1.278 -36.875 0.022 104.058 0.644 29.647
4150 0.78 -133.909 1.447 -39.102 0.019 99.378 0.644 28.886
4180 0.772 -135.517 1.35 -42.107 0.023 99.993 0.644 28.277
4210 0.763 -136.958 1.365 -44.128 0.024 100.509 0.643 27.623
4240 0.754 -138.223 1.491 -45.162 0.023 100.928 0.643 26.919
4270 0.739 -139.862 1.453 -48.311 0.023 97.833 0.641 26.262
4300 0.726 -141.745 1.479 -51.195 0.024 95.861 0.639 25.573
4330 0.716 -143.891 1.572 -53.818 0.025 95.012 0.637 24.843
4360 0.704 -145.288 1.526 -55.147 0.027 93.049 0.634 24.189
4390 0.689 -147.053 1.57 -57.614 0.027 92.886 0.631 23.487
4420 0.672 -149.197 1.708 -61.228 0.026 94.512 0.626 22.737
4450 0.657 -151.413 1.632 -63.045 0.027 89.348 0.622 22.032
4480 0.642 -153.349 1.654 -65.46 0.028 85.826 0.616 21.326
4510 0.625 -154.999 1.774 -68.469 0.029 83.951 0.61 20.609
4540 0.604 -157.528 1.736 -70.916 0.03 84.324 0.605 19.74
4570 0.585 -160.056 1.758 -73.844 0.03 83.076 0.598 18.967
4600 0.57 -162.6 1.841 -77.249 0.03 80.211 0.589 18.299
4630 0.546 -164.549 1.841 -78.362 0.03 75.305 0.58 17.374
4660 0.522 -166.966 1.871 -81.861 0.031 72.769 0.571 16.493
4690 0.499 -169.904 1.933 -87.75 0.034 72.6 0.563 15.654
4720 0.48 -172.346 1.883 -86.873 0.033 69.057 0.55 14.849
4750 0.457 -174.931 1.933 -89.49 0.032 65.65 0.538 13.838
4780 0.429 -177.642 2.087 -95.602 0.032 62.378 0.526 12.633
4810 0.406 179.652 1.947 -96.45 0.034 55.277 0.51 11.949
4840 0.383 177.158 1.963 -98.49 0.034 50.293 0.493 11.224
4870 0.36 174.892 2.137 -101.72 0.031 47.43 0.475 10.467
4900 0.339 172.14 2.023 -105.561 0.031 43.749 0.461 10.133
4930 0.321 169.972 1.999 -107.776 0.029 37.774 0.443 9.958
4960 0.307 168.427 2.066 -108.362 0.026 29.508 0.423 9.968
4990 0.291 165.706 2.104 -112.327 0.024 28.749 0.41 10.205
5020 0.281 162.118 2.105 -115.198 0.021 29.606 0.399 10.716
5050 0.28 157.631 2.071 -116.978 0.017 32.072 0.391 11.495
5080 0.269 153.549 2.181 -118.572 0.017 41.258 0.383 10.593
5110 0.256 147.845 2.222 -122.017 0.017 47.95 0.375 9.633
5140 0.24 140.309 2.193 -127.313 0.019 52.147 0.368 8.612
5170 0.233 135.251 2.228 -127.515 0.021 51.718 0.353 7.659
5200 0.22 129.316 2.271 -130.387 0.022 51.87 0.339 6.42
5230 0.202 122.298 2.321 -135.917 0.023 52.613 0.326 4.87
5260 0.195 114.252 2.293 -137.372 0.024 47.811 0.31 3.739
5290 0.188 107.769 2.298 -139.899 0.025 44.804 0.294 2.438
5320 0.181 102.886 2.335 -143.497 0.026 43.593 0.277 0.967
5350 0.168 94.3 2.341 -146.204 0.027 41.192 0.26 -0.579
5380 0.163 86.17 2.333 -149.213 0.028 38.277 0.242 -2.053
5410 0.163 78.926 2.309 -152.529 0.028 34.841 0.224 -3.429
5440 0.157 73.815 2.358 -154.689 0.028 31.548 0.205 -5.417
5470 0.153 66.733 2.361 -157.83 0.029 28.437 0.187 -7.445
5500 0.152 57.973 2.316 -161.943 0.03 25.517 0.169 -9.547
5530 0.153 53.485 2.355 -163.283 0.03 23.677 0.151 -11.611
5560 0.152 47.824 2.365 -166.091 0.03 21.106 0.132 -14.301
5590 0.148 40.99 2.346 -170.36 0.03 17.81 0.113 -17.756
5620 0.15 36.003 2.344 -172.076 0.031 14.08 0.096 -21.785
5650 0.15 31.335 2.343 -174.655 0.032 10.945 0.078 -27.738
5680 0.148 26.894 2.345 -178.094 0.033 8.406 0.06 -36.819
5710 0.147 22.229 2.342 179.322 0.033 5.302 0.047 -53.056
5740 0.146 18.39 2.337 176.653 0.033 1.993 0.037 -76.381
5770 0.144 15.294 2.329 173.902 0.034 -1.518 0.033 -107.379
5800 0.14 10.316 2.346 171.035 0.035 -4.798 0.045 -135.343
5830 0.137 6.423 2.339 168.246 0.036 -7.857 0.06 -150.187
5860 0.137 3.597 2.307 165.534 0.036 -10.696 0.074 -159.1
5890 0.128 2.058 2.323 162.725 0.037 -13.825 0.094 -166.699
5920 0.122 -1.466 2.319 159.88 0.038 -16.997 0.114 -171.347
5950 0.117 -6.674 2.295 156.997 0.039 -20.213 0.135 -174.279
5980 0.11 -6.482 2.306 154.225 0.04 -23.245 0.153 -177.715
6010 0.1 -8.171 2.305 151.365 0.041 -26.312 0.174 179.676
6040 0.087 -12.663 2.292 148.414 0.043 -29.416 0.198 177.55
6070 0.081 -15.272 2.287 145.578 0.044 -32.845 0.217 175.866
6100 0.07 -14.549 2.284 142.632 0.045 -36.282 0.238 173.881
6130 0.057 -13.15 2.284 139.588 0.047 -39.712 0.261 171.564
6160 0.041 -14.628 2.263 136.527 0.049 -42.826 0.284 170.476
6190 0.03 -13.639 2.258 133.603 0.05 -46.281 0.306 168.89
6220 0.019 3.607 2.27 130.817 0.051 -50.073 0.327 166.863
6250 0.014 67.536 2.237 127.179 0.054 -53.397 0.354 165.312
6280 0.026 107.8 2.224 123.985 0.056 -56.852 0.379 163.728
6310 0.041 118.777 2.234 121.226 0.057 -60.444 0.402 162.159
6340 0.06 119.547 2.204 117.458 0.06 -63.739 0.427 160.203
6370 0.08 118.76 2.191 114.07 0.062 -67.277 0.453 158.367
6400 0.1 117.147 2.193 111.061 0.064 -71.059 0.479 156.664
6430 0.123 113.769 2.153 107.334 0.066 -74.526 0.506 154.762
6460 0.147 110.671 2.131 103.719 0.068 -78.234 0.533 152.924
6490 0.172 107.826 2.129 100.218 0.07 -82.182 0.559 151.159
6520 0.193 104.152 2.071 96.608 0.073 -85.879 0.584 149.016
6550 0.217 100.465 2.043 92.904 0.076 -89.796 0.61 146.792
6580 0.245 96.699 2.046 89.106 0.078 -93.934 0.636 144.489
6610 0.268 93.567 1.986 85.278 0.08 -97.522 0.663 142.302
6640 0.291 89.728 1.948 81.446 0.083 -101.511 0.688 140.048
6670 0.316 85.205 1.933 77.61 0.085 -105.9 0.713 137.726
6700 0.342 81.296 1.86 73.763 0.087 -109.861 0.735 135.298
6730 0.366 77.664 1.815 69.845 0.089 -113.645 0.758 132.83
6760 0.387 74.32 1.799 65.856 0.09 -117.254 0.78 130.322
6790 0.406 69.502 1.726 62.136 0.092 -121.328 0.799 127.808
6820 0.429 65.298 1.671 58.164 0.093 -125.333 0.818 125.353
6850 0.453 61.685 1.634 53.939 0.095 -129.271 0.838 122.959
6880 0.467 58.017 1.573 50.403 0.096 -133.04 0.85 120.518
6910 0.483 54.02 1.519 46.654 0.096 -136.849 0.862 117.933
6940 0.501 49.688 1.47 42.693 0.096 -140.697 0.874 115.206
6970 0.516 45.651 1.4 39.195 0.097 -144.608 0.887 112.981
7000 0.53 41.748 1.34 35.548 0.097 -148.146 0.896 110.746
