!Hittite Microwave Corporation								
!12 Elizabeth Drive								
!Chelmsford, MA 01824								
!Tel: 978-250-3343								
!Fax: 978-250-3373
!Device: HMC347, DC - 20 GHz GaAs MMIC SPDT Non-Reflective Switch 
!Misc: Port1=RFC, Port2= RF1, Port3=RF2, RF1 ON, Data includes two K sonnectors, Bias: -5VDC								
!
# MHZ S MA R 50

10 0.104 2.212 0.906 -1.349 0.019 -41.295
          0.853 -2.912 0.131 13.782 0.032 -8.072
          0.012 6.781 0.012 126.178 0.318 172.257
134.95 0.123 -2.812 0.859 -5.747 467e-6 174.273
          0.861 -5.852 0.122 -3.127 840.3e-6 110.214
          775.1e-6 50.89 386e-6 -146.823 0.318 173.687
259.9 0.13 -5.485 0.856 -10.637 743.8e-6 85.597
          0.862 -10.761 0.124 -5.195 493e-6 29.174
          251e-6 -157.075 450.6e-6 -166.596 0.319 168.172
384.85 0.129 -8.577 0.855 -15.666 302.7e-6 38.336
          0.857 -15.624 0.123 -10.409 176.7e-6 -28.72
          465.8e-6 71.034 196.2e-6 26.328 0.316 163.211
509.8 0.131 -13.31 0.856 -20.443 325.2e-6 20.277
          0.857 -20.688 0.127 -14.472 87.96e-6 27.248
          461.1e-6 16.531 152.8e-6 -50.162 0.313 158
634.75 0.132 -16.297 0.852 -25.48 123.9e-6 44.493
          0.851 -25.573 0.128 -18.17 67.29e-6 -45.341
          320.2e-6 4.723 289.7e-6 -94.109 0.311 152.773
759.7 0.135 -19.443 0.852 -30.26 333.7e-6 28.073
          0.851 -30.355 0.128 -21.197 390.5e-6 -101.924
          240.8e-6 32.391 368e-6 -89.845 0.311 147.474
884.65 0.134 -22.561 0.849 -35.273 253.7e-6 26.172
          0.852 -35.095 0.13 -25.021 329.5e-6 -81.989
          340.2e-6 40.669 334.7e-6 -136.408 0.308 142.393
1009.6 0.133 -25.532 0.853 -40.078 224.1e-6 29.532
          0.85 -40.038 0.134 -29.464 221e-6 -94.148
          355.6e-6 47.559 413.9e-6 -116.865 0.307 137.115
1134.55 0.135 -29.599 0.848 -45.098 387.5e-6 36.414
          0.849 -45.051 0.134 -33.494 190.4e-6 -120.472
          602.6e-6 42.209 329.2e-6 -139.994 0.307 131.666
1259.5 0.137 -33.333 0.849 -49.647 509.5e-6 44.796
          0.849 -49.797 0.136 -38.04 351.8e-6 -127.615
          438.3e-6 30.838 411.2e-6 -134.668 0.306 126.821
1384.45 0.136 -38.308 0.851 -54.677 565.2e-6 32.974
          0.848 -54.794 0.137 -42.613 470.8e-6 -123.014
          672e-6 29.096 463e-6 -138.515 0.305 121.509
1509.4 0.135 -42.027 0.848 -59.549 624.8e-6 32.211
          0.847 -59.462 0.138 -46.816 336.9e-6 -151.171
          613.8e-6 28.903 404.4e-6 -161.546 0.305 116.573
1634.35 0.141 -48.068 0.846 -64.519 618.1e-6 23.574
          0.847 -64.606 0.135 -52.055 524.9e-6 -165.176
          677.6e-6 20.238 543.3e-6 -167.438 0.306 111.171
1759.3 0.143 -50.273 0.846 -69.02 699.2e-6 24.74
          0.847 -69.243 0.136 -55.801 460.9e-6 -175.741
          787.2e-6 27.784 510.8e-6 -161.951 0.305 106.474
1884.25 0.143 -55.314 0.847 -74.331 817e-6 27.982
          0.847 -74.276 0.138 -59.796 426.2e-6 175.804
          705.7e-6 34.913 407.7e-6 -174.334 0.303 101.13
2009.2 0.143 -58.564 0.841 -79.101 854.6e-6 21.964
          0.846 -78.989 0.137 -63.891 472.8e-6 -177.528
          791e-6 21.76 592.7e-6 169.734 0.303 96.298
2134.15 0.145 -64.101 0.846 -84.072 877.6e-6 12.308
          0.845 -84.031 0.139 -68.418 513.4e-6 176.197
          910.4e-6 18.951 546.8e-6 175.993 0.303 90.941
2259.1 0.144 -65.822 0.844 -88.338 991.2e-6 27.443
          0.842 -88.8 0.14 -72.681 729.6e-6 161.567
          1.035e-3 16.618 745e-6 150.778 0.301 86.042
2384.05 0.145 -72.318 0.842 -93.829 997e-6 11.633
          0.844 -93.719 0.141 -76.909 654e-6 155.2
          1.061e-3 12.753 591e-6 128.109 0.301 81.011
2509 0.148 -75.623 0.84 -98.268 955.7e-6 7.035
          0.842 -98.209 0.14 -80.754 698.3e-6 140.756
          1.156e-3 17.656 605.3e-6 148.823 0.301 76.258
2633.95 0.148 -79.534 0.843 -103.467 1.179e-3 5.981
          0.843 -103.529 0.14 -85.788 922.3e-6 144.361
          1.075e-3 1.743 752.4e-6 122.143 0.3 70.711
2758.9 0.147 -82.429 0.84 -108.005 1.23e-3 4.594
          0.842 -108.169 0.14 -89.34 706.1e-6 135.677
          1.085e-3 10.593 881.8e-6 127.042 0.299 65.927
2883.85 0.149 -87.312 0.841 -113.426 1.168e-3 -6.35
          0.843 -113.147 0.143 -93.188 735.4e-6 121.426
          1.144e-3 -2.46 865.8e-6 128.006 0.3 60.571
3008.8 0.149 -90.577 0.842 -117.859 1.192e-3 -2.319
          0.842 -117.856 0.142 -97.854 962.8e-6 121.913
          1.186e-3 -5.258 800.3e-6 122.75 0.299 55.728
3133.75 0.147 -94.158 0.842 -122.891 1.364e-3 -7.397
          0.841 -122.907 0.143 -102.307 950.8e-6 112.88
          1.274e-3 -7.358 1.097e-3 116.047 0.299 50.628
3258.7 0.148 -99.427 0.838 -127.465 1.34e-3 -8.019
          0.842 -127.485 0.141 -106.962 1.048e-3 104.374
          1.298e-3 -8.463 1.004e-3 108.375 0.298 45.586
3383.65 0.15 -103.209 0.838 -132.676 1.482e-3 -14.685
          0.838 -132.587 0.142 -112.645 1.119e-3 94.827
          1.476e-3 -16.873 952.3e-6 101.369 0.296 40.327
3508.6 0.149 -106.595 0.84 -137.419 1.493e-3 -17.944
          0.839 -137.396 0.144 -115.519 1.122e-3 95.276
          1.486e-3 -17.004 1.215e-3 86.252 0.296 35.344
3633.55 0.151 -110.74 0.84 -142.307 1.476e-3 -19.904
          0.841 -142.471 0.14 -119.386 1.245e-3 75.167
          1.518e-3 -16.843 1.152e-3 80.974 0.298 30.094
3758.5 0.147 -116.284 0.838 -146.836 1.683e-3 -28.631
          0.841 -146.932 0.141 -123.752 1.241e-3 85.829
          1.801e-3 -21.121 1.099e-3 83.203 0.295 25.342
3883.45 0.147 -119.91 0.84 -152.102 1.731e-3 -31.621
          0.84 -152.097 0.14 -129.313 1.455e-3 72.188
          1.64e-3 -25.911 1.219e-3 81.734 0.297 20.066
4008.4 0.152 -123.013 0.841 -156.669 1.613e-3 -32.329
          0.836 -156.509 0.139 -133.588 1.334e-3 65.493
          1.812e-3 -33.364 1.347e-3 67.242 0.296 15.113
4133.35 0.149 -129.05 0.835 -161.674 1.628e-3 -31.979
          0.836 -161.874 0.138 -137.292 1.249e-3 60.662
          1.763e-3 -40.315 1.36e-3 61.742 0.295 10.047
4258.3 0.149 -131.609 0.837 -166.677 1.98e-3 -35.255
          0.836 -166.698 0.138 -141.243 1.234e-3 53.38
          1.767e-3 -36.994 1.48e-3 60.078 0.294 5.201
4383.25 0.152 -136.642 0.838 -171.777 2.1e-3 -42.263
          0.837 -171.652 0.138 -145.716 1.528e-3 51.523
          1.93e-3 -38.233 1.51e-3 47.224 0.294 -0.397
4508.2 0.153 -139.342 0.831 -176.253 2.101e-3 -45.077
          0.834 -176.25 0.138 -148.825 1.712e-3 43.965
          1.985e-3 -42.04 1.596e-3 43.123 0.295 -5.179
4633.15 0.152 -142.301 0.835 178.608 1.997e-3 -50.213
          0.835 178.661 0.139 -152.88 1.563e-3 36.114
          1.854e-3 -52.423 1.527e-3 41.314 0.296 -10.513
4758.1 0.153 -146.811 0.833 174.079 2.166e-3 -53.021
          0.835 173.919 0.134 -157.9 1.652e-3 38.676
          2.059e-3 -54.824 1.639e-3 30.937 0.295 -15.098
4883.05 0.156 -150.892 0.831 168.75 2.13e-3 -61.043
          0.834 168.85 0.134 -161.579 1.733e-3 27.357
          1.958e-3 -59.976 1.686e-3 24.783 0.295 -20.728
5008 0.154 -154.686 0.833 164.109 2.151e-3 -63.947
          0.836 164.372 0.137 -166.36 1.7e-3 21.847
          2.027e-3 -59.302 1.705e-3 22.551 0.295 -25.461
5132.95 0.152 -158.419 0.836 159.079 2.27e-3 -65.942
          0.837 159.337 0.136 -172.148 1.878e-3 13.819
          2.14e-3 -65.855 1.867e-3 14.72 0.293 -30.644
5257.9 0.149 -162.589 0.832 154.53 2.318e-3 -68.795
          0.833 154.409 0.135 -174.934 1.968e-3 9.81
          2.383e-3 -69.382 1.987e-3 11.197 0.293 -36.077
5382.85 0.154 -166.345 0.833 149.349 2.349e-3 -72.086
          0.832 149.377 0.136 -178.916 1.999e-3 5.124
          2.269e-3 -72.144 1.995e-3 5.82 0.295 -41.596
5507.8 0.15 -170.179 0.83 144.785 2.313e-3 -76.686
          0.832 144.876 0.134 175.865 2.104e-3 -0.561
          2.406e-3 -76.543 2.015e-3 2.08 0.295 -45.942
5632.75 0.148 -175.369 0.834 139.532 2.537e-3 -82.285
          0.832 139.703 0.131 172.187 2.125e-3 -7.848
          2.582e-3 -80.817 2.254e-3 -8.665 0.294 -51.096
5757.7 0.15 -179.845 0.829 134.888 2.419e-3 -83.596
          0.831 134.829 0.129 167.186 2.272e-3 -14.398
          2.55e-3 -84.941 2.288e-3 -10.951 0.293 -56.201
5882.65 0.157 176.672 0.83 129.71 2.526e-3 -89.423
          0.831 130.013 0.13 164.053 2.209e-3 -15.949
          2.678e-3 -87.049 2.32e-3 -18.551 0.292 -61.795
6007.6 0.158 171.803 0.828 125.322 2.671e-3 -89.662
          0.83 125.403 0.128 159.346 2.382e-3 -20.746
          2.731e-3 -92.706 2.349e-3 -22.575 0.292 -66.205
6132.55 0.157 168.495 0.83 120.203 2.77e-3 -99.641
          0.828 120.242 0.129 156.336 2.419e-3 -28.442
          2.613e-3 -95.494 2.401e-3 -28.489 0.292 -71.685
6257.5 0.159 165.593 0.827 115.39 2.782e-3 -98.833
          0.828 115.346 0.13 152.159 2.458e-3 -32.989
          2.686e-3 -101.475 2.58e-3 -34.17 0.292 -76.983
6382.45 0.158 162.129 0.828 110.326 2.796e-3 -103.848
          0.833 110.457 0.128 147.052 2.523e-3 -40.415
          2.943e-3 -104.036 2.54e-3 -42.095 0.292 -82.262
6507.4 0.158 157.331 0.826 105.891 2.938e-3 -106.094
          0.827 105.774 0.129 143.078 2.539e-3 -45.339
          2.748e-3 -107.5 2.619e-3 -44.894 0.289 -87.224
6632.35 0.155 150.969 0.831 100.367 2.95e-3 -111.184
          0.824 100.647 0.128 138.479 2.562e-3 -47.929
          3.013e-3 -110.909 2.607e-3 -48.973 0.291 -92.4
6757.3 0.158 147.78 0.826 95.906 3.007e-3 -115.756
          0.826 96.06 0.129 135.047 2.701e-3 -53.813
          3.072e-3 -115.206 2.703e-3 -53.952 0.29 -97.305
6882.25 0.162 143.926 0.827 91.004 3.118e-3 -115.98
          0.825 90.954 0.13 131.052 2.691e-3 -59.919
          3.119e-3 -118.995 2.721e-3 -57.717 0.29 -102.736
7007.2 0.161 140.125 0.821 86.298 3.033e-3 -124.442
          0.823 86.361 0.129 126.583 2.75e-3 -64.625
          3.147e-3 -124.221 2.763e-3 -64.669 0.289 -107.659
7132.15 0.164 134.769 0.826 81.166 3.264e-3 -126.471
          0.824 81.182 0.129 121.66 2.836e-3 -70.499
          3.2e-3 -125.289 2.949e-3 -68.952 0.289 -113.255
7257.1 0.167 131.811 0.825 76.575 3.323e-3 -131.13
          0.824 76.606 0.132 118.581 2.969e-3 -72.477
          3.182e-3 -131.751 2.908e-3 -74.032 0.289 -118.315
7382.05 0.163 127.488 0.824 71.698 3.321e-3 -136.972
          0.825 71.543 0.133 113.774 3.123e-3 -77.326
          3.197e-3 -136.088 3.062e-3 -77.961 0.287 -123.472
7507 0.167 122.713 0.821 66.88 3.311e-3 -138.233
          0.819 66.829 0.128 109.571 3.183e-3 -86.666
          3.284e-3 -140.074 3.077e-3 -82.31 0.286 -128.523
7631.95 0.169 117.558 0.819 61.62 3.484e-3 -142.263
          0.821 61.745 0.133 106.257 3.275e-3 -87.564
          3.366e-3 -145.27 3.166e-3 -88.085 0.287 -134.178
7756.9 0.173 114.336 0.823 57.104 3.249e-3 -144.724
          0.82 57.054 0.136 102.545 3.27e-3 -93.191
          3.483e-3 -148.269 3.209e-3 -93.571 0.288 -139.193
7881.85 0.171 109.926 0.82 51.923 3.569e-3 -151.744
          0.82 51.836 0.135 98.183 3.395e-3 -99.32
          3.414e-3 -150.686 3.386e-3 -98.127 0.287 -144.487
8006.8 0.176 105.288 0.822 47.541 3.46e-3 -154.631
          0.821 47.249 0.134 94.886 3.302e-3 -104.999
          3.526e-3 -155.114 3.44e-3 -104.248 0.287 -149.907
8131.75 0.178 101.949 0.818 42.136 3.599e-3 -159.395
          0.821 42.387 0.132 91.015 3.382e-3 -110.218
          3.678e-3 -159.887 3.5e-3 -110.715 0.289 -155.15
8256.7 0.177 97.538 0.818 37.636 3.615e-3 -163.775
          0.82 37.687 0.138 84.959 3.445e-3 -114.479
          3.583e-3 -162.812 3.589e-3 -114.157 0.288 -160.092
8381.65 0.182 92.486 0.817 32.463 3.655e-3 -167.296
          0.813 32.343 0.138 82.447 3.621e-3 -121.982
          3.653e-3 -166.339 3.57e-3 -120.67 0.287 -165.634
8506.6 0.184 89.47 0.817 27.98 3.718e-3 -169.876
          0.817 27.728 0.138 77.781 3.507e-3 -125.351
          3.756e-3 -172.283 3.578e-3 -125.699 0.289 -170.814
8631.55 0.189 84.657 0.816 22.729 3.725e-3 -175.623
          0.817 22.966 0.139 72.836 3.692e-3 -130.466
          3.792e-3 -176.055 3.702e-3 -130.509 0.289 -176.066
8756.5 0.187 80.429 0.818 18.121 3.853e-3 -179.058
          0.817 18.133 0.143 67.767 3.843e-3 -135.554
          3.861e-3 -179.992 3.807e-3 -137.144 0.287 179.242
8881.45 0.187 75.276 0.817 13.073 3.69e-3 175.899
          0.812 13.006 0.14 63.964 3.895e-3 -140.751
          3.845e-3 178.213 3.886e-3 -139.66 0.286 173.438
9006.4 0.189 70.494 0.816 8.425 3.884e-3 173.349
          0.813 8.298 0.143 60.14 3.816e-3 -145.677
          3.879e-3 173.156 3.903e-3 -144.405 0.286 168.23
9131.35 0.192 66.072 0.816 3.201 3.859e-3 170.215
          0.814 3.118 0.146 55.085 3.889e-3 -150.25
          3.789e-3 169.994 4.06e-3 -149.753 0.288 162.967
9256.3 0.194 60.795 0.815 -1.447 3.893e-3 164.471
          0.814 -1.328 0.145 51.056 3.961e-3 -154.543
          3.91e-3 164.963 4.051e-3 -155.686 0.286 157.739
9381.25 0.199 56.613 0.816 -6.262 3.939e-3 159.898
          0.813 -6.482 0.148 47.421 4.109e-3 -159.89
          4.011e-3 160.786 4.169e-3 -160.64 0.288 152.197
9506.2 0.199 51.98 0.811 -11.136 4.029e-3 155.359
          0.814 -11.193 0.148 42.493 4.041e-3 -164.432
          4.07e-3 157.023 4.145e-3 -165.511 0.287 147.073
9631.15 0.207 46.13 0.812 -16.375 3.951e-3 152.254
          0.809 -16.49 0.151 39.859 4.204e-3 -170.218
          3.984e-3 154.372 4.186e-3 -172.573 0.289 141.352
9756.1 0.209 42.13 0.811 -20.704 4.105e-3 148.79
          0.812 -20.953 0.154 35.821 4.231e-3 -174.599
          4.011e-3 148.245 4.252e-3 -174.079 0.29 136.177
9881.05 0.215 39.041 0.813 -26.136 4.05e-3 145.287
          0.814 -26.049 0.153 31.661 4.355e-3 -179.593
          3.887e-3 144.546 4.357e-3 178.884 0.291 131.251
10006 0.215 34.56 0.81 -31.108 4.146e-3 140.215
          0.81 -31.322 0.159 26.414 4.335e-3 172.753
          4.121e-3 139.909 4.368e-3 175.505 0.292 125.483
10130.95 0.216 29.167 0.811 -36.332 4.201e-3 137.056
          0.809 -36.588 0.16 19.936 4.403e-3 169.243
          4.064e-3 136.967 4.53e-3 169.299 0.292 119.406
10255.9 0.216 26.744 0.808 -39.141 4.132e-3 134.813
          0.81 -39.275 0.16 18.381 4.354e-3 167.507
          4.119e-3 134.564 4.542e-3 167.061 0.293 116.488
10380.85 0.22 20.959 0.81 -44.304 4.149e-3 130.339
          0.812 -44.55 0.16 13.753 4.384e-3 160.929
          4.124e-3 129.686 4.491e-3 160.652 0.294 111.193
10505.8 0.223 15.569 0.81 -50.779 4.153e-3 124.263
          0.812 -50.601 0.163 8.03 4.513e-3 154.665
          4.19e-3 124.775 4.59e-3 154.901 0.296 104.55
10630.75 0.226 10.627 0.808 -56.149 4.163e-3 120.427
          0.807 -55.959 0.166 3.096 4.553e-3 149.366
          4.096e-3 119.632 4.626e-3 148.999 0.296 98.327
10755.7 0.227 8.083 0.809 -58.884 4.212e-3 119.25
          0.807 -58.754 0.168 1.292 4.597e-3 145.408
          4.155e-3 118.432 4.632e-3 146.596 0.298 95.514
10880.65 0.229 3.376 0.81 -63.669 4.163e-3 116.778
          0.811 -63.728 0.171 -4.083 4.687e-3 141.869
          4.125e-3 115.419 4.685e-3 142.283 0.299 90.228
11005.6 0.228 -1.47 0.809 -70.235 4.211e-3 110.649
          0.811 -69.847 0.17 -11.134 4.584e-3 134.77
          4.174e-3 111.036 4.663e-3 135.398 0.301 83.655
11130.55 0.224 -7.733 0.809 -75.685 4.288e-3 106.263
          0.807 -75.463 0.169 -16.101 4.654e-3 129.628
          4.267e-3 105.76 4.796e-3 130.281 0.302 78.019
11255.5 0.224 -11.114 0.811 -78.436 4.306e-3 104.703
          0.81 -78.38 0.168 -18.238 4.689e-3 127.245
          4.272e-3 104.694 4.805e-3 127.736 0.303 75.191
11380.45 0.226 -17.216 0.81 -83.233 4.222e-3 100.458
          0.81 -83.543 0.166 -22.065 4.709e-3 123.105
          4.312e-3 100.436 4.742e-3 123.074 0.304 69.83
11505.4 0.233 -24.441 0.806 -89.796 4.341e-3 96.38
          0.81 -89.718 0.166 -26.972 4.86e-3 117.238
          4.279e-3 96.314 4.749e-3 117.649 0.306 63.317
11630.35 0.238 -29.158 0.807 -95.31 4.254e-3 91.672
          0.809 -95.543 0.167 -31.48 4.913e-3 111.717
          4.296e-3 91.661 4.92e-3 110.197 0.307 57.582
11755.3 0.239 -30.758 0.808 -97.913 4.197e-3 89.745
          0.808 -98.056 0.17 -33.358 4.991e-3 108.815
          4.274e-3 89.196 4.946e-3 107.539 0.308 54.555
11880.25 0.241 -35.142 0.807 -102.872 4.291e-3 87.082
          0.808 -102.999 0.173 -38.579 4.964e-3 102.948
          4.257e-3 85.251 4.887e-3 103.429 0.311 49.31
12005.2 0.245 -40.499 0.809 -109.129 4.284e-3 80.236
          0.807 -109.183 0.173 -43.944 4.97e-3 95.585
          4.352e-3 81.58 5.03e-3 97.357 0.313 43.264
12130.15 0.242 -46.028 0.809 -114.499 4.238e-3 75.915
          0.81 -114.945 0.174 -50.301 5.012e-3 91.35
          4.322e-3 77.029 5.063e-3 91.904 0.314 37.294
12255.1 0.24 -48.259 0.807 -117.322 4.244e-3 75.005
          0.808 -117.537 0.174 -52.221 5e-3 88.968
          4.36e-3 74.622 5.027e-3 89.061 0.316 34.522
12380.05 0.242 -53.182 0.808 -122.347 4.36e-3 72.299
          0.811 -122.602 0.169 -56.397 5.073e-3 84.061
          4.332e-3 70.547 4.991e-3 84.664 0.319 29.775
12505 0.239 -59.316 0.808 -128.695 4.34e-3 67.545
          0.808 -128.699 0.167 -63.053 5.12e-3 78.95
          4.331e-3 66.512 5.092e-3 79.508 0.319 23.821
12629.95 0.241 -63.723 0.809 -134.409 4.496e-3 63.671
          0.808 -134.543 0.168 -69.152 5.066e-3 74.024
          4.364e-3 62.767 5.123e-3 72.95 0.321 17.825
12754.9 0.239 -66.164 0.807 -137.021 4.398e-3 61.405
          0.807 -137.321 0.167 -70.073 5.029e-3 71.761
          4.465e-3 60.736 5.04e-3 71.632 0.323 15.101
12879.85 0.237 -71.917 0.809 -142.028 4.403e-3 57.218
          0.808 -142.025 0.162 -73.889 5.104e-3 63.952
          4.379e-3 57.849 5.106e-3 66.477 0.326 10.462
13004.8 0.234 -77.059 0.808 -148.434 4.451e-3 52.401
          0.807 -148.398 0.161 -81.249 5.073e-3 59.533
          4.376e-3 51.185 5.155e-3 58.421 0.328 4.575
13129.75 0.228 -82.237 0.811 -154.149 4.337e-3 48.96
          0.81 -154.158 0.155 -86.38 5.159e-3 53.56
          4.476e-3 47.658 5.227e-3 53.426 0.329 -1.101
13254.7 0.224 -86.02 0.809 -156.981 4.35e-3 46.889
          0.811 -156.878 0.153 -89.018 5.139e-3 49.916
          4.47e-3 46.043 5.257e-3 50.877 0.33 -3.754
13379.65 0.225 -91.206 0.809 -161.946 4.368e-3 42.963
          0.811 -161.835 0.148 -93.856 5.231e-3 46.44
          4.322e-3 41.198 5.149e-3 45.051 0.331 -8.321
13504.6 0.226 -97.114 0.809 -168.328 4.315e-3 37.255
          0.808 -168.314 0.149 -99.679 5.203e-3 39.024
          4.354e-3 38.037 5.33e-3 38.63 0.33 -14.469
13629.55 0.224 -101.567 0.809 -174.006 4.247e-3 33.273
          0.811 -173.93 0.144 -104.392 5.259e-3 34.432
          4.288e-3 34.011 5.241e-3 34.002 0.334 -20.455
13754.5 0.225 -104.611 0.811 -176.801 4.33e-3 30.455
          0.811 -176.705 0.142 -106.02 5.225e-3 30.476
          4.258e-3 31.914 5.204e-3 30.968 0.337 -22.836
13879.45 0.224 -108.627 0.811 178.291 4.313e-3 28.914
          0.812 178.261 0.138 -110.937 5.104e-3 26.915
          4.294e-3 30.701 5.179e-3 25.318 0.339 -27.052
14004.4 0.218 -113.405 0.809 171.876 4.281e-3 25.265
          0.813 172.014 0.133 -119.651 5.155e-3 18.738
          4.238e-3 24.868 5.05e-3 18.553 0.337 -33.06
14129.35 0.212 -118.498 0.811 166.271 4.301e-3 19.926
          0.813 166.382 0.129 -123.305 5.035e-3 13.444
          4.18e-3 21.49 5.161e-3 14.683 0.34 -38.351
14254.3 0.21 -120.932 0.812 163.554 4.249e-3 19.206
          0.813 163.538 0.125 -127.277 5.081e-3 12.366
          4.241e-3 19.721 5.15e-3 11.979 0.342 -40.723
14379.25 0.206 -125.224 0.813 158.532 4.299e-3 18.07
          0.811 158.279 0.121 -131.775 4.963e-3 5.668
          4.362e-3 17.567 5.095e-3 7.151 0.342 -45.19
14504.2 0.196 -131.035 0.814 151.759 4.261e-3 16.378
          0.815 151.938 0.115 -139.312 5.028e-3 -0.057
          4.367e-3 14.708 4.99e-3 1.743 0.342 -51.33
14629.15 0.192 -135.952 0.815 146.457 4.354e-3 12.044
          0.814 146.482 0.107 -144.952 4.985e-3 -4.804
          4.381e-3 11.034 4.944e-3 -3.46 0.346 -56.253
14754.1 0.183 -138.215 0.816 143.559 4.43e-3 11.203
          0.813 143.666 0.103 -149.508 4.945e-3 -7.526
