!Hittite Microwave Corporation								
!12 Elizabeth Drive								
!Chelmsford, MA 01824							
!Tel: 978-250-3343								
!Fax: 978-250-3373								
!Device: HMC318MS8G, 5-6 GHz LNA with AGC in 8-lead Grounded Base Surface Mount Plastic Package
!Misc: Room Temp Vdd = +3V Idd = 5.7 mA. Vctl = 0.0 V , DEEMBEDDED TO THE PINS OF THE DEVICE								
!	
# MHZ S MA R 50

4000 0.845 -128.286 1.387 -21.585 0.021 94.345 0.653 30.134
4030 0.841 -129.592 1.46 -23.283 0.021 93.53 0.655 29.281
4060 0.838 -131.034 1.608 -29.246 0.02 97.874 0.657 28.554
4090 0.833 -132.411 1.492 -28.812 0.023 97.881 0.657 27.786
4120 0.826 -133.941 1.538 -29.905 0.022 95.331 0.657 26.962
4150 0.818 -135.632 1.747 -32.53 0.019 90.22 0.657 26.092
4180 0.814 -137.445 1.641 -34.834 0.024 89.816 0.657 25.389
4210 0.807 -139.127 1.672 -36.627 0.025 90.546 0.657 24.656
4240 0.798 -140.665 1.839 -37.911 0.023 92.409 0.656 23.892
4270 0.785 -142.649 1.8 -40.699 0.024 88.181 0.654 23.102
4300 0.775 -144.859 1.843 -43.47 0.024 85.763 0.652 22.294
4330 0.767 -147.312 1.97 -46.226 0.025 85.154 0.649 21.458
4360 0.756 -149.175 1.928 -47.149 0.027 82.538 0.646 20.668
4390 0.742 -151.424 1.997 -49.618 0.027 82.389 0.643 19.81
4420 0.727 -154.076 2.179 -53.643 0.027 84.697 0.639 18.884
4450 0.714 -156.859 2.104 -54.997 0.028 78.23 0.633 18.054
4480 0.699 -159.485 2.153 -57.368 0.028 73.985 0.627 17.153
4510 0.683 -161.954 2.329 -60.753 0.03 71.967 0.621 16.166
4540 0.663 -165.254 2.293 -62.989 0.031 72.311 0.615 15.102
4570 0.644 -168.548 2.332 -66.017 0.031 70.536 0.607 14.11
4600 0.628 -171.842 2.45 -69.837 0.031 66.643 0.597 13.202
4630 0.601 -174.963 2.475 -70.959 0.031 62.128 0.587 12.042
4660 0.577 -178.63 2.531 -74.657 0.033 58.84 0.576 10.893
4690 0.554 177.081 2.62 -80.936 0.037 56.774 0.565 9.768
4720 0.532 173.332 2.591 -79.913 0.035 53.61 0.552 8.618
4750 0.505 169.281 2.673 -83.002 0.034 50.308 0.538 7.284
4780 0.473 164.912 2.868 -90.2 0.035 46.87 0.524 5.79
4810 0.445 160.258 2.709 -90.581 0.038 37.416 0.506 4.662
4840 0.416 155.887 2.745 -93.093 0.038 31.337 0.486 3.481
4870 0.385 151.83 2.981 -97.728 0.035 28.642 0.466 2.251
4900 0.36 147.303 2.814 -101.17 0.036 22.333 0.446 1.59
4930 0.336 143.559 2.785 -103.622 0.035 14.525 0.425 1.015
4960 0.312 140.694 2.895 -105.079 0.031 5.221 0.401 0.541
4990 0.292 137.143 2.9 -109.429 0.03 0.171 0.382 0.725
5020 0.284 133.493 2.88 -112.271 0.027 -4.151 0.367 1.274
5050 0.287 129.782 2.834 -113.614 0.021 -7.754 0.354 2.137
5080 0.282 124.251 2.989 -115.826 0.018 -1.486 0.344 1.372
5110 0.278 117.119 3.037 -119.288 0.016 3.165 0.335 0.574
5140 0.276 108.386 2.978 -124.003 0.016 6.197 0.325 -0.26
5170 0.275 101.765 3.072 -124.747 0.017 9.687 0.309 -1.402
5200 0.27 94.394 3.125 -127.868 0.018 12.885 0.294 -2.853
5230 0.262 86.214 3.136 -133.355 0.018 15.805 0.279 -4.643
5260 0.267 78.128 3.134 -134.873 0.019 12.013 0.264 -5.959
5290 0.268 71.272 3.146 -137.538 0.019 10.362 0.247 -7.644
5320 0.264 65.496 3.174 -141.347 0.02 10.853 0.229 -9.707
5350 0.264 57.008 3.187 -144.204 0.021 7.722 0.212 -11.674
5380 0.268 50.041 3.175 -147.175 0.021 5.635 0.194 -13.741
5410 0.274 44.517 3.137 -150.269 0.022 4.581 0.176 -15.894
5440 0.273 38.88 3.203 -152.943 0.022 1.86 0.156 -19.054
5470 0.275 32.91 3.194 -156.062 0.022 -1.515 0.138 -22.519
5500 0.281 26.709 3.112 -159.62 0.023 -5.54 0.122 -26.441
5530 0.284 22.435 3.174 -161.481 0.024 -5.201 0.104 -31.208
5560 0.285 17.624 3.178 -164.347 0.024 -6.994 0.087 -37.706
5590 0.285 12.335 3.124 -168.215 0.024 -10.915 0.071 -46.833
5620 0.291 8.026 3.144 -170.067 0.025 -14.253 0.058 -59.543
5650 0.294 3.853 3.144 -172.615 0.025 -16.885 0.049 -78.407
5680 0.293 -0.189 3.126 -175.861 0.027 -18.811 0.046 -103.167
5710 0.295 -4.563 3.129 -178.407 0.027 -20.563 0.053 -124.729
5740 0.296 -8.4 3.123 179.076 0.027 -22.834 0.063 -141.242
5770 0.295 -11.732 3.108 176.586 0.027 -25.624 0.075 -153.829
5800 0.292 -16.342 3.122 173.626 0.029 -28.444 0.093 -161.122
5830 0.292 -20.261 3.112 171.061 0.03 -30.956 0.11 -166.495
5860 0.295 -23.576 3.079 168.889 0.031 -33.161 0.125 -170.601
5890 0.289 -27.455 3.111 165.885 0.031 -34.998 0.145 -174.558
5920 0.286 -31.543 3.107 163.213 0.032 -37.314 0.164 -177.444
5950 0.285 -35.892 3.068 160.874 0.034 -40.106 0.183 -179.464
5980 0.281 -39.265 3.101 158.105 0.035 -42.501 0.2 178.098
6010 0.275 -43.545 3.109 155.384 0.036 -44.999 0.22 176.07
6040 0.268 -48.743 3.094 152.708 0.038 -47.602 0.242 174.334
6070 0.267 -53.119 3.099 150.15 0.039 -49.813 0.26 172.982
6100 0.263 -57.822 3.112 147.459 0.04 -52.111 0.28 171.381
6130 0.254 -62.814 3.134 144.631 0.043 -54.499 0.302 169.51
6160 0.25 -68.969 3.112 141.813 0.044 -57.164 0.323 168.538
6190 0.246 -74.989 3.126 139.158 0.046 -59.568 0.344 167.251
6220 0.242 -80.871 3.175 136.667 0.048 -61.713 0.365 165.676
6250 0.236 -87.867 3.15 133.184 0.05 -64.443 0.39 164.344
6280 0.232 -95.444 3.162 130.185 0.053 -67.402 0.414 163.018
6310 0.232 -103.661 3.211 127.668 0.055 -70.592 0.436 161.724
6340 0.231 -111.957 3.193 124.012 0.058 -72.514 0.462 160.09
6370 0.232 -120.869 3.209 120.74 0.061 -74.887 0.489 158.576
6400 0.235 -130.365 3.257 117.847 0.064 -77.713 0.515 157.193
6430 0.242 -139.791 3.24 114.144 0.067 -81.209 0.543 155.533
6460 0.252 -149.564 3.262 110.498 0.07 -84.395 0.572 153.917
6490 0.265 -159.557 3.324 106.908 0.074 -87.272 0.601 152.351
6520 0.28 -168.636 3.282 103.063 0.078 -90.497 0.629 150.399
6550 0.299 -178.18 3.295 99.054 0.081 -93.833 0.659 148.346
6580 0.323 171.898 3.362 94.878 0.086 -97.282 0.69 146.192
6610 0.349 163.483 3.309 90.498 0.089 -101.309 0.721 143.916
6640 0.375 154.826 3.301 85.999 0.093 -105.361 0.752 141.577
6670 0.403 145.937 3.336 81.382 0.097 -109.438 0.782 139.172
6700 0.436 137.71 3.26 76.569 0.101 -113.665 0.812 136.542
6730 0.468 129.754 3.22 71.638 0.105 -117.659 0.84 133.856
6760 0.5 122.049 3.216 66.592 0.107 -121.418 0.865 131.114
6790 0.527 114.35 3.12 61.582 0.11 -126.068 0.89 128.189
6820 0.556 106.707 3.044 56.305 0.113 -130.721 0.913 125.292
6850 0.589 99.102 2.988 50.763 0.114 -135.377 0.936 122.428
6880 0.611 92.507 2.871 45.911 0.116 -139.642 0.949 119.512
6910 0.632 85.625 2.761 40.857 0.118 -143.863 0.961 116.508
6940 0.651 78.455 2.659 35.601 0.119 -148.039 0.972 113.417
6970 0.669 72.043 2.532 30.738 0.119 -152.608 0.981 110.691
7000 0.684 65.798 2.408 25.922 0.119 -156.728 0.986 108.052
