!Hittite Microwave Corporation								
!12 Elizabeth Drive								
!Chelmsford, MA 01824								
!Tel: 978-250-3343								
!Fax: 978-250-3373								
!Device: HMC344, DC-8 GHz GaAs MMIC SP4T Non-Reflective Switch Die							
!Misc: Room Temp Vctl=-5V Port1=RFC, Port2=RF1, Port3=RF2, Port4=RF3, Port5=RF4, RF1 ON.								
!
# MHZ S MA R 50

10	0.92	17.906	0.318	-71.716	0.0002737	-136.81	0.0007641	-99.828
	0.0001449	-78.222	0.318	-71.586	0.919	17.87	0.0001344	-33.807
	0.0005914	-98.426	0.0002209	-121.472	0.000507	174.214	0.0005591	136.714
	0.746	27.403	0.0004239	123.35	0.00005856	-91.532	0.0002354	78.086
	0.0002611	120.354	0.0001644	-50.99	0.747	27.468	0.0004707	84.314
	0.0004073	95.704	0.0007733	84.56	0.000094	-85.238	0.0005945	-134.401
	0.747	27.455						
99.9	0.237	36.894	0.839	-16.479	0.0001034	-127.465	0.00009577	-50.458
	0.0003135	-1.775	0.839	-16.508	0.235	36.247	0.0001845	92.41
	0.0001386	-130.809	0.0002238	-45.82	0.0002901	41.29	0.0003336	78.598
	0.31	4.014	0.0001502	-167.3	0.0003891	54.646	0.0003642	137.371
	0.0003635	-47.104	0.0001536	148.792	0.309	3.965	0.0001908	64.354
	0.0001764	148.769	0.0003168	151.895	0.0001683	115.047	0.0002311	121.277
	0.308	3.908						
189.8	0.18	19.496	0.848	-16.28	0.0001227	29.448	0.0001557	109.247
	0.0003485	83.861	0.847	-16.31	0.172	17.818	0.0002065	63.615
	0.0001155	61.267	0.0001928	85.935	0.00003596	-132.702	0.0003569	63.373
	0.302	-6.151	0.0002269	39.411	0.00005042	161.95	0.000108	-75.239
	0.0001805	77.335	0.0001479	-25.199	0.302	-6.294	0.000462	63
	0.0004447	94.081	0.0001444	75.086	0.0001659	160.038	0.0004667	76.779
	0.302	-6.325						
279.7	0.165	6.951	0.85	-19.297	0.00005529	137.516	0.0001418	74.719
	0.0007778	79.731	0.85	-19.306	0.156	3.887	0.0004527	77.305
	0.0001304	84.694	0.0001763	35.188	0.0001735	-46.939	0.0005315	51.621
	0.3	-13.51	0.0001169	63.321	0.0001836	61.263	0.0001704	103.42
	0.00009224	69.116	0.0001404	68.923	0.3	-13.561	0.0003644	68.471
	0.0006549	70.177	0.0001029	120.481	0.0002302	98.853	0.0007407	64.61
	0.3	-13.581						
369.6	0.159	-2.561	0.851	-23.193	0.00016	-101.895	0.0001261	59.209
	0.0008637	70.148	0.85	-23.142	0.151	-7.743	0.0007697	68.753
	0.00003292	-30.643	0.0001837	60.552	0.0001058	-45.488	0.0007915	66.625
	0.299	-20.244	0.0002471	63.725	0.0001144	78.228	0.00002747	61.717
	0.0001192	1.148	0.0002609	79.22	0.299	-20.007	0.0008193	69.33
	0.0008829	72.437	0.0001407	105.93	0.0001741	103.713	0.0008874	66.346
	0.299	-20.094						
459.5	0.155	-10.839	0.851	-27.514	0.0001124	173.67	0.0001541	71.279
	0.001059	68.124	0.85	-27.449	0.149	-18.306	0.0009391	61.93
	0.00003325	-22.121	0.0001911	79.183	0.0001532	-110.274	0.0009043	62.333
	0.3	-26.683	0.0002346	60.444	0.0001864	78.202	0.0001704	77.665
	0.00007036	43.966	0.0001554	77.203	0.297	-26.385	0.0009684	63.592
	0.001133	69.599	0.0001385	48.505	0.0001814	29.297	0.0009963	66.059
	0.298	-26.512						
549.4	0.152	-18.31	0.852	-31.977	0.0001927	-102.932	0.0001353	52.385
	0.001295	64.811	0.85	-31.957	0.15	-27.744	0.001138	65.661
	0.0001312	72	0.0001515	67.951	0.00007618	-145.17	0.001108	63.011
	0.301	-32.961	0.0002571	57.881	0.0001653	54.705	0.0002742	76.206
	0.0001598	51.908	0.0002446	61.914	0.297	-32.978	0.001184	60.855
	0.001316	62.965	0.000214	57.887	0.0001634	51.94	0.001148	55.327
	0.298	-33.182						
639.3	0.149	-25.585	0.851	-36.543	0.0001457	-126.439	0.0002539	78.739
	0.001531	61.77	0.849	-36.535	0.154	-36.235	0.001346	54.722
	0.0000831	30.837	0.000264	69.805	0.0001824	-136.994	0.001277	55.273
	0.303	-38.574	0.0003495	56.565	0.0001532	53.669	0.000187	55.46
	0.0001476	30.24	0.0002647	56.456	0.298	-39.129	0.001291	53.316
	0.001561	60.324	0.0002003	68.659	0.0002563	63.994	0.001309	55.647
	0.3	-39.687						
729.2	0.146	-31.934	0.851	-41.171	0.0001175	-141.362	0.000212	60.597
	0.001695	56.845	0.849	-41.197	0.158	-44.002	0.001344	53.004
	0.0001263	50.511	0.0002954	56.691	0.0002004	-137.997	0.001426	54.782
	0.307	-44.886	0.0002927	56.589	0.0002024	36.969	0.0002796	63.584
	0.0001431	29.61	0.0003214	46.228	0.303	-45.83	0.001485	51.607
	0.00171	56.439	0.0002369	45.91	0.0002171	30.775	0.001461	51.535
	0.304	-45.81						
819.1	0.144	-38.067	0.849	-45.831	0.0002002	-136.131	0.0003278	40.503
	0.001917	52.238	0.848	-45.827	0.162	-51.046	0.001568	49.872
	0.0001755	46.139	0.0003076	35.127	0.0001928	-145.989	0.001564	51.217
	0.309	-50.515	0.0003161	49.944	0.0002828	41.489	0.0002794	58.445
	0.0001531	33.577	0.0003651	45.474	0.306	-51.589	0.00169	47.044
	0.001918	53.543	0.0002647	44.145	0.000207	56.118	0.001679	49.357
	0.308	-51.439						
909	0.142	-44.037	0.85	-50.5	0.0002069	-155.494	0.0002644	55.15
	0.002128	48.063	0.849	-50.498	0.166	-57.616	0.00177	47.818
	0.0001906	36.837	0.0003307	25.386	0.0001942	-145.606	0.00176	47.191
	0.311	-55.825	0.0004207	31.175	0.0002342	41.343	0.0002992	55.608
	0.0001582	27.652	0.0003506	40.501	0.309	-56.946	0.00175	43.224
	0.002136	47.94	0.0003577	34.658	0.0002349	33.54	0.001844	47.672
	0.311	-56.721						
998.9	0.141	-49.828	0.849	-55.245	0.0002366	-157.851	0.0003309	46.562
	0.00235	45.071	0.848	-55.271	0.168	-63.809	0.001907	44.165
	0.0001843	25.244	0.0003133	31.69	0.0002439	-149.091	0.001904	44.629
	0.312	-60.956	0.0004712	31.744	0.0002047	28.802	0.0003364	55.53
	0.0001987	47.75	0.0004529	29.208	0.31	-62.152	0.001966	40.026
	0.002329	44.909	0.0003304	36.787	0.0002279	34.944	0.001929	39.573
	0.313	-61.794						
1088.8	0.142	-55.396	0.849	-59.966	0.0002525	-144.157	0.0003836	42.048
	0.002558	40.773	0.847	-59.939	0.169	-70.212	0.002032	41.147
	0.0002119	48.572	0.0002802	16.933	0.0003081	-145.723	0.002029	39.74
	0.312	-66.233	0.0004646	33.017	0.0002635	18.878	0.0004097	55.435
	0.0001845	25.111	0.0004914	33.934	0.311	-67.337	0.002102	33.911
	0.002524	41.958	0.0003256	11.418	0.0002667	28.173	0.002109	34.001
	0.315	-66.877						
1178.7	0.142	-61.027	0.848	-64.772	0.0003248	-148.998	0.0004338	38.857
	0.002714	37.206	0.846	-64.77	0.17	-76.808	0.002255	36.199
	0.0001976	30.9	0.0003196	5.519	0.0003335	-155.602	0.002231	36.765
	0.312	-71.691	0.0005349	27.372	0.0002995	25.931	0.0004462	46.213
	0.0002518	22.523	0.0005253	23.887	0.31	-72.63	0.00226	32.018
	0.002781	37.536	0.0003248	17.348	0.0003342	17.326	0.002272	30.73
	0.315	-71.986						
1268.6	0.141	-67.258	0.848	-69.564	0.0004043	-156.227	0.000398	39.619
	0.002925	32.577	0.846	-69.557	0.171	-83.44	0.002425	33.132
	0.0002526	38.371	0.0003549	14.76	0.0003764	-153.062	0.00237	33.432
	0.312	-77.202	0.0005646	25.409	0.0003156	4.332	0.0003799	37.772
	0.0002446	13.271	0.0005514	18.683	0.309	-78.122	0.002417	26.665
	0.002937	33.961	0.0003855	13.688	0.0003074	10.538	0.00245	26.206
	0.314	-77.341						
1358.5	0.142	-73.61	0.846	-74.42	0.0004701	-162.165	0.0004738	39.218
	0.003091	28.867	0.845	-74.364	0.173	-90.228	0.002555	28.923
	0.0003054	12.166	0.0003712	-5.425	0.0004857	-160.227	0.002582	29.269
	0.312	-82.686	0.0005882	16.731	0.0003393	0.881	0.0005124	44.143
	0.0002791	15.174	0.0005882	13.103	0.308	-84.094	0.002529	22.704
	0.003104	29.291	0.0003452	1.763	0.0003406	5.605	0.002511	22.972
	0.313	-83.136						
1448.4	0.143	-80.337	0.845	-79.304	0.0005321	-174.398	0.0005556	32.885
	0.003291	26.756	0.843	-79.287	0.173	-97.61	0.002703	25.554
	0.0002902	6.66	0.0002933	5.389	0.0005388	-169.824	0.002711	24.26
	0.313	-88.203	0.0006491	7.658	0.0003548	-3.725	0.0005051	33.928
	0.0002559	-0.066	0.0005979	9.726	0.309	-90.246	0.002668	19.649
	0.003225	27.123	0.0003305	15.466	0.0003528	-6.171	0.002605	19.754
	0.314	-89.025						
1538.3	0.145	-86.116	0.842	-84.06	0.0005004	174.556	0.0005728	31.193
	0.003485	22.093	0.841	-84.105	0.172	-104.904	0.00282	21.197
	0.0003163	7.56	0.0004448	1.28	0.0005237	169.857	0.002757	21.142
	0.313	-93.821	0.0006503	3.147	0.0003153	-5.97	0.0005265	28.254
	0.0002664	4.602	0.0006691	3.344	0.312	-96.099	0.002793	16.351
	0.003443	21.916	0.0004386	5.46	0.0003789	-3.172	0.002789	16.643
	0.317	-94.636						
1628.2	0.149	-92.083	0.842	-88.849	0.0005915	-173.227	0.0005101	27.07
	0.003658	18.059	0.84	-88.842	0.173	-110.992	0.002956	17.258
	0.0003388	-0.601	0.0003805	-23.747	0.000581	-175.209	0.002956	17.786
	0.315	-99.448	0.0006732	-0.315	0.0003024	-19.538	0.0005408	26.27
	0.0002852	-6.615	0.0006348	-2.237	0.314	-101.667	0.002915	11.666
	0.003674	17.973	0.0003743	-23.043	0.0003148	-16.298	0.002919	12.164
	0.32	-100.035						
1718.1	0.149	-97.63	0.838	-93.699	0.000654	174.51	0.0005574	22.747
	0.003768	14.92	0.838	-93.701	0.175	-117.282	0.003139	14.021
	0.0003292	-9.134	0.0002252	-11.637	0.0006825	172.176	0.003094	13.836
	0.316	-104.555	0.0006998	0.023	0.0002964	-19.983	0.0005272	24.788
	0.0003231	-6.815	0.0007414	-0.624	0.315	-106.817	0.003031	7.042
	0.003743	15.275	0.0002409	-21.875	0.0002942	-18.119	0.003046	8.082
	0.322	-105.033						
1808	0.15	-102.164	0.834	-98.456	0.0007116	160.147	0.0006239	21.892
	0.003985	11.539	0.832	-98.436	0.175	-123.127	0.003252	11.468
	0.0003291	-18.862	0.0003963	11.013	0.0007026	163.429	0.003265	10.844
	0.318	-109.205	0.0007492	-9.627	0.0002589	-13.372	0.0006379	17.888
	0.0002891	-27.798	0.0007783	-4.009	0.317	-111.764	0.003148	3.409
	0.004008	12.033	0.0004132	11.474	0.0002987	3.03	0.003159	3.401
	0.324	-109.899						
1897.9	0.153	-105.134	0.83	-102.822	0.0006214	149.186	0.0005861	8.075
	0.004133	7.858	0.829	-102.824	0.17	-128.158	0.003425	6.836
	0.0002959	-26.612	0.0004198	-18.076	0.0006512	150.657	0.003405	6.437
	0.321	-113.716	0.0007937	-12.133	0.0003489	-8.544	0.000618	17.278
	0.0002895	-28.354	0.0007573	-9.126	0.322	-116.397	0.003221	-0.879
	0.00411	8.027	0.0004164	-9.37	0.0003645	-12.219	0.003204	-0.127
	0.329	-114.587						
1987.8	0.16	-109.303	0.834	-107.429	0.0006117	165.934	0.0006265	12.432
	0.004276	3.906	0.833	-107.385	0.171	-132.011	0.003542	3.102
	0.0002858	-31.062	0.0004514	-19.437	0.0006439	171.067	0.003546	2.116
	0.325	-118.477	0.0008201	-17.565	0.0002536	-28.716	0.0004863	10.059
	0.0002999	-25.723	0.0007993	-10.231	0.327	-121.077	0.00335	-4.465
	0.004175	3.787	0.0004014	-19.893	0.0002842	-16.914	0.003373	-4.149
	0.334	-119.18						
2077.7	0.161	-113.636	0.834	-112.229	0.0007618	160.121	0.0004924	18.603
	0.004382	0.735	0.833	-112.16	0.173	-136.431	0.003736	-0.849
	0.0002159	-26.713	0.0004747	-12.523	0.0007789	161.214	0.003694	-1.63
	0.329	-123.304	0.0008478	-19.066	0.0002031	-3.25	0.0005707	11.364
	0.0002176	-46.586	0.000799	-16.789	0.331	-125.852	0.003491	-8.051
	0.004349	1.055	0.0004509	-15.649	0.0002837	-4.229	0.003475	-7.576
	0.337	-123.826						
2167.6	0.163	-117.461	0.834	-117.04	0.0009369	158.122	0.0005446	21.326
	0.004554	-2.117	0.833	-117.045	0.173	-141.011	0.00383	-3.619
	0.000229	-12.033	0.0005847	-21.026	0.0009932	157.172	0.003797	-5.078
	0.332	-127.842	0.0008271	-22.81	0.0003912	10.953	0.0005643	16.732
	0.0003212	-9.139	0.0008087	-25.078	0.333	-130.678	0.00359	-10.836
	0.004485	-1.118	0.0006886	-18.851	0.0003724	5.999	0.003549	-11.064
	0.339	-128.455						
2257.5	0.165	-121.105	0.834	-121.832	0.001169	149.009	0.000588	17.16
	0.004739	-4.964	0.832	-121.894	0.171	-145.481	0.003994	-7.814
	0.0003472	-21.584	0.0006492	-37.636	0.001048	152.484	0.004001	-8.302
	0.333	-132.269	0.0008954	-25.297	0.0004869	-6.256	0.0005603	23.844
	0.0004089	-22.659	0.0008845	-24.977	0.335	-135.493	0.003788	-15.636
	0.004701	-4.232	0.0005892	-32.382	0.0004894	-5.439	0.003683	-16.098
	0.341	-133.071						
2347.4	0.167	-124.485	0.832	-126.593	0.001238	136.891	0.0006953	24.738
	0.005035	-8.167	0.831	-126.631	0.166	-149.7	0.004162	-12.045
	0.000332	-27.861	0.0006235	-40.445	0.001221	139.02	0.00416	-11.99
	0.333	-136.78	0.0008866	-26.787	0.0005218	-14.802	0.0006525	22.264
	0.0003796	-31.641	0.0008942	-32.468	0.337	-140.172	0.003929	-19.952
	0.005001	-8.129	0.0005499	-32.417	0.0005248	-6.575	0.003923	-19.258
	0.342	-137.543						
2437.3	0.171	-127.164	0.831	-131.342	0.001113	130.445	0.0007905	18.457
	0.005239	-11.858	0.83	-131.373	0.162	-153.813	0.004356	-16.952
	0.0003732	-31.617	0.0005556	-47.921	0.001192	135.134	0.004305	-16.286
	0.333	-141.291	0.0009663	-34.736	0.0005148	-18.166	0.0007795	16.359
	0.0003615	-35.551	0.000873	-34.468	0.338	-144.522	0.004009	-24.334
	0.005155	-11.623	0.0005688	-52.403	0.0005632	-21.424	0.00406	-24.398
	0.343	-141.766						
2527.2	0.175	-129.951	0.83	-136.143	0.001334	130.087	0.0008132	11.908
	0.005404	-16.098	0.829	-136.148	0.158	-157.404	0.004515	-20.204
	0.0003904	-47.406	0.0005824	-45.137	0.001286	132.929	0.004435	-20.359
	0.333	-145.524	0.0009471	-37.588	0.0006252	-19.204	0.0008798	14.844
	0.000332	-54.569	0.0009158	-37.378	0.338	-148.726	0.004109	-28.823
	0.005339	-16.48	0.0005538	-46.492	0.0006562	-21.593	0.004115	-28.86
	0.343	-145.829						
2617.1	0.181	-132.868	0.829	-140.958	0.001427	121.465	0.0009092	10.21
	0.005478	-20.691	0.828	-140.988	0.151	-161.226	0.004639	-24.248
	0.00037	-45.646	0.0007063	-48.776	0.001445	123.676	0.004673	-24.181
	0.331	-149.632	0.001017	-43.636	0.0006154	-31.625	0.0008481	8.459
	0.0003687	-42.675	0.0009931	-41.932	0.337	-152.992	0.004172	-32.197
	0.005416	-20.376	0.0007051	-49.841	0.0006182	-34.175	0.004156	-32.502
	0.342	-149.945						
2707	0.189	-135.427	0.828	-145.707	0.001464	116.14	0.0009806	3.733
	0.005604	-24.043	0.827	-145.744	0.141	-164.874	0.004765	-28.895
	0.0004066	-46.126	0.0007853	-68.636	0.001476	117.413	0.004809	-29.029
	0.328	-153.722	0.001066	-46.447	0.0006863	-42.984	0.0009852	5.435
	0.0004051	-52.708	0.001086	-48.939	0.335	-157.192	0.004213	-35.455
	0.005568	-23.963	0.0008198	-69.602	0.0006633	-39.301	0.004262	-36.013
	0.34	-153.99						
2796.9	0.197	-137.855	0.826	-150.594	0.001544	111.872	0.0009898	0.526
	0.005704	-27.858	0.826	-150.542	0.131	-167.985	0.004882	-33.099
	0.0003661	-45.43	0.0006731	-80.448	0.001522	111.468	0.00489	-32.703
	0.324	-157.967	0.001126	-55.253	0.0007534	-48.146	0.00101	0.519
	0.0003931	-48.025	0.001088	-55.528	0.332	-161.275	0.004439	-39.984
	0.005705	-27.957	0.0007576	-82.449	0.0007664	-46.412	0.004405	-40.604
	0.337	-157.939						
2886.8	0.204	-140.047	0.826	-155.347	0.001596	107.345	0.001061	-1.316
	0.005877	-30.934	0.824	-155.346	0.122	-170.81	0.005118	-36.62
	0.0004279	-56.699	0.0006014	-88.799	0.001636	106.786	0.005056	-37.469
	0.32	-162.289	0.001075	-54.79	0.0007051	-57.717	0.001049	-4.967
	0.0004379	-51.557	0.001159	-53.384	0.327	-165.408	0.004461	-44.508
	0.005871	-31.307	0.0006305	-88.125	0.0007105	-56.99	0.004461	-43.835
	0.332	-161.966						
2976.7	0.211	-142.516	0.824	-160.195	0.001769	101.059	0.001029	-8.967
	0.006012	-34.737	0.822	-160.152	0.112	-173.31	0.005249	-41.059
	0.0004805	-60.25	0.0006245	-89.663	0.001792	101.731	0.005267	-40.749
	0.315	-166.503	0.001156	-57.881	0.0006593	-64.101	0.0009944	-11.391
	0.0004644	-63.625	0.001122	-60.111	0.322	-169.685	0.004643	-46.549
	0.006017	-34.777	0.0006359	-87.036	0.0006591	-61.081	0.004613	-46.706
	0.326	-166.131						
3066.6	0.218	-144.678	0.821	-164.929	0.00186	94.697	0.00105	-13.122
	0.006121	-38.472	0.82	-164.916	0.102	-175.084	0.005397	-45.226
	0.000516	-65.3	0.0006907	-95.932	0.001824	95.742	0.005347	-45.42
	0.309	-170.674	0.001152	-66.849	0.0007201	-66.911	0.001075	-12.498
	0.0004765	-65.507	0.00117	-64.771	0.316	-174.112	0.004818	-50.057
	0.006154	-38.311	0.0006976	-94.696	0.0007088	-63.021	0.004808	-49.971
	0.32	-170.477						
3156.5	0.225	-146.636	0.819	-169.668	0.001932	91.088	0.001065	-13.64
	0.006276	-41.74	0.818	-169.679	0.092	-175.939	0.005536	-49.595
	0.0004668	-73.108	0.0007104	-110.263	0.001919	90.233	0.005578	-49.3
	0.303	-174.859	0.001225	-70.288	0.0007294	-78.147	0.001084	-15.399
	0.0004543	-72.922	0.001235	-69.695	0.31	-178.478	0.005169	-55.166
	0.006225	-41.573	0.0006867	-111.244	0.000726	-78.774	0.005139	-55.176
	0.314	-174.859						
3246.4	0.232	-148.217	0.816	-174.35	0.002059	85.796	0.001121	-18.553
	0.006405	-45.747	0.815	-174.38	0.083	-175.282	0.005742	-53.696
	0.0004943	-82.309	0.0006838	-116.378	0.002048	85.227	0.005751	-53.612
	0.296	-178.958	0.001279	-74.873	0.0006401	-74.468	0.001102	-18.385
	0.0004793	-79.13	0.001202	-75.745	0.305	177.441	0.005286	-61.138
	0.006391	-45.361	0.0006307	-117.51	0.0006049	-81.123	0.005317	-61.059
	0.308	-178.991						
3336.3	0.239	-149.892	0.814	-179.004	0.002226	80.775	0.001136	-18.553
	0.006507	-48.563	0.814	-179.005	0.076	-172.711	0.005948	-57.94
	0.0004635	-82.047	0.0006127	-129.244	0.002165	79.24	0.005931	-58.059
	0.29	177.165	0.001263	-80.137	0.000577	-74.977	0.001102	-19.014
	0.0004691	-87.865	0.001257	-76.926	0.298	173.617	0.005446	-65.943
	0.006502	-48.46	0.0006199	-128.98	0.0005585	-77.261	0.005406	-66.349
	0.301	177.002						
3426.2	0.247	-152.004	0.813	176.382	0.002295	74.519	0.00117	-22.462
	0.006674	-51.918	0.812	176.364	0.071	-169.257	0.006094	-62.648
	0.0004975	-93.012	0.000569	-136.708	0.00231	74.696	0.006073	-62.545
	0.283	173.278	0.001261	-82.951	0.0006	-74.58	0.001148	-23.335
	0.0004927	-88.942	0.001276	-83.633	0.292	169.684	0.005489	-72.033
	0.006654	-51.652	0.0005561	-140.213	0.0005929	-77.864	0.005504	-71.272
	0.295	172.908						
3516.1	0.256	-154.351	0.813	171.735	0.002385	68.901	0.001143	-24.629
	0.006769	-55.161	0.813	171.711	0.066	-164.682	0.006301	-67.003
	0.0004688	-92.946	0.0004465	-143.668	0.002357	68.37	0.006261	-66.994
	0.275	169.322	0.001273	-84.845	0.0006588	-81.208	0.001158	-24.81
	0.0004649	-96.85	0.001254	-85.511	0.284	165.644	0.005531	-75.164
	0.006794	-55.174	0.0004948	-148.064	0.0007555	-78.618	0.005509	-75.426
	0.287	168.695						
3606	0.266	-157.025	0.812	167.121	0.002465	63.44	0.001209	-25.661
	0.006902	-58.223	0.811	167.125	0.064	-159.89	0.006455	-71.044
	0.0005281	-98.775	0.0004013	-149.436	0.002476	63.507	0.00649	-71.693
	0.266	165.093	0.001323	-89.517	0.0007685	-88.061	0.001181	-27.359
	0.0004592	-92.778	0.001361	-89.474	0.277	161.494	0.005732	-78.656
	0.006902	-58.573	0.0004499	-152.83	0.0008093	-88.849	0.005703	-78.612
	0.28	164.307						
3695.9	0.274	-159.875	0.813	162.382	0.002545	57.66	0.001231	-27.901
	0.007022	-61.546	0.811	162.451	0.063	-155.998	0.006684	-75.974
	0.0004985	-100.469	0.0004322	-155.897	0.002579	58.351	0.006668	-76.053
	0.257	160.581	0.001383	-91.099	0.0007215	-97.998	0.001313	-30.213
	0.0004919	-101.288	0.001361	-94.075	0.269	157.159	0.005941	-83.411
	0.007072	-61.629	0.000453	-153.457	0.0007188	-98.903	0.005957	-83.598
	0.271	159.79						
3785.8	0.281	-163.13	0.814	157.713	0.002659	52.025	0.001367	-31.445
	0.007253	-65.283	0.812	157.709	0.063	-152.514	0.006881	-80.481
	0.0004771	-105.593	0.0004414	-170.06	0.002693	53.571	0.006855	-80.589
	0.248	155.82	0.001453	-97.07	0.0006948	-93.975	0.001334	-32.152
	0.000507	-108.592	0.00145	-97.028	0.259	152.535	0.00609	-88.168
	0.007228	-64.838	0.0004133	-165.739	0.0006474	-94.911	0.006064	-88.166
	0.262	154.986						
3875.7	0.288	-166.895	0.814	152.951	0.002798	49.364	0.00142	-35.837
	0.007405	-68.117	0.813	152.93	0.061	-149.804	0.007031	-85.659
	0.0004903	-117.814	0.0003976	171.265	0.002792	48.677	0.00704	-85.195
	0.237	150.647	0.00152	-103.835	0.0006905	-98.96	0.001396	-35.586
	0.0004265	-111.5	0.001522	-103.41	0.249	147.514	0.006298	-92.664
	0.007425	-68.411	0.0003932	177.702	0.0007316	-95.114	0.006328	-92.499
	0.252	149.75						
3965.6	0.293	-170.566	0.813	148.23	0.002867	42.646	0.001487	-35.991
	0.007586	-71.672	0.813	148.248	0.06	-147.731	0.007235	-89.333
	0.0004904	-124.522	0.000335	157.275	0.002867	42.281	0.007211	-89.499
	0.227	145.05	0.001535	-109.039	0.0007597	-102.311	0.001456	-37.429
	0.0004978	-121.944	0.001498	-109.188	0.239	142.137	0.006493	-97.504
	0.007569	-71.689	0.0002953	159.829	0.0007589	-99.502	0.006513	-97.736
	0.242	144.046						
4055.5	0.297	-174.237	0.815	143.448	0.00299	37.031	0.001569	-41.894
	0.007776	-75.119	0.813	143.436	0.057	-145.65	0.007477	-93.659
	0.0004382	-125.226	0.0002653	135.84	0.003	37.459	0.007462	-93.85
	0.216	138.914	0.001497	-112.484	0.0007242	-99.573	0.00157	-42.57
