!Hittite Microwave Corporation								
!12 Elizabeth Drive								
!Chelmsford, MA 01824							
!Tel: 978-250-3343								
!Fax: 978-250-3373								
!Device: HMC320MS8G, 5-6 GHz LNA in 8-lead Grounded Base Surface Mount Plastic Package
!Misc: Room Temp Idd=40mA, VSET=3V , DEEMBEDDED TO THE PINS OF THE DEVICE						
!	
# MHZ S MA R 50

4000 0.876 -121.392 2.767 26.439 0.01 134.436 0.144 91.794
4030 0.877 -122.367 2.804 24.871 0.01 131.461 0.153 88.442
4060 0.88 -123.369 2.845 26.416 8.904e-3 123.026 0.162 85.52
4090 0.876 -124.137 3.029 20.464 0.01 134.888 0.171 83.269
4120 0.874 -125.119 3.061 17.962 0.01 133.242 0.179 81.05
4150 0.873 -126.337 2.942 18.912 9.876e-3 118.092 0.187 78.864
4180 0.869 -127.48 3.259 15.03 0.011 132.237 0.195 77.09
4210 0.867 -128.56 3.333 12.159 0.011 130.569 0.203 75.128
4240 0.867 -129.604 3.163 10.305 0.011 113.095 0.21 73.006
4270 0.861 -130.981 3.454 8.518 0.011 126.335 0.218 71.88
4300 0.857 -132.373 3.559 6.093 0.011 128.069 0.225 70.604
4330 0.856 -133.788 3.476 3.031 0.011 118.301 0.23 69.166
4360 0.851 -135.16 3.687 1.488 0.011 119.598 0.237 67.734
4390 0.845 -136.75 3.798 -0.766 0.011 120.067 0.243 66.531
4420 0.838 -138.564 3.809 -3.737 0.011 119.703 0.248 65.537
4450 0.832 -139.939 3.968 -6.749 0.011 114.178 0.252 64.176
4480 0.825 -141.61 4.047 -9.011 0.011 112.939 0.256 62.99
4510 0.816 -143.58 4.045 -10.531 0.011 115.979 0.261 61.965
4540 0.805 -145.42 4.284 -14.548 0.012 112.616 0.264 60.75
4570 0.793 -147.412 4.359 -17.386 0.012 108.381 0.266 59.654
4600 0.781 -149.542 4.268 -19.052 0.011 103.268 0.266 58.73
4630 0.767 -151.619 4.586 -22.627 0.012 104.9 0.269 57.474
4660 0.753 -154.016 4.685 -25.911 0.012 102.959 0.269 56.45
4690 0.737 -156.741 4.56 -28.915 0.011 97.435 0.268 55.704
4720 0.718 -159.195 4.854 -31.709 0.012 94.594 0.266 54.296
4750 0.696 -161.898 4.952 -35.129 0.013 91.077 0.264 52.984
4780 0.668 -164.841 4.849 -39.181 0.013 86.879 0.261 51.795
4810 0.642 -167.764 5.083 -41.891 0.012 80.669 0.256 50.479
4840 0.613 -170.46 5.166 -45.561 0.013 74.742 0.248 48.884
4870 0.581 -172.923 5.096 -50.189 0.014 69.101 0.239 47.091
4900 0.537 -175.283 5.188 -53.629 0.013 59.554 0.228 45.865
4930 0.497 -177.224 5.187 -57.503 0.012 49.924 0.213 44.916
4960 0.462 -178.777 5.094 -61.813 0.013 40.207 0.196 44.477
4990 0.432 -177.971 5.013 -64.725 0.012 27.922 0.179 45.875
5020 0.407 -177.131 4.927 -67.522 0.011 16.475 0.164 49.056
5050 0.387 -176.329 4.837 -70.182 0.01 5.888 0.152 53.239
5080 0.38 -176.162 4.79 -72.29 8.903e-3 -5.526 0.146 58.372
5110 0.373 -176.884 4.753 -74.3 8.047e-3 -14.24 0.143 62.741
5140 0.368 -178.521 4.727 -76.23 7.729e-3 -20.27 0.142 67.112
5170 0.358 179.634 4.759 -78.553 6.976e-3 -30.553 0.142 71.127
5200 0.347 177.639 4.757 -80.913 6.561e-3 -38.327 0.142 74.697
5230 0.335 175.5 4.72 -83.312 6.486e-3 -43.592 0.142 77.775
5260 0.318 172.154 4.783 -85.321 6.111e-3 -49.207 0.143 80.584
5290 0.303 168.922 4.806 -87.98 6.022e-3 -54.874 0.145 83.365
5320 0.288 165.82 4.789 -91.289 6.22e-3 -60.589 0.146 86.12
5350 0.269 164.12 4.801 -93.291 6.322e-3 -60.991 0.145 88.872
5380 0.249 161.609 4.805 -96.067 6.6e-3 -63.741 0.146 91.652
5410 0.228 158.227 4.802 -99.617 7.053e-3 -68.837 0.146 94.443
5440 0.213 155.64 4.769 -101.713 7.425e-3 -69.966 0.147 97.561
5470 0.199 154.507 4.746 -104.419 7.89e-3 -71.419 0.148 100.681
5500 0.184 154.946 4.734 -107.736 8.448e-3 -73.196 0.15 103.772
5530 0.166 152.29 4.688 -109.955 9.015e-3 -76.162 0.153 107.133
5560 0.151 150.432 4.647 -112.648 9.589e-3 -78.435 0.155 110.232
5590 0.136 149.451 4.611 -115.818 0.01 -80.018 0.158 113.033
5620 0.13 149.413 4.556 -117.443 0.011 -82.203 0.163 115.534
5650 0.121 148.79 4.531 -120.078 0.012 -84.725 0.169 118.102
5680 0.111 147.538 4.538 -123.72 0.012 -87.58 0.175 120.753
5710 0.102 149.011 4.414 -125.232 0.013 -88.452 0.18 122.868
5740 0.098 150.759 4.377 -127.567 0.014 -90.131 0.186 124.834
5770 0.098 152.641 4.425 -130.726 0.015 -92.616 0.194 126.629
5800 0.093 154.919 4.279 -132.662 0.015 -94.079 0.201 128.343
5830 0.09 157.651 4.229 -134.844 0.016 -95.67 0.209 129.851
5860 0.089 160.76 4.276 -137.27 0.017 -97.39 0.216 131.17
5890 0.091 158.634 4.171 -139.661 0.018 -99.201 0.225 132.198
5920 0.095 158.375 4.121 -142.045 0.019 -100.468 0.234 133.163
5950 0.102 159.923 4.123 -144.423 0.02 -101.193 0.243 134.081
5980 0.102 158.176 4.041 -146.625 0.021 -103.395 0.253 134.897
6010 0.105 158.191 3.996 -149.048 0.022 -105.255 0.263 135.656
6040 0.113 159.962 3.989 -151.692 0.023 -106.772 0.273 136.37
6070 0.12 158.391 3.89 -153.553 0.023 -108.006 0.283 136.794
6100 0.128 157.478 3.85 -155.805 0.024 -109.475 0.292 137.201
6130 0.137 157.171 3.868 -158.448 0.026 -111.178 0.303 137.6
6160 0.147 155.563 3.769 -160.446 0.027 -112.609 0.313 137.788
6190 0.157 153.433 3.72 -162.772 0.028 -113.995 0.324 137.839
6220 0.168 150.812 3.721 -165.429 0.028 -115.339 0.334 137.757
6250 0.181 148.984 3.643 -167.329 0.03 -117.033 0.346 137.79
6280 0.192 147.424 3.595 -169.812 0.031 -118.425 0.358 137.805
6310 0.201 146.095 3.576 -172.876 0.031 -119.516 0.368 137.811
6340 0.215 142.951 3.483 -174.145 0.033 -121.338 0.378 137.332
6370 0.229 140.342 3.45 -176.366 0.034 -123.143 0.39 136.97
6400 0.242 138.228 3.478 -179.539 0.035 -124.929 0.403 136.729
6430 0.251 135.835 3.34 178.689 0.036 -125.854 0.414 136.257
6460 0.264 133.371 3.29 176.542 0.037 -127.318 0.426 135.715
6490 0.283 130.844 3.327 174.017 0.038 -129.323 0.437 135.102
6520 0.296 129.039 3.199 171.588 0.039 -130.479 0.451 134.578
6550 0.308 126.423 3.137 169.365 0.04 -131.895 0.462 133.983
6580 0.318 123.017 3.142 167.349 0.041 -133.571 0.471 133.318
6610 0.34 121.08 3.051 164.835 0.042 -135.325 0.485 132.418
6640 0.357 118.802 2.994 162.432 0.043 -136.714 0.498 131.641
6670 0.368 116.196 2.971 160.144 0.044 -137.736 0.509 130.99
6700 0.378 113.292 2.889 157.778 0.045 -139.462 0.52 130.055
6730 0.389 110.651 2.831 155.475 0.046 -141.109 0.531 129.062
6760 0.402 108.26 2.796 153.232 0.047 -142.678 0.542 128.014
6790 0.417 105.702 2.725 150.89 0.048 -143.986 0.555 127.334
6820 0.428 103.384 2.664 148.679 0.049 -145.494 0.566 126.352
6850 0.435 101.304 2.614 146.597 0.05 -147.203 0.573 125.065
6880 0.447 98.564 2.561 144.119 0.051 -148.461 0.586 124.179
6910 0.46 95.821 2.505 141.757 0.052 -149.963 0.596 123.132
6940 0.473 93.07 2.446 139.51 0.053 -151.71 0.604 121.923
6970 0.48 90.014 2.395 137.703 0.053 -152.764 0.614 120.845
7000 0.486 87.16 2.338 135.52 0.054 -154.313 0.625 119.657
