!Hittite Microwave Corporation								
!12 Elizabeth Drive								
!Chelmsford, MA 01824								
!Tel: 978-250-3343								
!Fax: 978-250-3373								
!Device: HMC393MS8G, 5-6 GHz GaAs MMIC DPDT Diversity Switch in 8-lead Grounded Base surface Mount Plastic Package								
!Misc:  Port 1 = ANT1, Port 2 = ANT2, Port 3 = Tx, Port 4 = Rx, Vctl=+5V, State 2 selected, Room							
!
# MHZ S MA R 50

4000 0.3 65.799 0.293 1.123 0.303 7.853 0.74 55.769
          0.272 0.804 0.773 -1.496 0.1 -56.204 0.278 8.681
          0.281 7.361 0.096 -60.116 0.779 -1.925 0.266 2.875
          0.756 54.278 0.293 3.74 0.282 -2.179 0.304 70.887
4015 0.297 65.241 0.287 -2.662 0.298 4.144 0.758 55.03
          0.27 -0.475 0.774 -2.194 0.097 -60.164 0.282 7.786
          0.279 6.361 0.09 -61.883 0.78 -2.545 0.27 1.919
          0.758 53.307 0.279 2.194 0.268 -3.758 0.301 70.277
4030 0.295 64.715 0.272 -5.399 0.282 1.54 0.767 53.856
          0.265 -1.361 0.774 -2.806 0.09 -63.058 0.282 6.55
          0.275 5.542 0.084 -62.012 0.781 -3.19 0.27 0.406
          0.753 52.578 0.265 2.44 0.254 -3.656 0.296 69.746
4045 0.292 64.19 0.253 -6.028 0.262 1.088 0.765 52.645
          0.259 -1.775 0.775 -3.45 0.083 -63.772 0.278 5.277
          0.269 5.281 0.08 -60.62 0.782 -3.782 0.266 -1.014
          0.745 52.367 0.255 3.975 0.244 -2.311 0.292 69.413
4060 0.29 63.609 0.237 -4.346 0.246 2.905 0.754 51.826
          0.254 -1.742 0.776 -4.118 0.077 -62.16 0.271 4.414
          0.264 5.5 0.078 -58.671 0.782 -4.392 0.26 -1.976
          0.738 52.631 0.251 6.006 0.24 -0.488 0.289 69.133
4075 0.287 62.954 0.228 -0.987 0.237 6.359 0.739 51.731
          0.25 -1.415 0.776 -4.793 0.073 -58.897 0.263 4.335
          0.26 5.942 0.077 -57.253 0.783 -5.09 0.251 -2.272
          0.736 53.154 0.252 7.674 0.241 0.954 0.286 68.697
4090 0.285 62.309 0.229 2.605 0.239 10.251 0.726 52.48
          0.248 -1.092 0.777 -5.568 0.073 -55.339 0.256 5.126
          0.258 6.433 0.077 -56.851 0.784 -5.772 0.244 -1.72
          0.737 53.684 0.257 8.291 0.244 1.315 0.283 68.021
4105 0.282 61.604 0.239 4.462 0.25 12.257 0.725 53.789
          0.246 -1.053 0.778 -6.136 0.075 -53.522 0.253 6.36
          0.257 6.64 0.077 -57.575 0.785 -6.367 0.241 -0.649
          0.743 53.845 0.258 7.706 0.245 0.74 0.28 67.357
4120 0.279 60.869 0.252 4.115 0.263 12.083 0.733 54.883
          0.244 -1.399 0.779 -6.826 0.078 -53.849 0.254 7.342
          0.255 6.571 0.075 -58.296 0.786 -6.974 0.241 0.174
          0.746 53.811 0.255 7.354 0.242 0.164 0.276 66.805
4135 0.276 60.13 0.26 1.945 0.272 10.138 0.747 55.405
          0.241 -1.628 0.78 -7.444 0.08 -56.103 0.256 7.721
          0.252 6.503 0.073 -58.136 0.787 -7.619 0.242 0.381
          0.746 53.769 0.251 7.717 0.237 0.321 0.273 66.215
4150 0.274 59.361 0.26 -1.058 0.273 7.329 0.762 55.273
          0.237 -1.612 0.78 -8.057 0.08 -59.325 0.259 7.447
          0.248 6.69 0.071 -57.17 0.788 -8.248 0.244 -0.061
          0.744 53.898 0.248 8.82 0.234 1.304 0.269 65.578
4165 0.272 58.527 0.252 -3.667 0.265 4.853 0.772 54.631
          0.233 -1.345 0.782 -8.758 0.076 -62.24 0.259 6.682
          0.245 7.251 0.071 -55.961 0.79 -8.849 0.244 -0.958
          0.742 54.338 0.25 10.297 0.235 2.682 0.266 64.973
4180 0.27 57.626 0.239 -4.797 0.251 3.995 0.775 53.795
          0.231 -0.685 0.784 -9.438 0.071 -63.665 0.257 5.715
          0.243 8.051 0.072 -55.103 0.792 -9.58 0.241 -2.008
          0.744 55.152 0.257 11.456 0.24 3.626 0.264 64.513
4195 0.267 56.718 0.228 -3.676 0.24 5.356 0.769 53.346
          0.232 -0.102 0.786 -10.185 0.067 -62.783 0.252 5.221
          0.244 8.912 0.074 -56.087 0.793 -10.181 0.236 -2.61
          0.755 55.834 0.268 10.526 0.251 2.76 0.261 63.723
4210 0.265 55.883 0.224 -1.791 0.237 7.377 0.762 53.439
          0.233 -0.031 0.786 -10.771 0.065 -61.222 0.247 5.338
          0.246 9.168 0.074 -59.152 0.793 -10.8 0.23 -2.654
          0.77 55.966 0.276 8.001 0.257 0.061 0.258 62.957
4225 0.263 55.042 0.225 -0.339 0.239 9.03 0.759 53.884
          0.235 -0.652 0.787 -11.429 0.064 -59.855 0.243 5.782
          0.249 8.743 0.073 -63.091 0.795 -11.439 0.227 -2.35
          0.785 55.468 0.274 4.468 0.255 -3.572 0.255 62.279
4240 0.261 54.217 0.229 -0.054 0.244 9.541 0.762 54.432
          0.235 -1.824 0.789 -12.128 0.064 -59.582 0.242 6.292
          0.249 7.799 0.069 -66.529 0.796 -12.067 0.224 -1.978
          0.795 54.53 0.263 1.226 0.245 -6.911 0.252 61.734
4255 0.258 53.451 0.233 -1.112 0.248 8.646 0.77 54.819
          0.232 -3.172 0.791 -12.771 0.064 -60.824 0.241 6.605
          0.247 6.653 0.063 -68.212 0.797 -12.668 0.224 -1.814
          0.795 53.45 0.245 -0.352 0.228 -8.72 0.249 61.208
4270 0.257 52.734 0.233 -3.057 0.249 6.829 0.78 54.806
          0.226 -4.174 0.792 -13.393 0.063 -63.025 0.241 6.426
          0.241 5.672 0.057 -67.31 0.799 -13.29 0.223 -2.061
          0.787 52.465 0.226 0.524 0.21 -8.098 0.247 60.277
4285 0.255 51.962 0.225 -4.669 0.241 5.285 0.786 54.264
          0.218 -4.433 0.793 -14.084 0.06 -64.622 0.239 5.92
          0.234 5.621 0.054 -64.169 0.801 -13.979 0.222 -2.729
          0.772 52.442 0.215 4.094 0.2 -4.847 0.243 59.498
4300 0.254 51.235 0.216 -5.14 0.232 5.084 0.786 53.783
          0.213 -4.005 0.795 -14.848 0.057 -64.975 0.237 5.496
          0.228 6.258 0.053 -60.728 0.803 -14.647 0.219 -3.328
          0.762 53.042 0.215 7.517 0.198 -1.396 0.24 58.8
4315 0.252 50.421 0.209 -4.502 0.225 5.936 0.783 53.498
          0.209 -3.085 0.796 -15.489 0.055 -64.221 0.233 5.277
          0.225 7.296 0.054 -58.424 0.804 -15.276 0.215 -3.728
          0.76 53.923 0.221 9.873 0.203 0.865 0.238 58.001
4330 0.25 49.566 0.205 -3.322 0.221 7.292 0.779 53.526
          0.207 -2.229 0.797 -16.094 0.053 -63.055 0.229 5.367
          0.224 8.263 0.055 -57.896 0.805 -15.882 0.212 -3.847
          0.766 54.752 0.23 10.56 0.212 1.348 0.235 57.085
4345 0.247 48.751 0.205 -2.417 0.221 8.445 0.778 53.847
          0.208 -1.957 0.799 -16.781 0.053 -62.289 0.226 5.73
          0.224 8.779 0.056 -59.172 0.807 -16.485 0.209 -3.729
          0.776 55.258 0.238 9.452 0.219 0.07 0.232 56.154
4360 0.245 47.939 0.207 -2.566 0.224 8.62 0.781 54.203
          0.208 -2.347 0.801 -17.465 0.052 -62.395 0.224 6.064
          0.225 8.842 0.056 -61.839 0.808 -17.085 0.207 -3.608
          0.788 55.288 0.239 7.067 0.221 -2.538 0.229 55.364
4375 0.243 47.06 0.206 -3.857 0.223 7.478 0.788 54.149
          0.207 -3.04 0.802 -18.113 0.052 -63.675 0.223 6.051
          0.225 8.25 0.054 -64.359 0.81 -17.783 0.205 -3.883
          0.795 54.624 0.233 5.012 0.214 -4.787 0.226 54.469
4390 0.241 46.118 0.2 -5.031 0.217 6.556 0.792 53.795
          0.204 -3.778 0.802 -18.76 0.049 -64.913 0.221 5.799
          0.222 7.902 0.051 -65.436 0.81 -18.332 0.203 -4.438
          0.797 54.12 0.224 4.308 0.206 -5.875 0.223 53.531
4405 0.239 45.18 0.191 -5.154 0.209 6.707 0.792 53.309
          0.2 -4.264 0.805 -19.487 0.047 -65.435 0.218 5.393
          0.218 7.747 0.048 -65.487 0.813 -18.923 0.2 -5.101
          0.794 53.867 0.216 4.827 0.198 -5.69 0.22 52.677
4420 0.237 44.209 0.183 -3.722 0.2 8.367 0.786 53.008
          0.197 -4.351 0.808 -20.179 0.044 -64.38 0.214 5.157
          0.215 7.802 0.046 -64.836 0.815 -19.545 0.195 -5.562
          0.792 53.859 0.212 5.927 0.194 -4.836 0.218 51.785
4435 0.235 43.163 0.179 -0.917 0.196 11.369 0.776 53.177
          0.193 -4.165 0.809 -20.772 0.042 -61.594 0.209 5.415
          0.212 8.068 0.045 -64.044 0.817 -20.133 0.19 -5.566
          0.792 54.005 0.211 6.806 0.192 -4.178 0.216 50.733
4450 0.233 42.071 0.181 2.143 0.199 14.76 0.769 53.902
          0.191 -4.216 0.811 -21.503 0.042 -58.559 0.204 6.238
          0.21 8.446 0.044 -64.238 0.818 -20.739 0.186 -5.119
          0.796 54.147 0.212 6.85 0.192 -4.387 0.214 49.638
4465 0.231 40.993 0.191 3.659 0.211 16.482 0.771 55.055
          0.189 -4.296 0.812 -22.079 0.043 -57.126 0.202 7.395
          0.209 8.427 0.043 -65.768 0.819 -21.316 0.183 -4.278
          0.798 54.104 0.209 6.116 0.19 -5.5 0.212 48.674
4480 0.23 39.882 0.203 2.882 0.225 15.931 0.781 56.031
          0.186 -4.683 0.813 -22.724 0.046 -58.076 0.202 8.256
          0.207 8.217 0.041 -66.126 0.821 -21.909 0.183 -3.574
          0.8 53.801 0.203 5.797 0.184 -6.155 0.211 47.482
4495 0.228 38.739 0.212 -0.176 0.236 13.085 0.799 56.487
          0.182 -4.974 0.815 -23.354 0.047 -61.26 0.203 8.683
          0.203 8.124 0.039 -65.467 0.822 -22.492 0.183 -3.418
          0.797 53.583 0.196 6.633 0.177 -5.632 0.209 46.201
4510 0.227 37.624 0.215 -4.856 0.24 8.614 0.818 56.271
          0.178 -4.978 0.817 -23.97 0.047 -66.066 0.204 8.556
          0.199 8.372 0.037 -63.978 0.824 -23.051 0.184 -3.871
          0.792 53.656 0.192 8.563 0.172 -3.981 0.206 44.933
4525 0.226 36.57 0.208 -9.957 0.233 3.731 0.835 55.417
          0.174 -4.609 0.819 -24.587 0.044 -71.325 0.205 7.868
          0.195 9.031 0.037 -61.961 0.826 -23.593 0.184 -4.833
          0.788 54.114 0.192 10.994 0.171 -1.808 0.204 43.839
4540 0.226 35.497 0.191 -13.83 0.215 0.035 0.843 54.144
          0.171 -3.779 0.82 -25.156 0.04 -75.205 0.204 6.827
          0.192 9.943 0.037 -59.883 0.828 -24.16 0.183 -6.253
          0.787 54.966 0.197 13.086 0.176 -0.041 0.201 43.228
4555 0.225 34.367 0.173 -14.271 0.195 -0.171 0.838 52.979
          0.171 -3.133 0.823 -25.831 0.036 -76.111 0.199 6.024
          0.192 11.002 0.038 -60.241 0.83 -24.742 0.178 -7.447
          0.798 55.704 0.208 12.896 0.185 -0.348 0.202 42.401
4570 0.224 33.317 0.16 -12.385 0.18 1.959 0.827 52.306
          0.171 -2.884 0.824 -26.374 0.032 -74.507 0.194 5.605
          0.194 11.416 0.039 -63.371 0.832 -25.367 0.173 -8.209
          0.813 56.039 0.217 10.478 0.193 -3.031 0.202 41.073
4585 0.224 32.276 0.152 -9.587 0.172 5.024 0.817 52.112
          0.172 -3.351 0.825 -26.916 0.03 -71.8 0.189 5.647
          0.195 11.195 0.039 -67.748 0.833 -25.875 0.167 -8.51
          0.83 55.681 0.219 6.373 0.194 -7.389 0.201 39.452
4600 0.223 31.261 0.149 -6.94 0.169 7.948 0.809 52.274
          0.172 -4.457 0.827 -27.467 0.029 -69.277 0.185 6.041
          0.195 10.405 0.036 -72.578 0.834 -26.35 0.162 -8.464
          0.843 54.72 0.211 1.919 0.187 -12.171 0.198 38.021
4615 0.222 30.288 0.148 -5.094 0.169 10.079 0.805 52.588
          0.17 -5.915 0.829 -28.022 0.028 -67.77 0.181 6.565
          0.193 9.26 0.033 -76.704 0.836 -26.89 0.159 -8.271
          0.847 53.451 0.194 -1.156 0.171 -15.776 0.195 37.082
4630 0.22 29.273 0.147 -4.187 0.169 11.285 0.803 52.808
          0.165 -7.415 0.832 -28.669 0.027 -67.282 0.178 6.961
          0.189 8.189 0.029 -77.522 0.837 -27.382 0.155 -8.173
          0.839 52.213 0.173 -1.145 0.153 -16.453 0.193 36.301
4645 0.22 28.356 0.145 -3.264 0.167 12.502 0.801 52.878
          0.158 -7.982 0.833 -29.125 0.026 -66.097 0.175 7.264
          0.182 8.002 0.026 -73.885 0.839 -27.905 0.152 -8.27
          0.822 51.728 0.16 2.828 0.14 -13.107 0.193 35.57
4660 0.219 27.332 0.143 -1.745 0.165 14.355 0.797 53.089
          0.152 -7.688 0.835 -29.764 0.025 -65.144 0.172 7.788
          0.176 8.711 0.024 -70.32 0.841 -28.419 0.149 -8.16
          0.807 52.014 0.155 7.651 0.134 -8.606 0.193 34.578
4675 0.218 26.326 0.144 0.197 0.166 16.633 0.793 53.608
          0.148 -6.791 0.838 -30.351 0.025 -63.612 0.168 8.52
          0.171 9.725 0.024 -67.014 0.842 -28.977 0.145 -7.785
          0.799 52.791 0.157 11.607 0.135 -4.885 0.194 33.184
4690 0.217 25.289 0.147 1.898 0.171 18.666 0.792 54.411
          0.145 -5.812 0.84 -30.878 0.025 -62.101 0.166 9.489
          0.169 10.865 0.024 -65.124 0.844 -29.509 0.142 -7.184
          0.798 53.733 0.163 13.815 0.14 -2.983 0.193 31.564
4705 0.216 24.158 0.154 2.498 0.18 19.612 0.798 55.319
          0.144 -5.228 0.842 -31.407 0.026 -61.791 0.164 10.599
          0.168 11.923 0.025 -65.567 0.845 -29.956 0.141 -6.501
          0.805 54.469 0.17 14.011 0.145 -3.176 0.192 29.985
4720 0.214 23.002 0.163 1.243 0.191 18.766 0.811 56.043
          0.143 -5.153 0.844 -31.917 0.026 -63.599 0.164 11.483
          0.168 12.244 0.024 -67.791 0.848 -30.41 0.14 -5.986
          0.817 54.599 0.174 12.337 0.148 -5.108 0.189 28.562
4735 0.213 21.841 0.169 -2.736 0.199 15.234 0.83 56.166
          0.142 -5.632 0.845 -32.453 0.027 -66.954 0.165 11.961
          0.167 12.105 0.023 -70.504 0.85 -30.849 0.14 -6.147
          0.824 54.308 0.171 10.537 0.145 -7.48 0.188 27.716
4750 0.212 20.638 0.168 -8.251 0.199 10.161 0.848 55.614
          0.139 -6.119 0.847 -32.985 0.026 -72.594 0.166 11.755
          0.164 12.042 0.022 -71.909 0.852 -31.322 0.139 -6.912
          0.826 53.944 0.166 9.934 0.139 -8.746 0.188 26.695
4765 0.211 19.435 0.158 -13.48 0.189 5.267 0.86 54.51
          0.136 -6.464 0.849 -33.498 0.024 -78.254 0.165 11.09
          0.162 12.181 0.021 -71.837 0.853 -31.801 0.138 -8.069
          0.825 53.732 0.16 10.531 0.134 -8.748 0.187 25.615
4780 0.211 18.24 0.143 -16.648 0.171 2.403 0.861 53.209
          0.133 -6.555 0.851 -34.01 0.021 -82.06 0.163 10.278
          0.158 12.619 0.02 -70.91 0.855 -32.284 0.135 -9.384
          0.823 53.762 0.158 11.842 0.13 -7.889 0.186 24.614
4795 0.21 17.061 0.127 -16.566 0.152 2.891 0.852 52.122
          0.13 -6.343 0.854 -34.529 0.018 -82.718 0.159 9.641
          0.156 13.32 0.019 -70.087 0.857 -32.771 0.131 -10.556
          0.823 54.003 0.158 13.089 0.129 -7.002 0.187 23.741
4810 0.21 15.914 0.115 -13.152 0.139 6.872 0.837 51.538
          0.128 -5.89 0.855 -35.019 0.016 -79.621 0.154 9.434
          0.154 14.007 0.019 -70.205 0.86 -33.236 0.125 -11.165
          0.828 54.326 0.16 13.347 0.131 -7.221 0.187 22.825
4825 0.21 14.879 0.112 -8.649 0.136 11.826 0.823 51.886
          0.126 -6.197 0.856 -35.538 0.015 -76.309 0.149 10.111
          0.153 14.269 0.018 -73.478 0.86 -33.651 0.121 -10.975
          0.836 54.269 0.161 11.913 0.13 -8.932 0.188 21.414
4840 0.21 13.721 0.113 -5.569 0.138 15.412 0.817 52.603
          0.124 -6.736 0.86 -36.091 0.015 -74.154 0.145 11.19
          0.152 14.341 0.017 -76.819 0.861 -34.062 0.117 -10.428
          0.842 53.964 0.158 10.143 0.127 -11.171 0.187 20.204
4855 0.21 12.622 0.115 -4.559 0.142 16.957 0.819 53.247
          0.122 -7.338 0.862 -36.576 0.015 -73.858 0.143 12.164
          0.149 14.273 0.016 -79.578 0.863 -34.445 0.114 -9.938
          0.844 53.499 0.151 8.993 0.122 -12.92 0.187 19.209
4870 0.21 11.616 0.117 -5.324 0.145 16.715 0.825 53.601
          0.118 -7.8 0.863 -37.015 0.014 -75.564 0.141 12.9
          0.146 14.329 0.015 -80.837 0.864 -34.797 0.112 -9.732
          0.842 53.1 0.144 9.152 0.115 -13.452 0.187 18.322
4885 0.21 10.681 0.117 -7.071 0.145 15.47 0.833 53.591
          0.115 -7.959 0.865 -37.467 0.014 -78.666 0.14 13.398
          0.143 14.721 0.013 -80.564 0.866 -35.15 0.11 -9.863
          0.836 52.949 0.137 10.74 0.109 -12.546 0.188 17.394
4900 0.21 9.841 0.112 -8.974 0.141 14.147 0.838 53.199
          0.111 -7.77 0.866 -37.943 0.013 -81.63 0.138 13.532
          0.139 15.341 0.012 -80.748 0.868 -35.578 0.108 -10.219
          0.832 53.007 0.135 12.995 0.105 -10.73 0.188 16.311
4915 0.209 9.013 0.106 -9.005 0.134 14.731 0.834 52.773
          0.109 -7.439 0.868 -38.442 0.012 -82.105 0.135 13.665
          0.138 16.213 0.012 -79.601 0.871 -36.075 0.105 -10.805
          0.833 53.351 0.136 14.379 0.105 -10.053 0.188 15.32
4930 0.209 8.15 0.101 -7.589 0.129 16.745 0.829 52.715
          0.106 -7.45 0.87 -38.942 0.011 -82.069 0.132 14.114
          0.136 16.841 0.012 -82.207 0.873 -36.447 0.101 -10.996
          0.838 53.55 0.137 14.262 0.105 -10.633 0.189 14.22
4945 0.208 7.329 0.099 -5.738 0.127 19.273 0.824 52.991
          0.105 -7.833 0.872 -39.377 9.901e-3 -81.258 0.129 14.844
          0.134 17.28 0.011 -84.575 0.875 -36.818 0.098 -10.874
          0.844 53.432 0.135 12.984 0.103 -12.469 0.188 13.151
4960 0.207 6.493 0.099 -4.373 0.128 21.328 0.823 53.451
          0.103 -8.502 0.874 -39.782 9.502e-3 -81.601 0.127 15.773
          0.132 17.456 0.01 -87.642 0.876 -37.168 0.095 -10.601
          0.848 53.009 0.131 11.542 0.099 -14.697 0.188 12.253
4975 0.207 5.605 0.101 -4.164 0.131 22.176 0.827 53.894
          0.1 -9.21 0.874 -40.213 9.247e-3 -84.36 0.125 16.77
          0.13 17.406 8.846e-3 -91.922 0.877 -37.477 0.093 -10.347
          0.846 52.424 0.122 11.269 0.092 -16.028 0.188 11.51
4990 0.206 4.764 0.101 -5.353 0.133 21.644 0.834 54.126
          0.096 -9.492 0.876 -40.661 9.046e-3 -87.198 0.123 17.632
          0.126 17.5 7.868e-3 -92.111 0.879 -37.887 0.091 -10.225
          0.838 51.901 0.113 13.498 0.084 -15.14 0.188 10.547
5005 0.204 3.863 0.1 -7.65 0.132 20.191 0.841 53.943
          0.091 -9.388 0.878 -41.066 8.621e-3 -89.633 0.122 18.14
          0.122 18.421 7.229e-3 -91.693 0.882 -38.285 0.089 -10.676
          0.827 52.006 0.109 18.151 0.079 -11.594 0.189 9.383
5020 0.204 3.032 0.096 -9.476 0.128 19.283 0.845 53.576
          0.088 -8.943 0.88 -41.554 7.968e-3 -94.416 0.12 18.542
          0.119 19.898 6.889e-3 -92.033 0.883 -38.648 0.086 -11.252
          0.819 52.698 0.11 22.417 0.078 -7.972 0.188 8.445
5035 0.203 2.042 0.091 -10.256 0.123 19.52 0.846 53.295
          0.086 -8.25 0.882 -41.974 7.238e-3 -99.739 0.118 19.008
          0.117 21.505 6.658e-3 -93.84 0.885 -38.986 0.084 -11.67
          0.818 53.619 0.114 25.354 0.08 -5.454 0.187 7.685
5050 0.202 0.941 0.087 -10.116 0.119 20.76 0.844 53.221
          0.084 -7.657 0.883 -42.359 6.653e-3 -104.163 0.115 19.671
          0.115 23.031 6.575e-3 -97.825 0.886 -39.321 0.081 -11.964
          0.826 54.466 0.12 26.288 0.083 -5.01 0.187 6.934
5065 0.202 -0.154 0.084 -9.624 0.118 22.392 0.842 53.358
          0.082 -7.509 0.884 -42.78 6.309e-3 -108.065 0.113 20.557
          0.115 24.259 6.625e-3 -104.397 0.887 -39.668 0.078 -12.22
          0.839 54.955 0.126 24.955 0.086 -7.064 0.187 6.092
5080 0.2 -1.275 0.083 -9.578 0.118 23.578 0.846 53.608
          0.081 -7.881 0.886 -43.196 5.994e-3 -115.215 0.111 21.491
          0.115 24.753 6.458e-3 -113.469 0.89 -40.011 0.075 -12.304
          0.854 54.783 0.129 21.66 0.087 -11.217 0.186 5.298
5095 0.199 -2.399 0.082 -11.117 0.119 22.937 0.852 53.634
          0.079 -9.09 0.889 -43.614 5.94e-3 -124.042 0.109 22.428
          0.114 24.645 6.118e-3 -127.51 0.892 -40.391 0.073 -12.48
          0.866 53.975 0.124 17.829 0.083 -16.478 0.186 4.726
5110 0.197 -3.353 0.079 -13.769 0.117 21.433 0.859 53.3
          0.076 -10.24 0.891 -44.037 5.6e-3 -133.412 0.108 23.123
          0.112 24.607 5.496e-3 -136.807 0.893 -40.711 0.07 -13.097
          0.868 53.078 0.114 15.896 0.075 -20.336 0.187 4.084
5125 0.196 -4.068 0.074 -16.219 0.111 19.873 0.861 52.717
          0.073 -11.138 0.892 -44.426 5.227e-3 -142.475 0.106 23.554
          0.109 24.874 4.953e-3 -143.475 0.894 -41.053 0.068 -13.943
          0.862 52.361 0.104 16.629 0.067 -21.089 0.187 3.167
5140 0.195 -4.673 0.067 -17.233 0.103 19.761 0.858 52.071
          0.069 -11.569 0.893 -44.808 4.872e-3 -149.247 0.104 23.88
          0.106 25.647 4.656e-3 -148.094 0.896 -41.389 0.065 -14.866
          0.853 52.037 0.097 19.655 0.061 -19.239 0.186 2.328
5155 0.194 -5.309 0.06 -16.016 0.094 22.24 0.85 51.599
          0.066 -11.507 0.894 -45.202 4.545e-3 -152.667 0.101 24.402
          0.103 26.924 4.59e-3 -151.669 0.896 -41.684 0.062 -15.715
          0.844 52.156 0.094 23.708 0.057 -16.436 0.185 1.908
5170 0.194 -5.915 0.056 -12.47 0.089 27.068 0.839 51.555
          0.063 -11.322 0.896 -45.542 4.35e-3 -154.474 0.098 25.519
          0.1 28.345 4.558e-3 -157.172 0.899 -41.989 0.058 -16.273
          0.842 52.497 0.094 26.908 0.055 -14.34 0.185 1.717
5185 0.194 -6.42 0.054 -8.633 0.089 32.372 0.83 52.132
