!Hittite Microwave Corporation								
!12 Elizabeth Drive								
!Chelmsford, MA 01824								
!Tel: 978-250-3343								
!Fax: 978-250-3373
!Device: HMC347LP3, DC - 14 GHz GaAs MMIC SPDT Non-Reflective Switch in leadless QFN SMT package
!Misc: Port1=RFC, Port2= RF1, Port3=RF2, RF1 ON, Data includes two SRI SMA sonnectors, Bias: -5VDC								
!
# MHZ S MA R 50

10 0.103 -19.557 0.925 -1.31 0.026 40.414
          0.876 -2.314 0.144 25.477 5.802e-3 169.693
          0.023 60.527 0.019 74.909 0.317 175.992
109.95 0.123 -4.824 0.866 -5.127 679.7e-6 74.608
          0.861 -5.099 0.119 -3.368 630.9e-6 12.532
          545e-6 108.667 465.9e-6 62.002 0.321 174.567
209.9 0.125 -5.43 0.862 -9.534 377.3e-6 -1.521
          0.863 -9.516 0.12 -7.658 48.63e-6 117.779
          566.7e-6 20.118 290.9e-6 110.219 0.321 169.88
309.85 0.124 -8.337 0.862 -13.798 427.5e-6 30.453
          0.862 -13.711 0.124 -8.512 137.6e-6 -82.284
          185.6e-6 46.431 153.4e-6 -11.918 0.318 165.253
409.8 0.124 -11.07 0.862 -18.274 388.7e-6 46.391
          0.862 -18.216 0.121 -11.958 173.3e-6 -128.769
          227.9e-6 78.984 89.03e-6 -72.4 0.32 160.552
509.75 0.133 -15.645 0.858 -22.458 222.2e-6 59.583
          0.856 -22.724 0.118 -15.582 272.3e-6 -54.467
          438.2e-6 71.115 142.6e-6 -141.426 0.319 156.33
609.7 0.133 -18.998 0.863 -26.567 503e-6 57.31
          0.857 -26.888 0.118 -19.88 362.9e-6 -93.603
          269.4e-6 47.475 288.2e-6 -123.167 0.318 152.119
709.65 0.124 -20.747 0.859 -31.108 347.9e-6 45.688
          0.857 -31.17 0.128 -23.616 374.4e-6 -87.406
          392.2e-6 33.012 217.2e-6 -115.989 0.314 147.829
809.6 0.126 -23.257 0.858 -35.423 443e-6 49.092
          0.857 -35.294 0.131 -25.643 303.4e-6 -118.931
          413.3e-6 42.224 297.8e-6 -145.526 0.31 142.576
909.55 0.132 -27.021 0.856 -39.755 569.1e-6 45.516
          0.856 -39.633 0.124 -27.593 239.9e-6 -144.956
          541.2e-6 45.541 207.2e-6 -164.496 0.312 137.71
1009.5 0.134 -30.758 0.856 -44.037 652.6e-6 50.474
          0.854 -43.994 0.121 -32.177 282.7e-6 -135.574
          653.4e-6 51.776 303e-6 -137.708 0.314 133.301
1109.45 0.13 -32.655 0.856 -48.236 578.1e-6 46.43
          0.853 -48.195 0.13 -36.081 299.4e-6 -165.511
          635.7e-6 43.947 232.2e-6 -151.907 0.311 129.003
1209.4 0.126 -34.812 0.856 -52.522 614.6e-6 29.127
          0.853 -52.471 0.135 -38.934 377.6e-6 -176.362
          697.8e-6 53.09 337.1e-6 -162.074 0.308 124.03
1309.35 0.134 -39.748 0.854 -56.879 710e-6 49.694
          0.854 -56.731 0.127 -41.159 238.2e-6 176.677
          770.8e-6 39.281 337.6e-6 -169.358 0.311 119.118
1409.3 0.142 -43.346 0.853 -61.007 728.2e-6 26.88
          0.854 -60.929 0.122 -45.104 296.5e-6 175.589
          675e-6 37.245 384.8e-6 -175.837 0.312 115.181
1509.25 0.135 -48.079 0.852 -65.446 861.8e-6 41.999
          0.852 -65.362 0.125 -51.098 347.2e-6 -170.65
          871.1e-6 29.727 459e-6 -179.513 0.31 111.185
1609.2 0.128 -49.463 0.849 -69.631 1.091e-3 35.839
          0.851 -69.577 0.135 -55.08 526.9e-6 -178.463
          961.2e-6 28.228 370.1e-6 -175.345 0.306 106.548
1709.15 0.134 -52.972 0.852 -73.942 1.054e-3 30.951
          0.852 -73.941 0.132 -56.608 628.1e-6 151.371
          914.9e-6 30.003 379.6e-6 158.278 0.307 101.332
1809.1 0.146 -57.586 0.854 -78.076 797.1e-6 24.257
          0.85 -77.995 0.124 -57.567 453.8e-6 142.802
          821.3e-6 24.195 436.7e-6 143.219 0.308 97.201
1909.05 0.144 -60.792 0.851 -82.567 1.124e-3 25.259
          0.851 -82.566 0.122 -63.506 616e-6 147.018
          1.205e-3 23.149 679.3e-6 141.934 0.307 92.985
2009 0.132 -61.815 0.848 -86.621 1.018e-3 15.03
          0.847 -86.631 0.134 -68.49 559.4e-6 133.306
          1.22e-3 17.598 508.8e-6 127.619 0.304 88.394
2108.95 0.136 -64.847 0.848 -90.812 1.179e-3 13.669
          0.849 -90.942 0.138 -70.478 529.5e-6 141.926
          1.162e-3 15.617 699.2e-6 134.135 0.302 83.286
2208.9 0.147 -69.59 0.847 -95.087 1.023e-3 14.79
          0.847 -95.33 0.129 -71.305 633e-6 127.519
          1.108e-3 15.439 816e-6 135.466 0.303 78.723
2308.85 0.148 -71.534 0.851 -99.364 1.135e-3 6.699
          0.848 -99.453 0.126 -75.617 750.7e-6 126.763
          1.19e-3 7.547 819.8e-6 112.344 0.303 74.351
2408.8 0.146 -73.855 0.848 -103.781 1.194e-3 3.791
          0.843 -103.85 0.134 -81.214 572.2e-6 125.909
          1.361e-3 5.903 711.7e-6 112.719 0.298 69.763
2508.75 0.139 -74.15 0.847 -107.934 1.383e-3 3.096
          0.846 -108.093 0.145 -84.235 802.5e-6 125.581
          1.301e-3 11.6 813.1e-6 126.756 0.296 64.698
2608.7 0.145 -77.835 0.847 -112.237 1.534e-3 8.188
          0.846 -112.446 0.144 -84.719 824.2e-6 110.917
          1.302e-3 3.536 871.9e-6 109.892 0.296 59.246
2708.65 0.151 -82.181 0.844 -116.561 1.432e-3 0.719
          0.844 -116.631 0.139 -87.152 934.8e-6 111.26
          1.465e-3 0.943 902.8e-6 101.382 0.296 54.164
2808.6 0.15 -84.973 0.845 -120.822 1.525e-3 3.59
          0.843 -121.077 0.142 -93.134 1.09e-3 100.536
          1.432e-3 3.953 837.4e-6 91.135 0.296 49.509
2908.55 0.15 -85.288 0.843 -125.214 1.61e-3 -4.624
          0.841 -125.21 0.153 -96.125 1.002e-3 97.053
          1.571e-3 -6.375 846.6e-6 102.445 0.294 43.82
3008.5 0.155 -87.653 0.841 -129.639 1.794e-3 -4.751
          0.842 -129.452 0.159 -96.867 1.216e-3 86.672
          1.539e-3 -5.823 1.142e-3 85.071 0.295 38.187
3108.45 0.164 -91.615 0.842 -133.963 1.621e-3 -6.345
          0.839 -133.689 0.153 -98.201 986.6e-6 77.426
          1.641e-3 -9.485 998.5e-6 90.367 0.297 32.918
3208.4 0.17 -97.154 0.841 -137.835 1.702e-3 -17.047
          0.842 -137.929 0.155 -100.077 1.138e-3 74.964
          1.658e-3 -13.234 1.135e-3 76.548 0.301 28.206
3308.35 0.173 -96.241 0.841 -142.529 1.773e-3 -20.537
          0.839 -142.445 0.163 -106.366 1.274e-3 74.052
          1.654e-3 -11.994 1.101e-3 66.902 0.298 22.955
3408.3 0.177 -97.517 0.838 -146.565 1.728e-3 -19.734
          0.835 -146.397 0.173 -107.646 1.187e-3 67.679
          1.784e-3 -20.793 1.174e-3 67.139 0.3 17.496
3508.25 0.184 -101.296 0.843 -150.928 1.76e-3 -22.806
          0.838 -150.783 0.175 -107.309 1.146e-3 63.94
          1.831e-3 -21.383 1.356e-3 63.898 0.305 11.953
3608.2 0.192 -107.563 0.838 -155.132 1.898e-3 -27.38
          0.835 -155.001 0.171 -109.836 1.394e-3 59.795
          1.928e-3 -26.032 1.372e-3 55.966 0.308 7.212
3708.15 0.196 -109.345 0.839 -159.456 1.848e-3 -31.45
          0.837 -159.294 0.177 -114.583 1.546e-3 55.901
          2.106e-3 -36.608 1.32e-3 54.285 0.307 2.518
3808.1 0.205 -107.754 0.83 -163.883 2.088e-3 -33.103
          0.832 -163.655 0.193 -117.656 1.401e-3 48.817
          2.088e-3 -30.638 1.416e-3 51.907 0.307 -3.242
3908.05 0.211 -110.651 0.832 -167.771 2.071e-3 -34.666
          0.833 -167.707 0.202 -118.661 1.574e-3 47.086
          1.994e-3 -35.743 1.38e-3 46.133 0.314 -9.074
4008 0.217 -116.283 0.836 -172.045 2.085e-3 -39.514
          0.831 -172.035 0.198 -119.857 1.62e-3 42.369
          2.135e-3 -37.811 1.524e-3 41.455 0.32 -13.374
4107.95 0.223 -120.242 0.834 -176.368 2.114e-3 -39.565
          0.83 -176.316 0.201 -123.295 1.453e-3 32.79
          2.036e-3 -40.154 1.577e-3 34.36 0.323 -18.431
4207.9 0.237 -120.254 0.828 179.542 2.076e-3 -45.585
          0.828 179.388 0.217 -128.067 1.654e-3 31.836
          2.306e-3 -39.584 1.586e-3 26.866 0.326 -23.993
4307.85 0.241 -122.529 0.831 175.482 2.26e-3 -48.955
          0.827 175.304 0.232 -129.375 1.786e-3 22.737
          2.13e-3 -47.899 1.751e-3 25.987 0.333 -29.219
4407.8 0.244 -126.84 0.828 171.341 2.198e-3 -47.35
          0.828 171.24 0.228 -131.403 1.744e-3 22.848
          2.283e-3 -47.754 1.835e-3 21.434 0.342 -33.528
4507.75 0.249 -133.652 0.827 166.956 2.292e-3 -56.703
          0.826 166.956 0.222 -132.663 1.757e-3 15.546
          2.247e-3 -52.109 1.764e-3 15.2 0.347 -37.685
4607.7 0.259 -135.657 0.82 162.617 2.298e-3 -53.984
          0.825 162.703 0.23 -137.171 1.831e-3 12.639
          2.349e-3 -53.583 1.931e-3 15.251 0.355 -42.289
4707.65 0.27 -136.917 0.826 158.414 2.397e-3 -59.188
          0.822 158.445 0.242 -139.16 1.966e-3 5.592
          2.436e-3 -60.702 1.879e-3 2.604 0.359 -46.893
4807.6 0.272 -141.402 0.821 154.304 2.447e-3 -60.947
          0.822 154.367 0.247 -141.472 2.006e-3 0.525
          2.404e-3 -60.13 1.967e-3 4.586 0.368 -50.959
4907.55 0.275 -147.193 0.821 150.099 2.499e-3 -64.916
          0.822 150.297 0.241 -142.602 2.007e-3 -2.342
          2.615e-3 -63.218 1.943e-3 1.157 0.374 -54.452
5007.5 0.285 -151.047 0.82 145.948 2.527e-3 -66.787
          0.822 145.926 0.242 -146.301 2.152e-3 -4.814
          2.639e-3 -65.629 2.135e-3 -7.37 0.381 -58.49
5107.45 0.294 -152.414 0.818 141.796 2.467e-3 -68.06
          0.815 141.687 0.254 -150.392 2.115e-3 -10.389
          2.787e-3 -68.362 2.142e-3 -10.742 0.384 -62.121
5207.4 0.299 -155.297 0.816 137.823 2.592e-3 -73.883
          0.818 137.818 0.264 -153.178 2.27e-3 -19.086
          2.642e-3 -73.515 2.133e-3 -20.909 0.392 -66.101
5307.35 0.299 -161.244 0.819 133.501 2.733e-3 -76.393
          0.819 133.422 0.258 -155.066 2.254e-3 -22.788
          2.781e-3 -76.933 2.23e-3 -22.054 0.398 -69.81
5407.3 0.303 -165.4 0.82 129.206 2.793e-3 -76.039
          0.821 129.506 0.255 -157.538 2.289e-3 -27.747
          2.901e-3 -78.695 2.295e-3 -27.877 0.405 -73.189
5507.25 0.309 -168.056 0.816 124.998 2.865e-3 -79.612
          0.82 125.206 0.262 -163.032 2.42e-3 -30.893
          2.863e-3 -80.693 2.416e-3 -29.847 0.408 -76.622
5607.2 0.313 -169.834 0.814 121.147 2.906e-3 -85.472
          0.811 121.075 0.271 -166.826 2.363e-3 -35.89
          2.955e-3 -84.777 2.429e-3 -34.422 0.411 -80.348
5707.15 0.315 -174.145 0.818 116.653 3.091e-3 -88.997
          0.817 117.201 0.27 -169.159 2.528e-3 -42.393
          2.992e-3 -86.273 2.51e-3 -40.026 0.418 -83.59
5807.1 0.312 179.682 0.817 112.436 3.146e-3 -89.102
          0.819 112.645 0.261 -171.207 2.441e-3 -45.409
          3.099e-3 -91.101 2.587e-3 -43.172 0.423 -86.921
5907.05 0.313 177.437 0.821 108.495 3.082e-3 -94.67
          0.818 108.384 0.262 -176.898 2.568e-3 -51.566
          3.236e-3 -95.397 2.541e-3 -50.782 0.426 -90.273
6007 0.317 175.706 0.819 104.343 3.292e-3 -96.984
          0.819 104.587 0.268 177.762 2.728e-3 -58.714
          3.182e-3 -96.967 2.86e-3 -55.25 0.428 -93.808
6106.95 0.314 171.594 0.821 100.48 3.237e-3 -101.243
          0.82 100.302 0.27 175.018 2.784e-3 -60.107
          3.369e-3 -102.306 2.598e-3 -58.465 0.433 -97.266
6206.9 0.312 165.703 0.825 96.041 3.357e-3 -105.17
          0.826 96.014 0.257 173.049 2.773e-3 -65.819
          3.362e-3 -106.001 2.907e-3 -66.065 0.437 -100.507
6306.85 0.311 160.697 0.822 91.531 3.47e-3 -109.386
          0.83 91.493 0.249 169.934 2.712e-3 -67.866
          3.505e-3 -108.937 2.816e-3 -67.815 0.442 -103.341
6406.8 0.308 159 0.826 87.54 3.493e-3 -109.226
          0.825 87.7 0.25 163.226 2.982e-3 -73.112
          3.523e-3 -111.142 2.804e-3 -74.563 0.442 -106.389
6506.75 0.306 155.887 0.827 83.617 3.524e-3 -114.954
          0.824 83.306 0.25 159.867 2.941e-3 -79.338
          3.551e-3 -114.356 2.94e-3 -78.263 0.446 -109.672
6606.7 0.295 150.452 0.826 79.377 3.6e-3 -119.041
          0.826 79.433 0.241 156.881 2.976e-3 -80.3
          3.678e-3 -118.593 2.976e-3 -83.135 0.446 -112.106
6706.65 0.284 145.799 0.833 74.858 3.691e-3 -122.086
          0.832 75.035 0.221 152.608 2.917e-3 -88.231
          3.736e-3 -123.597 2.988e-3 -87.202 0.449 -114.92
6806.6 0.286 142.253 0.833 70.533 3.827e-3 -124.794
          0.831 70.36 0.22 146.242 3.098e-3 -92.366
          3.799e-3 -124.991 3.14e-3 -91.768 0.447 -118.283
6906.55 0.281 140.642 0.835 66.617 3.856e-3 -128.997
          0.831 66.532 0.226 140.325 3.097e-3 -97.017
          3.788e-3 -128.566 3.216e-3 -97.95 0.444 -120.992
7006.5 0.272 137.445 0.837 62.29 3.878e-3 -131.675
          0.836 62.002 0.216 135.185 3.093e-3 -101.62
          3.969e-3 -132.046 3.065e-3 -102.545 0.443 -124.469
7106.45 0.26 132.083 0.838 58.113 3.973e-3 -137.736
          0.838 57.721 0.202 130.795 3.281e-3 -104.147
          3.954e-3 -135.883 3.308e-3 -105.837 0.441 -127.734
7206.4 0.248 128.533 0.844 53.681 4.044e-3 -139.732
          0.841 53.551 0.189 123.164 3.316e-3 -109.982
          4.125e-3 -141.715 3.274e-3 -108.773 0.443 -130.832
7306.35 0.247 127.398 0.841 49.226 4.097e-3 -143.736
          0.842 49.001 0.191 116.103 3.389e-3 -116.671
          4.177e-3 -145.843 3.41e-3 -116.234 0.438 -133.897
7406.3 0.238 125.47 0.843 45.223 4.177e-3 -147.071
          0.843 44.915 0.193 109.126 3.33e-3 -119.53
          4.263e-3 -147.16 3.42e-3 -120.661 0.433 -137.148
7506.25 0.218 122.251 0.849 40.655 4.32e-3 -151.746
          0.848 40.727 0.178 103.262 3.346e-3 -124.96
          4.222e-3 -150.629 3.313e-3 -124.775 0.432 -140.947
7606.2 0.199 116.43 0.849 36.189 4.51e-3 -154.944
          0.85 36.037 0.156 95.432 3.47e-3 -130.992
          4.359e-3 -154.636 3.466e-3 -130.633 0.429 -144.098
7706.15 0.192 114.472 0.854 32.023 4.486e-3 -156.874
          0.847 31.53 0.153 86.033 3.518e-3 -135.018
          4.422e-3 -160.134 3.532e-3 -135.134 0.426 -147.144
7806.1 0.188 114.837 0.847 27.157 4.464e-3 -162.274
          0.853 27.363 0.159 76.475 3.613e-3 -139.036
          4.513e-3 -162.526 3.501e-3 -140.593 0.42 -150.409
7906.05 0.167 112.561 0.858 23.117 4.591e-3 -166.711
          0.854 22.935 0.15 69.211 3.476e-3 -143.751
          4.445e-3 -166.608 3.537e-3 -142.411 0.413 -154.472
8006 0.143 108.238 0.86 18.267 4.685e-3 -169.708
          0.859 18.572 0.134 58.056 3.645e-3 -149.081
          4.659e-3 -170.256 3.763e-3 -149.681 0.412 -157.655
8105.95 0.132 106.599 0.858 13.757 4.824e-3 -173.942
          0.858 13.77 0.132 45.742 3.618e-3 -153.302
          4.622e-3 -174.316 3.787e-3 -152.58 0.408 -161.293
8205.9 0.132 106.16 0.858 9.475 4.781e-3 -177.668
          0.852 9.466 0.138 37.05 3.764e-3 -158.687
          4.802e-3 -177.217 3.655e-3 -158.206 0.4 -165.183
8305.85 0.124 106.614 0.858 5.004 4.834e-3 178.011
          0.858 5.137 0.138 31.02 3.761e-3 -161.693
          4.788e-3 177.086 3.714e-3 -163.381 0.396 -169.484
8405.8 0.1 105.971 0.857 0.461 4.898e-3 171.423
          0.854 0.319 0.129 17.522 4.003e-3 -167.177
          4.781e-3 174.938 3.793e-3 -167.016 0.393 -173.616
8505.75 0.094 108.573 0.856 -3.914 4.973e-3 169.366
          0.856 -3.775 0.133 4.395 3.865e-3 -171.355
          4.875e-3 169.953 3.911e-3 -173.615 0.39 -177.142
8605.7 0.093 107.744 0.859 -8.453 5.113e-3 165.532
          0.856 -8.646 0.149 -3.009 3.966e-3 -177.197
          5.079e-3 165.576 3.992e-3 -176.256 0.384 179.055
8705.65 0.095 116.217 0.854 -12.872 5.024e-3 160.242
          0.854 -13.03 0.157 -8.524 3.98e-3 178.956
          5.142e-3 161.02 3.98e-3 178.37 0.376 174.855
8805.6 0.085 124.034 0.857 -17.154 5.119e-3 157.077
          0.86 -17.212 0.156 -20.686 4.178e-3 172.172
          5.11e-3 156.644 4.125e-3 175.05 0.374 170.577
8905.55 0.075 131.831 0.856 -21.982 5.299e-3 151.101
          0.854 -21.892 0.165 -31.567 4.132e-3 169.102
          5.251e-3 151.98 4.154e-3 169.701 0.366 166.049
9005.5 0.08 130.587 0.852 -26.191 5.406e-3 148.364
          0.851 -26.025 0.178 -36.153 4.191e-3 163.307
          5.197e-3 148.189 4.251e-3 163.68 0.361 161.349
9105.45 0.091 128.002 0.851 -30.507 5.3e-3 143.242
          0.85 -30.646 0.184 -39.765 4.212e-3 157.621
          5.373e-3 141.895 4.311e-3 159.466 0.356 156.319
9205.4 0.091 133.901 0.855 -35.069 5.257e-3 138.022
          0.851 -34.865 0.182 -46.819 4.28e-3 152.556
          5.304e-3 138.585 4.374e-3 153.535 0.354 150.95
9305.35 0.091 142.867 0.853 -39.4 5.34e-3 135.027
          0.849 -39.423 0.188 -57.134 4.458e-3 148.557
          5.323e-3 134.978 4.346e-3 147.73 0.356 146.12
9405.3 0.09 145.294 0.853 -43.659 5.331e-3 129.389
          0.849 -43.696 0.201 -64.949 4.417e-3 143.655
          5.399e-3 129.78 4.422e-3 141.851 0.353 141.696
9505.25 0.094 141.497 0.852 -48.319 5.561e-3 125.442
          0.851 -48.268 0.2 -68.423 4.554e-3 136.974
          5.479e-3 125.081 4.516e-3 138.394 0.354 136.911
9605.2 0.099 140.711 0.848 -52.389 5.408e-3 120.725
          0.847 -52.713 0.199 -73.778 4.527e-3 131.808
          5.432e-3 119.626 4.41e-3 130.404 0.352 131.714
9705.15 0.107 147.518 0.848 -56.873 5.638e-3 116.04
          0.846 -56.615 0.213 -83.092 4.564e-3 126.312
          5.618e-3 116.737 4.682e-3 125.55 0.353 127.504
9805.1 0.109 150.203 0.846 -61.473 5.567e-3 110.355
          0.844 -61.386 0.22 -91.649 4.475e-3 119.268
          5.582e-3 110.752 4.562e-3 119.761 0.352 123.035
9905.05 0.108 145.137 0.845 -65.741 5.469e-3 107.225
          0.842 -65.498 0.221 -94.304 4.442e-3 114.756
          5.519e-3 107.169 4.532e-3 114.314 0.348 118.286
10005 0.111 137.67 0.842 -70.859 5.502e-3 102.461
          0.841 -70.833 0.222 -97.257 4.499e-3 105.61
          5.381e-3 101.656 4.428e-3 107.339 0.346 112.112
10104.95 0.122 138.08 0.842 -75.171 5.478e-3 98.089
          0.841 -75.088 0.225 -103.141 4.418e-3 103.202
          5.37e-3 97.998 4.554e-3 101.913 0.35 106.84
10204.9 0.129 139.533 0.841 -79.628 5.396e-3 94.752
          0.837 -79.557 0.23 -110.866 4.495e-3 98.598
          5.449e-3 93.061 4.495e-3 97.538 0.351 101.801
10304.85 0.122 138.947 0.842 -84.001 5.414e-3 87.699
          0.839 -83.59 0.234 -115.673 4.358e-3 93.018
          5.37e-3 88.767 4.408e-3 92.705 0.352 97.102
10404.8 0.121 131.919 0.841 -88.274 5.321e-3 84.094
          0.838 -88.238 0.226 -116.829 4.257e-3 85.956
          5.387e-3 84.927 4.334e-3 86.7 0.352 91.711
10504.75 0.127 125.444 0.84 -92.898 5.333e-3 79.782
          0.838 -92.85 0.225 -121.885 4.363e-3 81.582
          5.474e-3 79.634 4.275e-3 83.105 0.357 86.478
10604.7 0.136 128.83 0.839 -97.02 5.237e-3 76.431
          0.838 -96.956 0.228 -130.517 4.238e-3 77.29
          5.312e-3 76.628 4.221e-3 76.505 0.364 81.606
10704.65 0.138 129.931 0.84 -101.283 5.121e-3 70.472
          0.837 -101.274 0.228 -137.009 4.349e-3 71.23
          5.232e-3 70.717 4.275e-3 72.008 0.369 77.408
10804.6 0.134 126.638 0.838 -105.9 5.19e-3 66.613
          0.836 -105.998 0.23 -140.977 4.166e-3 67.802
          5.243e-3 66.406 4.09e-3 66.422 0.373 73.25
10904.55 0.135 122.82 0.84 -110.088 5.133e-3 63.255
          0.835 -110.419 0.22 -145.106 4.164e-3 63.332
          5.2e-3 63.704 4.026e-3 61.956 0.375 68.382
11004.5 0.146 122.436 0.84 -114.84 5.158e-3 59.018
          0.837 -114.781 0.217 -151.618 4.2e-3 57.52
          5.054e-3 58.149 3.989e-3 58.16 0.384 63.617
11104.45 0.152 126.167 0.834 -118.966 5.012e-3 54.131
          0.834 -119.2 0.221 -162.237 3.93e-3 53.471
          5.035e-3 53.882 4.062e-3 53.267 0.393 59.958
11204.4 0.152 125.16 0.839 -123.596 4.902e-3 49.832
          0.833 -123.404 0.22 -169.047 3.902e-3 49.797
          4.898e-3 49.748 3.998e-3 48.869 0.393 56.604
11304.35 0.145 120.479 0.838 -127.806 4.896e-3 45.033
          0.84 -127.775 0.208 -169.995 3.883e-3 44.192
          4.86e-3 45.59 4.044e-3 44.828 0.394 52.248
11404.3 0.153 118.992 0.836 -132.606 4.776e-3 40.314
          0.834 -132.504 0.204 -178.648 3.926e-3 38.565
          4.899e-3 39.768 3.932e-3 39.554 0.404 47.416
11504.25 0.164 121.23 0.838 -137.083 4.818e-3 36.674
          0.835 -136.834 0.208 170.637 3.995e-3 34.366
          4.702e-3 36.042 3.943e-3 36.721 0.412 44.412
11604.2 0.166 121.11 0.834 -141.072 4.667e-3 35.189
          0.833 -141.329 0.212 163.419 3.884e-3 30.761
          4.66e-3 33.948 3.76e-3 31.301 0.415 41.559
11704.15 0.16 117.699 0.837 -145.699 4.61e-3 29.82
          0.833 -145.679 0.2 160.273 3.735e-3 27.697
          4.538e-3 29.198 3.619e-3 25.823 0.413 37.249
11804.1 0.157 117.14 0.838 -150.04 4.588e-3 25.751
