!Hittite Microwave Corporation								
!12 Elizabeth Drive								
!Chelmsford, MA 01824								
!Tel: 978-250-3343								
!Fax: 978-250-3373							
!Device: HMC341LC3B, 22-29 GHz, GaAs MMIC LNA in 3x3mm SMT package							
!Misc: Vdd=+3V, 35mA, Room							
!
# MHZ S MA R 50

22000 0.43 23.008 5.304 157.167 0.03 59.991 0.102 98.735
22035 0.428 22.367 5.312 156.418 0.03 59.337 0.094 98.407
22070 0.425 21.726 5.32 155.671 0.031 58.685 0.086 97.648
22105 0.422 21.091 5.328 154.923 0.031 58.036 0.078 96.409
22140 0.421 20.498 5.336 154.161 0.031 57.395 0.07 94.796
22175 0.419 19.908 5.344 153.4 0.031 56.755 0.062 92.234
22210 0.417 19.329 5.352 152.637 0.031 56.1 0.054 88.842
22245 0.415 18.774 5.359 151.87 0.031 55.413 0.047 84.8
22280 0.413 18.221 5.366 151.103 0.031 54.725 0.04 78.537
22315 0.412 17.683 5.373 150.34 0.031 54.075 0.034 69.435
22350 0.411 17.166 5.378 149.583 0.031 53.475 0.028 56.039
22385 0.41 16.644 5.383 148.829 0.031 52.878 0.026 38.1
22420 0.408 16.108 5.388 148.055 0.031 52.24 0.027 20.346
22455 0.407 15.559 5.392 147.268 0.031 51.573 0.029 4.741
22490 0.406 15.01 5.396 146.481 0.031 50.906 0.033 -7.16
22525 0.405 14.529 5.399 145.712 0.031 50.299 0.039 -16.735
22560 0.404 14.073 5.4 144.952 0.032 49.718 0.047 -23.467
22595 0.403 13.616 5.402 144.194 0.032 49.138 0.055 -27.622
22630 0.402 13.185 5.404 143.447 0.032 48.576 0.063 -30.877
22665 0.402 12.756 5.406 142.705 0.032 48.019 0.071 -33.066
22700 0.401 12.323 5.408 141.965 0.032 47.465 0.079 -34.318
22735 0.401 11.886 5.408 141.215 0.032 46.79 0.087 -35.771
22770 0.401 11.446 5.408 140.465 0.032 46.115 0.095 -36.645
22805 0.4 11.009 5.408 139.715 0.032 45.439 0.103 -37.126
22840 0.4 10.602 5.409 138.963 0.032 44.757 0.111 -37.671
22875 0.4 10.192 5.41 138.211 0.032 44.075 0.118 -37.937
22910 0.399 9.793 5.409 137.457 0.032 43.427 0.126 -38.106
22945 0.399 9.424 5.407 136.701 0.032 42.861 0.134 -38.392
22980 0.398 9.054 5.404 135.947 0.032 42.299 0.142 -38.426
23015 0.398 8.694 5.401 135.198 0.032 41.721 0.15 -38.373
23050 0.397 8.35 5.397 134.454 0.032 41.123 0.158 -38.317
23085 0.397 8.001 5.394 133.709 0.032 40.524 0.165 -38.144
23120 0.396 7.644 5.39 132.952 0.032 39.833 0.173 -37.943
23155 0.395 7.282 5.385 132.187 0.032 39.075 0.18 -37.703
23190 0.395 6.915 5.381 131.421 0.032 38.316 0.187 -37.387
23225 0.394 6.607 5.376 130.679 0.032 37.645 0.195 -36.979
23260 0.394 6.322 5.37 129.948 0.032 37.01 0.202 -36.501
23295 0.393 6.038 5.364 129.219 0.032 36.378 0.209 -35.943
23330 0.392 5.748 5.357 128.469 0.033 35.69 0.215 -35.5
23365 0.391 5.451 5.35 127.716 0.033 34.992 0.222 -35.05
23400 0.39 5.15 5.343 126.961 0.033 34.293 0.229 -34.569
23435 0.389 4.882 5.337 126.207 0.033 33.519 0.235 -34.138
23470 0.388 4.61 5.331 125.453 0.033 32.744 0.241 -33.682
23505 0.387 4.333 5.325 124.7 0.033 31.989 0.248 -33.202
23540 0.386 4.062 5.318 123.96 0.033 31.356 0.254 -32.693
23575 0.385 3.794 5.311 123.222 0.033 30.726 0.26 -32.143
23610 0.384 3.529 5.304 122.485 0.033 30.079 0.267 -31.557
23645 0.382 3.269 5.297 121.747 0.033 29.386 0.273 -30.939
23680 0.381 3.001 5.291 121.007 0.033 28.691 0.279 -30.311
23715 0.379 2.747 5.284 120.259 0.033 27.946 0.284 -29.653
23750 0.377 2.518 5.277 119.503 0.033 27.136 0.289 -28.961
23785 0.375 2.28 5.269 118.744 0.033 26.324 0.294 -28.269
23820 0.373 2.021 5.262 117.978 0.033 25.527 0.299 -27.705
23855 0.371 1.745 5.256 117.205 0.033 24.742 0.303 -27.234
23890 0.369 1.48 5.249 116.437 0.033 23.961 0.308 -26.733
23925 0.366 1.244 5.241 115.654 0.033 23.157 0.313 -26.185
23960 0.364 1.013 5.233 114.864 0.033 22.343 0.317 -25.619
23995 0.361 0.774 5.224 114.072 0.033 21.527 0.322 -25.053
24030 0.359 0.566 5.216 113.281 0.033 20.72 0.326 -24.35
24065 0.356 0.358 5.207 112.489 0.033 19.915 0.33 -23.629
24100 0.353 0.141 5.198 111.696 0.033 19.107 0.334 -22.916
24135 0.35 -0.115 5.188 110.868 0.033 18.211 0.337 -22.297
24170 0.347 -0.365 5.177 110.042 0.033 17.318 0.34 -21.67
24205 0.343 -0.596 5.166 109.214 0.033 16.386 0.342 -21.054
24240 0.34 -0.746 5.155 108.356 0.033 15.21 0.344 -20.546
24275 0.336 -0.905 5.144 107.497 0.033 14.034 0.346 -20.048
24310 0.332 -1.096 5.131 106.648 0.034 12.855 0.348 -19.537
24345 0.329 -1.341 5.114 105.821 0.034 11.671 0.349 -18.98
24380 0.325 -1.592 5.097 104.994 0.034 10.486 0.351 -18.432
24415 0.322 -1.883 5.079 104.183 0.034 9.19 0.351 -17.832
24450 0.318 -2.222 5.06 103.396 0.034 7.746 0.351 -17.165
24485 0.314 -2.535 5.04 102.614 0.034 6.307 0.35 -16.483
24520 0.309 -3.024 5.021 101.897 0.033 4.771 0.347 -15.67
24555 0.304 -3.638 5.001 101.23 0.033 3.161 0.342 -14.771
24590 0.298 -4.241 4.982 100.562 0.033 1.552 0.338 -13.897
24625 0.291 -4.801 4.976 99.914 0.032 0.442 0.334 -12.41
24660 0.284 -5.331 4.975 99.274 0.032 -0.47 0.331 -10.718
24695 0.276 -5.844 4.975 98.632 0.031 -1.382 0.327 -9.083
24730 0.268 -5.944 4.981 97.854 0.031 -2.023 0.327 -7.221
24765 0.259 -5.986 4.988 97.054 0.03 -2.619 0.328 -5.343
24800 0.25 -6.031 4.995 96.254 0.03 -3.214 0.328 -3.484
24835 0.242 -5.861 4.995 95.313 0.03 -3.967 0.329 -1.825
24870 0.234 -5.749 4.995 94.37 0.03 -4.721 0.331 -0.184
24905 0.226 -5.68 4.995 93.433 0.03 -5.531 0.332 1.46
24940 0.217 -5.554 4.985 92.533 0.03 -6.661 0.332 3.211
24975 0.209 -5.506 4.976 91.633 0.029 -7.792 0.332 4.943
25010 0.2 -5.332 4.968 90.74 0.029 -8.874 0.332 6.68
25045 0.191 -4.889 4.961 89.868 0.029 -9.831 0.333 8.466
25080 0.181 -4.807 4.956 89.007 0.029 -10.776 0.334 10.265
25115 0.172 -2.935 4.949 88.114 0.028 -11.707 0.336 12.101
25150 0.16 -0.372 4.946 87.219 0.028 -12.578 0.34 13.989
25185 0.15 -1.189 4.944 86.412 0.028 -13.36 0.343 15.883
25220 0.143 -0.304 4.94 85.568 0.028 -14.184 0.347 17.782
25255 0.133 2.495 4.939 84.668 0.027 -15.069 0.352 19.693
25290 0.121 3.585 4.943 83.799 0.027 -15.923 0.356 21.617
25325 0.11 5.981 4.948 82.907 0.027 -16.583 0.362 23.323
25360 0.1 9.778 4.955 81.992 0.026 -17.179 0.367 24.95
25395 0.09 13.998 4.963 81.079 0.026 -17.774 0.373 26.602
25430 0.082 20.515 4.969 80.082 0.026 -18.311 0.379 27.936
25465 0.076 28.626 4.976 79.062 0.026 -18.847 0.386 29.22
25500 0.071 38.048 4.983 78.031 0.026 -19.394 0.393 30.506
25535 0.07 48.664 4.987 76.948 0.025 -19.932 0.399 31.593
25570 0.072 59.331 4.993 75.854 0.025 -20.481 0.406 32.681
25605 0.076 69.096 4.997 74.741 0.025 -21.04 0.412 33.751
25640 0.083 76.766 4.996 73.574 0.025 -21.605 0.419 34.709
25675 0.092 83.034 4.995 72.396 0.025 -22.182 0.425 35.675
25710 0.102 88.068 4.992 71.222 0.025 -22.815 0.431 36.615
25745 0.113 92.161 4.988 70.078 0.024 -23.568 0.436 37.481
25780 0.124 95.43 4.984 68.923 0.024 -24.332 0.441 38.346
25815 0.136 97.843 4.977 67.759 0.024 -25.113 0.446 39.183
25850 0.148 99.543 4.966 66.586 0.024 -25.914 0.451 39.978
25885 0.16 100.901 4.956 65.403 0.024 -26.726 0.456 40.772
25920 0.172 101.852 4.945 64.237 0.024 -27.444 0.461 41.53
25955 0.184 102.506 4.933 63.082 0.023 -28.095 0.465 42.264
25990 0.196 102.984 4.921 61.918 0.023 -28.755 0.469 43.004
26025 0.208 103.332 4.908 60.776 0.023 -29.231 0.473 43.701
26060 0.22 103.58 4.894 59.638 0.023 -29.638 0.477 44.38
26095 0.232 103.739 4.881 58.492 0.023 -30.053 0.481 45.058
26130 0.244 103.66 4.864 57.349 0.022 -30.543 0.485 45.668
26165 0.256 103.505 4.847 56.2 0.022 -31.05 0.488 46.264
26200 0.267 103.309 4.83 55.044 0.022 -31.566 0.492 46.857
26235 0.279 103.01 4.812 53.945 0.021 -31.528 0.494 47.395
26270 0.29 102.682 4.794 52.838 0.021 -31.498 0.497 47.934
26305 0.301 102.322 4.776 51.73 0.021 -31.424 0.499 48.469
26340 0.312 101.914 4.756 50.645 0.021 -31.053 0.501 48.965
26375 0.323 101.494 4.736 49.556 0.02 -30.686 0.502 49.459
26410 0.333 101.016 4.716 48.478 0.02 -29.942 0.503 49.952
26445 0.343 100.41 4.695 47.44 0.02 -28.243 0.501 50.441
26480 0.353 99.803 4.673 46.4 0.02 -26.547 0.5 50.929
26515 0.363 99.1 4.65 45.367 0.02 -25.135 0.499 51.481
26550 0.372 98.278 4.624 44.347 0.021 -24.1 0.497 52.123
26585 0.381 97.461 4.597 43.325 0.021 -23.067 0.496 52.77
26620 0.388 96.659 4.572 42.372 0.022 -22.549 0.494 53.521
26655 0.395 95.877 4.548 41.472 0.023 -22.417 0.492 54.352
26690 0.401 95.112 4.523 40.572 0.024 -22.283 0.49 55.188
26725 0.407 94.358 4.502 39.715 0.025 -22.823 0.489 56.058
26760 0.412 93.618 4.482 38.875 0.025 -23.633 0.488 56.943
26795 0.417 92.893 4.463 38.036 0.026 -24.441 0.486 57.832
26830 0.421 92.197 4.445 37.238 0.027 -25.502 0.486 58.669
26865 0.425 91.515 4.428 36.445 0.027 -26.604 0.485 59.499
26900 0.429 90.842 4.411 35.653 0.028 -27.707 0.485 60.329
26935 0.432 90.193 4.397 34.881 0.029 -28.767 0.484 61.113
26970 0.435 89.556 4.383 34.111 0.029 -29.825 0.483 61.893
27005 0.438 88.93 4.369 33.349 0.03 -30.889 0.482 62.67
27040 0.441 88.321 4.356 32.626 0.03 -31.999 0.481 63.454
27075 0.443 87.72 4.343 31.906 0.031 -33.107 0.479 64.23
27110 0.445 87.149 4.332 31.199 0.031 -34.244 0.478 64.989
27145 0.447 86.637 4.325 30.52 0.032 -35.458 0.476 65.717
27180 0.448 86.126 4.319 29.842 0.032 -36.67 0.475 66.436
27215 0.449 85.641 4.313 29.175 0.033 -37.974 0.474 67.145
27250 0.45 85.187 4.31 28.522 0.034 -39.401 0.473 67.845
27285 0.451 84.729 4.307 27.873 0.034 -40.824 0.472 68.528
27320 0.452 84.28 4.306 27.23 0.034 -42.165 0.47 69.189
27355 0.452 83.836 4.306 26.594 0.035 -43.442 0.467 69.826
27390 0.452 83.386 4.307 25.964 0.035 -44.713 0.465 70.44
27425 0.452 82.903 4.309 25.338 0.035 -45.915 0.462 70.968
27460 0.452 82.402 4.31 24.716 0.036 -47.088 0.459 71.445
27495 0.452 81.894 4.312 24.098 0.036 -48.256 0.456 71.897
27530 0.453 81.494 4.317 23.46 0.036 -49.356 0.453 72.379
27565 0.454 81.105 4.324 22.824 0.037 -50.439 0.449 72.838
27600 0.454 80.708 4.33 22.195 0.037 -51.515 0.445 73.26
27635 0.454 80.276 4.338 21.567 0.037 -52.5 0.44 73.654
27670 0.453 79.832 4.346 20.947 0.038 -53.476 0.435 74.005
27705 0.453 79.38 4.353 20.333 0.038 -54.451 0.431 74.335
27740 0.452 78.928 4.362 19.717 0.038 -55.461 0.425 74.757
27775 0.452 78.461 4.371 19.108 0.039 -56.463 0.42 75.125
27810 0.451 77.975 4.38 18.496 0.039 -57.45 0.414 75.462
27845 0.451 77.461 4.392 17.866 0.039 -58.413 0.407 75.8
27880 0.45 76.931 4.403 17.246 0.04 -59.365 0.401 76.067
27915 0.449 76.404 4.414 16.629 0.04 -60.23 0.394 76.261
27950 0.449 75.888 4.425 16.013 0.04 -60.985 0.386 76.374
27985 0.449 75.358 4.435 15.406 0.041 -61.728 0.379 76.394
28020 0.449 74.826 4.444 14.772 0.041 -62.542 0.372 76.409
28055 0.449 74.288 4.454 14.119 0.041 -63.407 0.364 76.398
28090 0.449 73.735 4.463 13.475 0.041 -64.262 0.357 76.289
28125 0.449 73.226 4.474 12.814 0.042 -65.128 0.35 76.201
28160 0.449 72.723 4.485 12.153 0.042 -65.99 0.341 76.04
28195 0.449 72.204 4.495 11.505 0.042 -66.839 0.333 75.746
28230 0.449 71.605 4.506 10.838 0.043 -67.67 0.325 75.522
28265 0.448 70.976 4.516 10.179 0.043 -68.486 0.317 75.19
28300 0.448 70.328 4.525 9.535 0.044 -69.288 0.309 74.701
28335 0.449 69.678 4.533 8.86 0.044 -69.942 0.3 74.1
28370 0.45 69.019 4.54 8.197 0.044 -70.582 0.291 73.306
28405 0.451 68.351 4.546 7.534 0.044 -71.223 0.282 72.323
28440 0.453 67.675 4.549 6.809 0.045 -71.928 0.275 71.262
28475 0.455 66.994 4.552 6.098 0.045 -72.62 0.267 69.998
28510 0.457 66.292 4.552 5.371 0.045 -73.357 0.26 68.558
28545 0.46 65.546 4.55 4.587 0.046 -74.224 0.253 66.988
28580 0.463 64.801 4.546 3.819 0.046 -75.076 0.247 65.168
28615 0.466 64.044 4.541 3.04 0.046 -75.865 0.241 63.19
28650 0.469 63.276 4.536 2.243 0.047 -76.576 0.235 61.099
28685 0.472 62.514 4.53 1.457 0.047 -77.276 0.23 58.768
28720 0.476 61.669 4.52 0.68 0.047 -77.994 0.225 56.152
28755 0.48 60.769 4.506 -0.087 0.047 -78.721 0.221 53.255
28790 0.484 59.882 4.491 -0.839 0.047 -79.433 0.218 50.121
28825 0.489 58.929 4.47 -1.657 0.048 -80.142 0.217 46.879
28860 0.494 57.965 4.445 -2.494 0.048 -80.84 0.217 43.554
28895 0.5 57.021 4.42 -3.316 0.048 -81.525 0.218 40.164
28930 0.506 56.02 4.389 -4.154 0.048 -82.34 0.22 36.625
28965 0.512 55.031 4.357 -4.982 0.048 -83.166 0.223 33.102
29000 0.518 54.066 4.325 -5.798 0.048 -83.978 0.228 29.673
