!Hittite Microwave Corporation								
!12 Elizabeth Drive								
!Chelmsford, MA 01824							
!Tel: 978-250-3343								
!Fax: 978-250-3373								
!Device: HMC320MS8G, 5-6 GHz LNA in 8-lead Grounded Base Surface Mount Plastic Package
!Misc: Room Temp Idd=25mA, VSET=3V , DEEMBEDDED TO THE PINS OF THE DEVICE							
!	
# MHZ S MA R 50

4000 0.877 -121.033 2.524 26.671 9.306e-3 135.184 0.125 80.348
4030 0.877 -122.037 2.557 25.142 9.036e-3 132.518 0.133 77.449
4060 0.879 -123.076 2.597 26.335 7.816e-3 124.885 0.141 74.995
4090 0.876 -123.757 2.748 20.905 8.874e-3 135.775 0.148 73.239
4120 0.874 -124.731 2.783 18.474 9.151e-3 134.038 0.155 71.545
4150 0.872 -126.015 2.703 19.042 8.646e-3 119.672 0.162 69.896
4180 0.872 -127.095 2.953 15.492 9.121e-3 134.289 0.168 68.583
4210 0.872 -128.148 3.021 12.791 9.244e-3 132.925 0.174 67.103
4240 0.872 -129.193 2.907 10.942 9.014e-3 115.582 0.18 65.467
4270 0.865 -130.584 3.136 9.194 9.003e-3 129.281 0.186 64.897
4300 0.86 -131.899 3.228 6.858 9.071e-3 131.534 0.192 64.133
4330 0.859 -133.14 3.181 3.936 9.217e-3 122.346 0.195 63.168
4360 0.854 -134.394 3.349 2.306 9.487e-3 124.089 0.201 62.171
4390 0.849 -135.888 3.447 0.088 9.465e-3 124.912 0.205 61.455
4420 0.843 -137.629 3.474 -2.722 9.148e-3 124.808 0.209 60.997
4450 0.838 -139.168 3.604 -5.456 9.604e-3 119.001 0.211 60.09
4480 0.83 -140.853 3.679 -7.734 9.499e-3 118.009 0.214 59.367
4510 0.821 -142.682 3.696 -9.562 8.825e-3 121.828 0.217 58.823
4540 0.812 -144.663 3.895 -13.041 9.816e-3 118.849 0.22 58.205
4570 0.802 -146.657 3.972 -15.827 9.855e-3 115.016 0.221 57.624
4600 0.791 -148.653 3.926 -17.923 8.922e-3 110.327 0.221 57.144
4630 0.776 -150.859 4.173 -21.004 9.688e-3 111.399 0.222 56.409
4660 0.761 -153.125 4.268 -24.208 9.684e-3 109.245 0.222 55.892
4690 0.746 -155.45 4.209 -27.537 8.895e-3 103.863 0.22 55.641
4720 0.728 -157.738 4.418 -30.13 9.448e-3 100.917 0.218 54.792
4750 0.707 -160.377 4.509 -33.438 9.631e-3 96.962 0.215 54.118
4780 0.685 -163.378 4.48 -37.467 9.436e-3 91.993 0.211 53.65
4810 0.659 -165.889 4.63 -40.092 8.745e-3 85.288 0.206 53.294
4840 0.631 -168.458 4.697 -43.634 8.824e-3 78.623 0.199 52.714
4870 0.6 -171.092 4.678 -48.092 9.685e-3 71.998 0.19 51.965
4900 0.564 -172.999 4.731 -51.243 8.236e-3 62.094 0.18 52.266
4930 0.529 -174.912 4.743 -54.763 7.705e-3 51.604 0.169 53.053
4960 0.496 -176.856 4.713 -58.646 8.105e-3 40.534 0.157 54.158
4990 0.468 -177.438 4.665 -61.701 7.019e-3 26.692 0.146 57.061
5020 0.442 -177.75 4.609 -64.741 6.526e-3 12.343 0.137 60.892
5050 0.418 -177.795 4.548 -67.76 6.634e-3 -2.51 0.128 65.862
5080 0.403 -177.874 4.503 -70.171 5.998e-3 -21.154 0.125 72.024
5110 0.392 -178.557 4.453 -72.42 5.763e-3 -36.393 0.124 77.982
5140 0.385 -179.876 4.396 -74.517 5.93e-3 -48.237 0.127 83.58
5170 0.382 178.587 4.438 -76.324 5.745e-3 -63.844 0.132 88.235
5200 0.372 176.429 4.445 -78.717 5.796e-3 -75.28 0.136 91.862
5230 0.355 173.634 4.418 -81.693 6.084e-3 -82.543 0.141 94.567
5260 0.34 170.613 4.468 -83.239 5.963e-3 -89.029 0.146 96.976
5290 0.326 167.521 4.491 -85.933 6.095e-3 -95.11 0.151 99.314
5320 0.312 164.36 4.488 -89.776 6.48e-3 -100.786 0.156 101.641
5350 0.293 161.421 4.479 -91.404 6.532e-3 -100.087 0.159 103.961
5380 0.273 158.342 4.484 -94.119 6.849e-3 -101.372 0.163 106.169
5410 0.254 155.111 4.504 -97.918 7.431e-3 -104.638 0.167 108.259
5440 0.24 152.315 4.451 -99.788 7.615e-3 -105.168 0.171 110.436
5470 0.224 150.368 4.425 -102.485 7.982e-3 -105.705 0.176 112.463
5500 0.207 149.331 4.426 -106.006 8.531e-3 -106.246 0.181 114.327
5530 0.188 146.069 4.371 -107.891 9.021e-3 -107.744 0.186 116.48
5560 0.173 142.997 4.333 -110.572 9.55e-3 -108.675 0.191 118.348
5590 0.16 140.135 4.312 -114.053 0.01 -109.043 0.195 119.938
5620 0.149 139.776 4.254 -115.274 0.011 -109.537 0.202 121.155
5650 0.139 138.556 4.231 -117.904 0.011 -110.414 0.209 122.549
5680 0.13 136.405 4.243 -121.943 0.012 -111.673 0.216 124.128
5710 0.122 134.855 4.118 -123.076 0.013 -111.52 0.222 125.198
5740 0.116 134.005 4.089 -125.344 0.013 -112.327 0.229 126.214
5770 0.11 133.868 4.154 -128.745 0.014 -114.095 0.237 127.159
5800 0.104 137.613 3.995 -130.372 0.015 -114.669 0.244 128.085
5830 0.098 139.396 3.947 -132.49 0.015 -115.097 0.251 128.901
5860 0.09 139.144 4.01 -135.096 0.016 -115.376 0.258 129.622
5890 0.087 138.032 3.899 -137.386 0.017 -116.759 0.267 130.082
5920 0.088 139.488 3.847 -139.728 0.018 -117.528 0.275 130.582
5950 0.092 143.39 3.855 -142.126 0.018 -117.686 0.283 131.134
5980 0.094 143.396 3.775 -144.12 0.019 -118.906 0.292 131.522
6010 0.096 143.57 3.734 -146.508 0.02 -119.998 0.301 131.937
6040 0.098 143.899 3.733 -149.291 0.021 -120.961 0.31 132.385
6070 0.105 146.895 3.641 -150.868 0.021 -121.424 0.318 132.57
6100 0.112 147.065 3.605 -153.039 0.022 -122.206 0.327 132.768
6130 0.117 144.621 3.628 -155.805 0.023 -123.305 0.336 132.986
6160 0.123 143.501 3.538 -157.613 0.024 -124.453 0.345 133.027
6190 0.132 142.653 3.496 -159.83 0.025 -125.35 0.353 132.992
6220 0.145 142.104 3.503 -162.457 0.026 -125.997 0.362 132.883
6250 0.157 142.454 3.43 -164.301 0.027 -127.347 0.373 132.83
6280 0.166 142.184 3.383 -166.75 0.028 -128.346 0.382 132.785
6310 0.174 141.316 3.364 -169.804 0.029 -128.994 0.391 132.755
6340 0.185 137.744 3.289 -170.883 0.03 -130.333 0.4 132.299
6370 0.197 135.242 3.264 -173.078 0.031 -131.552 0.41 131.979
6400 0.21 133.743 3.291 -176.389 0.032 -132.649 0.421 131.799
6430 0.219 132.37 3.162 -177.941 0.033 -133.374 0.431 131.376
6460 0.231 130.639 3.119 -179.995 0.034 -134.568 0.44 130.912
6490 0.246 128.564 3.164 177.448 0.035 -136.232 0.449 130.406
6520 0.261 126.853 3.047 175.119 0.036 -136.881 0.461 129.98
6550 0.273 125.115 2.992 172.914 0.037 -137.876 0.471 129.48
6580 0.282 123.349 2.998 170.833 0.038 -139.217 0.479 128.904
6610 0.302 120.326 2.915 168.435 0.039 -140.548 0.491 128.139
6640 0.317 118.27 2.865 166.096 0.04 -141.614 0.502 127.511
6670 0.33 117.153 2.846 163.813 0.04 -142.417 0.511 127.026
6700 0.34 114.043 2.776 161.574 0.042 -143.996 0.521 126.208
6730 0.352 111.592 2.728 159.263 0.043 -145.387 0.531 125.341
6760 0.365 109.775 2.701 156.878 0.043 -146.592 0.541 124.427
6790 0.379 107.412 2.637 154.659 0.044 -147.658 0.553 123.844
6820 0.39 104.911 2.584 152.489 0.045 -148.937 0.562 122.987
6850 0.398 102.277 2.543 150.369 0.046 -150.431 0.569 121.85
6880 0.412 99.651 2.494 147.984 0.047 -151.37 0.581 121.11
6910 0.424 97.303 2.44 145.567 0.048 -152.73 0.59 120.199
6940 0.436 95.23 2.381 143.117 0.049 -154.513 0.598 119.115
6970 0.447 92.347 2.342 141.305 0.05 -155.371 0.607 118.168
7000 0.458 89.38 2.293 139.112 0.051 -156.698 0.617 117.104
