!Hittite Microwave Corporation								
!12 Elizabeth Drive								
!Chelmsford, MA 01824								
!Tel: 978-250-3343								
!Fax: 978-250-3373
!Device: HMC349LP4C, DC - 4 GHz High Isolation SPDT Non-Reflective Switch in Low Cost Leadless SMT Package
!Misc: Port1=RFC, Port2= RF1, Port3=RF2, RF1 ON, Bias: +5VDC								
!
# MHZ S MA R 50

10 0.072 43.019 0.945 -3.835 4.003e-3 -157.541
          0.941 -6.475 0.123 56.677 2.932e-3 40.57
          2.289e-3 -0.579 1.231e-3 129.609 0.967 -9.414
34.95 0.063 7.973 0.927 -2.944 766.5e-6 10.07
          0.926 -2.904 0.066 11.944 453.5e-6 -42.239
          583.9e-6 -18.846 417.1e-6 -1.387 0.85 -29.27
59.9 0.063 -2.09 0.923 -3.425 704.2e-6 -26.23
          0.924 -3.485 0.061 -0.825 79.74e-6 173.125
          362.1e-6 -115.169 63.19e-6 -77.449 0.7 -43.285
84.85 0.063 -7.563 0.923 -4.31 605.6e-6 -56.176
          0.923 -4.3 0.062 -5.471 528.1e-6 -42.935
          646.5e-6 -36.152 20.69e-6 -171.199 0.574 -52.381
109.8 0.063 -13.977 0.92 -5.183 183.3e-6 0.483
          0.92 -5.193 0.062 -11.19 272.2e-6 52.709
          247.1e-6 -23.601 77.53e-6 -10.302 0.48 -58.338
134.75 0.064 -18.167 0.92 -6.179 297.4e-6 8.312
          0.921 -6.179 0.063 -14.045 296.7e-6 18.593
          293.9e-6 -24.656 306e-6 6.347 0.41 -62.373
159.7 0.064 -21.916 0.92 -7.195 120.7e-6 -38.512
          0.921 -7.235 0.064 -17.749 192.9e-6 24.164
          295.2e-6 6.44 161.2e-6 6.199 0.358 -65.227
184.65 0.065 -25.275 0.92 -8.229 171.9e-6 14.96
          0.92 -8.189 0.065 -21.27 295.5e-6 28.659
          45e-6 -31.077 209.7e-6 31.914 0.317 -67.018
209.6 0.066 -28.085 0.919 -9.124 168.5e-6 -36.079
          0.919 -9.234 0.066 -24.102 132.1e-6 13.224
          203.7e-6 -9 178.8e-6 62.784 0.285 -68.368
234.55 0.067 -32.279 0.918 -10.157 145.4e-6 -2.107
          0.918 -10.157 0.067 -27.42 215.3e-6 36.022
          257.4e-6 -26.69 202.4e-6 61.731 0.26 -69.382
259.5 0.069 -35.648 0.917 -11.176 87.55e-6 77.404
          0.918 -11.146 0.069 -30.673 179.9e-6 94.689
          180e-6 10.832 200.6e-6 85.065 0.239 -69.973
284.45 0.071 -39.117 0.916 -12.144 267.2e-6 23.43
          0.917 -12.184 0.07 -33.78 251.6e-6 49.403
          310.2e-6 31.529 113.6e-6 74.528 0.222 -70.453
309.4 0.073 -42.145 0.917 -13.201 119.7e-6 6.212
          0.917 -13.161 0.072 -36.466 337.5e-6 64.461
          128.8e-6 2.205 258.1e-6 48.992 0.208 -70.605
334.35 0.073 -44.599 0.916 -14.181 227e-6 22.08
          0.916 -14.141 0.073 -37.963 252.4e-6 59.7
          110.1e-6 24.351 239e-6 70.898 0.196 -70.521
359.3 0.075 -46.693 0.915 -15.198 238.3e-6 16.872
          0.915 -15.248 0.074 -40.019 261.5e-6 54.195
          152.9e-6 4.723 208e-6 74.533 0.186 -70.47
384.25 0.076 -49.17 0.915 -16.211 174.4e-6 7.103
          0.915 -16.161 0.076 -41.619 367.3e-6 65.473
          202.6e-6 30.743 354.3e-6 68.632 0.178 -70.357
409.2 0.077 -51.168 0.914 -17.22 65.31e-6 53.731
          0.915 -17.19 0.077 -43.814 302e-6 83.642
          219.8e-6 30.42 374e-6 64.939 0.17 -70.377
434.15 0.079 -53.763 0.913 -18.248 89.56e-6 43.4
          0.914 -18.228 0.08 -46.558 356.4e-6 64.668
          133.6e-6 39.975 316.3e-6 69.857 0.164 -70.233
459.1 0.08 -56.884 0.913 -19.238 163e-6 19.197
          0.913 -19.228 0.081 -48.65 319.7e-6 73.969
          246.5e-6 29.229 365.7e-6 59.361 0.158 -70.147
484.05 0.083 -59.586 0.912 -20.253 162.3e-6 33.16
          0.913 -20.263 0.082 -50.747 432.6e-6 73.176
          188.2e-6 20.422 386.9e-6 84.803 0.153 -69.979
509 0.085 -61.981 0.913 -21.298 188.2e-6 17.105
          0.913 -21.298 0.086 -52.981 373.3e-6 59.135
          211.1e-6 16.036 428.8e-6 68.456 0.151 -69.595
533.95 0.086 -63.82 0.912 -22.3 179.4e-6 37.398
          0.912 -22.34 0.089 -54.64 497.1e-6 73.998
          208.6e-6 39.082 412.6e-6 70.637 0.147 -69.056
558.9 0.088 -65.513 0.91 -23.276 212e-6 40.949
          0.911 -23.306 0.089 -56.182 437.5e-6 74.817
          202.7e-6 25.963 468.9e-6 72.851 0.143 -68.525
583.85 0.09 -67.301 0.91 -24.263 179.5e-6 28.359
          0.911 -24.273 0.089 -57.835 498e-6 74.615
          219.2e-6 32.175 499.8e-6 68.181 0.14 -68.027
608.8 0.091 -68.824 0.909 -25.3 211.8e-6 47.066
          0.91 -25.28 0.091 -58.674 434e-6 78.056
          172e-6 43.169 440.2e-6 75.959 0.138 -67.62
633.75 0.092 -70.389 0.909 -26.297 191.3e-6 30.221
          0.91 -26.297 0.092 -60.103 422.9e-6 71.6
          145.1e-6 38.487 522.5e-6 78.453 0.135 -67.274
658.7 0.093 -72.323 0.909 -27.269 243.9e-6 45.158
          0.909 -27.249 0.094 -61.819 585.4e-6 73.869
          230.5e-6 42.841 505.9e-6 72.505 0.134 -67.098
683.65 0.094 -74.245 0.908 -28.29 210.9e-6 37.208
          0.909 -28.27 0.095 -63.224 514.5e-6 74.212
          205.2e-6 61.357 525.2e-6 75.917 0.133 -66.736
708.6 0.096 -75.993 0.908 -29.297 234.7e-6 43.771
          0.908 -29.287 0.097 -64.432 594.3e-6 79.547
          238.8e-6 57.646 595.2e-6 78.239 0.132 -66.271
733.55 0.097 -77.486 0.907 -30.299 236e-6 45.768
          0.908 -30.299 0.097 -65.865 590.2e-6 75.127
          249e-6 44.874 660.8e-6 79.383 0.131 -65.773
758.5 0.098 -78.932 0.907 -31.287 288.4e-6 40.794
          0.906 -31.267 0.098 -66.839 554.5e-6 75.215
          312.5e-6 30.714 616.9e-6 76.916 0.13 -65.232
783.45 0.099 -80.247 0.906 -32.279 289.7e-6 50.986
          0.907 -32.269 0.099 -67.638 564.9e-6 85.279
          270.7e-6 53.928 613.4e-6 77.664 0.129 -64.795
808.4 0.099 -81.613 0.906 -33.293 189.9e-6 43.574
          0.907 -33.253 0.1 -68.69 669.4e-6 79.36
          226.5e-6 58.497 604.5e-6 76.037 0.128 -64.392
833.35 0.1 -82.803 0.906 -34.294 317.1e-6 45.503
          0.906 -34.274 0.101 -69.443 679.7e-6 75.765
          313.2e-6 37.506 648.8e-6 81.935 0.128 -64.046
858.3 0.102 -83.841 0.905 -35.337 276.9e-6 45.402
          0.906 -35.257 0.102 -70.533 616.1e-6 81.601
          290.6e-6 26.515 663.8e-6 79.28 0.128 -63.627
883.25 0.102 -84.923 0.904 -36.304 333.6e-6 36.045
          0.904 -36.244 0.103 -71.222 695.9e-6 78.025
          320e-6 37.638 658.4e-6 77.156 0.128 -63.123
908.2 0.102 -85.999 0.904 -37.28 333.4e-6 34.225
          0.905 -37.29 0.104 -72.002 736.1e-6 79.698
          214.6e-6 40.01 721.9e-6 82.241 0.128 -62.578
933.15 0.101 -86.869 0.903 -38.274 276.6e-6 28.171
          0.904 -38.254 0.104 -72.406 716e-6 79.129
          362.4e-6 38.077 671.5e-6 80.808 0.128 -62.085
958.1 0.102 -88.105 0.903 -39.269 334.6e-6 42.247
          0.903 -39.289 0.104 -72.941 762.6e-6 78.095
          304.7e-6 39.912 693.4e-6 84.359 0.128 -61.562
983.05 0.101 -88.944 0.902 -40.253 297.9e-6 45.208
          0.903 -40.273 0.105 -73.304 732.1e-6 78.189
          282.9e-6 39.796 801.3e-6 77.774 0.128 -61.015
1008 0.101 -90.029 0.902 -41.273 325.8e-6 47.76
          0.902 -41.263 0.106 -73.861 747.1e-6 82.805
          329.3e-6 37.592 745.8e-6 82.538 0.128 -60.583
1032.95 0.102 -91.416 0.9 -42.272 345.8e-6 45.058
          0.902 -42.282 0.105 -74.999 722.9e-6 79.733
          370.2e-6 48.017 748.4e-6 85.72 0.128 -60.368
1057.9 0.103 -92.061 0.9 -43.262 313.6e-6 40.445
          0.9 -43.202 0.107 -75.702 757.5e-6 85.145
          344.2e-6 36.263 765.6e-6 87.537 0.129 -60.001
1082.85 0.103 -92.428 0.899 -44.257 341.4e-6 41.758
          0.9 -44.227 0.106 -76.51 797.4e-6 84.706
          345.5e-6 48.765 757.5e-6 85.696 0.129 -59.64
1107.8 0.102 -93.308 0.9 -45.263 286.2e-6 36.508
          0.9 -45.253 0.105 -76.816 856e-6 87.398
          292.8e-6 47.892 777.1e-6 86.02 0.13 -59.239
1132.75 0.102 -93.559 0.9 -46.244 299.6e-6 51.336
          0.901 -46.274 0.105 -76.504 818e-6 87.548
          332.7e-6 37.89 876.5e-6 89.76 0.131 -58.696
1157.7 0.1 -94.093 0.9 -47.274 356.8e-6 44.097
          0.901 -47.254 0.105 -76.423 820.7e-6 87.874
          374.1e-6 43.251 857.4e-6 87.516 0.131 -58.158
1182.65 0.1 -94.914 0.9 -48.255 409e-6 42.41
          0.902 -48.215 0.105 -76.864 864e-6 89.775
          387.3e-6 42.492 897.5e-6 88.501 0.131 -57.733
1207.6 0.1 -95.678 0.9 -49.284 434e-6 48.313
          0.901 -49.224 0.105 -76.993 905.7e-6 87.049
          425.5e-6 45.75 935.8e-6 87.2 0.132 -57.366
1232.55 0.099 -95.969 0.9 -50.252 419.5e-6 44.68
          0.899 -50.252 0.105 -76.759 931.7e-6 88.009
          430.5e-6 39.578 921.7e-6 90.783 0.133 -56.997
1257.5 0.099 -96.871 0.899 -51.275 432.7e-6 39.294
          0.899 -51.245 0.105 -77.13 934.5e-6 91.765
          421.4e-6 43.581 929.8e-6 91.998 0.134 -56.625
1282.45 0.098 -96.784 0.899 -52.23 446.3e-6 42.095
          0.899 -52.23 0.104 -77.289 981.2e-6 89.097
          437.8e-6 47.578 932.3e-6 91.4 0.134 -56.087
1307.4 0.097 -96.853 0.898 -53.268 399.6e-6 43.913
          0.899 -53.258 0.103 -76.833 943.6e-6 92.24
          498.9e-6 35.314 979.6e-6 90.572 0.136 -55.639
1332.35 0.096 -96.338 0.898 -54.283 442.6e-6 40.848
          0.898 -54.263 0.102 -76.273 1.057e-3 94.957
          443e-6 43.763 995e-6 92.743 0.137 -55.184
1357.3 0.094 -96.385 0.897 -55.284 427.1e-6 46.2
          0.897 -55.304 0.101 -75.807 1.014e-3 93.138
          449.5e-6 47.645 1.065e-3 95.591 0.137 -54.572
1382.25 0.093 -96.502 0.897 -56.315 471e-6 50.454
          0.897 -56.265 0.101 -75.814 1.107e-3 93.371
          474.3e-6 50.083 1.098e-3 95.053 0.137 -54.274
1407.2 0.092 -96.645 0.896 -57.307 468.1e-6 44.628
          0.896 -57.267 0.101 -75.755 1.09e-3 95.189
          466.4e-6 46.965 1.071e-3 94.821 0.138 -54.002
1432.15 0.09 -96.939 0.897 -58.29 520.6e-6 46.889
          0.897 -58.25 0.099 -75.633 1.067e-3 97.563
          484.2e-6 41.392 1.185e-3 97.042 0.139 -53.755
1457.1 0.091 -97.015 0.896 -59.328 554.9e-6 53.862
          0.897 -59.278 0.099 -75.029 1.132e-3 97.501
          504.5e-6 50.341 1.19e-3 97.807 0.14 -53.426
1482.05 0.089 -96.857 0.895 -60.321 561.7e-6 41.608
          0.896 -60.301 0.098 -74.527 1.21e-3 99.461
          594e-6 40.572 1.228e-3 98.313 0.141 -52.982
1507 0.088 -96.422 0.895 -61.332 564.3e-6 42.552
          0.895 -61.362 0.098 -73.926 1.231e-3 98.13
          607e-6 43.381 1.24e-3 97.395 0.142 -52.53
1531.95 0.088 -95.761 0.895 -62.36 620.3e-6 44.415
          0.895 -62.33 0.097 -73.018 1.262e-3 99.662
          633.4e-6 45.701 1.248e-3 99.941 0.144 -52.076
1556.9 0.087 -95.093 0.894 -63.36 640.4e-6 41.699
          0.895 -63.36 0.097 -72.513 1.274e-3 101.449
          660.6e-6 43.181 1.333e-3 97.583 0.144 -51.732
1581.85 0.086 -94.778 0.894 -64.36 707.5e-6 36.626
          0.894 -64.37 0.096 -71.986 1.289e-3 101.678
          710.8e-6 39.935 1.315e-3 100.247 0.145 -51.359
1606.8 0.085 -94.607 0.893 -65.399 708.7e-6 37.324
          0.893 -65.359 0.095 -71.982 1.37e-3 102.809
          779e-6 40.168 1.384e-3 101.844 0.145 -51.049
1631.75 0.085 -93.614 0.892 -66.436 732.1e-6 36.054
          0.892 -66.396 0.095 -70.837 1.398e-3 102.126
          824.7e-6 34.854 1.419e-3 102.778 0.147 -50.79
1656.7 0.084 -92.241 0.89 -67.457 879.3e-6 35.707
          0.891 -67.437 0.094 -69.884 1.48e-3 104.453
          828.4e-6 32.015 1.479e-3 105.01 0.148 -50.338
1681.65 0.083 -90.423 0.891 -68.474 814.5e-6 29.429
          0.891 -68.404 0.094 -69.159 1.526e-3 103.94
          834.1e-6 33.845 1.544e-3 103.115 0.149 -49.946
1706.6 0.082 -88.882 0.888 -69.459 812.9e-6 28.743
          0.889 -69.409 0.093 -67.727 1.677e-3 104.914
          862.9e-6 24.127 1.703e-3 107.173 0.15 -49.467
1731.55 0.083 -86.844 0.888 -70.478 980.2e-6 22.869
          0.888 -70.418 0.093 -66.518 1.706e-3 103.068
          857e-6 26.164 1.714e-3 105.245 0.151 -49.07
1756.5 0.081 -85.445 0.887 -71.483 958.4e-6 18.587
          0.888 -71.443 0.091 -65.742 1.773e-3 103.968
          953.9e-6 19.241 1.767e-3 104.626 0.152 -48.606
1781.45 0.082 -84.105 0.886 -72.44 1.005e-3 17.143
          0.887 -72.42 0.092 -65.402 1.927e-3 105.223
          1.013e-3 18.632 1.927e-3 105.121 0.153 -48.375
1806.4 0.082 -83.427 0.885 -73.446 1.021e-3 9.375
          0.886 -73.446 0.091 -64.629 1.96e-3 103.857
          957.6e-6 13.686 2.019e-3 102.254 0.154 -48.137
1831.35 0.084 -83.03 0.884 -74.413 1.068e-3 5.203
          0.885 -74.363 0.09 -63.303 2.123e-3 102.032
          997.8e-6 5.087 2.101e-3 104.791 0.155 -47.756
1856.3 0.086 -82.234 0.884 -75.381 1.09e-3 -3.882
          0.884 -75.371 0.088 -62.247 2.207e-3 103.261
          1.057e-3 -3.79 2.262e-3 103.339 0.156 -47.379
1881.25 0.087 -81.802 0.883 -76.35 1.031e-3 -7.431
          0.884 -76.31 0.088 -60.498 2.394e-3 100.516
          1.01e-3 -7.005 2.446e-3 99.771 0.157 -47.065
1906.2 0.088 -80.518 0.883 -77.309 965.1e-6 -10.937
          0.883 -77.269 0.088 -58.516 2.499e-3 95.641
          991.4e-6 -11.562 2.48e-3 96.016 0.158 -46.688
1931.15 0.089 -80.269 0.883 -78.278 890.7e-6 -17.341
          0.883 -78.258 0.089 -57.152 2.617e-3 92.174
          956.6e-6 -19.168 2.664e-3 93.015 0.16 -46.382
1956.1 0.089 -80.427 0.884 -79.309 947e-6 -25.363
          0.884 -79.259 0.089 -55.785 2.496e-3 88.891
          868.6e-6 -18.079 2.522e-3 87.798 0.16 -45.898
1981.05 0.09 -80.07 0.884 -80.32 867.5e-6 -20.346
          0.884 -80.31 0.088 -53.713 2.52e-3 87.03
          798.9e-6 -25.851 2.542e-3 87.176 0.16 -45.648
2006 0.091 -79.945 0.883 -81.33 811.9e-6 -30.997
          0.883 -81.33 0.089 -53.025 2.488e-3 84.482
          737.5e-6 -24.502 2.48e-3 85.653 0.162 -45.356
2030.95 0.091 -78.847 0.883 -82.332 723.8e-6 -27.997
          0.883 -82.322 0.089 -51.326 2.494e-3 85.53
          737.5e-6 -23.903 2.457e-3 85.9 0.162 -45.044
2055.9 0.093 -78.193 0.883 -83.374 749.2e-6 -29.246
          0.883 -83.394 0.09 -49.651 2.444e-3 86.416
          655.7e-6 -31.956 2.506e-3 84.643 0.164 -44.768
2080.85 0.093 -77.555 0.882 -84.397 666.5e-6 -25.507
          0.882 -84.407 0.091 -48.294 2.429e-3 84.026
          656.6e-6 -24.068 2.421e-3 84.265 0.165 -44.312
2105.8 0.094 -76.972 0.882 -85.391 742.8e-6 -24.595
          0.882 -85.401 0.091 -46.62 2.499e-3 84.464
          722.8e-6 -28.415 2.445e-3 84.753 0.166 -43.94
2130.75 0.096 -76.581 0.882 -86.464 698e-6 -23.455
          0.882 -86.444 0.093 -44.618 2.378e-3 84.334
          760.4e-6 -23.147 2.517e-3 85.13 0.167 -43.567
2155.7 0.095 -76.04 0.881 -87.52 705e-6 -21.644
          0.881 -87.5 0.094 -43.629 2.4e-3 84.211
          707.5e-6 -29.135 2.4e-3 82.614 0.168 -43.256
2180.65 0.096 -75.823 0.88 -88.532 680.8e-6 -27.345
          0.881 -88.552 0.095 -42.527 2.448e-3 86.229
          803.9e-6 -25.234 2.416e-3 85.084 0.169 -42.972
2205.6 0.097 -74.974 0.88 -89.596 750.6e-6 -26.624
          0.88 -89.586 0.097 -40.859 2.439e-3 84.192
          782.5e-6 -22.198 2.421e-3 85.525 0.17 -42.6
2230.55 0.098 -75.024 0.878 -90.649 778.7e-6 -24.122
          0.879 -90.649 0.098 -39.671 2.407e-3 83.734
          829.4e-6 -27.959 2.41e-3 85.737 0.171 -42.237
2255.5 0.1 -75.062 0.878 -91.712 888.3e-6 -26.829
          0.878 -91.712 0.1 -38.884 2.434e-3 84.67
          832.4e-6 -25.546 2.421e-3 86.195 0.173 -41.954
2280.45 0.1 -74.405 0.877 -92.784 946.4e-6 -26.597
          0.877 -92.714 0.102 -37.641 2.496e-3 88.735
          870.5e-6 -25.177 2.5e-3 89.059 0.173 -41.548
2305.4 0.102 -74.368 0.876 -93.827 1.03e-3 -25.802
          0.876 -93.777 0.104 -36.887 2.555e-3 91.709
          1.062e-3 -23.719 2.551e-3 90.002 0.174 -41.152
2330.35 0.103 -74.506 0.874 -94.868 1.162e-3 -31.072
          0.875 -94.818 0.106 -36.629 2.756e-3 93.527
          1.125e-3 -33.488 2.789e-3 92.558 0.176 -40.846
2355.3 0.105 -74.536 0.873 -95.93 1.2e-3 -33.77
          0.873 -95.87 0.107 -36.219 2.854e-3 92.315
          1.245e-3 -38.966 2.972e-3 93.419 0.177 -40.542
2380.25 0.107 -74.914 0.871 -96.989 1.371e-3 -40.742
          0.871 -96.919 0.108 -35.188 3.157e-3 92.599
          1.344e-3 -41.133 3.203e-3 92.273 0.177 -40.215
2405.2 0.11 -75.43 0.87 -97.962 1.497e-3 -52.796
          0.871 -97.942 0.11 -34.768 3.368e-3 90.861
          1.444e-3 -53.802 3.401e-3 89.897 0.179 -39.964
2430.15 0.112 -75.44 0.868 -98.893 1.509e-3 -62.825
          0.869 -98.943 0.111 -34.605 3.667e-3 88.143
          1.428e-3 -62.509 3.566e-3 88.598 0.18 -39.627
2455.1 0.113 -75.937 0.867 -99.921 1.439e-3 -71.072
          0.867 -99.911 0.111 -33.769 3.743e-3 83.994
          1.41e-3 -69.086 3.791e-3 84.357 0.181 -39.315
2480.05 0.113 -76.667 0.865 -100.963 1.449e-3 -77.274
          0.865 -100.923 0.113 -32.783 3.855e-3 79.716
          1.426e-3 -75.638 3.808e-3 79.404 0.183 -39.067
2505 0.115 -77.141 0.863 -101.877 1.398e-3 -84.402
          0.863 -101.927 0.113 -32.393 3.815e-3 76.148
          1.352e-3 -83.754 3.859e-3 76.551 0.183 -38.8
2529.95 0.115 -78.173 0.862 -102.793 1.346e-3 -89.07
          0.862 -102.853 0.114 -32.08 3.875e-3 73.112
          1.374e-3 -90.398 3.76e-3 73.203 0.185 -38.618
2554.9 0.114 -78.56 0.861 -103.721 1.359e-3 -99.409
          0.861 -103.741 0.115 -31.416 3.759e-3 70.806
          1.365e-3 -96.309 3.692e-3 70.935 0.187 -38.447
2579.85 0.114 -78.956 0.861 -104.783 1.334e-3 -105.341
          0.861 -104.723 0.116 -30.383 3.673e-3 68.864
          1.418e-3 -102.892 3.674e-3 68.739 0.188 -38.2
2604.8 0.114 -79.018 0.858 -105.718 1.294e-3 -108.753
          0.859 -105.648 0.117 -28.897 3.651e-3 67.609
          1.322e-3 -110.046 3.617e-3 66.124 0.189 -38.004
2629.75 0.114 -79.733 0.858 -106.648 1.255e-3 -118.36
          0.858 -106.598 0.12 -28.091 3.538e-3 65.429
          1.27e-3 -117.152 3.554e-3 65.613 0.192 -37.761
2654.7 0.115 -79.901 0.858 -107.562 1.205e-3 -122.31
          0.858 -107.562 0.122 -27.438 3.504e-3 63.75
          1.165e-3 -119.677 3.501e-3 64.79 0.193 -37.542
2679.65 0.116 -79.812 0.856 -108.472 1.169e-3 -122.259
          0.856 -108.522 0.123 -26.585 3.467e-3 62.055
          1.184e-3 -126.388 3.449e-3 62.654 0.194 -37.372
2704.6 0.117 -80.174 0.855 -109.423 1.156e-3 -126.421
          0.856 -109.453 0.126 -25.61 3.328e-3 60.414
          1.16e-3 -131.181 3.381e-3 59.646 0.196 -37.294
2729.55 0.118 -79.977 0.855 -110.41 1.156e-3 -135.344
          0.855 -110.42 0.129 -25.138 3.207e-3 58.912
          1.155e-3 -132.728 3.26e-3 59.931 0.198 -37.316
2754.5 0.119 -80.199 0.856 -111.338 1.044e-3 -137.672
          0.856 -111.348 0.132 -24.763 3.104e-3 58.195
          1.087e-3 -139.999 3.12e-3 58.637 0.2 -37.181
2779.45 0.122 -80.322 0.855 -112.268 1.043e-3 -145.653
          0.856 -112.288 0.136 -24.567 3.033e-3 59.877
          1.033e-3 -146.82 2.946e-3 59.859 0.202 -37.175
2804.4 0.122 -80.724 0.855 -113.256 943.8e-6 -146.51
          0.855 -113.286 0.137 -24.406 2.897e-3 59.888
          954.7e-6 -147.395 2.917e-3 58.202 0.202 -37.046
2829.35 0.123 -81.467 0.855 -114.29 914.3e-6 -155.164
          0.856 -114.2 0.14 -24.352 2.932e-3 60.952
          933.9e-6 -155.182 2.902e-3 59.921 0.204 -37.003
2854.3 0.125 -82.009 0.855 -115.164 866.9e-6 -153.748
          0.856 -115.144 0.142 -23.893 2.889e-3 61.786
          814.8e-6 -154.994 2.778e-3 63.398 0.205 -36.936
2879.25 0.127 -83.161 0.857 -116.108 838.9e-6 -156.936
          0.857 -116.088 0.145 -23.863 2.8e-3 62.863
          829.3e-6 -160.891 2.764e-3 63.725 0.207 -36.969
2904.2 0.127 -83.658 0.857 -117.113 867.8e-6 -161.929
          0.857 -117.103 0.147 -23.887 2.801e-3 64.73
          786.2e-6 -157.345 2.79e-3 62.858 0.207 -37.056
2929.15 0.128 -85.061 0.857 -118.121 793.5e-6 -161.917
          0.857 -118.091 0.146 -23.923 2.756e-3 64.559
          671.6e-6 -168.432 2.823e-3 65.438 0.206 -37.143
2954.1 0.13 -85.848 0.858 -119.209 746.7e-6 -167.59
          0.858 -119.139 0.149 -24.304 2.747e-3 64.903
          680.8e-6 -163.552 2.761e-3 66.129 0.208 -37.266
2979.05 0.132 -86.95 0.859 -120.147 649.3e-6 -160.177
          0.858 -120.137 0.151 -24.709 2.743e-3 67.316
          675.7e-6 -163.845 2.836e-3 65.596 0.209 -37.326
3004 0.134 -88.248 0.859 -121.204 615.4e-6 -161.336
          0.859 -121.114 0.154 -24.486 2.894e-3 67.72
