!Hittite Microwave Corporation								
!12 Elizabeth Drive								
!Chelmsford, MA 01824								
!Tel: 978-250-3343								
!Fax: 978-250-3373								
!Device: HMC341, 24-30 GHz, GaAs MMIC Low Noise Amlifier Die  															
!Misc: Vdd=3V, Data includes (two) K connectors, Room
!
# MHZ S MA R 50

12000 0.849 40.795 2.619 -24.12 3.885e-3 164.364 0.834 -102.208
12140 0.844 33.25 2.674 -32.89 3.744e-3 149.702 0.835 -108.777
12280 0.845 26.308 2.751 -41.161 4.123e-3 151.877 0.837 -114.975
12420 0.833 19.013 2.764 -49.236 4.457e-3 138.002 0.832 -121.24
12560 0.836 12.115 2.835 -57.676 4.775e-3 139.97 0.833 -127.647
12700 0.837 4.688 2.927 -66.604 4.649e-3 129.828 0.838 -133.951
12840 0.829 -2.33 2.958 -74.062 4.916e-3 128.659 0.827 -139.858
12980 0.827 -9.674 2.997 -82.458 5.274e-3 117.149 0.831 -146.23
13120 0.824 -17.4 3.068 -90.821 5.625e-3 111.008 0.83 -152.509
13260 0.822 -24.606 3.11 -98.824 5.56e-3 105.461 0.822 -158.193
13400 0.822 -32.225 3.169 -107.428 5.986e-3 96.241 0.817 -164.243
13540 0.821 -39.768 3.214 -115.476 6.394e-3 92.902 0.816 -170.607
13680 0.821 -46.8 3.263 -123.393 6.311e-3 86.096 0.806 -176.37
13820 0.822 -54.201 3.332 -131.892 5.912e-3 79.48 0.803 177.79
13960 0.82 -61.352 3.388 -139.742 6.717e-3 70.465 0.798 171.938
14100 0.822 -68.377 3.433 -147.686 6.613e-3 63.89 0.787 165.979
14240 0.824 -75.738 3.49 -156.321 6.828e-3 57.498 0.778 160.097
14380 0.825 -82.352 3.513 -163.889 7.431e-3 52.488 0.768 153.912
14520 0.824 -88.844 3.576 -172.233 7.613e-3 45.507 0.756 147.851
14660 0.829 -95.405 3.652 179.711 7.821e-3 40.647 0.74 141.893
14800 0.826 -101.668 3.675 172.056 7.958e-3 32.984 0.727 135.46
14940 0.825 -108.057 3.747 163.698 8.448e-3 26.738 0.711 129.25
15080 0.83 -114.232 3.836 155.841 8.744e-3 18.679 0.695 122.733
15220 0.828 -120.551 3.856 147.518 8.695e-3 15.1 0.674 116.19
15360 0.826 -125.934 3.925 139.868 9.252e-3 5.257 0.655 110.008
15500 0.827 -131.957 3.999 131.385 9.512e-3 -1.479 0.629 102.86
15640 0.825 -137.626 4.026 123.532 9.932e-3 -9.139 0.606 95.861
15780 0.828 -143.146 4.083 115.398 0.01 -13.385 0.579 88.887
15920 0.827 -148.026 4.17 107.255 0.01 -23.672 0.547 80.931
16060 0.828 -153.079 4.191 99.134 0.011 -28.598 0.522 73.075
16200 0.821 -158.316 4.196 90.944 0.011 -36.222 0.491 65.309
16340 0.82 -163.352 4.253 82.594 0.011 -44.606 0.461 57.133
16480 0.819 -168.123 4.3 74.548 0.011 -49.829 0.429 48.29
16620 0.813 -172.738 4.301 66.627 0.012 -57.9 0.394 39.174
16760 0.811 -177.628 4.341 58.087 0.012 -66.135 0.364 29.403
16900 0.812 177.912 4.365 50.004 0.012 -71.557 0.333 19.328
17040 0.808 173.406 4.36 42.34 0.013 -79.999 0.303 8.545
17180 0.806 168.739 4.379 33.676 0.013 -87.843 0.277 -3.743
17320 0.803 164.505 4.398 25.803 0.012 -94.247 0.255 -16.46
17460 0.799 159.794 4.389 18.049 0.013 -101.011 0.235 -29.134
17600 0.801 155.344 4.4 10.08 0.013 -107.525 0.22 -43.724
17740 0.792 151.018 4.39 2.215 0.013 -116.585 0.213 -58.116
17880 0.787 146.476 4.377 -5.635 0.014 -123.143 0.206 -71.749
18020 0.791 141.797 4.391 -13.154 0.013 -128.893 0.204 -86.676
18160 0.786 138.068 4.402 -20.366 0.014 -136.548 0.208 -99.979
18300 0.779 133.371 4.366 -28.046 0.014 -144.141 0.214 -111.857
18440 0.777 128.319 4.422 -35.699 0.014 -151.145 0.222 -123.162
18580 0.77 123.897 4.4 -43.039 0.014 -157.993 0.23 -132.795
18720 0.763 119.266 4.432 -50.392 0.014 -163.85 0.233 -142.039
18860 0.758 114.369 4.44 -57.892 0.015 -171.514 0.241 -150.961
19000 0.75 109.397 4.46 -65.075 0.015 -177.323 0.247 -158.185
19140 0.743 104.565 4.49 -72.266 0.015 176.831 0.248 -166.762
19280 0.734 99.223 4.547 -80.06 0.015 169.335 0.257 -174.869
19420 0.723 93.537 4.571 -86.847 0.016 160.498 0.261 -179.426
19560 0.715 87.897 4.61 -94.369 0.016 155.66 0.255 174.571
19700 0.707 82.493 4.638 -101.878 0.016 148.662 0.257 166.609
19840 0.698 76.777 4.682 -109.08 0.016 143.061 0.262 162.272
19980 0.684 71.927 4.705 -115.997 0.016 134.175 0.249 157.706
20120 0.671 66.376 4.753 -123.601 0.018 125.633 0.242 149.992
20260 0.657 60.457 4.775 -130.721 0.017 121.737 0.243 144.742
20400 0.645 54.779 4.877 -138.383 0.018 111.372 0.228 140.467
20540 0.622 49.089 4.913 -145.621 0.018 107.825 0.223 132.428
20680 0.604 41.586 4.979 -153.322 0.019 100.498 0.226 130.498
20820 0.587 35.111 5.048 -160.762 0.019 92.677 0.201 128.567
20960 0.568 28.046 5.148 -169.308 0.019 86.691 0.183 118.749
21100 0.555 20.378 5.189 -176.578 0.02 80.733 0.193 114.567
21240 0.54 12.957 5.198 175.496 0.019 71.572 0.184 116.157
21380 0.524 5.74 5.294 167.624 0.021 59.825 0.153 111.055
21520 0.508 -1.652 5.308 159.554 0.021 54.466 0.148 102.604
21660 0.492 -8.983 5.275 152.169 0.022 50.024 0.144 102.323
21800 0.478 -15.955 5.306 143.858 0.022 42.146 0.119 100.031
21940 0.46 -23.639 5.347 136.026 0.022 34.558 0.11 92.65
22080 0.444 -31.697 5.37 127.938 0.023 24.833 0.103 91.846
22220 0.435 -38.991 5.368 120.159 0.023 19.052 0.084 91.32
22360 0.42 -46.972 5.422 112.331 0.023 12.481 0.072 85.093
22500 0.408 -55.266 5.422 104.487 0.023 2.229 0.069 84.495
22640 0.393 -62.568 5.431 96.573 0.024 -3.573 0.055 91.533
22780 0.385 -71.203 5.442 88.413 0.024 -10.526 0.043 92.738
22920 0.375 -79.611 5.455 80.657 0.025 -17.722 0.039 101.31
23060 0.372 -87.53 5.478 72.726 0.024 -26.602 0.032 122.202
23200 0.368 -95.588 5.457 65.04 0.024 -32.669 0.026 146.876
23340 0.368 -102.949 5.466 57.197 0.025 -42.795 0.027 163.384
23480 0.361 -110.04 5.432 49.686 0.025 -48.574 0.037 174.223
23620 0.357 -116.93 5.427 42.148 0.026 -56.183 0.046 179.893
23760 0.353 -123.974 5.426 34.203 0.027 -63.488 0.056 178.158
23900 0.347 -130.957 5.433 26.661 0.025 -70.248 0.07 -179.626
24040 0.342 -137.657 5.437 19.291 0.027 -77.929 0.081 179.474
24180 0.333 -144.468 5.421 11.479 0.026 -83.233 0.087 176.809
24320 0.332 -151.715 5.442 4.207 0.027 -90.371 0.097 174.246
24460 0.325 -158.501 5.392 -3.788 0.026 -98.167 0.107 169.504
24600 0.315 -165.537 5.408 -11.247 0.027 -105.793 0.113 165.985
24740 0.312 -172.814 5.43 -18.648 0.027 -113.025 0.122 163.249
24880 0.307 -179.328 5.428 -26.134 0.027 -120.783 0.126 157.511
25020 0.298 173.544 5.418 -33.719 0.029 -124.798 0.134 152.591
25160 0.29 166.827 5.422 -41.581 0.029 -133.441 0.142 146.456
25300 0.284 160.324 5.438 -48.777 0.029 -139.5 0.148 142.784
25440 0.273 153.03 5.44 -56.413 0.029 -146.122 0.152 138.378
25580 0.268 146.22 5.479 -64.071 0.03 -153.155 0.159 132.193
25720 0.255 139.82 5.47 -71.575 0.03 -161.942 0.166 126.954
25860 0.24 132.495 5.462 -79.203 0.03 -169.027 0.168 122.039
26000 0.23 124.751 5.483 -86.968 0.031 -174.87 0.169 116.797
26140 0.22 116.719 5.5 -94.825 0.031 176.514 0.171 111.23
26280 0.204 109.153 5.506 -102.386 0.032 170.723 0.172 106.194
26420 0.192 100.938 5.512 -110.066 0.031 165.036 0.175 100.09
26560 0.18 92.947 5.502 -117.705 0.032 156.258 0.177 95.085
26700 0.166 82.532 5.506 -125.635 0.032 149.212 0.176 89.291
26840 0.157 72.873 5.542 -133.644 0.033 142.631 0.179 84.282
26980 0.147 64.591 5.517 -141.037 0.032 135.615 0.183 81.124
27120 0.13 54.704 5.533 -149.103 0.033 126.73 0.18 75.896
27260 0.117 43.156 5.548 -157.006 0.034 120.179 0.18 69.627
27400 0.108 29.919 5.564 -164.471 0.034 112.86 0.184 64.478
27540 0.095 16.886 5.541 -172.707 0.034 106.606 0.184 60.497
27680 0.09 -0.867 5.542 179.226 0.035 99.926 0.184 55.577
27820 0.087 -13.888 5.544 171.502 0.034 92.72 0.191 50.936
27960 0.079 -30.806 5.518 163.637 0.036 84.416 0.192 48.758
28100 0.08 -51.372 5.486 155.351 0.034 78.477 0.19 45.371
28240 0.082 -66.457 5.516 147.316 0.035 69.287 0.191 39.75
28380 0.083 -81.671 5.463 139.564 0.036 62.256 0.196 35.386
28520 0.089 -101.272 5.46 131.565 0.037 55.274 0.199 32.808
28660 0.096 -115.406 5.47 123.478 0.036 49.292 0.198 29.21
28800 0.102 -131.496 5.453 115.639 0.036 40.45 0.206 24.657
28940 0.116 -146.191 5.394 107.4 0.036 32.409 0.211 22.424
29080 0.126 -157.931 5.381 99.428 0.037 27.686 0.214 18.733
29220 0.134 -170.806 5.379 91.269 0.037 16.327 0.223 15.853
29360 0.156 176.92 5.34 83.408 0.038 9.824 0.229 13.657
29500 0.168 166.894 5.31 75.277 0.038 4.501 0.234 10.422
29640 0.183 154.916 5.278 66.93 0.038 -5.005 0.241 6.679
29780 0.206 144.221 5.254 58.077 0.038 -11.816 0.248 3.192
29920 0.222 135.698 5.216 50.156 0.037 -20.37 0.26 -1.369
30060 0.241 124.748 5.171 42.222 0.037 -28.091 0.278 -4.05
30200 0.265 115.46 5.138 33.733 0.037 -34.008 0.294 -6.012
30340 0.28 105.504 5.115 24.926 0.038 -41.905 0.297 -9.908
30480 0.304 95.88 5.045 16.403 0.037 -49.125 0.312 -14.358
30620 0.33 86.009 4.935 8.302 0.037 -58.013 0.328 -16.686
30760 0.356 75.793 4.882 -0.778 0.037 -65.703 0.346 -19.262
30900 0.384 67.156 4.835 -8.772 0.037 -72.253 0.354 -22.961
31040 0.409 58.4 4.719 -17.344 0.036 -81.55 0.371 -27.293
31180 0.442 49.223 4.604 -25.968 0.035 -90.509 0.39 -31.294
31320 0.473 40.818 4.512 -34.429 0.035 -97.372 0.413 -35.054
31460 0.497 33.08 4.416 -42.592 0.034 -105.6 0.432 -38.388
31600 0.519 24.331 4.291 -51.174 0.034 -113.386 0.443 -42.17
31740 0.55 16.387 4.161 -59.734 0.033 -119.859 0.459 -47.376
31880 0.575 7.955 4.076 -68.104 0.032 -128.084 0.478 -51.575
32020 0.599 -0.195 3.971 -76.185 0.033 -135.169 0.497 -55.804
32160 0.628 -7.304 3.873 -84.368 0.031 -143.344 0.506 -60.579
32300 0.642 -15.719 3.709 -92.982 0.031 -152.754 0.521 -65.823
32440 0.663 -23.731 3.603 -100.756 0.029 -160.054 0.539 -70.273
32580 0.686 -31.066 3.494 -108.572 0.028 -166.272 0.558 -74.339
32720 0.7 -38.493 3.353 -116.669 0.028 -173.395 0.566 -79.298
32860 0.726 -45.029 3.263 -124.503 0.026 178.355 0.573 -84.334
33000 0.733 -51.918 3.131 -131.924 0.026 171.726 0.583 -89.679
33140 0.748 -60.087 3.039 -139.52 0.025 166.622 0.596 -94.803
33280 0.766 -66.175 2.918 -147.262 0.025 157.077 0.614 -100.123
33420 0.774 -72.404 2.82 -154.491 0.023 151.98 0.624 -104.465
33560 0.783 -78.952 2.72 -161.58 0.023 144.563 0.627 -109.521
33700 0.785 -85.552 2.632 -168.68 0.023 136.716 0.637 -114.904
33840 0.794 -92.151 2.532 -176.164 0.022 129.555 0.651 -119.572
33980 0.807 -98.671 2.46 176.917 0.021 125.1 0.657 -124.388
34120 0.814 -104.447 2.387 169.963 0.02 118.089 0.668 -129.428
34260 0.813 -111.486 2.324 162.624 0.02 109.947 0.674 -133.96
34400 0.818 -118.218 2.235 155.677 0.019 104.126 0.677 -139.271
34540 0.833 -123.673 2.174 148.723 0.018 97.437 0.68 -144.562
34680 0.835 -129.763 2.085 141.843 0.018 90.569 0.683 -149.324
34820 0.837 -135.166 2.019 135.091 0.017 82.638 0.682 -153.696
34960 0.833 -141.512 1.958 128.9 0.016 76.8 0.682 -158.967
35100 0.837 -148.152 1.911 122.457 0.016 72.362 0.693 -163.746
35240 0.844 -154.18 1.862 115.48 0.015 65.802 0.703 -168.041
35380 0.837 -160.4 1.795 107.939 0.016 58.533 0.689 -172.96
35520 0.844 -166.12 1.731 101.63 0.015 52.053 0.688 -179.12
35660 0.846 -171.875 1.685 95.481 0.014 47.884 0.697 176.666
35800 0.843 -178.171 1.644 88.85 0.014 40.042 0.705 172.761
35940 0.843 175.631 1.589 82.191 0.014 35.074 0.694 167.677
36080 0.851 170.179 1.55 75.465 0.013 22.087 0.678 161.774
36220 0.836 163.768 1.519 69.025 0.013 17.335 0.687 155.778
36360 0.846 156.722 1.503 62.243 0.013 16.701 0.709 151.505
36500 0.854 150.73 1.458 54.729 0.012 5.936 0.708 146.473
36640 0.852 145.175 1.406 48.414 0.012 3.74 0.68 141.31
36780 0.861 139.262 1.376 42.12 0.011 -7.046 0.671 134.674
36920 0.845 133.59 1.33 35.924 0.012 -12.079 0.696 129.998
37060 0.844 126.502 1.312 27.648 0.011 -18.912 0.696 125.358
37200 0.859 120.263 1.27 20.723 9.586e-3 -22.694 0.666 119.247
37340 0.853 113.933 1.236 14.1 9.706e-3 -34.234 0.67 112.631
37480 0.855 107.068 1.227 6.514 9.384e-3 -37.893 0.704 107.387
37620 0.863 101.279 1.191 -1.025 8.236e-3 -45.027 0.699 104.14
37760 0.862 95.992 1.163 -7.416 8.167e-3 -49.067 0.669 99.891
37900 0.864 89.206 1.152 -14.93 7.061e-3 -51.133 0.656 93.192
38040 0.877 83.079 1.133 -22.893 6.124e-3 -53.227 0.662 86.62
38180 0.875 77.55 1.104 -31.209 5.135e-3 -46.788 0.658 81.708
38320 0.885 71.072 1.071 -40.487 4.383e-3 -29.11 0.632 77.614
38460 0.905 65.029 1.023 -51.459 7.004e-3 2.167 0.606 72.37
38600 0.892 58.12 0.927 -62.489 0.01 -9.354 0.6 70.025
38740 0.893 50.163 0.777 -71.217 0.015 -24.726 0.627 70.426
38880 0.898 44.726 0.657 -72 0.018 -46.501 0.662 68.068
39020 0.881 39.429 0.627 -70.389 0.02 -63.451 0.685 61.646
39160 0.877 32.177 0.635 -73.119 0.018 -80.442 0.721 53.698
39300 0.87 25.885 0.634 -77.192 0.018 -94.581 0.72 47.366
39440 0.874 19.985 0.632 -82.289 0.017 -103.095 0.705 41.026
39580 0.874 13.538 0.627 -88.02 0.017 -110.214 0.707 34.255
39720 0.861 7.179 0.617 -94.074 0.017 -118.302 0.721 28.184
39860 0.855 0.274 0.592 -100.972 0.014 -128.661 0.707 21.675
40000 0.87 -5.916 0.57 -107.468 0.014 -133.308 0.698 15.813
