!Hittite Microwave Corporation								
!12 Elizabeth Drive								
!Chelmsford, MA 01824							
!Tel: 978-250-3343								
!Fax: 978-250-3373								
!Device: HMC315, DC-7 GHz HBT Darlington Amplifier 
!Misc:  Vcc=7V Icc=48.55mA , DEEMBEDDED TO THE PINS OF THE DEVICE							
!	
# MHZ S MA R 50

50 0.189 20.136 5.506 -12.545 0.079 7.985 0.329 -151.68
99.75 0.208 12.61 5.064 -10.624 0.082 7.021 0.368 -162.87
149.5 0.228 5.201 4.622 -8.708 0.085 6.052 0.406 -174.129
199.25 0.232 1.861 4.553 -7.515 0.086 6.27 0.407 -178.285
249 0.236 -1.412 4.483 -6.327 0.086 6.483 0.407 177.515
298.75 0.238 -3.633 4.473 -5.916 0.086 7.219 0.409 174.167
348.5 0.24 -5.786 4.462 -5.511 0.086 7.949 0.41 170.758
398.25 0.242 -7.757 4.448 -5.331 0.086 8.764 0.409 168.205
448 0.244 -9.646 4.435 -5.157 0.086 9.573 0.409 165.586
497.75 0.245 -11.014 4.455 -5.215 0.086 10.45 0.408 163.073
547.5 0.245 -12.304 4.475 -5.28 0.086 11.32 0.407 160.487
597.25 0.247 -13.414 4.453 -5.322 0.086 12.173 0.406 158.035
647 0.249 -14.439 4.432 -5.371 0.086 13.019 0.405 155.506
696.75 0.252 -15.194 4.463 -5.394 0.086 14.056 0.404 152.851
746.5 0.254 -15.871 4.495 -5.426 0.086 15.084 0.404 150.12
796.25 0.257 -16.952 4.485 -5.737 0.086 15.968 0.404 147.407
846 0.259 -17.947 4.474 -6.055 0.086 16.845 0.405 144.627
895.75 0.26 -18.847 4.481 -5.921 0.085 17.884 0.407 141.932
945.5 0.26 -19.667 4.488 -5.793 0.085 18.917 0.408 139.187
995.25 0.259 -20.027 4.481 -6.461 0.085 19.534 0.411 136.286
1045 0.258 -20.307 4.473 -7.134 0.085 20.146 0.415 133.355
1094.75 0.259 -20.189 4.462 -6.762 0.085 21.218 0.417 130.671
1144.5 0.26 -20.016 4.45 -6.391 0.086 22.289 0.42 127.977
1194.25 0.261 -20.137 4.48 -7.324 0.086 22.976 0.423 125.022
1244 0.262 -20.204 4.509 -8.254 0.086 23.666 0.428 122.087
1293.75 0.263 -20.61 4.488 -8.188 0.086 24.827 0.432 119.353
1343.5 0.264 -20.982 4.467 -8.116 0.085 25.994 0.437 116.658
1393.25 0.262 -21.27 4.526 -8.616 0.085 27.029 0.443 113.906
1443 0.26 -21.515 4.584 -9.111 0.085 28.069 0.45 111.219
1492.75 0.258 -21.188 4.532 -9.19 0.084 28.835 0.458 108.643
1542.5 0.256 -20.832 4.479 -9.26 0.083 29.61 0.466 106.143
1592.25 0.255 -20.488 4.556 -9.098 0.084 30.612 0.473 103.959
1642 0.253 -20.131 4.633 -8.925 0.084 31.625 0.481 101.855
1691.75 0.255 -19.961 4.563 -9.523 0.084 32.342 0.488 99.422
1741.5 0.256 -19.815 4.494 -10.103 0.083 33.077 0.495 97.08
1791.25 0.254 -20.193 4.546 -9.442 0.083 33.858 0.502 95.092
1841 0.251 -20.602 4.599 -8.767 0.083 34.653 0.508 93.189
1890.75 0.249 -20.835 4.579 -9.949 0.082 36.206 0.516 91.178
1940.5 0.246 -21.105 4.558 -11.116 0.082 37.774 0.523 89.25
1990.25 0.243 -20.898 4.631 -10.891 0.081 38.364 0.531 87.528
2040 0.24 -20.723 4.704 -10.651 0.081 38.969 0.538 85.875
2089.75 0.239 -20.658 4.697 -11.322 0.08 40.383 0.545 84.146
2139.5 0.237 -20.655 4.692 -11.98 0.079 41.81 0.551 82.481
2189.25 0.236 -21.264 4.697 -11.582 0.08 42.668 0.557 81.093
2239 0.234 -21.969 4.703 -11.174 0.08 43.536 0.563 79.752
2288.75 0.23 -22.759 4.738 -11.72 0.079 44.65 0.568 78.318
2338.5 0.226 -23.659 4.775 -12.261 0.079 45.769 0.573 76.922
2388.25 0.222 -24.657 4.777 -12.756 0.079 47.249 0.578 75.721
2438 0.218 -25.782 4.78 -13.248 0.079 48.732 0.582 74.541
2487.75 0.215 -26.829 4.81 -13.729 0.078 50.016 0.586 73.162
2537.5 0.212 -28.011 4.841 -14.209 0.077 51.301 0.59 71.792
2587.25 0.207 -29.53 4.88 -14.702 0.078 52.503 0.595 70.566
2637 0.202 -31.211 4.92 -15.197 0.078 53.703 0.599 69.334
2686.75 0.197 -33.062 4.922 -14.655 0.078 54.765 0.602 68.095
2736.5 0.193 -35.088 4.926 -14.118 0.077 55.822 0.604 66.839
2786.25 0.189 -36.567 4.982 -14.979 0.078 56.826 0.606 65.476
2836 0.184 -38.18 5.04 -15.848 0.078 57.822 0.608 64.082
2885.75 0.181 -41.017 4.971 -15.735 0.078 59.395 0.609 62.744
2935.5 0.179 -44.022 4.903 -15.634 0.079 60.956 0.61 61.364
2985.25 0.175 -46.835 4.943 -16.18 0.079 62.025 0.611 59.888
3035 0.172 -49.798 4.985 -16.739 0.078 63.081 0.611 58.359
3084.75 0.169 -52.951 4.984 -17.382 0.078 64.353 0.612 56.754
3134.5 0.165 -56.234 4.984 -18.039 0.078 65.611 0.611 55.087
3184.25 0.163 -58.818 5.125 -18.046 0.077 66.624 0.611 53.589
3234 0.161 -61.445 5.267 -18.067 0.077 67.623 0.61 52.025
3283.75 0.161 -63.847 5.335 -18.989 0.077 68.501 0.608 50.251
3333.5 0.162 -66.212 5.405 -19.926 0.077 69.364 0.607 48.403
3383.25 0.165 -69.718 5.435 -19.468 0.078 70.542 0.603 46.6
3433 0.168 -73.072 5.464 -19.024 0.078 71.706 0.6 44.722
3482.75 0.17 -76.331 5.511 -19.612 0.078 72.763 0.598 42.737
3532.5 0.172 -79.448 5.558 -20.212 0.078 73.808 0.596 40.68
3582.25 0.174 -82.828 5.578 -20.598 0.078 75.232 0.592 38.439
3632 0.176 -86.04 5.598 -20.993 0.078 76.647 0.589 36.126
3681.75 0.177 -88.089 5.707 -22.007 0.078 77.888 0.587 33.998
3731.5 0.179 -90.003 5.816 -23.027 0.078 79.123 0.585 31.812
3781.25 0.183 -91.488 5.83 -24.251 0.077 80.244 0.582 29.367
3831 0.186 -92.849 5.843 -25.479 0.077 81.361 0.58 26.875
3880.75 0.193 -95.268 5.946 -26.315 0.077 82.43 0.576 24.558
3930.5 0.199 -97.52 6.047 -27.149 0.077 83.501 0.573 22.207
3980.25 0.204 -99.855 6.111 -27.933 0.077 84.572 0.57 19.729
4030 0.209 -102.052 6.173 -28.711 0.077 85.649 0.568 17.234
4079.75 0.211 -104.688 6.223 -29.457 0.077 86.858 0.565 14.563
4129.5 0.213 -107.203 6.272 -30.194 0.077 88.076 0.563 11.889
4179.25 0.215 -108.872 6.307 -31.478 0.077 89.267 0.561 9.171
4229 0.216 -110.482 6.341 -32.751 0.077 90.469 0.559 6.467
4278.75 0.219 -111.429 6.368 -33.659 0.077 91.781 0.557 3.795
4328.5 0.222 -112.359 6.394 -34.556 0.077 93.104 0.555 1.15
4378.25 0.228 -114.298 6.419 -35.711 0.077 94.344 0.553 -1.409
4428 0.233 -116.23 6.443 -36.851 0.078 95.599 0.551 -3.932
4477.75 0.238 -118.677 6.467 -37.934 0.078 96.926 0.547 -6.51
4527.5 0.243 -121.125 6.491 -39.004 0.078 98.266 0.544 -9.048
4577.25 0.243 -123.77 6.507 -40.07 0.078 99.54 0.541 -11.653
4627 0.243 -126.442 6.524 -41.125 0.078 100.825 0.538 -14.214
4676.75 0.242 -128.267 6.55 -42.014 0.078 102.081 0.533 -17.008
4726.5 0.241 -130.152 6.577 -42.896 0.079 103.344 0.528 -19.767
4776.25 0.243 -131.826 6.598 -44.053 0.079 104.547 0.524 -22.388
4826 0.244 -133.582 6.62 -45.206 0.079 105.754 0.52 -24.978
4875.75 0.247 -135.733 6.616 -46.312 0.08 106.863 0.514 -27.592
4925.5 0.251 -137.971 6.614 -47.418 0.08 107.972 0.509 -30.188
4975.25 0.254 -141.25 6.633 -48.59 0.08 109.19 0.5 -32.713
5025 0.257 -144.603 6.653 -49.767 0.081 110.403 0.49 -35.239
5074.75 0.257 -147.894 6.632 -51.026 0.081 111.504 0.483 -37.747
5124.5 0.258 -151.26 6.611 -52.293 0.082 112.597 0.475 -40.271
5174.25 0.257 -154.262 6.648 -53.461 0.082 113.699 0.463 -43.083
5224 0.257 -157.337 6.685 -54.64 0.081 114.79 0.45 -45.94
5273.75 0.256 -160.245 6.669 -56.279 0.082 115.626 0.438 -48.748
5323.5 0.257 -163.213 6.653 -57.932 0.083 116.448 0.425 -51.622
5373.25 0.261 -165.916 6.587 -58.713 0.083 117.602 0.414 -54.157
5423 0.266 -168.613 6.52 -59.508 0.083 118.742 0.402 -56.772
5472.75 0.269 -172.093 6.537 -61.204 0.083 119.281 0.385 -59.932
5522.5 0.274 -175.535 6.552 -62.912 0.084 119.808 0.368 -63.226
5572.25 0.279 -179.04 6.436 -63.431 0.084 120.779 0.355 -65.721
5622 0.286 177.562 6.318 -63.958 0.084 121.742 0.342 -68.339
5671.75 0.289 174.04 6.319 -65.803 0.083 122.737 0.324 -71.689
5721.5 0.293 170.633 6.317 -67.649 0.083 123.731 0.307 -75.244
5771.25 0.294 168.473 6.201 -68.579 0.083 124.836 0.293 -78.898
5821 0.296 166.396 6.082 -69.509 0.083 125.941 0.279 -82.774
5870.75 0.301 163.949 6.073 -70.778 0.084 127.102 0.263 -86.72
5920.5 0.307 161.624 6.062 -72.041 0.084 128.269 0.247 -90.991
5970.25 0.314 159.629 5.934 -73.033 0.085 129.112 0.234 -95.297
6020 0.322 157.747 5.805 -74.015 0.085 129.965 0.223 -99.881
6069.75 0.329 155.123 5.808 -74.66 0.084 131.265 0.209 -104.026
6119.5 0.336 152.659 5.81 -75.288 0.083 132.582 0.197 -108.545
6169.25 0.34 150.372 5.692 -76.673 0.083 133.847 0.189 -113.691
6219 0.343 148.229 5.575 -78.042 0.083 135.128 0.182 -119.025
6268.75 0.345 146.525 5.544 -78.29 0.083 135.685 0.172 -124.24
6318.5 0.346 144.937 5.513 -78.522 0.083 136.258 0.163 -129.836
6368.25 0.35 143.912 5.444 -79.682 0.082 137.438 0.158 -136.244
6418 0.353 142.963 5.376 -80.825 0.082 138.635 0.155 -142.649
6467.75 0.358 141.528 5.319 -80.995 0.083 138.8 0.15 -147.674
6517.5 0.362 140.164 5.263 -81.15 0.084 138.98 0.147 -152.731
6567.25 0.366 138.703 5.24 -82.019 0.085 140.546 0.144 -158.602
6617 0.37 137.307 5.22 -82.874 0.085 142.126 0.142 -164.448
6666.75 0.37 135.818 5.117 -83.323 0.085 143.142 0.141 -167.513
6716.5 0.369 134.396 5.016 -83.768 0.086 144.162 0.141 -170.433
6766.25 0.368 133.208 5.005 -84.769 0.086 145.536 0.138 -176.425
6816 0.366 132.068 4.997 -85.767 0.087 146.913 0.136 177.524
6865.75 0.364 131.219 4.911 -86.539 0.087 148.356 0.136 174.491
6915.5 0.363 130.388 4.827 -87.31 0.087 149.8 0.137 171.597
6965.25 0.36 129.548 4.809 -88.025 0.086 150.57 0.133 168.252
7015 0.357 128.718 4.792 -88.745 0.086 151.335 0.131 164.83
7064.75 0.353 127.788 4.745 -89.71 0.087 151.89 0.128 161.744
7114.5 0.349 126.849 4.698 -90.681 0.088 152.439 0.125 158.621
7164.25 0.347 125.48 4.661 -91.074 0.087 153.601 0.119 156.793
7214 0.344 124.047 4.625 -91.474 0.087 154.756 0.113 154.611
7263.75 0.339 122.748 4.586 -92.104 0.088 155.216 0.107 151.186
7313.5 0.333 121.398 4.548 -92.746 0.089 155.664 0.102 147.417
7363.25 0.325 119.871 4.483 -93.425 0.089 156.775 0.094 145.659
7413 0.316 118.287 4.419 -94.11 0.089 157.88 0.086 142.71
7462.75 0.307 117.591 4.392 -94.74 0.09 158.54 0.079 138.072
7512.5 0.299 116.863 4.364 -95.373 0.09 159.197 0.075 132.137
7562.25 0.293 115.827 4.318 -96.172 0.09 160.213 0.066 128.21
7612 0.287 114.704 4.271 -96.974 0.091 161.226 0.057 122.246
7661.75 0.282 112.873 4.245 -97.419 0.092 161.941 0.047 113.946
7711.5 0.276 110.902 4.219 -97.873 0.093 162.647 0.039 101.034
7761.25 0.267 108.543 4.194 -98.644 0.093 163.481 0.034 84.841
7811 0.258 106.012 4.168 -99.425 0.093 164.305 0.033 65.077
7860.75 0.246 103.078 4.103 -99.74 0.093 164.96 0.035 35.606
7910.5 0.234 99.936 4.037 -100.071 0.094 165.599 0.044 14.043
7960.25 0.224 97.532 4.009 -100.971 0.094 166.459 0.053 3.694
8010 0.214 94.964 3.98 -101.876 0.094 167.314 0.064 -3.422
8059.75 0.205 92.559 3.924 -102.526 0.094 167.714 0.077 -9.438
8109.5 0.197 90 3.868 -103.178 0.095 168.112 0.091 -13.621
8159.25 0.193 85.86 3.851 -103.941 0.095 168.889 0.106 -18.423
8209 0.189 81.498 3.833 -104.708 0.095 169.662 0.12 -22.26
8258.75 0.185 76.257 3.789 -105.691 0.095 169.879 0.134 -25.389
8308.5 0.181 70.762 3.743 -106.674 0.095 170.096 0.148 -28.037
8358.25 0.176 64.212 3.719 -106.845 0.096 170.315 0.167 -30.373
8408 0.173 57.421 3.694 -107.017 0.097 170.533 0.185 -32.471
8457.75 0.17 51.609 3.632 -107.834 0.097 171.131 0.201 -34.996
8507.5 0.168 45.727 3.569 -108.645 0.098 171.735 0.216 -37.332
8557.25 0.165 39.876 3.534 -109.084 0.098 172.566 0.232 -38.257
8607 0.163 34.032 3.497 -109.513 0.098 173.407 0.248 -39.148
8656.75 0.168 29.919 3.435 -110.444 0.098 174.071 0.262 -41.287
8706.5 0.173 26.024 3.372 -111.367 0.098 174.743 0.276 -43.352
8756.25 0.181 21.445 3.34 -111.578 0.097 175.402 0.289 -44.639
8806 0.189 17.089 3.307 -111.783 0.097 176.067 0.302 -45.912
8855.75 0.2 12.131 3.25 -112.314 0.096 176.266 0.316 -47.603
8905.5 0.211 7.413 3.192 -112.843 0.095 176.467 0.33 -49.283
8955.25 0.219 2.269 3.141 -113.11 0.095 176.975 0.344 -51.101
9005 0.226 -2.761 3.09 -113.376 0.095 177.484 0.358 -52.933
9054.75 0.231 -6.512 3.053 -113.924 0.095 178.041 0.369 -53.758
9104.5 0.235 -10.222 3.016 -114.473 0.095 178.597 0.38 -54.613
9154.25 0.241 -12.389 2.974 -114.768 0.094 179.362 0.394 -56.308
9204 0.246 -14.559 2.932 -115.068 0.094 -179.878 0.407 -58.038
9253.75 0.256 -15.151 2.902 -115.124 0.094 -179.104 0.413 -59.22
9303.5 0.265 -15.771 2.873 -115.188 0.094 -178.338 0.419 -60.44
9353.25 0.281 -17.81 2.831 -115.386 0.093 -177.611 0.427 -61.759
9403 0.297 -19.871 2.79 -115.599 0.093 -176.899 0.435 -63.118
9452.75 0.309 -22.921 2.728 -115.842 0.093 -176.162 0.444 -64.697
9502.5 0.321 -26.012 2.667 -116.106 0.093 -175.446 0.453 -66.314
9552.25 0.32 -28.891 2.664 -116.354 0.093 -174.574 0.458 -67.703
9602 0.319 -31.857 2.661 -116.619 0.093 -173.719 0.463 -69.134
9651.75 0.317 -32.762 2.595 -117.456 0.092 -172.941 0.473 -70.302
9701.5 0.315 -33.733 2.529 -118.31 0.091 -172.18 0.483 -71.502
9751.25 0.323 -33.198 2.571 -117.514 0.091 -172.144 0.483 -72.683
9801 0.33 -32.71 2.612 -116.732 0.091 -172.122 0.484 -73.9
9850.75 0.355 -33.103 2.536 -117.374 0.091 -171.474 0.488 -75.222
9900.5 0.379 -33.54 2.46 -118.038 0.09 -170.848 0.493 -76.564
9950.25 0.393 -36.935 2.469 -115.837 0.092 -170.557 0.493 -77.861
10000 0.408 -40.378 2.477 -113.663 0.094 -170.293 0.492 -79.188
