!Hittite Microwave Corporation								
!12 Elizabeth Drive								
!Chelmsford, MA 01824								
!Tel: 978-250-3343								
!Fax: 978-250-3373								
!Device: HMC373LP3, 750-1000 MHz, GaAs PHEMT MMIC Low Noise Amplifier with Bypass Mode in leadless QFN SMT package																
!Misc: Vdd = 5V, Bypass Mode, data is deembedded to the pins of the device, Room
!
# MHZ S MA R 50

50 1.036 -105.542 0.085 27.05 0.086 27.52 0.989 -19.843
69.5 0.968 -91.706 0.133 32.814 0.133 32.933 0.98 -27.249
89 0.932 -81.322 0.175 35.304 0.174 35.306 0.969 -34.599
108.5 0.911 -73.574 0.214 35.878 0.213 36.036 0.955 -41.852
128 0.888 -67.965 0.253 35.529 0.252 35.831 0.938 -48.982
147.5 0.871 -63.848 0.286 34.367 0.285 34.75 0.92 -56.043
167 0.858 -60.964 0.315 32.701 0.315 33.064 0.901 -62.991
186.5 0.845 -59.396 0.338 30.566 0.338 31.041 0.88 -69.88
206 0.834 -58.337 0.357 28.262 0.358 28.774 0.861 -76.692
225.5 0.824 -57.792 0.372 26.031 0.372 26.355 0.844 -83.379
245 0.814 -57.635 0.379 23.783 0.38 23.988 0.823 -90.327
264.5 0.805 -57.794 0.382 21.536 0.383 21.687 0.801 -97.38
284 0.796 -58.532 0.379 19.59 0.379 19.832 0.781 -104.597
303.5 0.788 -59.914 0.368 18.068 0.368 18.414 0.76 -112.122
323 0.779 -61.603 0.354 17.038 0.354 17.47 0.738 -119.828
342.5 0.768 -64.035 0.33 17.772 0.331 18.152 0.712 -128.111
362 0.752 -66.899 0.308 20.821 0.308 21.197 0.678 -136.858
381.5 0.732 -69.96 0.289 25.556 0.289 25.964 0.642 -145.934
401 0.702 -73.481 0.286 34.187 0.287 34.692 0.59 -155.527
420.5 0.665 -76.869 0.302 42.246 0.304 42.649 0.533 -164.998
440 0.62 -80.187 0.336 49.662 0.337 49.792 0.472 -174.935
459.5 0.573 -82.623 0.388 52.109 0.389 52.336 0.404 176.437
479 0.523 -84.389 0.443 52.803 0.443 53.089 0.34 167.862
498.5 0.474 -85.374 0.498 51.654 0.497 51.953 0.276 159.746
518 0.433 -85.016 0.542 49.299 0.542 49.653 0.222 153.367
537.5 0.396 -83.694 0.582 46.692 0.583 47.012 0.171 147.384
557 0.365 -82.401 0.616 44.185 0.618 44.323 0.127 142.353
576.5 0.344 -80.093 0.644 41.52 0.644 41.679 0.089 138.882
596 0.322 -78.507 0.669 39.023 0.668 39.233 0.056 136.766
615.5 0.307 -76.308 0.687 36.633 0.686 36.875 0.028 141.142
635 0.295 -74.294 0.702 34.472 0.702 34.742 8.867e-3 -171.419
654.5 0.285 -72.356 0.715 32.43 0.715 32.71 0.02 -86.69
674 0.278 -70.615 0.727 30.602 0.725 30.836 0.037 -78.661
693.5 0.271 -69.132 0.735 28.849 0.735 29.105 0.052 -77.754
713 0.266 -67.831 0.743 27.186 0.743 27.464 0.066 -78.306
732.5 0.262 -66.746 0.751 25.873 0.749 26.008 0.079 -79.201
752 0.258 -65.893 0.757 24.48 0.755 24.62 0.09 -80.874
771.5 0.254 -65.207 0.762 23.053 0.76 23.282 0.1 -82.667
791 0.251 -64.507 0.766 21.879 0.765 22.088 0.108 -83.924
810.5 0.248 -64.001 0.771 20.71 0.77 20.924 0.116 -85.315
830 0.245 -63.666 0.775 19.54 0.774 19.78 0.124 -86.67
849.5 0.242 -63.464 0.778 18.508 0.776 18.735 0.13 -88.23
869 0.241 -63.163 0.78 17.483 0.779 17.7 0.137 -89.681
888.5 0.237 -63.153 0.784 16.494 0.782 16.705 0.143 -90.853
908 0.235 -62.743 0.785 15.523 0.784 15.781 0.148 -92.494
927.5 0.23 -63.112 0.788 14.622 0.787 14.91 0.153 -93.758
947 0.227 -63.095 0.79 13.753 0.789 14.034 0.157 -94.783
966.5 0.223 -63.242 0.792 12.919 0.791 13.194 0.161 -96.249
986 0.22 -63.502 0.794 12.102 0.793 12.38 0.165 -97.138
1005.5 0.216 -63.901 0.795 11.317 0.795 11.621 0.169 -98.221
1025 0.213 -64.25 0.797 10.561 0.796 10.876 0.173 -99.35
1044.5 0.208 -64.66 0.799 9.838 0.797 10.136 0.176 -100.401
1064 0.204 -65.245 0.801 9.204 0.799 9.404 0.18 -101.469
1083.5 0.2 -65.905 0.801 8.463 0.801 8.701 0.183 -102.602
1103 0.196 -66.615 0.801 7.706 0.802 8.003 0.186 -103.715
1122.5 0.193 -67.299 0.803 7.141 0.803 7.289 0.189 -104.729
1142 0.189 -68.056 0.804 6.544 0.804 6.646 0.192 -105.648
1161.5 0.185 -68.904 0.806 5.92 0.806 6.043 0.195 -106.515
1181 0.181 -70.014 0.808 5.25 0.808 5.412 0.198 -107.63
1200.5 0.177 -71.139 0.809 4.609 0.809 4.747 0.2 -108.633
1220 0.173 -72.288 0.81 3.988 0.808 4.048 0.203 -109.529
1239.5 0.17 -73.455 0.811 3.392 0.809 3.627 0.205 -110.398
1259 0.166 -74.637 0.811 2.826 0.811 3.093 0.208 -111.272
1278.5 0.163 -75.817 0.81 2.299 0.813 2.43 0.21 -112.148
1298 0.16 -76.91 0.812 1.72 0.812 1.75 0.212 -113.157
1317.5 0.156 -78.091 0.813 1.165 0.811 1.175 0.214 -114.071
1337 0.153 -79.395 0.813 0.662 0.811 0.776 0.216 -114.821
1356.5 0.149 -80.504 0.815 0.084 0.813 0.22 0.218 -115.727
1376 0.145 -81.719 0.816 -0.529 0.815 -0.427 0.22 -116.651
1395.5 0.141 -83.183 0.815 -1.184 0.815 -1.205 0.222 -117.545
1415 0.137 -84.493 0.814 -1.727 0.813 -1.667 0.223 -118.246
1434.5 0.133 -85.865 0.814 -2.236 0.812 -2.073 0.224 -118.918
1454 0.128 -87.504 0.813 -2.736 0.814 -2.606 0.226 -119.685
1473.5 0.124 -89.305 0.814 -3.145 0.816 -3.3 0.228 -120.541
1493 0.12 -91.249 0.815 -3.55 0.816 -4.025 0.23 -121.431
1512.5 0.116 -93.244 0.818 -4.144 0.811 -4.521 0.231 -122.286
1532 0.112 -95.29 0.82 -4.789 0.811 -4.913 0.233 -123.189
1551.5 0.108 -97.432 0.822 -5.469 0.813 -5.267 0.235 -124.126
1571 0.104 -99.841 0.82 -6.194 0.814 -5.959 0.237 -125.083
1590.5 0.1 -102.476 0.818 -6.758 0.813 -6.638 0.238 -125.882
1610 0.097 -105.337 0.816 -7.186 0.81 -7.306 0.239 -126.546
1629.5 0.093 -108.365 0.815 -7.737 0.809 -7.584 0.24 -127.244
1649 0.091 -111.487 0.815 -8.171 0.81 -7.958 0.242 -127.994
1668.5 0.088 -114.673 0.815 -8.467 0.814 -8.443 0.244 -128.803
1688 0.085 -118.091 0.818 -9.153 0.811 -9.287 0.244 -129.772
1707.5 0.083 -121.559 0.819 -9.829 0.808 -9.934 0.245 -130.641
1727 0.081 -124.94 0.816 -10.434 0.805 -10.214 0.247 -131.343
1746.5 0.079 -128.75 0.816 -11.009 0.806 -10.442 0.249 -132.129
1766 0.077 -132.717 0.816 -11.636 0.809 -10.914 0.251 -132.981
1785.5 0.075 -136.726 0.812 -12.391 0.812 -11.955 0.251 -133.927
1805 0.074 -140.894 0.809 -12.84 0.807 -12.58 0.252 -134.521
1824.5 0.073 -145.182 0.806 -13.214 0.801 -13.05 0.254 -135.054
1844 0.073 -149.576 0.806 -13.636 0.8 -13.414 0.255 -135.706
1863.5 0.072 -153.959 0.807 -14.159 0.801 -14 0.257 -136.485
1883 0.072 -158.35 0.808 -14.744 0.802 -14.688 0.259 -137.308
1902.5 0.072 -162.844 0.807 -15.429 0.797 -15.399 0.26 -138.081
1922 0.072 -167.109 0.806 -16.192 0.793 -15.88 0.261 -138.79
1941.5 0.073 -171.212 0.805 -16.996 0.79 -16.237 0.262 -139.465
1961 0.073 -175.229 0.797 -17.676 0.791 -16.807 0.264 -140.203
1980.5 0.074 -179.347 0.793 -18.184 0.789 -17.411 0.266 -140.902
2000 0.075 176.482 0.792 -18.543 0.785 -18.043 0.269 -141.571
