!Hittite Microwave Corporation								
!12 Elizabeth Drive								
!Chelmsford, MA 01824								
!Tel: 978-250-3343								
!Fax: 978-250-3373								
!Device: HMC349MS8G, DC-4 GHz, High Isolation SPDT Non-Reflective Switch in 8-lead plastic SMT package with exposed ground paddle															
!Misc: Vdd=5V, Port1=RFC, Port2=RF1, Port3=RF2, RF2 selected, Room							
!
# MHZ S MA R 50

10	0.011	113.496	964.2e-6	-88.535	0.959	-1.197
		2.814e-3	6.231	0.665	-15.694	1.586e-3	164.475
		0.972	-0.647	3.325e-3	80.205	0.03	84.312
29.95	0.034	58.987	755.2e-6	-8.391	0.942	-2.231
		640e-6	-28.471	0.577	-25.504	640.6e-6	-21.661
		0.945	-1.951	586.4e-6	-41.355	0.041	44.882
49.9	0.05	35.94	480e-6	-18.282	0.93	-2.671
		232.5e-6	-63.366	0.517	-32.954	1.102e-3	-53.422
		0.931	-2.581	486.9e-6	-78.312	0.049	31.173
69.85	0.049	25.392	759.8e-6	-60.098	0.923	-2.877
		434.7e-6	-7.094	0.451	-40.132	425.2e-6	-78.519
		0.925	-2.827	391.8e-6	-29.864	0.05	22.803
89.8	0.051	17.373	417.5e-6	-54.215	0.919	-3.154
		205.8e-6	-62.553	0.394	-45.317	148.2e-6	-46.759
		0.921	-3.094	279.9e-6	-16.96	0.051	18.118
109.75	0.051	13.841	536e-6	-7.602	0.918	-3.503
		446.9e-6	-16.062	0.349	-49.344	532.3e-6	-35.566
		0.919	-3.423	163.7e-6	-76.189	0.052	14.631
129.7	0.053	10.363	208.2e-6	-18.038	0.917	-3.892
		189.2e-6	-58.822	0.309	-52.108	89.94e-6	-9.775
		0.918	-3.832	198e-6	-7.38	0.052	11.726
149.65	0.053	7.64	68.03e-6	1.814	0.916	-4.261
		305.6e-6	-37.675	0.278	-54.212	43.32e-6	41.822
		0.917	-4.161	225.1e-6	28.077	0.053	9.206
169.6	0.053	4.812	289.1e-6	-0.964	0.915	-4.631
		144.5e-6	-5.496	0.252	-55.517	156.6e-6	-1.72
		0.917	-4.561	136.5e-6	27.864	0.053	7.497
189.55	0.052	2.29	209.3e-6	0.384	0.914	-5.041
		95.19e-6	-4.814	0.229	-56.407	228e-6	38.775
		0.916	-4.971	218.3e-6	66.262	0.053	5.944
209.5	0.053	-0.648	145.7e-6	3.822	0.915	-5.451
		175.7e-6	2.731	0.211	-56.916	204.2e-6	97.016
		0.915	-5.391	160.9e-6	52.61	0.054	4.076
229.45	0.053	-2.715	245.9e-6	9.2	0.914	-5.881
		121.4e-6	-8.093	0.195	-57.227	175.9e-6	59.58
		0.916	-5.821	245e-6	77.853	0.054	2.651
249.4	0.054	-5.426	230.1e-6	-35.048	0.913	-6.371
		174.3e-6	-19.5	0.181	-57.051	256.8e-6	82.897
		0.915	-6.241	264.2e-6	100.175	0.054	1.467
269.35	0.054	-7.119	205.6e-6	-1.848	0.914	-6.762
		128.8e-6	95.718	0.17	-57.157	334.6e-6	72.188
		0.915	-6.742	447.4e-6	72.877	0.055	6.551e-3
289.3	0.055	-8.567	207.8e-6	50.303	0.913	-7.232
		110.1e-6	9.538	0.158	-56.552	269e-6	72.944
		0.915	-7.152	221.7e-6	78.787	0.054	-0.78
309.25	0.055	-9.932	213.6e-6	16.865	0.913	-7.662
		170.3e-6	5.62	0.148	-55.931	325.2e-6	55.737
		0.914	-7.592	368.3e-6	69.924	0.054	-1.845
329.2	0.056	-12.229	212.1e-6	2.091	0.912	-8.082
		102.1e-6	49.267	0.14	-55.487	352.2e-6	85.709
		0.914	-8.052	360.8e-6	77.037	0.055	-2.763
349.15	0.056	-14.307	217.8e-6	6.621	0.913	-8.523
		160.6e-6	42.542	0.134	-54.819	410.2e-6	79.205
		0.914	-8.503	292.4e-6	75.959	0.055	-3.692
369.1	0.056	-16.414	191.9e-6	40.88	0.913	-9.003
		195.2e-6	26.821	0.128	-54.273	315.3e-6	91.706
		0.915	-8.933	339.4e-6	89.414	0.055	-4.644
389.05	0.056	-18.356	192.4e-6	71.906	0.913	-9.454
		157.6e-6	47.506	0.122	-53.978	471.1e-6	82.646
		0.914	-9.394	392.8e-6	93.293	0.055	-6.073
409	0.056	-19.767	197.4e-6	41.198	0.913	-9.894
		236.7e-6	30.811	0.118	-52.935	420.9e-6	91.847
		0.914	-9.854	451.9e-6	79.658	0.056	-6.78
428.95	0.057	-21.472	207.7e-6	78.158	0.913	-10.375
		197.6e-6	41.549	0.111	-52.187	415e-6	95.447
		0.914	-10.325	381.5e-6	93.623	0.056	-7.842
448.9	0.057	-22.454	175.7e-6	53.543	0.912	-10.826
		244.3e-6	56.955	0.107	-50.823	510e-6	90.41
		0.913	-10.776	428.5e-6	88.246	0.056	-8.336
468.85	0.058	-23.157	226.3e-6	40.532	0.912	-11.266
		188.3e-6	47.395	0.103	-49.847	475.3e-6	92.422
		0.914	-11.236	435.6e-6	90.056	0.057	-8.971
488.8	0.057	-24.51	239.9e-6	55.683	0.912	-11.757
		177.7e-6	31.866	0.099	-48.518	487.8e-6	88.359
		0.913	-11.697	519.2e-6	88.008	0.057	-9.657
508.75	0.058	-25.553	233e-6	59.012	0.912	-12.197
		153.3e-6	69.535	0.095	-47.557	524.3e-6	94.091
		0.913	-12.187	564.6e-6	91.289	0.057	-10.625
528.7	0.058	-27.47	200.9e-6	52.204	0.911	-12.688
		171e-6	45.086	0.092	-46.589	557.6e-6	93.734
		0.913	-12.608	545e-6	92.512	0.057	-11.538
548.65	0.06	-29.161	196.5e-6	58.282	0.911	-13.129
		161.6e-6	72.88	0.088	-45.697	528.6e-6	93.989
		0.914	-13.119	584.3e-6	97.294	0.057	-12.528
568.6	0.06	-30.639	261.5e-6	64.849	0.911	-13.579
		240e-6	68.553	0.087	-44.168	609.5e-6	98.813
		0.912	-13.489	609.5e-6	99.928	0.058	-13.115
588.55	0.059	-32.201	221.3e-6	78.564	0.912	-14.05
		272.5e-6	59.654	0.085	-42.899	669.5e-6	98.288
		0.912	-13.99	659.4e-6	101.384	0.058	-14.03
608.5	0.059	-34.069	184e-6	63.623	0.911	-14.501
		192.8e-6	57.128	0.083	-41.209	647.3e-6	101.953
		0.912	-14.441	673.9e-6	100.38	0.058	-14.573
628.45	0.06	-35.362	276.5e-6	62.929	0.912	-15.002
		262.8e-6	58.508	0.08	-40.548	676.9e-6	104.453
		0.913	-14.932	690.3e-6	98.345	0.059	-15.864
648.4	0.059	-36.565	240.9e-6	65.564	0.911	-15.453
		260.3e-6	60.772	0.079	-39.09	712.4e-6	100.203
		0.912	-15.343	722.2e-6	101.378	0.059	-16.576
668.35	0.06	-37.454	252.4e-6	74.432	0.911	-15.964
		268.9e-6	76.925	0.076	-37.709	732e-6	101.355
		0.912	-15.864	698.2e-6	99.305	0.059	-17.767
688.3	0.061	-38.995	292e-6	69.912	0.911	-16.374
		251.4e-6	72.964	0.075	-35.786	720.7e-6	103.74
		0.912	-16.304	704.4e-6	105.833	0.059	-18.286
708.25	0.061	-40.393	289.6e-6	78.74	0.91	-16.845
		257.5e-6	75.096	0.073	-35.194	779.7e-6	102.577
		0.912	-16.775	816.5e-6	102.77	0.06	-19.491
728.2	0.061	-41.926	247.5e-6	75.539	0.911	-17.306
		287.9e-6	77.27	0.073	-33.988	829.4e-6	102.531
		0.912	-17.256	773.1e-6	106.416	0.06	-20.284
748.15	0.062	-43.615	305.8e-6	79.992	0.911	-17.777
		332.6e-6	77.412	0.072	-33.022	886.3e-6	109.771
		0.912	-17.707	886.2e-6	105.459	0.061	-21.052
768.1	0.062	-45.306	294.9e-6	70.685	0.91	-18.227
		277e-6	81.876	0.071	-31.747	853.1e-6	107.503
		0.912	-18.187	823.2e-6	107.681	0.06	-22.214
788.05	0.063	-46.626	373e-6	84.372	0.911	-18.668
		378e-6	67.929	0.069	-30.43	869.8e-6	105.457
		0.912	-18.648	898.3e-6	106.237	0.06	-23.214
808	0.064	-47.981	316.9e-6	70.92	0.91	-19.169
		314.6e-6	65.107	0.068	-29.131	902.6e-6	106.763
		0.912	-19.109	911e-6	108.197	0.061	-24.183
827.95	0.064	-49.462	333.3e-6	85.302	0.91	-19.651
		359.8e-6	76.296	0.068	-27.609	922.8e-6	109.591
		0.912	-19.591	993.3e-6	107.874	0.061	-24.704
847.9	0.063	-50.539	388.2e-6	91.094	0.91	-20.111
		338.1e-6	81.054	0.067	-26.064	1.024e-3	112.413
		0.911	-20.051	954.7e-6	111.212	0.061	-25.526
867.85	0.064	-51.492	408.8e-6	96.051	0.91	-20.572
		384.6e-6	88.541	0.065	-24.724	978.7e-6	111.754
		0.912	-20.512	945.6e-6	114.828	0.061	-26.576
887.8	0.064	-52.443	391.8e-6	74.505	0.91	-21.033
		395e-6	93.636	0.064	-23.143	965.3e-6	112.776
		0.911	-20.983	1.013e-3	111.888	0.061	-27.407
907.75	0.065	-53.65	437e-6	88.585	0.91	-21.503
		427.6e-6	86.869	0.062	-21.543	1.068e-3	113.008
		0.912	-21.483	1.063e-3	113.639	0.061	-28.528
927.7	0.066	-55.565	402.7e-6	93.764	0.91	-21.974
		388.1e-6	88.009	0.062	-20.456	1.114e-3	113.265
		0.911	-21.914	1.141e-3	115.898	0.061	-29.337
947.65	0.066	-55.819	382.5e-6	86.692	0.909	-22.445
		407.8e-6	87.085	0.063	-18.873	1.162e-3	116.068
		0.911	-22.375	1.172e-3	115.011	0.062	-29.663
967.6	0.066	-58.014	462.6e-6	91.1	0.91	-22.906
		424.7e-6	95.599	0.063	-17.852	1.178e-3	116.852
		0.911	-22.796	1.142e-3	115.446	0.062	-30.657
987.55	0.067	-59.551	478e-6	96.875	0.909	-23.377
		446.5e-6	90.994	0.062	-16.372	1.19e-3	118.73
		0.911	-23.297	1.225e-3	116.868	0.062	-31.85
1007.5	0.068	-60.501	445.8e-6	92.914	0.909	-23.828
		517.6e-6	88.397	0.062	-15.025	1.163e-3	115.893
		0.91	-23.788	1.239e-3	117.072	0.063	-32.435
1027.45	0.068	-61.442	501.6e-6	94.883	0.91	-24.279
		502.6e-6	94.084	0.062	-13.561	1.242e-3	121.271
		0.91	-24.249	1.234e-3	118.854	0.063	-33.434
1047.4	0.068	-63.09	489.2e-6	97.484	0.909	-24.779
		584.2e-6	96.719	0.061	-12.644	1.238e-3	117.129
		0.911	-24.759	1.25e-3	119.872	0.064	-34.914
1067.35	0.068	-64.066	508.2e-6	99.987	0.909	-25.25
		496e-6	97.586	0.06	-11.478	1.275e-3	120.942
		0.91	-25.24	1.265e-3	118.297	0.063	-35.982
1087.3	0.069	-65.125	546.8e-6	92.042	0.909	-25.721
		529.9e-6	105.961	0.06	-9.467	1.357e-3	118.513
		0.909	-25.621	1.357e-3	119.148	0.063	-36.71
1107.25	0.07	-66.414	545.1e-6	97.416	0.908	-26.201
		518.3e-6	100.405	0.06	-8.308	1.337e-3	121.004
		0.91	-26.101	1.345e-3	117.963	0.063	-37.534
1127.2	0.07	-67.288	554.4e-6	95.905	0.908	-26.642
		605.8e-6	101.354	0.06	-7.404	1.404e-3	123.521
		0.91	-26.602	1.337e-3	120.43	0.063	-38.163
1147.15	0.072	-68.28	585.4e-6	102.444	0.909	-27.122
		603.3e-6	98.86	0.059	-6.966	1.503e-3	123.168
		0.91	-27.072	1.411e-3	123.64	0.064	-39.736
1167.1	0.072	-69.238	617.8e-6	98.001	0.908	-27.593
		647.5e-6	100.663	0.059	-5.805	1.441e-3	123.714
		0.909	-27.523	1.451e-3	124.362	0.064	-40.712
1187.05	0.072	-70.404	663.8e-6	96.387	0.907	-28.073
		615.7e-6	99.966	0.059	-4.053	1.443e-3	124.122
		0.909	-28.013	1.433e-3	123.066	0.064	-41.968
1207	0.073	-71.798	741.2e-6	102.29	0.907	-28.554
		684.2e-6	98.902	0.059	-3.024	1.517e-3	122.939
		0.909	-28.544	1.5e-3	126.445	0.064	-42.884
1226.95	0.074	-72.627	715.5e-6	97.512	0.908	-29.035
		716.6e-6	100.63	0.061	-2.473	1.614e-3	124.998
		0.909	-28.945	1.555e-3	124.833	0.065	-42.553
1246.9	0.074	-73.017	745.1e-6	103.354	0.907	-29.475
		754.2e-6	97.017	0.06	-1.131	1.561e-3	125.628
		0.909	-29.365	1.601e-3	125.626	0.065	-43.301
1266.85	0.074	-74.441	747.6e-6	100.191	0.908	-29.976
		753.6e-6	96.997	0.06	1.043	1.684e-3	128.217
		0.909	-29.896	1.661e-3	128.899	0.065	-44.533
1286.8	0.074	-75.359	836.2e-6	93.065	0.907	-30.466
		788.9e-6	96.046	0.059	2.037	1.633e-3	126.394
		0.909	-30.376	1.619e-3	127.007	0.065	-45.873
1306.75	0.075	-76.377	781.6e-6	96.74	0.907	-30.896
		846e-6	96.308	0.059	2.741	1.686e-3	128.893
		0.908	-30.806	1.638e-3	130.325	0.065	-46.927
1326.7	0.077	-77.092	847.1e-6	94.185	0.906	-31.347
		829e-6	96.047	0.059	3.218	1.755e-3	130.326
		0.909	-31.307	1.749e-3	130.783	0.066	-47.424
1346.65	0.078	-77.865	900.2e-6	95.039	0.907	-31.807
		874.8e-6	93.104	0.06	4.311	1.75e-3	129.986
		0.908	-31.737	1.752e-3	131.934	0.066	-47.484
1366.6	0.079	-78.805	923.7e-6	95.124	0.907	-32.288
		925.5e-6	94.544	0.06	5.791	1.812e-3	131.604
		0.907	-32.238	1.919e-3	130.689	0.066	-49.597
1386.55	0.079	-79.931	903.7e-6	95.646	0.907	-32.748
		954.8e-6	92.738	0.06	6.968	1.952e-3	130.405
		0.908	-32.678	1.914e-3	132.039	0.066	-50.542
1406.5	0.08	-80.92	1.005e-3	90.426	0.906	-33.229
		974.6e-6	91.371	0.061	8.344	1.96e-3	131.926
		0.908	-33.169	1.922e-3	131.751	0.066	-51.224
1426.45	0.082	-81.228	1.007e-3	90.679	0.907	-33.68
		1.038e-3	90.232	0.061	9.741	2.012e-3	131.679
		0.907	-33.61	1.984e-3	131.191	0.067	-51.789
1446.4	0.082	-82.048	1.019e-3	90.034	0.906	-34.181
		1.017e-3	89.137	0.062	10.815	1.983e-3	130.792
		0.908	-34.121	1.978e-3	131.352	0.066	-52.661
1466.35	0.082	-83.111	991.6e-6	84.741	0.906	-34.651
		986.2e-6	86.967	0.061	11.887	2.095e-3	134.424
		0.907	-34.581	2.017e-3	132.471	0.067	-54.161
1486.3	0.082	-83.919	1.004e-3	84.977	0.906	-35.061
		954e-6	88.039	0.061	12.221	2.083e-3	134.764
		0.907	-35.001	2.033e-3	133.717	0.068	-55.246
1506.25	0.083	-84.446	987.2e-6	83.619	0.906	-35.562
		961.7e-6	88.307	0.061	12.855	2.056e-3	134.18
		0.907	-35.512	2.09e-3	135.816	0.068	-56.55
1526.2	0.084	-85.567	1.032e-3	85.058	0.906	-36.031
		996.2e-6	88.208	0.061	14.249	2.106e-3	136.802
		0.907	-35.981	2.137e-3	136.629	0.067	-57.78
1546.15	0.085	-86.318	992.5e-6	84.878	0.905	-36.521
		1.025e-3	86.93	0.062	14.825	2.192e-3	138.519
		0.906	-36.441	2.159e-3	137.62	0.068	-58.291
1566.1	0.086	-86.7	1.061e-3	85.991	0.905	-36.951
		999.5e-6	83.437	0.062	15.772	2.314e-3	139.117
		0.907	-36.901	2.317e-3	139.394	0.068	-59.782
1586.05	0.086	-87.225	1.067e-3	82.885	0.905	-37.472
		1.138e-3	82.451	0.063	17.67	2.335e-3	139.645
		0.907	-37.412	2.293e-3	138.848	0.067	-61.148
1606	0.087	-87.706	1.098e-3	80.006	0.906	-37.943
		1.109e-3	82.522	0.063	19.062	2.353e-3	141.195
		0.906	-37.903	2.38e-3	140.756	0.067	-62.214
1625.95	0.088	-88.557	1.077e-3	75.215	0.906	-38.432
		1.121e-3	78.097	0.064	19.943	2.441e-3	143.502
		0.906	-38.372	2.421e-3	143.145	0.067	-62.714
1645.9	0.088	-89.095	1.103e-3	73.299	0.905	-38.891
		1.107e-3	74.664	0.064	20.356	2.725e-3	143.345
		0.907	-38.841	2.703e-3	144.375	0.069	-63.388
1665.85	0.091	-89.82	956.1e-6	73.606	0.905	-39.352
		982.9e-6	76.038	0.063	22.197	2.666e-3	142.622
		0.907	-39.302	2.694e-3	141.074	0.068	-66.069
1685.8	0.09	-90.604	971.9e-6	77.267	0.905	-39.832
		1.046e-3	79.2	0.063	23.237	2.754e-3	143.418
		0.906	-39.772	2.785e-3	145.163	0.068	-67.429
1705.75	0.091	-90.674	1.047e-3	66.488	0.906	-40.352
		1.071e-3	64.42	0.064	23.364	2.956e-3	145.735
		0.906	-40.302	2.902e-3	145.124	0.069	-67.767
1725.7	0.093	-92.293	737.7e-6	78.705	0.904	-40.823
		748.1e-6	75.525	0.064	25.062	3.242e-3	142.409
		0.906	-40.723	3.291e-3	141.18	0.069	-70.073
1745.65	0.093	-93.83	896.1e-6	87.001	0.905	-41.223
		916.3e-6	91.161	0.065	26.395	3.175e-3	140.735
		0.907	-41.153	3.102e-3	139.785	0.068	-72.278
1765.6	0.093	-94.076	1.096e-3	85.331	0.906	-41.744
		1.089e-3	88.087	0.065	27.793	3.15e-3	141.666
		0.908	-41.684	3.16e-3	141.965	0.068	-74.256
1785.55	0.094	-93.923	1.196e-3	80.184	0.906	-42.316
		1.213e-3	83.851	0.066	30.271	3.345e-3	143.512
		0.907	-42.256	3.334e-3	143.493	0.066	-77.059
1805.5	0.095	-94.047	1.218e-3	74.124	0.904	-42.816
		1.159e-3	73.858	0.068	31.182	3.71e-3	141.892
		0.905	-42.756	3.689e-3	141.679	0.066	-77.361
1825.45	0.096	-94.782	1.078e-3	78.085	0.904	-43.237
		1.1e-3	77.011	0.069	32.921	3.668e-3	135.977
		0.905	-43.167	3.71e-3	136.388	0.065	-80.265
1845.4	0.097	-95.084	1.223e-3	77.668	0.905	-43.788
		1.181e-3	75.152	0.071	33.195	3.511e-3	138.243
		0.906	-43.678	3.511e-3	137.48	0.063	-80.878
1865.35	0.097	-95.265	1.225e-3	68.911	0.903	-44.318
		1.239e-3	70.283	0.072	34.569	3.743e-3	139.497
		0.904	-44.258	3.866e-3	139.16	0.06	-82.439
1885.3	0.099	-95.104	1.208e-3	61.831	0.902	-44.818
		1.189e-3	59.947	0.073	34.635	4.034e-3	136.518
		0.905	-44.798	3.992e-3	136.346	0.06	-82.285
1905.25	0.101	-94.683	1.032e-3	56.143	0.9	-45.279
		1.077e-3	51.311	0.074	33.894	3.979e-3	131.542
		0.903	-45.209	4.039e-3	130.911	0.061	-81.332
1925.2	0.103	-95.826	765.8e-6	62.475	0.9	-45.649
		769.3e-6	64.758	0.074	34.481	3.75e-3	131.039
		0.903	-45.629	3.78e-3	130.61	0.061	-84.351
1945.15	0.103	-96.371	900.5e-6	61.036	0.901	-46.179
		900.8e-6	64.355	0.075	34.665	3.707e-3	132.456
		0.903	-46.099	3.664e-3	132.957	0.061	-84.216
1965.1	0.105	-96.567	767.6e-6	57.594	0.899	-46.679
		800.5e-6	58.094	0.075	35.612	3.795e-3	131.494
		0.901	-46.629	3.839e-3	132.545	0.061	-85.845
1985.05	0.106	-97.367	629e-6	60.537	0.899	-47.119
		605.7e-6	57.37	0.077	35.932	3.815e-3	130.257
		0.9	-47.039	3.86e-3	130.256	0.06	-85.922
2005	0.108	-98.203	546.9e-6	74.857	0.899	-47.509
		495.8e-6	63.162	0.077	36.837	3.701e-3	130.577
		0.9	-47.479	3.675e-3	130.883	0.06	-88.293
2024.95	0.109	-99.147	622.2e-6	100.606	0.9	-47.999
		559.1e-6	92.167	0.078	37.321	3.611e-3	132.531
		0.901	-47.959	3.661e-3	133.318	0.06	-89.247
2044.9	0.11	-99.339	862.5e-6	91.051	0.899	-48.508
		792.7e-6	95.499	0.078	37.588	3.718e-3	134.35
		0.9	-48.528	3.735e-3	134.338	0.058	-89.118
2064.85	0.112	-99.466	749.8e-6	87.41	0.899	-48.999
		739e-6	91.116	0.079	38.354	3.936e-3	135.065
		0.9	-48.969	3.864e-3	133.714	0.058	-90.138
2084.8	0.113	-99.92	754.6e-6	102.554	0.898	-49.488
		843.6e-6	99.724	0.079	39.208	3.891e-3	135.401
		0.9	-49.378	3.821e-3	134.614	0.059	-92.747
2104.75	0.113	-99.618	873.1e-6	94.532	0.898	-49.945
		874.4e-6	97.499	0.079	39.201	3.864e-3	137.508
		0.901	-49.905	3.922e-3	137.479	0.058	-92.755
2124.7	0.112	-99.392	1.012e-3	90.635	0.9	-50.477
		1e-3	93.731	0.081	39.298	4.095e-3	139.553
		0.901	-50.397	4.095e-3	139.663	0.057	-92.554
2144.65	0.112	-99.603	926.9e-6	83.054	0.897	-50.942
		1.011e-3	80.476	0.081	39.986	4.282e-3	138.908
		0.9	-50.922	4.292e-3	138.54	0.058	-93.396
2164.6	0.114	-99.733	840.5e-6	84.128	0.897	-51.442
		925.1e-6	81.642	0.082	40.626	4.574e-3	137.364
		0.899	-51.422	4.506e-3	136.875	0.058	-94.197
2184.55	0.117	-100.021	860.8e-6	81.856	0.896	-51.914
		802.7e-6	87.304	0.082	41.767	4.702e-3	136.127
		0.897	-51.884	4.632e-3	136.486	0.059	-96.321
2204.5	0.118	-100.567	856.1e-6	90.493	0.895	-52.425
		870.9e-6	89.626	0.083	42.549	4.751e-3	134.102
		0.897	-52.365	4.751e-3	134.253	0.058	-97.185
2224.45	0.12	-101.217	904.1e-6	85.171	0.894	-52.877
		856.1e-6	85.567	0.084	42.86	4.809e-3	131.839
		0.896	-52.847	4.76e-3	131.047	0.058	-97.874
2244.4	0.121	-101.403	892.9e-6	86.142	0.893	-53.258
		927.6e-6	87.266	0.084	43.405	4.739e-3	130.058
		0.895	-53.288	4.668e-3	129.319	0.059	-100.039
2264.35	0.124	-50.822	818e-6	81.546	0.894	-53.739
		1.025e-3	84.268	0.084	-7.714	4.718e-3	78.477
		0.895	-53.719	4.647e-3	77.752	0.06	-150.992
2284.3	0.125	-50.596	844.6e-6	85.901	0.894	-54.187
		797.1e-6	81.908	0.084	-7.798	4.674e-3	76.748
		0.895	-54.137	4.701e-3	77.897	0.061	-151.863
2304.25	0.127	-51.653	849.1e-6	80.935	0.893	-54.63
		871.3e-6	83.73	0.084	-7.047	4.71e-3	78.893
		0.895	-54.56	4.581e-3	78.543	0.062	-154.295
2324.2	0.13	-52.385	707.8e-6	76.57	0.894	-55.052
		650.4e-6	73.41	0.085	-6.793	4.726e-3	79.262
		0.896	-55.032	4.699e-3	79.091	0.063	-155.872
2344.15	0.132	-52.83	579.3e-6	85.886	0.894	-55.523
		562.6e-6	79.501	0.085	-6.01	4.825e-3	78.43
		0.895	-55.493	4.71e-3	77.7	0.063	-158.251
2364.1	0.135	-53.444	494.3e-6	98.092	0.895	-55.973
		455.1e-6	88.018	0.086	-5.03	4.818e-3	76.925
		0.896	-55.953	4.758e-3	76.575	0.063	-160.921
2384.05	0.137	-54.795	462.5e-6	115.397	0.894	-56.434
		510.1e-6	120.036	0.087	-4.426	4.694e-3	76.013
		0.897	-56.434	4.742e-3	75.613	0.062	-162.255
2404	0.139	-55.445	625.7e-6	121.343	0.894	-56.955
		589e-6	117.154	0.087	-3.657	4.629e-3	76.5
		0.895	-56.915	4.629e-3	76.431	0.061	-164.313
2423.95	0.141	-56.454	755.7e-6	120.248	0.894	-57.456
		681.9e-6	124.136	0.088	-2.679	4.614e-3	75.624
		0.895	-57.426	4.668e-3	77.871	0.061	-166.851
2443.9	0.142	-57.274	795.4e-6	123.361	0.894	-57.936
		796.5e-6	122.459	0.087	-2.214	4.637e-3	77.465
		0.896	-57.946	4.658e-3	76.605	0.062	-168.007
2463.85	0.142	-57.736	826.7e-6	125.727	0.894	-58.426
		879.5e-6	128.091	0.088	-1.565	4.587e-3	77.882
		0.896	-58.396	4.656e-3	78.122	0.061	-170.212
2483.8	0.142	-58.379	1.06e-3	122.693	0.894	-58.916
		1.044e-3	121.812	0.089	-0.788	4.625e-3	78.537
		0.896	-58.916	4.63e-3	78.177	0.063	-172.615
2503.75	0.142	-59.198	988.2e-6	120.179	0.894	-59.467
		1.019e-3	117.26	0.089	-0.667	4.623e-3	79.015
		0.896	-59.417	4.693e-3	78.068	0.063	-173.435
2523.7	0.143	-60.496	1.08e-3	124.847	0.893	-59.896
		1.058e-3	121.331	0.091	0.068	4.651e-3	78.858
		0.895	-59.896	4.754e-3	79.11	0.062	-175.73
2543.65	0.143	-60.447	1.15e-3	122.218	0.894	-60.427
		1.077e-3	119.146	0.092	1.194	4.683e-3	79.033
		0.895	-60.387	4.804e-3	78.374	0.063	-178.504
2563.6	0.144	-60.743	1.206e-3	122.208	0.893	-60.937
		1.185e-3	118.005	0.092	2.121	4.79e-3	78.619
		0.894	-60.907	4.746e-3	79.419	0.063	179.509
2583.55	0.145	-61.119	1.226e-3	117.857	0.894	-61.417
		1.268e-3	119.393	0.094	3.045	4.75e-3	79.442
		0.895	-61.407	4.723e-3	79.042	0.063	177.038
2603.5	0.146	-62.198	1.182e-3	119.135	0.893	-61.916
		1.236e-3	119.13	0.096	3.872	4.847e-3	79.898
		0.894	-61.866	4.819e-3	79.67	0.062	174.158
2623.45	0.146	-62.596	1.295e-3	120.791	0.893	-62.416
		1.353e-3	115.935	0.096	4.34	4.831e-3	79.682
		0.894	-62.406	4.787e-3	79.575	0.063	172.914
2643.4	0.146	-63.367	1.241e-3	117.383	0.892	-62.955
		1.261e-3	115.996	0.096	4.773	4.804e-3	79.757
		0.894	-62.905	4.865e-3	79.668	0.063	171.179
2663.35	0.147	-64.272	1.319e-3	116.312	0.891	-63.394
		1.31e-3	116.738	0.097	5.331	4.855e-3	80.51
