!Hittite Microwave Corporation								
!12 Elizabeth Drive								
!Chelmsford, MA 01824							
!Tel: 978-250-3343								
!Fax: 978-250-3373								
!Device: HMC310MS8G, BLUETOOTH and 2.4 GHz WLAN Receiver in 8-lead MSOP package with ground slug								
!Misc: VDD=3 11.5MA RX , DEEMBEDDED TO THE PINS OF THE DEVICE								
!
# MHZ S MA R 50

1000 0.859 59.027 6.55 56.293 4.027e-3 -127.929 0.422 87.457
1030 0.853 60.565 6.449 57.187 3.821e-3 -150.542 0.419 90.609
1060 0.843 62.427 6.404 58.585 4.181e-3 168.344 0.417 93.977
1090 0.843 63.951 6.355 59.837 2.44e-3 -122.372 0.423 96.854
1120 0.827 65.585 6.374 60.838 6.304e-3 -171.23 0.415 99.464
1150 0.823 66.924 6.333 61.215 5.997e-3 -155.275 0.416 103.166
1180 0.817 68.475 6.263 61.903 6.336e-3 -138.554 0.415 105.652
1210 0.813 70.367 6.152 62.638 5.245e-3 -170.592 0.417 108.906
1240 0.809 72.026 6.063 63.987 3.817e-3 -169.523 0.416 111.963
1270 0.802 73.696 5.983 65.459 2.791e-3 -149.327 0.417 115.039
1300 0.793 75.336 5.946 66.833 3.769e-3 -128.807 0.419 116.957
1330 0.79 77.033 5.98 67.609 4.237e-3 -135.015 0.415 119.542
1360 0.784 78.642 5.934 68.619 2.78e-3 -152.901 0.421 123.107
1390 0.78 79.866 5.838 69.029 6.362e-3 -92.642 0.42 124.814
1420 0.77 81.426 5.709 69.714 6.596e-3 -115.354 0.414 127.917
1450 0.767 82.952 5.613 71.333 5.295e-3 -80.631 0.419 130.694
1480 0.758 84.458 5.58 72.888 5.871e-3 -124.569 0.415 133.569
1510 0.753 86.073 5.564 74.042 5.567e-3 -106.583 0.416 135.691
1540 0.75 87.638 5.545 74.783 5.44e-3 -93.227 0.418 137.95
1570 0.739 88.787 5.465 75.364 7.375e-3 -104.179 0.414 140.847
1600 0.734 90.597 5.375 76.26 8.809e-3 -106.443 0.414 143.481
1630 0.73 91.953 5.283 77.584 6.657e-3 -86.073 0.417 145.941
1660 0.727 93.793 5.219 79.04 4.912e-3 -74.678 0.42 148.26
1690 0.717 94.806 5.207 80.309 9.256e-3 -90.583 0.411 149.991
1720 0.714 96.726 5.19 81.087 6.682e-3 -88.331 0.415 153.427
1750 0.699 98.624 5.11 81.65 0.01 -108.147 0.407 155.784
1780 0.702 99.371 4.988 82.854 9.253e-3 -74.478 0.418 157.776
1810 0.694 101.425 4.947 84.585 8.968e-3 -96.146 0.411 159.627
1840 0.692 102.891 4.913 85.95 6.857e-3 -76.586 0.417 162.038
1870 0.689 103.889 4.897 86.769 7.603e-3 -65.761 0.413 164.528
1900 0.681 105.865 4.834 87.534 6.605e-3 -82.68 0.414 167.604
1930 0.678 107.377 4.752 88.805 7.367e-3 -74.413 0.413 169.429
1960 0.677 108.55 4.663 90.133 9.309e-3 -43.289 0.412 170.77
1990 0.672 110.126 4.604 91.555 8.512e-3 -44.489 0.411 173.228
2020 0.667 112.044 4.58 92.807 7.001e-3 -51.13 0.412 176.076
2050 0.665 113.45 4.557 94.044 8.557e-3 -51.514 0.412 178.575
2080 0.659 114.741 4.511 94.707 8.646e-3 -43.991 0.411 -179.598
2110 0.648 116.243 4.423 95.362 0.011 -62.872 0.405 -177.28
2140 0.643 118.231 4.323 96.924 8.967e-3 -73.073 0.406 -174.797
2170 0.644 119.07 4.289 98.987 0.012 -42.698 0.402 -173.957
2200 0.638 120.807 4.284 100.256 0.01 -38.504 0.403 -171.44
2230 0.635 122.517 4.258 100.997 8.266e-3 -32.947 0.409 -169.154
2260 0.63 123.723 4.193 101.715 8.677e-3 -32.629 0.409 -167.095
2290 0.624 124.852 4.122 102.933 0.011 -36.141 0.403 -165.022
2320 0.623 126.301 4.065 104.585 0.013 -28.217 0.398 -163.181
2350 0.62 128.161 4.024 105.912 8.984e-3 -30.515 0.399 -160.645
2380 0.619 129.476 3.98 107.488 0.011 -16.74 0.4 -159.152
2410 0.613 131.214 3.948 108.793 9.974e-3 -20.261 0.398 -156.698
2440 0.609 132.504 3.923 109.786 8.678e-3 -22.028 0.399 -154.492
2470 0.607 133.849 3.87 110.79 8.917e-3 -4.552 0.399 -152.461
2500 0.606 135.347 3.808 112.123 9.412e-3 -10.13 0.396 -150.42
2530 0.597 136.915 3.756 113.655 0.012 -18.623 0.39 -148.295
2560 0.598 138.344 3.72 115.018 0.012 -5.676 0.389 -146.867
2590 0.596 139.851 3.681 116.269 0.012 -4.387 0.386 -144.909
2620 0.594 141.073 3.637 117.968 0.013 4.256 0.385 -143.199
2650 0.589 142.522 3.612 119.681 0.014 7.787 0.382 -141.58
2680 0.587 144.147 3.606 120.758 0.013 12.585 0.38 -139.145
2710 0.584 145.988 3.555 121.137 9.589e-3 7.672 0.379 -136.156
2740 0.581 147.459 3.474 122.19 0.011 4.221 0.376 -134.118
2770 0.578 148.959 3.413 124.361 0.014 10.327 0.369 -132.575
2800 0.575 150.565 3.39 126.426 0.012 10.028 0.367 -130.51
2830 0.567 151.698 3.386 127.731 0.012 4.821 0.367 -128.506
2860 0.565 152.96 3.374 129.054 0.013 16.061 0.362 -126.723
2890 0.564 154.271 3.351 130.171 0.015 20.935 0.359 -124.323
2920 0.562 155.68 3.308 130.862 0.015 18.167 0.357 -122.372
2950 0.562 157.608 3.228 132.082 0.01 26.68 0.354 -120.315
2980 0.56 158.971 3.143 134.484 0.014 29.935 0.346 -118.043
3010 0.559 160.095 3.143 137.303 0.018 33.702 0.345 -116.822
3040 0.557 161.54 3.203 139.153 0.016 39.268 0.345 -115.456
3070 0.553 163.423 3.211 139.396 0.015 35.22 0.341 -112.881
3100 0.551 165.129 3.143 139.676 0.014 37.878 0.337 -109.786
3130 0.551 166.507 3.06 141.144 0.014 43.896 0.336 -107.422
3160 0.552 167.9 3.002 143.357 0.016 49.085 0.334 -105.631
3190 0.55 169.586 2.97 145.514 0.015 44.704 0.329 -102.388
3220 0.546 171.442 2.984 147.637 0.014 48.444 0.325 -100.324
3250 0.542 172.597 3.022 149.087 0.015 48.609 0.322 -99.028
3280 0.538 173.901 3.03 149.37 0.015 40.788 0.315 -96.363
3310 0.54 175.409 2.96 149.696 0.014 56.625 0.318 -94.132
3340 0.542 176.476 2.861 151.531 0.016 63.065 0.319 -92.02
3370 0.538 178.086 2.802 154.581 0.017 55.463 0.315 -89.898
3400 0.534 179.742 2.84 157.045 0.019 58.455 0.31 -88.172
3430 0.535 -178.677 2.88 157.974 0.021 62.633 0.304 -86.355
3460 0.534 -177.226 2.85 158.321 0.021 70.104 0.303 -83.711
3490 0.528 -175.909 2.796 159.516 0.022 73.72 0.303 -82.618
3520 0.53 -174.43 2.744 161.436 0.024 78.544 0.302 -80.758
3550 0.528 -172.857 2.709 163.421 0.022 76.954 0.302 -77.604
3580 0.528 -171.061 2.682 165.162 0.023 80.652 0.298 -75.031
3610 0.527 -169.499 2.669 166.794 0.023 83.401 0.294 -72.404
3640 0.526 -167.796 2.675 168.429 0.023 86.377 0.29 -70.028
3670 0.522 -166.135 2.673 169.642 0.02 86.073 0.285 -68.37
3700 0.52 -164.868 2.633 170.676 0.021 85.286 0.284 -66.342
3730 0.517 -163.274 2.59 172.367 0.022 88.999 0.283 -64.058
3760 0.52 -161.275 2.566 174.305 0.02 96.876 0.282 -61.247
3790 0.522 -160.408 2.554 175.796 0.023 94.455 0.28 -59.322
3820 0.521 -159.015 2.523 177.227 0.027 99.662 0.278 -57.457
3850 0.519 -157.785 2.491 179.337 0.029 102.016 0.27 -55.573
3880 0.515 -155.855 2.5 -178.824 0.025 100.495 0.263 -53.199
3910 0.514 -154.055 2.501 -177.73 0.025 101.264 0.265 -51.259
3940 0.514 -152.398 2.468 -176.854 0.023 118.559 0.26 -49.137
3970 0.517 -151.048 2.407 -175.315 0.024 116.951 0.259 -46.559
4000 0.518 -149.877 2.374 -172.886 0.028 115.08 0.255 -44.863
