!Hittite Microwave Corporation								
!12 Elizabeth Drive								
!Chelmsford, MA 01824								
!Tel: 978-250-3343								
!Fax: 978-250-3373								
!Device: HMC348LP3, DC-2.5 GHz GaAs MMIC SPDT Non-Reflective CATV Switch in Leadless LP3 SMT Package							
!Misc: Room Temp Vdd=+5V, RF1 on.								
!
# MHZ S MA R 50

30 0.06 -15.426 0.932 -0.097 63.53e-6 68.827
          0.932 -0.118 0.06 -15.089 28.32e-6 -34.206
          87.06e-6 31.982 53.18e-6 5.568 0.209 -5.699
59.85 0.054 -20.356 0.937 -1.339 154.5e-6 55.255
          0.936 -1.349 0.055 -20.365 69.15e-6 55.677
          102e-6 63.998 51.46e-6 57.268 0.203 -6.341
89.7 0.056 -27.447 0.934 -1.983 221.9e-6 80.01
          0.934 -2.022 0.057 -26.955 81.83e-6 25.125
          198.7e-6 72.859 35.89e-6 51.599 0.204 -7.996
119.55 0.059 -34.24 0.935 -2.615 250.9e-6 83.519
          0.934 -2.598 0.059 -33.853 86.02e-6 74.591
          247.8e-6 80.739 77.81e-6 58.044 0.205 -9.99
149.4 0.062 -40.579 0.934 -3.243 313.7e-6 75.547
          0.934 -3.233 0.063 -40.064 74.22e-6 73.196
          316.4e-6 75.859 117.2e-6 82.989 0.206 -12.005
179.25 0.066 -46.451 0.933 -3.841 389.6e-6 83.127
          0.933 -3.831 0.067 -45.682 149.2e-6 66.329
          388.3e-6 84.041 152.3e-6 82.525 0.208 -14.074
209.1 0.071 -51.946 0.932 -4.423 443.3e-6 85.72
          0.932 -4.46 0.072 -50.934 146.5e-6 88.073
          458.2e-6 81.72 149.1e-6 73.164 0.209 -16.156
238.95 0.076 -56.639 0.931 -5.038 546.9e-6 82.887
          0.931 -5.078 0.077 -55.296 165.9e-6 85.288
          494.1e-6 78.048 169.4e-6 90.282 0.211 -18.332
268.8 0.081 -60.886 0.928 -5.625 592.3e-6 81.147
          0.929 -5.656 0.083 -59.206 194.9e-6 87.35
          584.7e-6 86.721 180.4e-6 89.87 0.213 -20.459
298.65 0.086 -64.747 0.927 -6.194 660.7e-6 83.186
          0.929 -6.242 0.088 -62.702 195.2e-6 95.248
          624.1e-6 85.282 210.5e-6 88.443 0.216 -22.567
328.5 0.091 -68.071 0.93 -6.725 652.2e-6 84.165
          0.93 -6.775 0.094 -65.522 196.5e-6 86.593
          704.3e-6 87.001 240.7e-6 95.703 0.219 -24.596
358.35 0.095 -70.972 0.928 -7.422 778.6e-6 80.904
          0.929 -7.446 0.099 -68.371 260e-6 91.053
          780.5e-6 81.182 264.6e-6 95.084 0.222 -26.265
388.2 0.101 -74.183 0.924 -7.98 789.4e-6 81.776
          0.925 -8 0.105 -71.345 283.2e-6 89.382
          855.4e-6 83.487 273.9e-6 101.147 0.224 -28.291
418.05 0.106 -77.086 0.923 -8.429 883.5e-6 83.261
          0.924 -8.458 0.111 -73.828 308.7e-6 91.177
          897.1e-6 81.606 270.7e-6 94.211 0.228 -30.173
447.9 0.112 -79.987 0.924 -8.984 953.4e-6 81.679
          0.925 -8.997 0.117 -76.277 308.2e-6 90.621
          954.5e-6 81.017 275.6e-6 93.033 0.232 -32.037
477.75 0.117 -82.572 0.924 -9.572 989.1e-6 82.875
          0.925 -9.632 0.123 -78.413 360.3e-6 94.356
          1.013e-3 79.307 322.3e-6 106.197 0.236 -33.853
507.6 0.122 -84.665 0.921 -10.146 1.022e-3 81.494
          0.922 -10.157 0.128 -80.497 391.3e-6 99.995
          1.042e-3 81.541 367.2e-6 101.841 0.239 -35.413
537.45 0.126 -87.076 0.919 -10.566 1.113e-3 79.894
          0.921 -10.648 0.133 -82.182 389.1e-6 105.203
          1.133e-3 79.706 343.5e-6 101.724 0.243 -37.048
567.3 0.131 -89.459 0.919 -11.088 1.169e-3 80.96
          0.92 -11.172 0.139 -84.15 390.8e-6 106.005
          1.137e-3 81.59 397.2e-6 102.757 0.247 -38.616
597.15 0.136 -91.659 0.918 -11.678 1.21e-3 81.327
          0.919 -11.758 0.144 -86.018 393.3e-6 110.694
          1.236e-3 81.419 407.1e-6 104.971 0.252 -40.215
627 0.14 -93.516 0.917 -12.19 1.264e-3 81.193
          0.917 -12.318 0.149 -87.856 440.8e-6 109.427
          1.291e-3 81.433 459.8e-6 107.265 0.255 -41.603
656.85 0.145 -95.535 0.917 -12.667 1.285e-3 80.524
          0.916 -12.823 0.154 -89.602 471.2e-6 109.845
          1.322e-3 81.174 463.9e-6 108.826 0.259 -43.1
686.7 0.149 -97.684 0.915 -13.112 1.372e-3 80.686
          0.915 -13.257 0.158 -90.953 496.2e-6 113.901
          1.368e-3 81.272 468.1e-6 112.402 0.264 -44.475
716.55 0.153 -99.616 0.914 -13.595 1.392e-3 80.149
          0.916 -13.697 0.163 -92.537 476.5e-6 114.42
          1.382e-3 79.582 470e-6 114.045 0.268 -45.784
746.4 0.156 -101.319 0.915 -14.203 1.449e-3 80.315
          0.916 -14.353 0.166 -94.302 480.5e-6 115.895
          1.445e-3 79.012 529e-6 112.153 0.272 -47.005
776.25 0.16 -103.234 0.914 -14.872 1.502e-3 79.355
          0.914 -15.027 0.17 -95.807 525.8e-6 115.889
          1.504e-3 80.41 558.6e-6 113.472 0.276 -48.236
806.1 0.163 -104.828 0.908 -15.253 1.53e-3 79.983
          0.91 -15.344 0.174 -97.154 524.4e-6 119.748
          1.527e-3 79.973 559.6e-6 116.777 0.28 -49.447
835.95 0.165 -106.367 0.909 -15.423 1.55e-3 80.103
          0.91 -15.522 0.177 -98.356 577e-6 121.864
          1.569e-3 79.239 560.1e-6 120.052 0.283 -50.572
865.8 0.168 -108.336 0.916 -15.947 1.656e-3 79.947
          0.915 -16.136 0.18 -99.986 581.2e-6 122.147
          1.623e-3 79.322 588.8e-6 123.58 0.288 -51.684
895.65 0.169 -110.093 0.915 -16.983 1.71e-3 79.098
          0.914 -16.992 0.182 -101.341 609.6e-6 123.725
          1.652e-3 78.798 590.3e-6 124.785 0.292 -52.719
925.5 0.171 -111.56 0.907 -17.46 1.682e-3 78.63
          0.909 -17.526 0.185 -102.48 636.7e-6 125.584
          1.669e-3 77.951 637.2e-6 123.594 0.297 -53.705
955.35 0.173 -112.755 0.904 -17.483 1.689e-3 78.564
          0.905 -17.655 0.187 -103.761 649e-6 128.022
          1.705e-3 79.764 694.7e-6 124.417 0.3 -54.729
985.2 0.175 -114.677 0.911 -17.787 1.692e-3 79.448
          0.91 -17.997 0.19 -105.028 688.1e-6 133.16
          1.742e-3 78.639 713.3e-6 127.858 0.303 -55.754
1015.05 0.176 -116.501 0.915 -18.712 1.743e-3 79.905
          0.915 -18.652 0.192 -106.508 715.2e-6 134.623
          1.8e-3 79.774 764.5e-6 133.264 0.308 -56.701
1044.9 0.175 -117.735 0.911 -19.49 1.761e-3 79.27
          0.912 -19.447 0.192 -107.873 780.5e-6 133.988
          1.837e-3 78.805 793.7e-6 135.849 0.311 -57.59
1074.75 0.176 -119.074 0.906 -19.814 1.793e-3 78.704
          0.908 -19.996 0.193 -108.926 828.6e-6 135.404
          1.822e-3 78.268 804.8e-6 137.03 0.315 -58.49
1104.6 0.176 -120.743 0.905 -20.062 1.823e-3 78.678
          0.905 -20.277 0.194 -109.808 843.4e-6 138.576
          1.867e-3 78.847 867.3e-6 139.528 0.319 -59.36
1134.45 0.176 -122.128 0.909 -20.438 1.826e-3 77.912
          0.909 -20.541 0.195 -111.262 933.6e-6 140.391
          1.857e-3 78.736 928.1e-6 142.288 0.322 -60.182
1164.3 0.176 -123.863 0.912 -20.999 1.859e-3 77.84
          0.913 -21.099 0.195 -112.627 987.6e-6 142.334
          1.849e-3 77.99 972.8e-6 143.198 0.326 -60.928
1194.15 0.175 -125.479 0.914 -21.793 1.921e-3 77.623
          0.914 -21.978 0.195 -113.899 1.02e-3 146.531
          1.914e-3 76.955 1.008e-3 143.956 0.329 -61.674
1224 0.172 -126.924 0.91 -22.559 1.949e-3 76.476
          0.908 -22.713 0.193 -114.994 1.083e-3 146.444
          1.928e-3 77.282 1.047e-3 144.263 0.332 -62.425
1253.85 0.171 -128.115 0.903 -22.806 1.913e-3 77.004
          0.902 -22.969 0.193 -115.921 1.113e-3 146.143
          1.903e-3 78.194 1.139e-3 144.596 0.336 -63.143
1283.7 0.171 -129.507 0.906 -22.807 1.924e-3 78.066
          0.905 -23.007 0.193 -117.009 1.174e-3 147.836
          1.931e-3 77.788 1.213e-3 147.902 0.338 -63.848
1313.55 0.17 -131.3 0.917 -23.44 1.977e-3 77.785
          0.914 -23.594 0.192 -118.761 1.262e-3 151.147
          1.94e-3 77.591 1.281e-3 149.866 0.342 -64.574
1343.4 0.166 -133.315 0.917 -24.632 2.003e-3 77.557
          0.914 -24.707 0.188 -120.124 1.327e-3 153.271
          1.929e-3 76.851 1.357e-3 149.725 0.344 -65.24
1373.25 0.163 -134.443 0.906 -25.279 1.999e-3 76.207
          0.905 -25.319 0.186 -120.791 1.368e-3 152.793
          1.947e-3 76.55 1.402e-3 150.3 0.348 -65.86
1403.1 0.16 -135.466 0.903 -25.197 1.946e-3 76.107
          0.902 -25.306 0.185 -122.015 1.428e-3 152.148
          1.958e-3 76.817 1.429e-3 152.692 0.35 -66.543
1432.95 0.159 -137.292 0.912 -25.45 1.934e-3 77.539
          0.909 -25.615 0.183 -123.545 1.497e-3 154.644
          1.958e-3 77.488 1.541e-3 154.424 0.352 -67.142
1462.8 0.155 -139.644 0.915 -26.346 1.957e-3 76.96
          0.913 -26.506 0.179 -124.948 1.607e-3 155.706
          1.949e-3 77.282 1.627e-3 153.839 0.354 -67.769
1492.65 0.151 -140.884 0.913 -27.101 1.939e-3 75.92
          0.909 -27.23 0.176 -126.319 1.73e-3 154.978
          1.902e-3 76.05 1.669e-3 154.348 0.357 -68.416
1522.5 0.147 -142.157 0.911 -27.487 1.939e-3 76.158
          0.906 -27.522 0.173 -127.317 1.792e-3 155.644
          1.882e-3 75.872 1.758e-3 155.64 0.359 -68.946
1552.35 0.144 -143.87 0.911 -28.009 1.942e-3 76.554
          0.909 -27.955 0.169 -128.425 1.859e-3 156.278
          1.906e-3 75.804 1.866e-3 156.965 0.362 -69.504
1582.2 0.139 -145.796 0.909 -28.539 1.879e-3 75.633
          0.909 -28.587 0.165 -129.988 1.961e-3 156.633
          1.89e-3 75.116 1.942e-3 157.563 0.363 -70.16
1612.05 0.135 -147.533 0.911 -28.864 1.857e-3 75.226
          0.909 -29.035 0.161 -131.343 2.058e-3 157.258
          1.871e-3 74.781 2.005e-3 157.75 0.365 -70.683
1641.9 0.131 -149.56 0.92 -29.628 1.88e-3 76.697
          0.913 -29.696 0.156 -133.297 2.171e-3 158.36
          1.867e-3 75.028 2.124e-3 158.22 0.366 -71.22
1671.75 0.125 -152.029 0.917 -30.663 1.845e-3 76.379
          0.912 -30.562 0.15 -134.944 2.294e-3 158.688
          1.836e-3 75.93 2.266e-3 157.581 0.367 -71.847
1701.6 0.12 -153.379 0.905 -30.962 1.772e-3 73.995
          0.906 -30.933 0.145 -135.737 2.35e-3 158.159
          1.774e-3 76.472 2.369e-3 157.866 0.37 -72.331
1731.45 0.116 -154.771 0.905 -30.872 1.712e-3 74.013
          0.907 -31.027 0.141 -137.083 2.391e-3 159.145
          1.706e-3 76.847 2.412e-3 159.065 0.372 -72.752
1761.3 0.111 -157.782 0.918 -31.63 1.723e-3 76.189
          0.914 -31.709 0.136 -139.596 2.561e-3 161.558
          1.696e-3 76.635 2.508e-3 159.971 0.372 -73.316
1791.15 0.104 -161.112 0.919 -32.952 1.721e-3 75.21
          0.912 -32.858 0.128 -141.693 2.759e-3 160.429
          1.681e-3 74.704 2.662e-3 159.936 0.372 -73.909
1821 0.098 -162.388 0.908 -33.48 1.645e-3 73.214
          0.906 -33.268 0.122 -143.294 2.819e-3 158.462
          1.626e-3 74.726 2.816e-3 160.042 0.373 -74.56
1850.85 0.094 -164.8 0.908 -33.383 1.545e-3 73.379
          0.909 -33.243 0.117 -145.251 2.862e-3 159.774
          1.558e-3 74.408 2.914e-3 160.653 0.374 -75.024
1880.7 0.089 -168.579 0.917 -34.002 1.474e-3 73.587
          0.917 -33.925 0.111 -147.825 3.031e-3 161.865
          1.431e-3 73.556 3.036e-3 161.162 0.374 -75.409
1910.55 0.082 -172.991 0.92 -35.101 1.414e-3 73.716
          0.917 -35.087 0.103 -151.359 3.221e-3 161.736
          1.382e-3 72.278 3.177e-3 161.017 0.374 -75.981
1940.4 0.075 -176.084 0.912 -35.763 1.323e-3 73.343
          0.909 -35.709 0.096 -153.273 3.31e-3 160.633
          1.291e-3 72.532 3.304e-3 161.069 0.374 -76.459
1970.25 0.071 -179.721 0.909 -36.058 1.223e-3 76.07
          0.91 -35.996 0.09 -156.165 3.396e-3 160.945
          1.209e-3 73.357 3.451e-3 161.123 0.374 -77.037
2000.1 0.066 175.176 0.909 -36.687 1.062e-3 76.368
          0.914 -36.557 0.083 -159.808 3.578e-3 160.382
          1.112e-3 74.493 3.603e-3 160.884 0.375 -77.434
2029.95 0.059 170.252 0.91 -37.186 993.7e-6 74.544
          0.911 -37.251 0.076 -164.021 3.708e-3 160.523
          1.004e-3 74.921 3.719e-3 160.797 0.374 -77.976
2059.8 0.056 163.691 0.914 -37.639 913.9e-6 74.548
          0.912 -37.762 0.07 -169.139 3.831e-3 161.459
          896.3e-6 74.032 3.872e-3 160.916 0.372 -78.639
2089.65 0.053 155.4 0.917 -38.572 823.4e-6 77.832
          0.916 -38.52 0.063 -175.722 4.082e-3 162.114
          797e-6 74.361 4.07e-3 161.691 0.371 -79.122
2119.5 0.047 145.525 0.911 -39.756 721.2e-6 78.749
          0.913 -39.642 0.056 176.262 4.251e-3 160.502
          735.9e-6 76.24 4.217e-3 161.368 0.37 -79.69
2149.35 0.044 137.637 0.904 -39.976 560.7e-6 83.013
          0.902 -40.05 0.05 170.214 4.253e-3 158.908
          597e-6 83.246 4.271e-3 160.906 0.369 -80.162
2179.2 0.043 130.146 0.907 -39.783 458.5e-6 91.588
          0.903 -39.935 0.047 161.857 4.319e-3 160.837
          475.3e-6 89.935 4.403e-3 161.882 0.368 -80.643
2209.05 0.045 119.207 0.918 -40.643 358.8e-6 104.096
          0.915 -40.526 0.047 149.441 4.643e-3 162.921
          366.9e-6 95.855 4.698e-3 162.004 0.367 -81.291
2238.9 0.046 104.736 0.913 -42.252 256.1e-6 117.134
          0.917 -41.933 0.045 132.432 5.022e-3 161.489
          227.3e-6 117.487 4.891e-3 160.526 0.366 -81.8
2268.75 0.045 93.789 0.9 -42.822 194e-6 146.536
          0.902 -42.921 0.044 120.221 5.048e-3 159.075
          137e-6 155.233 4.98e-3 160.188 0.363 -82.497
2298.6 0.047 86.49 0.899 -42.606 206.8e-6 -172.35
          0.895 -42.821 0.046 110.075 5.008e-3 159.998
          204.2e-6 -148.938 5.12e-3 160.776 0.361 -83.075
2328.45 0.052 81.869 0.908 -43.03 332.9e-6 -136.033
          0.903 -42.87 0.051 101.564 5.23e-3 162.154
          391.6e-6 -134.915 5.315e-3 161.432 0.359 -83.741
2358.3 0.06 74.785 0.91 -44.228 572.3e-6 -130.508
          0.91 -43.863 0.059 91.854 5.567e-3 161.724
          525.3e-6 -131.412 5.601e-3 161.132 0.356 -84.258
2388.15 0.065 67.15 0.905 -45.096 787.4e-6 -128.848
          0.909 -44.907 0.066 82.697 5.815e-3 160.031
          757.8e-6 -128.677 5.802e-3 160.243 0.353 -84.756
2418 0.07 62.735 0.904 -45.654 978e-6 -129.268
          0.905 -45.69 0.073 76.516 5.953e-3 160.22
          963e-6 -129.691 5.944e-3 160.063 0.35 -85.533
2447.85 0.075 57.534 0.9 -46.216 1.233e-3 -127.92
          0.897 -46.345 0.08 70.834 6.118e-3 159.465
          1.165e-3 -126.788 6.085e-3 159.766 0.347 -86.088
2477.7 0.08 53.747 0.893 -46.681 1.37e-3 -125.918
          0.892 -46.708 0.087 66.469 6.225e-3 158.885
          1.403e-3 -126.157 6.282e-3 160.368 0.345 -86.878
2507.55 0.084 51.697 0.895 -47.019 1.545e-3 -125.317
          0.896 -46.801 0.095 63.665 6.229e-3 160.533
          1.667e-3 -127.222 6.536e-3 160.609 0.341 -87.517
2537.4 0.093 50.432 0.903 -47.723 1.921e-3 -123.318
          0.906 -47.579 0.106 62.22 6.719e-3 162.414
          1.978e-3 -124.609 6.777e-3 160.535 0.337 -88.41
2567.25 0.101 46.025 0.898 -48.844 2.301e-3 -127.064
          0.903 -49.102 0.117 57.304 7.296e-3 159.823
          2.184e-3 -126.409 7.085e-3 158.9 0.334 -89.161
2597.1 0.104 42.698 0.886 -49.505 2.501e-3 -131.431
          0.888 -49.984 0.124 54.071 7.212e-3 155.839
          2.444e-3 -127.828 7.172e-3 158.937 0.329 -90.02
2626.95 0.108 40.908 0.885 -49.637 2.486e-3 -128.678
          0.88 -49.66 0.131 52.102 6.96e-3 157.736
          2.672e-3 -127.425 7.379e-3 159.223 0.325 -90.748
2656.8 0.113 41.588 0.895 -50.008 2.889e-3 -124.77
          0.893 -49.597 0.139 51.835 7.334e-3 161.873
          3.053e-3 -126.044 7.667e-3 159.361 0.32 -91.678
2686.65 0.124 39.188 0.895 -51.189 3.38e-3 -126.547
          0.899 -51.03 0.153 49.507 8.12e-3 160.622
          3.288e-3 -128.933 7.856e-3 158.696 0.315 -92.393
2716.5 0.13 36.068 0.884 -52.062 3.706e-3 -129.916
          0.89 -52.164 0.16 46.508 8.3e-3 156.435
          3.482e-3 -129.292 8.063e-3 158.533 0.311 -93.401
2746.35 0.133 34.904 0.88 -52.453 3.762e-3 -130.518
          0.879 -52.544 0.168 44.795 8.11e-3 156.607
          3.786e-3 -128.126 8.307e-3 158.248 0.306 -94.208
2776.2 0.138 34.021 0.879 -52.893 4.062e-3 -128.491
          0.879 -52.684 0.176 43.824 8.327e-3 158.584
          4.211e-3 -126.971 8.586e-3 158.317 0.301 -95.324
2806.05 0.144 33.266 0.878 -53.447 4.495e-3 -127.943
          0.88 -53.376 0.185 42.322 8.663e-3 158.853
          4.603e-3 -128.573 8.798e-3 158.032 0.295 -96.241
2835.9 0.149 32.11 0.876 -54.052 4.891e-3 -127.97
          0.878 -54.088 0.195 40.846 8.968e-3 159.061
          4.999e-3 -129.149 9.057e-3 157.635 0.289 -97.327
2865.75 0.155 31.262 0.877 -54.791 5.39e-3 -128.995
          0.88 -54.613 0.203 39.821 9.373e-3 159.055
          5.42e-3 -129.444 9.276e-3 157.545 0.283 -98.664
2895.6 0.161 30.304 0.875 -55.452 5.885e-3 -131.774
          0.879 -55.53 0.213 38.432 9.791e-3 156.78
          5.701e-3 -130.299 9.557e-3 157.161 0.277 -99.805
2925.45 0.166 29.018 0.872 -56.148 6.036e-3 -133.218
          0.871 -56.425 0.221 36.985 9.641e-3 155.41
          6.1e-3 -131.162 9.838e-3 157.388 0.271 -101.072
2955.3 0.169 28.4 0.868 -56.66 6.225e-3 -130.072
          0.862 -56.463 0.226 35.923 9.545e-3 157.766
          6.501e-3 -130.908 0.01 157.223 0.265 -102.502
2985.15 0.172 28.659 0.861 -57.137 6.94e-3 -127.807
          0.868 -56.562 0.234 35.098 0.01 160.513
          7.092e-3 -130.829 0.01 156.907 0.258 -103.902
3015 0.181 28.113 0.865 -57.64 7.846e-3 -131.541
          0.875 -57.678 0.244 34.451 0.011 157.488
          7.59e-3 -132.698 0.011 156.398 0.251 -105.644
3044.85 0.184 26.999 0.864 -58.434 8.042e-3 -135.495
          0.865 -58.829 0.253 33.008 0.011 154.178
          7.905e-3 -133.572 0.011 156.589 0.245 -107.011
3074.7 0.188 26.328 0.859 -59.157 8.053e-3 -133.845
          0.855 -59.019 0.257 31.839 0.011 156.061
          8.449e-3 -133.279 0.011 155.851 0.238 -109.108
3104.55 0.19 26.846 0.855 -59.678 8.764e-3 -130.912
          0.86 -59.034 0.266 31.141 0.011 158.642
          8.941e-3 -133.342 0.012 155.957 0.231 -110.681
3134.4 0.197 26.374 0.854 -60.028 9.759e-3 -132.782
          0.862 -60.095 0.273 30.362 0.012 157.225
          9.653e-3 -134.545 0.012 155.816 0.224 -112.695
3164.25 0.201 25.833 0.855 -60.7 0.01 -135.644
          0.859 -60.979 0.282 29.204 0.012 155.284
          0.01 -135.533 0.012 155.76 0.216 -114.703
3194.1 0.204 25.75 0.852 -61.397 0.011 -135.695
          0.85 -61.115 0.287 28.494 0.012 156.012
          0.011 -136.035 0.013 155.52 0.209 -117.115
3223.95 0.208 25.882 0.847 -62.052 0.011 -135.484
          0.855 -61.482 0.293 27.666 0.013 156.271
          0.011 -136.193 0.013 155.375 0.202 -119.499
3253.8 0.214 25.299 0.847 -62.508 0.012 -137.2
          0.857 -62.57 0.301 26.936 0.014 155.409
          0.012 -137.919 0.013 155.4 0.196 -122.357
3283.65 0.216 25.156 0.845 -63.198 0.013 -138.283
          0.846 -63.345 0.306 25.855 0.014 155.085
          0.013 -138.833 0.014 155.136 0.188 -125.229
3313.5 0.22 25.477 0.84 -63.685 0.013 -137.979
          0.844 -63.638 0.311 25.227 0.014 155.736
          0.013 -139.429 0.014 154.257 0.182 -128.524
3343.35 0.227 25.605 0.84 -63.994 0.014 -139.583
          0.848 -64.128 0.318 24.669 0.015 154.233
          0.014 -140.073 0.015 154.156 0.176 -131.449
3373.2 0.23 25.312 0.842 -64.779 0.015 -141.753
          0.844 -65.045 0.325 23.844 0.015 152.479
          0.015 -141.339 0.015 153.689 0.17 -135.263
3403.05 0.233 25.155 0.836 -65.69 0.015 -141.535
          0.838 -65.579 0.328 22.951 0.015 153.517
          0.015 -142.383 0.015 152.817 0.164 -139.395
3432.9 0.237 25.794 0.829 -66.04 0.016 -141.339
          0.839 -65.819 0.332 22.41 0.016 154.173
          0.016 -142.891 0.016 152.142 0.158 -143.81
3462.75 0.242 25.705 0.83 -66.125 0.017 -143.512
          0.842 -66.785 0.338 21.912 0.017 152.214
          0.017 -144.19 0.016 152.433 0.154 -148.394
3492.6 0.247 25.642 0.837 -66.977 0.018 -145.968
          0.835 -67.613 0.345 20.959 0.016 150.471
          0.018 -145.117 0.016 152.443 0.15 -153.217
3522.45 0.249 25.708 0.83 -68.104 0.018 -145.383
          0.827 -67.868 0.346 20.08 0.016 151.941
          0.018 -145.629 0.017 151.505 0.147 -158.378
3552.3 0.253 26.402 0.819 -68.508 0.019 -144.645
          0.831 -68.049 0.349 19.575 0.017 153.197
          0.019 -146.205 0.017 151.388 0.145 -163.651
3582.15 0.26 26.219 0.818 -68.433 0.02 -146.833
          0.837 -69.183 0.355 19.249 0.018 151.629
          0.02 -147.43 0.017 151.743 0.143 -169.347
3612 0.264 26.222 0.826 -69.166 0.021 -149.094
