!Hittite Microwave Corporation								
!12 Elizabeth Drive								
!Chelmsford, MA 01824								
!Tel: 978-250-3343								
!Fax: 978-250-3373								
!Device: HMC344LP3, DC-8 GHz GaAs MMIC SP4T Non-Reflective Switch in Leadless LP3 SMT Package							
!Misc: Room Temp Vctl=-5V Port1=RFC, Port2=RF1, Port3=RF2, Port4=RF3, Port5=RF4, RF3 ON.								
!
# MHZ S MA R 50

10	1.157	29.734	0.007975	103.617	0.015	53.739	0.146	-80.054
	0.00386	92.592	0.002301	123.71	0.86	35.392	0.002525	71.308
	0.005151	39.98	0.002028	-42.438	0.006039	26.878	0.027	8.624
	0.856	35.566	0.012	46.077	0.003432	155.169	0.146	-84.184
	0.0007115	-71.196	0.007133	18.109	1.119	32.569	0.001234	2.389
	0.011	64.944	0.035	-25.641	0.021	41.867	0.004899	9.735
	0.86	35.301						
69.82	0.302	40.009	0.001158	-27.467	0.0004744	-89.485	0.825	-16.913
	0.0006558	55.856	0.002223	103.562	0.311	9.516	0.0006737	40.461
	0.0007713	165.138	0.000345	0.397	0.001613	161.103	0.001025	41.479
	0.317	9.102	0.000956	-128.65	0.0007846	-173.3	0.822	-16.856
	0.0005304	-91.583	0.001763	-100.178	0.293	43.173	0.0008314	57.051
	0.0008545	1.328	0.0009199	-101.041	0.001682	91.314	0.001031	13.57
	0.313	9.378						
129.641	0.209	24.057	0.0005543	73.387	0.0002925	107.197	0.842	-12.144
	0.0003262	128.956	0.0003671	114.518	0.305	-0.422	0.0004002	87.782
	0.0002561	50.919	0.0001703	-31.531	0.0004919	-66.442	0.0009674	24.245
	0.307	-0.433	0.000295	91.975	0.0005151	54.508	0.839	-12.044
	0.0004379	-153.876	0.000248	55.083	0.196	29.15	0.000345	80.898
	0.0007615	59.645	0.0003359	-61.711	0.0003036	135.454	0.0006874	-150.219
	0.305	-0.336						
189.461	0.18	10.91	0.0003987	33.333	0.00008674	-83.018	0.842	-10.696
	0.0008156	69.902	0.0003849	116.18	0.303	-6.246	0.0004488	36.926
	0.0001302	158.12	0.0001545	132.995	0.0003882	-129.063	0.0005648	68.817
	0.305	-6.1	0.0002944	127.34	0.00006315	14.441	0.838	-10.398
	0.0002543	-40.406	0.00008987	-15.19	0.166	16.397	0.0005068	86.337
	0.0003474	84.132	0.0002968	54.731	0.0002882	66.77	0.0002695	142.334
	0.303	-6.114						
249.281	0.166	0.264	0.000383	86.138	0.0003185	27.933	0.847	-10.75
	0.0006993	65.365	0.0007296	104.966	0.303	-11.279	0.0004688	56.606
	0.00004081	42.451	0.0002327	47.785	0.0001533	111.767	0.0006859	91.183
	0.305	-11.114	0.0003638	84.214	0.0001398	68.771	0.845	-10.5
	0.0003627	121.815	0.0002955	20.265	0.152	5.614	0.0005453	95.474
	0.0009253	72.229	0.0003428	16.065	0.0002564	150.233	0.0004116	107.817
	0.302	-11.075						
309.102	0.16	-10.659	0.0004673	75.552	0.0002607	67.766	0.848	-11.442
	0.001193	58.336	0.0008553	100.629	0.305	-15.765	0.0006085	90.227
	0.00004127	47.662	0.0008386	-169.573	0.0007579	26.773	0.0006264	76.225
	0.308	-15.507	0.000442	80.078	0.0003632	-17.724	0.844	-11.655
	0.0007237	-174.731	0.0003676	-35.066	0.148	-3.956	0.001146	73.386
	0.001141	77.499	0.0006459	-117.307	0.001019	154.457	0.0008675	83.727
	0.305	-15.701						
368.922	0.158	-18.234	0.0007173	53.622	0.0003406	57.534	0.846	-12.372
	0.001286	91.914	0.0009311	59.938	0.307	-19.962	0.0008827	79.286
	0.00007587	58.811	0.0002079	72.647	0.0005505	-36.45	0.0005525	88.094
	0.309	-19.671	0.0002926	-154.664	0.0005234	177.061	0.843	-12.454
	0.0004628	-113.472	0.0005019	-145.078	0.144	-11.724	0.0007067	75.666
	0.001098	66.149	0.001106	85.311	0.00009854	69.063	0.0007295	106.774
	0.305	-19.555						
428.743	0.155	-25.22	0.0008815	83.637	0.0003911	-8.826	0.845	-13.461
	0.001261	86.472	0.001043	69.574	0.309	-23.758	0.001001	77.743
	0.0001869	93.924	0.0002027	170.504	0.0003891	144.539	0.0007588	49.611
	0.31	-23.293	0.0004237	132.22	0.00007664	-143.865	0.839	-13.58
	0.0001495	150.664	0.0001369	146.036	0.143	-18.591	0.001011	77.52
	0.001139	75.06	0.0005586	168.188	0.0002391	14.437	0.0004369	101.662
	0.308	-23.511						
488.563	0.152	-31.793	0.0007313	85.197	0.0001417	136.961	0.848	-14.662
	0.001319	74.089	0.001076	85.993	0.311	-27.422	0.001051	91.638
	0.00006275	58.381	0.0001244	29.562	0.0001801	164.011	0.00126	70.594
	0.312	-27.08	0.0003111	137.753	0.0003309	28.301	0.842	-14.412
	0.00042	-162.858	0.0003516	98.501	0.143	-25.168	0.0007646	83.433
	0.00119	74.254	0.0006049	135.287	0.0003995	-49.599	0.0003961	66.947
	0.31	-27.35						
548.383	0.15	-38.536	0.001161	96.118	0.0002373	67.491	0.844	-16.068
	0.001216	79.225	0.001188	65.238	0.312	-31.231	0.001309	74.999
	0.0002191	74.785	0.0003079	94.415	0.0001472	-83.152	0.001253	86.795
	0.314	-30.894	0.0004105	74.187	0.0001989	94.443	0.842	-15.789
	0.0002965	14.318	0.0003194	50.69	0.144	-31.512	0.000799	65.592
	0.001477	69.931	0.0005695	-12.146	0.000194	53.428	0.001058	90.749
	0.311	-31.176						
608.204	0.15	-43.771	0.0009382	84.253	0.0003246	100.375	0.842	-17.355
	0.001761	77.304	0.001249	71.258	0.316	-34.907	0.001418	80.278
	0.000251	98.29	0.0003205	54.679	0.00008154	-61.229	0.001366	88.187
	0.317	-34.51	0.0003497	46.193	0.0001706	79.88	0.837	-17.134
	0.0005055	27.675	0.0007205	84.394	0.145	-37.159	0.0008481	82.06
	0.001747	77.691	0.0007128	60.287	0.000501	116.289	0.001157	66.884
	0.315	-34.855						
668.024	0.148	-48.374	0.0009342	80.773	0.0001888	66.286	0.841	-18.189
	0.001976	69.976	0.001637	71.165	0.32	-38.353	0.001376	70.943
	0.0001487	128.684	0.0002011	77.217	0.0001341	103.28	0.001792	62.554
	0.321	-37.829	0.0003304	56.33	0.0001367	128.66	0.835	-18.279
	0.0005127	25.254	0.0005449	61.896	0.145	-42.132	0.001123	76.967
	0.002026	79.238	0.0003202	93.398	0.0003376	-173.543	0.001179	65.359
	0.318	-38.293						
727.844	0.145	-52.811	0.001399	80.445	0.0001218	-31.791	0.844	-19.887
	0.00206	76.623	0.001498	82.705	0.322	-41.764	0.001511	64.355
	0.0003865	84.764	0.0005191	64.456	0.00006074	51.274	0.001713	74.349
	0.323	-41.325	0.0004304	85.109	0.0003955	93.523	0.84	-19.544
	0.0001149	-160.024	0.000288	29.921	0.145	-46.589	0.001137	91.281
	0.002214	69	0.0003118	105.666	0.0002174	106.731	0.001032	88.169
	0.32	-41.705						
787.665	0.145	-57.589	0.001481	79.241	0.0001096	30.967	0.834	-21.429
	0.002182	85.756	0.00146	79.266	0.326	-45.04	0.001622	75.983
	0.0002097	27.248	0.0001377	112.836	0.000118	71.587	0.001517	79.004
	0.327	-44.548	0.00047	63.519	0.0001551	123.951	0.835	-21.578
	0.0002548	62.159	0.0006428	40.965	0.148	-51.372	0.001265	69.703
	0.002017	68.422	0.0002422	50.315	0.0003656	72.563	0.001089	75.305
	0.324	-44.962						
847.485	0.145	-61.463	0.001661	75.822	0.000142	47.179	0.834	-22.266
	0.002371	77.035	0.001711	81.599	0.33	-48.104	0.00201	71.89
	0.0001598	78.976	0.0001926	87.732	0.0003694	69.45	0.001814	80.588
	0.33	-47.544	0.0003088	72.864	0.0002052	80.974	0.825	-22.254
	0.0003439	48.414	0.0005429	46.502	0.149	-55.125	0.001259	65.698
	0.002371	68.923	0.00006062	18.532	0.0002359	44.624	0.001334	76.267
	0.326	-48.067						
907.305	0.143	-64.053	0.001689	76.972	0.00008611	39.605	0.835	-23.877
	0.002597	74.136	0.001678	77.396	0.332	-51.083	0.002018	76.175
	0.0001599	26.169	0.000314	81.929	0.0002993	162.786	0.001901	75.689
	0.332	-50.463	0.0004815	77.781	0.0002208	89.764	0.833	-23.475
	0.0003593	54.593	0.0005994	77.135	0.15	-58.871	0.001504	76.639
	0.002624	73.467	0.0003836	92.158	0.0003787	85.983	0.001245	84.953
	0.329	-51.142						
967.126	0.14	-66.826	0.001677	79.038	0.0002536	55.38	0.83	-25.046
	0.002643	72.485	0.001456	72.166	0.335	-54.229	0.002237	76.488
	0.0002165	51.897	0.0004231	90.175	0.00006368	133.03	0.002207	76.862
	0.335	-53.659	0.000385	49.953	0.0001628	110.309	0.828	-25.245
	0.0002277	57.746	0.000581	67.096	0.149	-62.899	0.001555	78.329
	0.00278	75.13	0.0002784	73.395	0.0004605	80.364	0.001522	78.312
	0.331	-54.295						
1026.946	0.137	-69.065	0.001573	72.826	0.0002865	89.739	0.832	-26.43
	0.002816	73.265	0.001665	69.558	0.338	-57.272	0.002162	76.605
	0.0002269	64.236	0.0003287	59.317	0.0001249	-166.116	0.001991	79.18
	0.339	-56.643	0.0005185	64.34	0.0002611	65.426	0.826	-26.157
	0.0001089	-45.738	0.0006852	66.496	0.15	-66.725	0.001678	77.972
	0.002851	77.713	0.0004752	82.136	0.0002023	98.207	0.001511	80.862
	0.335	-57.39						
1086.766	0.139	-70.665	0.00182	73.496	0.00007119	143.739	0.826	-27.907
	0.002845	72.508	0.002096	70.394	0.343	-60.199	0.002268	73.57
	0.0002578	14.725	0.000314	84.093	0.0002444	59.81	0.00258	72.409
	0.342	-59.514	0.0006385	66.423	0.0003257	71.146	0.826	-28.07
	0.00007567	28.339	0.0005557	56.295	0.15	-70.04	0.001495	78.049
	0.002914	74.14	0.0004851	79.454	0.0002091	53.792	0.00154	78.748
	0.338	-60.36						
1146.587	0.139	-71.193	0.002067	75.268	0.0002702	83.802	0.823	-28.809
	0.003071	69.311	0.002082	70.829	0.344	-62.861	0.002228	72.268
	0.000202	-5.769	0.0003224	102.57	0.0002296	150.131	0.002539	72.604
	0.344	-62.265	0.0006797	59.212	0.0003047	64.583	0.817	-28.943
	0.000211	-35.917	0.0005724	38.065	0.149	-72.918	0.00161	80.678
	0.002971	71.833	0.0003925	52.253	0.0002545	74.373	0.001635	82.11
	0.34	-63.191						
1206.407	0.138	-71.726	0.002176	77.492	0.0003657	113.692	0.826	-30.186
	0.003021	69.707	0.002087	75.65	0.347	-65.607	0.002435	72.523
	0.0003075	-4.413	0.0003886	64.362	0.0000698	-26.553	0.002385	76.639
	0.347	-65.025	0.0005288	57.468	0.0001672	78.136	0.825	-29.987
	0.0001918	-75.464	0.0005935	52.153	0.149	-75.499	0.001693	77.731
	0.00317	71.91	0.0006368	106.054	0.0002517	20.169	0.001628	76.917
	0.343	-66.041						
1266.228	0.138	-72.721	0.002315	70.416	0.0002905	135.556	0.821	-31.861
	0.003244	69.28	0.00219	67.933	0.351	-68.255	0.002461	73.067
	0.0004133	-18.949	0.000343	78.154	0.0001069	-76.244	0.002659	70.164
	0.351	-67.613	0.0005484	59.611	0.0002703	63.808	0.822	-31.95
	0.0001877	48.235	0.0004675	56.63	0.151	-77.898	0.001717	76.001
	0.003202	66.762	0.0003546	62.541	0.0002979	74.617	0.0017	68.614
	0.347	-68.727						
1326.048	0.142	-73.53	0.002199	71.378	0.0003829	124.314	0.814	-32.958
	0.003287	71.091	0.002388	70.455	0.355	-70.605	0.002698	74.676
	0.0002913	24.835	0.0004069	67.656	0.00009409	136.379	0.00259	72.818
	0.355	-69.91	0.0006828	51.503	0.000219	90.262	0.811	-33.358
	0.00009724	92.289	0.0006205	49.065	0.15	-79.925	0.001634	70.476
	0.003354	69.404	0.0004017	94.031	0.0005274	63.356	0.001711	71.324
	0.351	-71.152						
1385.868	0.145	-73.149	0.002403	72.415	0.0001861	107.573	0.811	-33.857
	0.003409	69.051	0.002543	73.799	0.358	-72.616	0.002779	73.773
	0.0003828	-5.891	0.0004688	66.057	0.0002166	130.407	0.002737	70.729
	0.358	-71.978	0.0007426	63.184	0.0002455	78.721	0.808	-33.895
	0.0001994	18.161	0.0007464	55.894	0.148	-81.377	0.001813	73.144
	0.003529	70.441	0.0004792	59.498	0.0002411	63.391	0.001647	72.558
	0.354	-73.401						
1445.689	0.146	-72.385	0.002721	73.757	0.0003088	131.777	0.817	-34.963
	0.003697	68.41	0.00257	75.394	0.36	-74.898	0.002736	72.371
	0.0002704	-24.752	0.000478	67.233	0.00027	98.079	0.002874	75.681
	0.36	-74.204	0.0007262	46.91	0.000282	70.419	0.815	-34.946
	0.0001636	41.039	0.0005219	50.245	0.146	-82.882	0.001826	75.018
	0.003567	67.209	0.0004752	66.253	0.0004718	87.074	0.001847	78.113
	0.356	-75.791						
1505.509	0.149	-72.516	0.002669	72.511	0.0002983	134.32	0.81	-36.785
	0.003646	67.982	0.0027	74.29	0.364	-77.312	0.002811	73.316
	0.0002808	-53.772	0.0004928	74.448	0.0002307	87.968	0.002945	74.082
	0.363	-76.594	0.0007194	55.888	0.0002001	68.098	0.816	-36.58
	0.0001732	-17.39	0.000661	59.363	0.146	-84.354	0.001918	72.673
	0.003837	69.144	0.0003422	59.455	0.0003487	98.102	0.001799	72.593
	0.36	-78.324						
1565.329	0.154	-73.168	0.002686	69.306	0.000292	119.382	0.807	-37.125
	0.003741	70.576	0.002817	64.723	0.368	-79.677	0.002805	73.233
	0.0004749	-80.495	0.0006272	66.363	0.0003707	101.759	0.002972	73.551
	0.367	-78.978	0.000863	57.545	0.0004063	44.291	0.808	-38.233
	0.0001784	-101	0.0007239	46.337	0.145	-85.727	0.001834	79.849
	0.003895	71.345	0.0003841	62.915	0.0004082	68.761	0.002114	73.568
	0.365	-80.738						
1625.15	0.161	-73.131	0.00301	70.864	0.0004525	119.972	0.818	-38.818
	0.003964	74.162	0.002895	71.446	0.371	-81.86	0.002962	74.676
	0.0003823	-94.977	0.0003887	34.716	0.0004749	130.528	0.003101	81.86
	0.37	-81.261	0.0006916	45.122	0.000326	61.308	0.802	-38.503
	0.0004482	-107.569	0.0005387	49.952	0.142	-86.594	0.001965	75.902
	0.003682	73.259	0.0003107	53.83	0.0002249	80.324	0.001927	78.974
	0.367	-83.192						
1684.97	0.168	-72.612	0.002989	64.403	0.0004898	120.413	0.809	-40.187
	0.004405	74.159	0.002997	64.461	0.374	-84.313	0.003093	82.28
	0.0002654	-102.821	0.000528	53.462	0.0006469	140.587	0.003336	81.375
	0.372	-83.332	0.0008218	49.993	0.0003354	82.627	0.818	-40.012
	0.0005373	-131.35	0.0006433	41.404	0.14	-87.039	0.00209	77.413
	0.004443	73.07	0.0005426	65.656	0.0002605	58.563	0.002176	73.356
	0.368	-85.386						
1744.79	0.174	-72.677	0.002751	70.344	0.0004956	129.427	0.81	-41.138
	0.004717	76.502	0.002792	67.528	0.374	-86.578	0.003545	83.9
	0.0005438	-166.721	0.0003331	64.828	0.0005035	112.449	0.003631	84.967
	0.374	-85.669	0.0008531	44.75	0.0003485	72.437	0.807	-41.883
	0.0006511	-172.658	0.0005155	53.492	0.137	-87.537	0.00199	75.832
	0.004632	73.981	0.0006564	60.241	0.0003289	66.571	0.002054	79.302
	0.37	-87.949						
1804.611	0.182	-73.53	0.00312	72.685	0.0005159	121.238	0.814	-42.522
	0.005472	73.121	0.003249	69.55	0.378	-88.828	0.004147	77.267
	0.0005281	153.187	0.0003741	72.969	0.0003775	111.204	0.004366	77.969
	0.377	-87.804	0.0007072	47.758	0.0004932	73.46	0.808	-42.488
	0.0006223	149.466	0.0006738	57.536	0.137	-87.691	0.002035	78.886
	0.0054	72.804	0.0005066	67.394	0.0003099	18.035	0.002223	73.89
	0.371	-90.088						
1864.431	0.192	-74.468	0.003168	67.137	0.0005331	126.074	0.81	-44.187
	0.005394	64.259	0.003201	63.745	0.378	-91.152	0.004139	72.892
	0.0005436	101.484	0.0005434	51.494	0.0006739	132.974	0.004195	75.964
	0.378	-90.056	0.0006966	46.885	0.000329	40.35	0.813	-43.995
	0.0002942	108.958	0.0008336	40.025	0.136	-87.382	0.002168	77.061
	0.005594	66.49	0.0005746	53.835	0.0003872	87.12	0.002288	78.888
	0.374	-92.082						
1924.251	0.202	-75.196	0.00342	70.618	0.0005733	130.121	0.807	-44.682
	0.005502	63.537	0.003427	65.34	0.378	-93.299	0.004243	69.983
	0.0003817	76.266	0.0006792	62.714	0.0005288	98.904	0.004242	68.484
	0.378	-92.072	0.0007544	44.895	0.0003821	75.714	0.812	-45.649
	0.0003143	84.11	0.0009041	44.778	0.134	-86.807	0.002392	79.043
	0.005607	61.327	0.0005216	39.287	0.0002612	71.132	0.002317	81.034
	0.376	-94.154						
1984.072	0.212	-76.004	0.003729	59.689	0.0006242	116.339	0.819	-46.625
	0.00573	59.052	0.003611	60.948	0.379	-95.423	0.004301	67.696
	0.0002	35.111	0.0007306	58.426	0.0006119	107.685	0.004151	67.362
	0.38	-94.134	0.0007197	47.439	0.0003121	51.746	0.805	-46.76
	0.0003122	73.95	0.0007497	63.982	0.135	-85.861	0.002429	75.488
	0.005504	59.438	0.000472	66.382	0.000414	48.048	0.002305	77.306
	0.378	-96.163						
2043.892	0.221	-77.477	0.002989	50.288	0.0007162	103.034	0.803	-48.048
	0.00526	58.852	0.003089	52.254	0.376	-97.021	0.004184	65.678
	0.0001669	84.707	0.0005739	50.261	0.0008072	115.93	0.004339	65.051
	0.381	-95.83	0.0008391	36.724	0.0004405	44.205	0.812	-48.132
	0.000277	83.062	0.0007758	41.347	0.135	-84.526	0.002358	77.135
	0.005567	58.624	0.0004933	47.985	0.0004219	69.407	0.002354	76.043
	0.38	-98.088						
2103.713	0.232	-79.042	0.002794	65.474	0.0006218	130.003	0.812	-48.688
	0.005586	61.674	0.002941	64.438	0.375	-98.171	0.004365	67.496
	0.0001986	88.24	0.0004787	53.67	0.0006392	131.175	0.004265	66.682
	0.38	-97.687	0.0007363	39.031	0.0004618	70.706	0.797	-49.476
	0.0001912	61.265	0.0009356	46.309	0.135	-82.649	0.002438	80.721
	0.005463	58.561	0.0003891	80.85	0.0004051	76.5	0.002308	78.844
	0.38	-100.055						
2163.533	0.243	-80.283	0.00327	71.283	0.0006174	121.986	0.81	-50.606
	0.00571	58.778	0.003394	71.678	0.376	-99.964	0.004295	65.932
	0.0001309	74.48	0.0005307	48.595	0.0007147	122.347	0.00462	67.574
	0.379	-99.656	0.0007182	42.816	0.000375	84.004	0.814	-49.442
	0.0001227	152.005	0.0008868	46.25	0.135	-81.233	0.002409	78.375
	0.005553	58.726	0.0006494	86.76	0.00053	81.714	0.00256	79.098
	0.379	-102.132						
2223.353	0.253	-81.846	0.003639	68.706	0.000833	116.642	0.807	-51.678
	0.005636	57.751	0.003825	68.474	0.377	-102.268	0.004515	68.359
	0.0001874	99.973	0.000738	51.818	0.0009377	120.712	0.004534	64.697
	0.377	-101.838	0.0007215	53.294	0.0004851	62.477	0.823	-52.953
	0.0003968	76.148	0.0008463	38.86	0.136	-80.761	0.00255	80.431
	0.005659	54.307	0.0006207	65.906	0.000621	59.777	0.002745	74.96
	0.378	-104.358						
2283.174	0.261	-84.018	0.00378	66	0.0008713	117.557	0.806	-52.907
	0.005642	58.04	0.003804	63.807	0.377	-104.151	0.004642	66.209
	0.0003499	108.904	0.0005709	46.093	0.0006674	114.948	0.004377	64.765
	0.377	-103.734	0.0009862	52.293	0.0004887	65.054	0.792	-54.34
	0.0002863	118.275	0.0005987	33.138	0.139	-80.243	0.002592	79.32
	0.005559	55.248	0.0005802	52.015	0.0003985	82.784	0.002461	77.816
	0.378	-106.403						
2342.994	0.272	-86.111	0.004013	62.498	0.0008122	106.458	0.81	-54.195
	0.005754	58.991	0.003888	63.977	0.377	-105.966	0.004894	65.737
	0.000222	125.245	0.0004426	63.351	0.0007034	108.405	0.004731	67.891
	0.376	-105.445	0.0008525	45.931	0.0005408	34.563	0.789	-53.954
	0.0001361	129.466	0.000738	33.115	0.141	-78.446	0.002676	78.897
	0.005894	59.563	0.0005902	37.959	0.0003234	75.183	0.002686	81.353
	0.378	-108.23						
2402.814	0.283	-87.734	0.003955	61.864	0.0007728	106.675	0.806	-55.637
	0.005971	57.013	0.004041	64.136	0.374	-107.953	0.004711	65.484
	0.0003272	111.946	0.0005884	51.14	0.000576	108.963	0.004923	66.312
	0.373	-107.301	0.0007921	48.018	0.000367	34.887	0.814	-54.393
	0.0002974	121.952	0.0009587	37.479	0.144	-76.84	0.00266	78.755
	0.005877	61.064	0.0006591	47.088	0.0004368	74.269	0.002838	79.828
	0.375	-110.175						
2462.635	0.292	-89.268	0.003979	63.016	0.0008217	105.161	0.809	-57.015
	0.006064	57.214	0.004073	61.99	0.372	-110.032	0.004889	64.684
	0.0003418	122.53	0.0005189	61.338	0.0005759	120.439	0.005068	62.256
	0.37	-109.318	0.0007756	37.42	0.0004994	60.039	0.825	-57.981
	0.000331	100.895	0.0009267	52.442	0.149	-76.458	0.002664	76.937
	0.006138	55.581	0.0007811	51.477	0.0006327	81.256	0.00295	77.531
	0.373	-112.343						
2522.455	0.298	-91.401	0.003888	62.836	0.0008491	116.976	0.795	-58.275
	0.006073	56.971	0.00393	62.268	0.371	-112.042	0.004854	64.074
	0.0003131	89.223	0.000699	54.022	0.0008289	112.47	0.004841	63.261
	0.369	-111.232	0.0008279	39.385	0.0004084	31.241	0.797	-59.749
	0.0003438	85.188	0.0008269	30.275	0.153	-76.908	0.002726	81.462
	0.006026	56.389	0.0006536	66.195	0.0005599	45.197	0.002889	74.515
	0.372	-114.26						
2582.275	0.305	-93.793	0.004067	63.733	0.0008463	118.922	0.807	-58.668
	0.0066	58.02	0.004058	62.55	0.369	-113.75	0.005284	65.172
	0.0003818	95.727	0.000631	62.852	0.0009104	107.306	0.004938	61.785
	0.368	-112.854	0.000872	29.623	0.0004851	53.23	0.786	-60.098
	0.0004291	95.103	0.0007693	38.787	0.158	-76.249	0.003	83.261
	0.006154	55.666	0.0007241	64.731	0.0006321	47.595	0.002754	76.55
	0.371	-115.96						
2642.096	0.313	-95.992	0.004057	59.647	0.0009329	112.422	0.806	-61.122
	0.006534	54.217	0.004164	66.002	0.365	-115.271	0.005342	61.308
	0.0003078	82.641	0.0006564	62.392	0.0007229	112.192	0.005372	63.159
	0.364	-114.298	0.001036	40.784	0.0004812	58.738	0.795	-59.555
	0.0004383	70.085	0.000939	48.859	0.162	-74.754	0.002925	80.813
	0.006178	56.459	0.0006034	63.269	0.0006202	34.509	0.002961	83.157
	0.368	-117.59						
2701.916	0.322	-97.652	0.004409	62.578	0.0009803	112.91	0.802	-61.669
	0.00647	55.516	0.004461	63.669	0.36	-117.095	0.005356	61.697
	0.0005087	77.976	0.0007075	63.405	0.0008612	121.165	0.005482	61.509
	0.359	-116.114	0.001005	37.306	0.00071	51.829	0.821	-62.392
	0.0004781	62.265	0.001052	36.241	0.167	-74.242	0.003141	76.128
	0.0067	55.491	0.0006361	74.487	0.0004094	29.286	0.00294	82.604
	0.363	-119.531						
2761.737	0.326	-99.529	0.00457	58.746	0.0008841	125.389	0.804	-63.511
	0.006636	55.789	0.004713	58.983	0.355	-119.015	0.005427	62.146
