!Hittite Microwave Corporation								
!12 Elizabeth Drive								
!Chelmsford, MA 01824								
!Tel: 978-250-3343								
!Fax: 978-250-3373
!Device: HMC347, DC - 20 GHz GaAs MMIC SPDT Non-Reflective Switch 
!Misc: Port1=RFC, Port2= RF1, Port3=RF2, RF2 ON, Data includes two K sonnectors, Bias: -5VDC								
!
# MHZ S MA R 50

10 0.139 5.884 0.011 -29.652 0.902 -0.633
          6.791e-3 -121.72 0.311 176.467 0.02 40.649
          0.874 -2.157 0.015 -64.88 0.115 14.827
134.95 0.139 -3.463 294.6e-6 41.685 0.86 -5.731
          191.5e-6 -7.351 0.31 173.444 685.4e-6 121.152
          0.861 -5.897 341.6e-6 142.06 0.122 -3.592
259.9 0.144 -5.875 603.7e-6 52.348 0.855 -10.607
          1.064e-3 39.615 0.312 167.442 83.31e-6 20.585
          0.861 -10.718 610.8e-6 45.294 0.123 -6.001
384.85 0.145 -9.486 465.3e-6 70.038 0.853 -15.497
          215.5e-6 -8.278 0.309 162.621 319.1e-6 -84.439
          0.859 -15.436 190.7e-6 -67.503 0.123 -10.375
509.8 0.148 -13.24 338.5e-6 70.268 0.855 -20.403
          329.5e-6 7.197 0.307 157.436 185.9e-6 26.51
          0.857 -20.56 393.6e-6 -6.312 0.126 -15.287
634.75 0.149 -17.318 511.5e-6 15.267 0.853 -25.234
          689.6e-6 40.491 0.305 151.823 354.5e-6 -39.258
          0.85 -25.426 330.4e-6 -58.408 0.128 -18.877
759.7 0.152 -20.614 375.4e-6 47.772 0.848 -30.09
          229.3e-6 45.724 0.305 146.375 392.4e-6 -107.507
          0.85 -30.162 365.7e-6 -83.57 0.128 -22.353
884.65 0.152 -24.366 394.6e-6 39.368 0.849 -35.093
          441.7e-6 43.847 0.303 141.122 280.9e-6 -96.361
          0.852 -34.961 460.9e-6 -109.554 0.129 -26.54
1009.6 0.151 -28.144 543.7e-6 54.489 0.854 -39.798
          559.8e-6 39.877 0.303 135.821 432.9e-6 -119.344
          0.85 -39.804 298e-6 -88.665 0.133 -30.845
1134.55 0.152 -32.744 597.6e-6 36.367 0.849 -44.891
          521.5e-6 38.372 0.303 130.218 356.5e-6 -152.279
          0.85 -44.795 550.8e-6 -127.716 0.133 -34.906
1259.5 0.153 -36.737 708.5e-6 34.982 0.85 -49.318
          628.7e-6 38.465 0.302 125.556 491e-6 -128.694
          0.849 -49.525 514e-6 -139.172 0.134 -39.273
1384.45 0.151 -40.87 715.4e-6 39.175 0.855 -54.301
          716.3e-6 32.557 0.301 119.685 434.9e-6 -148.39
          0.847 -54.471 393e-6 -145.262 0.135 -44.034
1509.4 0.15 -45.775 673.5e-6 40.499 0.847 -59.326
          689.4e-6 28.101 0.3 114.566 595.3e-6 -163.554
          0.847 -59.176 512.4e-6 -165.35 0.136 -48.259
1634.35 0.153 -50.674 789.6e-6 33.388 0.846 -64.171
          873.3e-6 39.202 0.302 109.155 531.4e-6 -156.871
          0.846 -64.23 496.7e-6 -160.085 0.135 -53.497
1759.3 0.156 -54.161 1.01e-3 30.052 0.845 -68.92
          714.8e-6 25.728 0.302 104.327 540.7e-6 -171.681
          0.847 -68.798 594.6e-6 178.775 0.136 -57.295
1884.25 0.155 -58.652 935e-6 22.493 0.845 -73.844
          904.4e-6 23.929 0.3 98.87 654.6e-6 176.51
          0.847 -73.948 627.5e-6 -167.992 0.137 -61.224
2009.2 0.156 -62.727 849.3e-6 21.784 0.843 -78.508
          1.031e-3 27.815 0.3 93.893 675.4e-6 175.845
          0.846 -78.578 552.8e-6 177.89 0.137 -65.627
2134.15 0.156 -67.248 1.16e-3 18.682 0.843 -83.718
          879.3e-6 22.325 0.301 88.329 628.4e-6 155.008
          0.845 -83.583 554.7e-6 165.083 0.139 -70.448
2259.1 0.157 -70.679 1.142e-3 20.831 0.843 -87.861
          1.128e-3 20.06 0.299 83.233 774.9e-6 168.47
          0.843 -88.273 663.9e-6 146.073 0.14 -74.776
2384.05 0.155 -75.249 1.257e-3 7.095 0.845 -93.276
          1.202e-3 10.713 0.299 77.894 950.6e-6 151.08
          0.843 -93.252 962.5e-6 159.422 0.141 -79.249
2509 0.158 -79.243 1.069e-3 8.7 0.844 -97.87
          1.217e-3 14.902 0.3 73.028 846.5e-6 159.986
          0.843 -97.746 744.8e-6 143.055 0.14 -83.563
2633.95 0.158 -83.366 1.457e-3 6.099 0.842 -102.799
          1.168e-3 11.424 0.298 67.474 986.6e-6 136.146
          0.846 -102.968 770.2e-6 142.629 0.141 -88.64
2758.9 0.156 -87.236 1.368e-3 9.058 0.841 -107.378
          1.364e-3 0.66 0.298 62.633 933e-6 134.29
          0.843 -107.545 1.003e-3 138.96 0.141 -92.164
2883.85 0.157 -91.306 1.396e-3 -0.939 0.846 -112.727
          1.347e-3 1.836 0.299 57.046 1.031e-3 138.363
          0.841 -112.566 867.2e-6 125.115 0.143 -96.51
3008.8 0.157 -94.693 1.376e-3 -4.357 0.842 -117.23
          1.564e-3 -1.634 0.299 52.238 1.073e-3 121.449
          0.842 -117.229 1.211e-3 120.602 0.142 -101.436
3133.75 0.155 -98.966 1.373e-3 -5.824 0.841 -122.294
          1.537e-3 -1.733 0.299 46.745 1.147e-3 122.82
          0.841 -122.295 1.229e-3 117.521 0.144 -105.1
3258.7 0.154 -103.094 1.601e-3 -12.907 0.838 -126.814
          1.48e-3 -12.749 0.3 41.698 1.15e-3 104.473
          0.842 -126.807 1.078e-3 115.423 0.141 -110.459
3383.65 0.154 -107.501 1.564e-3 -16.214 0.839 -131.885
          1.691e-3 -15.45 0.299 36.318 1.228e-3 99.798
          0.838 -131.852 1.243e-3 96.606 0.143 -115.743
3508.6 0.154 -110.981 1.658e-3 -21.552 0.84 -136.656
          1.907e-3 -21.699 0.3 31.441 1.326e-3 99.209
          0.838 -136.544 1.492e-3 102.238 0.145 -119.291
3633.55 0.155 -115.082 1.862e-3 -19.556 0.839 -141.474
          1.837e-3 -23.95 0.301 26.185 1.594e-3 96.111
          0.84 -141.709 1.3e-3 93.286 0.141 -123.106
3758.5 0.153 -118.992 1.94e-3 -24.376 0.839 -146.031
          1.891e-3 -28.229 0.299 21.045 1.368e-3 88.02
          0.839 -146.247 1.506e-3 89.262 0.144 -128.52
3883.45 0.152 -123.466 1.895e-3 -29.776 0.838 -151.234
          2.007e-3 -31.988 0.301 15.717 1.474e-3 77.59
          0.839 -151.298 1.548e-3 82.046 0.144 -133.831
4008.4 0.153 -127.527 2.021e-3 -34.408 0.837 -155.892
          1.873e-3 -35.898 0.302 10.566 1.532e-3 80.492
          0.839 -155.841 1.678e-3 79.723 0.143 -137.399
4133.35 0.151 -132.158 2e-3 -38.041 0.833 -160.851
          1.977e-3 -42.87 0.302 5.535 1.555e-3 63.508
          0.836 -160.891 1.497e-3 68.607 0.143 -142.168
4258.3 0.152 -135.6 2.161e-3 -39.165 0.836 -165.567
          2.121e-3 -40.486 0.301 0.715 1.59e-3 61.886
          0.836 -165.568 1.663e-3 64.66 0.143 -145.439
4383.25 0.152 -139.322 2.267e-3 -44.543 0.838 -170.911
          2.184e-3 -45.472 0.301 -5.054 1.721e-3 58.3
          0.835 -170.636 1.799e-3 63.824 0.143 -151.38
4508.2 0.153 -142.444 2.279e-3 -50.695 0.832 -175.366
          2.188e-3 -49.097 0.303 -9.858 1.886e-3 53.586
          0.834 -175.305 1.627e-3 53.429 0.143 -154.08
4633.15 0.152 -145.549 2.434e-3 -52.02 0.834 179.513
          2.297e-3 -51.336 0.305 -15.436 1.747e-3 48.702
          0.836 179.645 1.869e-3 44.487 0.145 -158.528
4758.1 0.152 -149.492 2.426e-3 -53.879 0.833 175.025
          2.41e-3 -55.49 0.307 -20.15 1.867e-3 39.897
          0.836 175.242 1.949e-3 34.363 0.141 -162.813
4883.05 0.151 -153.541 2.548e-3 -61.178 0.834 169.883
          2.44e-3 -60.445 0.306 -25.508 2.099e-3 34.517
          0.836 169.88 1.896e-3 31.58 0.143 -166.896
5008 0.152 -156.14 2.452e-3 -64.278 0.834 165.358
          2.544e-3 -63.331 0.307 -30.232 1.998e-3 26.654
          0.834 165.455 2.049e-3 30.323 0.144 -172.007
5132.95 0.151 -160.505 2.578e-3 -69.626 0.835 160.191
          2.63e-3 -68.633 0.306 -35.429 2.138e-3 22.188
          0.831 160.355 2.022e-3 24.015 0.144 -177.552
5257.9 0.152 -163.9 2.617e-3 -71.676 0.829 155.437
          2.699e-3 -72.251 0.307 -40.597 2.129e-3 15.572
          0.83 155.462 2.118e-3 19.385 0.142 179.391
5382.85 0.151 -167.238 2.765e-3 -78.783 0.828 150.71
          2.779e-3 -75.912 0.308 -45.898 2.221e-3 10.424
          0.831 150.532 2.257e-3 13.915 0.146 176.144
5507.8 0.15 -171.025 2.871e-3 -80.865 0.83 145.995
          2.838e-3 -78.25 0.309 -50.454 2.135e-3 6.154
          0.832 146.096 2.228e-3 11.323 0.143 170.244
5632.75 0.15 -176.303 2.85e-3 -85.301 0.831 140.857
          2.83e-3 -85.079 0.309 -55.72 2.413e-3 0.759
          0.831 140.938 2.377e-3 1.472 0.143 166.747
5757.7 0.152 179.777 3.016e-3 -90.138 0.826 136.115
          2.937e-3 -90.111 0.309 -60.667 2.279e-3 -2.816
          0.827 136.038 2.44e-3 -5.006 0.138 161.329
5882.65 0.156 176.344 2.981e-3 -91.908 0.83 131.054
          3.043e-3 -90.956 0.311 -66.025 2.566e-3 -9.272
          0.831 131.146 2.415e-3 -9.12 0.143 158.092
6007.6 0.158 172.387 3.003e-3 -94.535 0.827 126.531
          3.14e-3 -96.171 0.31 -70.554 2.667e-3 -15.583
          0.829 126.559 2.539e-3 -13.853 0.142 153.266
6132.55 0.159 169.109 3.093e-3 -96.605 0.828 121.562
          3.033e-3 -98.784 0.31 -76.135 2.704e-3 -19.948
          0.827 121.552 2.564e-3 -20.149 0.143 150.158
6257.5 0.16 165.58 3.157e-3 -104.535 0.824 116.768
          3.156e-3 -103.291 0.312 -81.207 2.756e-3 -24.197
          0.824 116.767 2.647e-3 -23.058 0.141 145.896
6382.45 0.159 161.987 3.326e-3 -109.448 0.826 111.836
          3.186e-3 -110.138 0.312 -86.428 2.71e-3 -32.537
          0.826 111.857 2.861e-3 -30.742 0.144 141.194
6507.4 0.159 157.49 3.161e-3 -113.175 0.824 107.306
          3.278e-3 -113.118 0.31 -91.22 2.897e-3 -38.59
          0.825 107.244 2.927e-3 -39.453 0.145 136.688
6632.35 0.161 152.401 3.371e-3 -118.413 0.828 102.026
          3.285e-3 -115.706 0.312 -96.599 2.936e-3 -43.645
          0.82 102.266 2.836e-3 -40.47 0.143 132.868
6757.3 0.164 148.338 3.438e-3 -120.816 0.825 97.395
          3.439e-3 -119.867 0.312 -101.129 3.032e-3 -47.793
          0.823 97.469 2.91e-3 -47.593 0.146 128.796
6882.25 0.165 144.585 3.382e-3 -123.896 0.825 92.319
          3.382e-3 -124.745 0.312 -106.171 2.946e-3 -51.987
          0.825 92.564 2.998e-3 -53.078 0.147 125.733
7007.2 0.165 140.277 3.438e-3 -126.767 0.82 87.789
          3.293e-3 -124.674 0.311 -111.268 3.122e-3 -58.476
          0.825 87.812 3.102e-3 -57.844 0.146 120.014
7132.15 0.168 135.907 3.502e-3 -131.66 0.824 82.734
          3.662e-3 -132.547 0.312 -116.765 3.236e-3 -63.235
          0.822 82.857 3.131e-3 -61.584 0.146 116.108
7257.1 0.17 132.338 3.513e-3 -135.916 0.825 78.264
          3.552e-3 -134.934 0.312 -121.55 3.102e-3 -66.491
          0.819 78.173 3.173e-3 -68.815 0.151 112.816
7382.05 0.169 127.589 3.586e-3 -139.142 0.822 73.316
          3.52e-3 -138.797 0.311 -126.435 3.257e-3 -72.679
          0.82 73.066 3.117e-3 -73.159 0.15 108.637
7507 0.17 122.52 3.764e-3 -143.546 0.817 68.465
          3.666e-3 -144.48 0.309 -131.387 3.32e-3 -79.446
          0.821 68.495 3.288e-3 -79.439 0.147 103.381
7631.95 0.174 117.959 3.872e-3 -148.491 0.817 63.446
          3.714e-3 -148.078 0.311 -137.125 3.384e-3 -81.783
          0.818 63.362 3.317e-3 -79.94 0.152 100.489
7756.9 0.175 114.694 3.748e-3 -152.32 0.821 58.815
          3.766e-3 -151.655 0.31 -142.018 3.587e-3 -88.41
          0.818 58.776 3.36e-3 -86.811 0.156 96.884
7881.85 0.174 109.799 3.812e-3 -155.38 0.817 53.66
          3.879e-3 -155.624 0.311 -147.112 3.533e-3 -94.826
          0.815 53.655 3.525e-3 -94.719 0.155 92.728
8006.8 0.176 105.412 3.885e-3 -160.617 0.819 49.367
          3.788e-3 -157.876 0.311 -152.212 3.591e-3 -99.586
          0.817 49.023 3.617e-3 -97.181 0.156 89.235
8131.75 0.178 101.224 3.873e-3 -163.619 0.815 44.077
          3.939e-3 -163.169 0.313 -157.193 3.631e-3 -104.393
          0.82 43.982 3.64e-3 -103.986 0.155 85.624
8256.7 0.179 97.052 3.995e-3 -167.708 0.814 39.463
          3.912e-3 -165.342 0.312 -161.956 3.669e-3 -108.524
          0.816 39.495 3.656e-3 -111.258 0.157 80.422
8381.65 0.182 91.864 3.916e-3 -170.738 0.812 34.238
          3.883e-3 -172.645 0.311 -167.59 3.725e-3 -113.811
          0.811 34.345 3.753e-3 -114.094 0.16 76.894
8506.6 0.183 88.893 3.988e-3 -175.418 0.813 29.822
          3.997e-3 -175.748 0.312 -172.638 3.824e-3 -117.854
          0.811 29.765 3.844e-3 -117.701 0.161 73.543
8631.55 0.182 84.962 4.033e-3 179.698 0.813 24.684
          4.058e-3 -179.656 0.312 -177.93 3.882e-3 -125.535
          0.814 24.876 3.838e-3 -123.823 0.163 68.224
8756.5 0.182 80.169 4.131e-3 175.114 0.813 20.148
          4.07e-3 177.698 0.311 177.551 4.03e-3 -127.232
          0.812 20.112 3.991e-3 -129.544 0.166 63.944
8881.45 0.185 75.516 4.135e-3 173.084 0.811 15.115
          4.132e-3 171.882 0.311 172.083 3.972e-3 -133.735
          0.809 15.07 4.011e-3 -133.999 0.167 59.688
9006.4 0.185 71.689 4.129e-3 169.467 0.809 10.605
          4.021e-3 167.741 0.31 167.097 3.99e-3 -140.421
          0.81 10.459 4.153e-3 -139.084 0.167 56.726
9131.35 0.186 66.584 4.227e-3 164.516 0.81 5.192
          4.2e-3 164.631 0.311 161.713 4.034e-3 -144.565
          0.81 5.289 4.167e-3 -144.462 0.173 51.108
9256.3 0.189 62.193 4.173e-3 161.977 0.812 0.792
          4.226e-3 160.536 0.31 156.762 4.203e-3 -148.135
          0.811 0.676 4.202e-3 -148.977 0.171 48.008
9381.25 0.191 58.466 4.107e-3 159.336 0.811 -4.199
          4.263e-3 156.928 0.31 151.151 4.205e-3 -154.872
          0.81 -4.296 4.241e-3 -156.223 0.174 43.398
9506.2 0.192 54.144 4.317e-3 153.566 0.807 -9.101
          4.214e-3 153.382 0.311 146.136 4.26e-3 -159.211
          0.809 -8.93 4.184e-3 -158.625 0.172 39.466
9631.15 0.195 49.197 4.295e-3 149.174 0.808 -14.179
          4.219e-3 149.898 0.312 140.733 4.268e-3 -166.033
          0.804 -14.185 4.361e-3 -165.454 0.179 35.753
9756.1 0.201 45.022 4.275e-3 146.855 0.807 -18.581
          4.23e-3 143.105 0.314 135.553 4.264e-3 -167.171
          0.807 -18.729 4.186e-3 -168.632 0.182 32.825
9881.05 0.206 41.789 4.259e-3 141.556 0.809 -23.656
          4.21e-3 141.927 0.315 130.581 4.335e-3 -172.078
          0.81 -23.764 4.248e-3 -172.977 0.18 27.883
10006 0.209 38.201 4.281e-3 138.214 0.803 -28.922
          4.298e-3 137.264 0.314 125.075 4.347e-3 -178.704
          0.803 -28.834 4.521e-3 -178.565 0.187 23.352
10130.95 0.21 33.771 4.364e-3 132.877 0.804 -34.015
          4.233e-3 133.187 0.315 119.345 4.477e-3 177.211
          0.804 -34.01 4.439e-3 175.562 0.188 17.755
10255.9 0.211 31.343 4.298e-3 130.031 0.802 -36.762
          4.271e-3 131.527 0.315 116.558 4.566e-3 174.648
          0.804 -36.685 4.502e-3 172.93 0.191 15.974
10380.85 0.215 26.401 4.252e-3 127.195 0.804 -41.814
          4.248e-3 126.091 0.316 111.229 4.629e-3 168.895
          0.805 -41.957 4.498e-3 167.498 0.189 11.638
10505.8 0.221 21.188 4.25e-3 122.564 0.805 -48.211
          4.256e-3 123.193 0.317 104.525 4.613e-3 161.316
          0.807 -48.194 4.63e-3 162.603 0.195 5.257
10630.75 0.227 16.482 4.2e-3 117.226 0.803 -53.616
          4.325e-3 117.242 0.317 98.604 4.603e-3 155.782
          0.803 -53.371 4.648e-3 157.268 0.196 0.96
10755.7 0.23 14.44 4.165e-3 117.269 0.804 -56.182
          4.246e-3 116.942 0.318 95.693 4.74e-3 153.328
          0.802 -56.17 4.687e-3 154.188 0.2 -1.194
10880.65 0.233 10.767 4.259e-3 114.357 0.805 -61.055
          4.277e-3 112.962 0.32 90.622 4.757e-3 147.985
          0.804 -60.99 4.683e-3 150.055 0.202 -6.035
11005.6 0.233 5.485 4.337e-3 108.638 0.805 -67.491
          4.375e-3 107.719 0.321 84.224 4.743e-3 142.257
          0.804 -67.348 4.648e-3 143.437 0.203 -12.936
11130.55 0.233 -0.336 4.4e-3 103.573 0.804 -72.808
          4.302e-3 104.08 0.323 78.621 4.822e-3 136.917
          0.802 -72.771 4.699e-3 136.968 0.201 -17.461
11255.5 0.233 -3.422 4.313e-3 102.382 0.804 -75.609
          4.309e-3 102.167 0.323 75.875 4.843e-3 135.058
          0.805 -75.51 4.676e-3 134.077 0.202 -19.929
11380.45 0.238 -9.655 4.374e-3 98.725 0.803 -80.522
          4.438e-3 98.239 0.325 70.708 4.784e-3 130.148
          0.804 -80.521 4.883e-3 130.993 0.202 -23.38
11505.4 0.246 -16.522 4.349e-3 94.415 0.802 -86.872
          4.456e-3 93.722 0.326 64.413 4.863e-3 124.04
          0.803 -86.902 4.903e-3 124.378 0.204 -28.887
11630.35 0.253 -21.468 4.378e-3 90.584 0.802 -92.336
          4.425e-3 91.106 0.326 58.492 4.906e-3 118.185
          0.805 -92.46 4.922e-3 117.957 0.203 -33.113
11755.3 0.255 -23.737 4.436e-3 89.925 0.803 -95.021
          4.4e-3 87.719 0.326 55.569 4.899e-3 116.109
          0.803 -95.118 4.902e-3 116.177 0.207 -35.511
11880.25 0.26 -28.075 4.386e-3 85.365 0.802 -99.839
          4.422e-3 83.954 0.33 50.304 4.78e-3 110.786
          0.803 -99.774 4.91e-3 111.581 0.211 -40.025
12005.2 0.264 -33.819 4.434e-3 80.701 0.802 -106.202
          4.426e-3 80.599 0.333 44.476 4.975e-3 105.213
          0.802 -106.118 4.988e-3 105.938 0.211 -45.844
12130.15 0.266 -38.854 4.318e-3 76.757 0.802 -111.44
          4.497e-3 77.003 0.334 39.071 5.018e-3 100.222
          0.802 -111.646 5.029e-3 99.466 0.213 -51.833
12255.1 0.265 -41.45 4.355e-3 75.211 0.8 -114.196
          4.4e-3 74.776 0.335 36.334 4.994e-3 97.523
          0.799 -114.316 5.076e-3 97.014 0.214 -53.315
12380.05 0.266 -46.609 4.352e-3 71.962 0.801 -119.177
          4.428e-3 70.904 0.336 31.325 5.125e-3 93.533
          0.802 -119.414 5.184e-3 93.004 0.21 -57.992
12505 0.268 -52.914 4.473e-3 68.257 0.801 -125.545
          4.502e-3 68.598 0.336 25.571 5.095e-3 86.645
          0.801 -125.457 5.092e-3 86.48 0.208 -63.974
12629.95 0.268 -58.069 4.491e-3 64.374 0.801 -131.084
          4.476e-3 63.52 0.337 19.89 5.271e-3 80.798
          0.801 -131.167 5.201e-3 80.917 0.212 -70.167
12754.9 0.267 -60.907 4.474e-3 62.192 0.799 -133.773
          4.55e-3 61.604 0.339 17.071 5.185e-3 77.671
          0.798 -133.785 5.127e-3 78.099 0.212 -70.895
12879.85 0.265 -66.178 4.523e-3 59.83 0.802 -138.754
          4.526e-3 59.359 0.343 12.809 5.232e-3 73.303
          0.801 -138.625 5.066e-3 72.591 0.209 -74.949
13004.8 0.264 -72.053 4.696e-3 54.598 0.802 -145.118
          4.702e-3 52.771 0.343 7.131 5.148e-3 65.301
          0.801 -144.731 5.24e-3 66.358 0.205 -81.557
13129.75 0.26 -77.424 4.657e-3 49.873 0.801 -150.609
          4.618e-3 48.973 0.343 1.463 5.248e-3 62.193
          0.801 -150.654 5.29e-3 61.021 0.204 -86.9
13254.7 0.256 -80.551 4.59e-3 47.924 0.801 -153.433
          4.589e-3 46.749 0.345 -0.83 5.183e-3 58.907
          0.803 -153.408 5.2e-3 58.006 0.202 -89.663
13379.65 0.257 -86.328 4.671e-3 43.763 0.801 -158.3
          4.591e-3 43.1 0.345 -5.215 5.179e-3 53.477
          0.803 -158.282 5.217e-3 53.418 0.2 -93.934
13504.6 0.257 -92.539 4.603e-3 38.441 0.8 -164.742
          4.618e-3 38.106 0.344 -11.309 5.109e-3 46.31
          0.802 -164.715 5.168e-3 47.979 0.198 -99.452
13629.55 0.255 -97.607 4.605e-3 35.571 0.802 -170.304
          4.591e-3 34.875 0.346 -17.246 5.03e-3 42.648
          0.802 -170.196 5.197e-3 42.958 0.199 -104.492
13754.5 0.254 -100.135 4.534e-3 33.979 0.802 -173.137
          4.62e-3 33.475 0.349 -19.444 5.1e-3 39.782
          0.801 -172.881 5.076e-3 39.586 0.197 -105.793
13879.45 0.253 -104.115 4.643e-3 30.89 0.801 -177.894
          4.584e-3 30.756 0.35 -23.594 5.111e-3 34.865
          0.802 -178.015 5.012e-3 34.971 0.194 -110.279
14004.4 0.246 -109.068 4.546e-3 27.462 0.8 175.691
          4.654e-3 27.244 0.349 -29.457 5.046e-3 28.545
          0.805 175.671 5.045e-3 29.437 0.188 -117.796
14129.35 0.238 -114.233 4.569e-3 22.818 0.801 170.186
          4.602e-3 23.318 0.35 -34.56 4.98e-3 22.556
          0.805 170.456 5.059e-3 23.61 0.188 -122.156
14254.3 0.237 -116.538 4.489e-3 22.908 0.801 167.421
          4.57e-3 21.34 0.349 -36.816 5.006e-3 21.115
          0.804 167.642 4.97e-3 21.116 0.183 -124.975
14379.25 0.234 -120.645 4.606e-3 20.613 0.806 162.387
          4.6e-3 20.855 0.348 -41.315 4.997e-3 15.984
          0.801 162.341 5.082e-3 16.519 0.18 -129.539
14504.2 0.226 -125.715 4.677e-3 16.623 0.805 156.06
          4.738e-3 17.768 0.35 -47.616 5.042e-3 9.914
          0.806 156.102 5.01e-3 10.775 0.175 -135.419
14629.15 0.219 -130.518 4.856e-3 13.589 0.806 150.498
          4.841e-3 13.65 0.35 -52.214 4.963e-3 5.286
          0.806 150.714 4.832e-3 5.312 0.17 -140.9
14754.1 0.217 -132.653 4.876e-3 11.08 0.806 147.786
          4.933e-3 11.615 0.349 -54.218 4.907e-3 2.899
          0.806 147.991 4.931e-3 2.605 0.166 -143.634
