! Hittite Microwave Corporation
! 20 Alpha Road
! Chelmsford, MA 01824
! Tel: 978-250-3343
! Fax: 978-250-3373
! Device: HMC321LP4, DC-8.0 GHz, GaAS MMIC SP8T Non-Reflective Positive 
!         Control Switch in Low Cost Leadless SMT Package
! Misc: Data was de-embedded to package pins.
!       Port 1 = RFC
!       Port 2 = RF1    Port 6 = RF5
!       Port 3 = RF2    Port 7 = RF6
!       Port 4 = RF3    Port 8 = RF7
!       Port 5 = RF4    Port 9 = RF8
!          Vee = +5 V
!         Vctl =  0 V[Logic 0] / +5 V[Logic 1]
!
!  RF5 Selected,  VA = 0,  VB = 0,  VC = 1
!
!  Data reformated to new Touchstone file format - Fri Jan 12 11:49:17 2007
!
# MHz S DB R 50
! 9 Port Network Data
! freq  dbS11  angS11  dbS12  angS12  dbS13  angS13  dbS14  angS14  
!       dbS15  angS15  dbS16  angS16  dbS17  angS17  dbS18  angS18  
!       dbS19  angS19  
!       dbS21  angS21  dbS22  angS22  dbS23  angS23  
!       dbS24  angS24  dbS25  angS25  dbS26  angS26  dbS27  angS27  
!       dbS28  angS28  dbS29  angS29  
!       dbS31  angS31  dbS32  angS32  
!       dbS33  angS33  dbS34  angS34  dbS35  angS35  dbS36  angS36  
!       dbS37  angS37  dbS38  angS38  dbS39  angS39  
!       dbS41  angS41  
!       dbS42  angS42  dbS43  angS43  dbS44  angS44  dbS45  angS45  
!       dbS46  angS46  dbS47  angS47  dbS48  angS48  dbS49  angS49  
!       dbS51  angS51  dbS52  angS52  dbS53  angS53  dbS54  angS54  
!       dbS55  angS55  dbS56  angS56  dbS57  angS57  dbS58  angS58  
!       dbS59  angS59  
!       dbS61  angS61  dbS62  angS62  dbS63  angS63  
!       dbS64  angS64  dbS65  angS65  dbS66  angS66  dbS67  angS67  
!       dbS68  angS68  dbS69  angS69  
!       dbS71  angS71  dbS72  angS72  
!       dbS73  angS73  dbS74  angS74  dbS75  angS75  dbS76  angS76  
!       dbS77  angS77  dbS78  angS78  dbS79  angS79  
!       dbS81  angS81  
!       dbS82  angS82  dbS83  angS83  dbS84  angS84  dbS85  angS85  
!       dbS86  angS86  dbS87  angS87  dbS88  angS88  dbS89  angS89  
!       dbS91  angS91  dbS92  angS92  dbS93  angS93  dbS94  angS94  
!       dbS95  angS95  dbS96  angS96  dbS97  angS97  dbS98  angS98  
!       dbS99  angS99  
!     
                54       -14.4707639             -0.533        -68.4134759            -28.799        -61.0935832             56.004        -68.0220023            108.588
                      -74.0535457           -151.272        -2.00358995             -1.339        -69.6587225             22.963        -67.0778096             90.123
                      -67.3427592              9.135
                      -63.8128466            -127.54       -0.175478486             -8.216        -71.9101676            115.776        -73.3917245           -133.615
                       -67.377215            -24.738        -69.7409784           -100.407        -72.6827557             157.44        -72.8794829            -86.681
                      -64.4630718           -123.761
                      -66.7845871           -143.406        -63.0732578             18.963       -0.175478486             -8.192        -69.9051473             -5.561
                      -64.5140412            -59.406        -72.5197052            103.098        -63.2167263             -1.347        -61.4279868             91.719
                      -69.6666488            179.549
                      -62.0496574              2.549        -68.7875225             80.813        -75.4938144            -60.861       -0.175478486             -8.215
                      -62.6553657            149.341        -64.8733647            -10.395        -68.3883425             52.226         -63.759122            -24.381
                      -67.8895895            -59.557
                      -61.4690355            -73.634        -71.9823357            106.915        -68.1431463            -84.002        -62.6177135             80.574
                     -0.184346164             -8.374        -64.6821605           -174.634        -63.3306828            -24.538        -67.7422046             48.853
                      -64.1493648             29.561
                      -1.98173865             -1.203        -69.4113929            -55.067        -71.3182072             -8.353        -66.1377777             25.173
                      -66.7203309            -21.325        -13.8500792              0.014        -66.8703697              34.76        -60.0864188             59.965
                      -70.1196925             44.382
                      -66.3138671            152.123        -69.2209888           -132.775        -73.5804665           -157.179        -65.0938188             125.08
                      -63.9664388            122.746        -71.1786719            133.973       -0.175478486             -8.159         -61.831372            -10.401
                      -71.2767471             -1.978
                      -62.5417312             85.356        -74.5260882           -127.873         -63.009155           -113.991        -70.8696428            -18.133
                      -66.7354073           -110.449         -62.300696              5.086        -64.5711903            -16.757       -0.184346164             -8.266
                       -65.251376            -74.444
                      -69.2360684             28.438        -65.1313727            -49.445        -66.9821984            -14.616        -64.9160922            -82.564
                       -62.247654           -163.094         -60.590273            127.281        -62.2679297             46.015        -64.7855206              1.704
                     -0.175478486             -8.235

             98.73       -14.4707639              1.445        -74.4340758             69.204         -73.609551           -139.622        -80.7573506             68.392
                       -78.555002           -154.302        -2.00358995              -2.77        -70.0145084             44.657        -72.7843462             14.656
                      -67.1546676             65.033
                      -73.0729405             37.616       -0.518981944            -14.417        -72.3813107             45.188         -70.562436           -114.215
                      -70.1447922             91.815        -75.8904993            -39.402        -81.1202225           -106.356        -75.7084209             -7.474
                      -71.8657908            153.824
                      -79.0078877            129.804        -70.0172601             99.821       -0.528207531            -14.337        -70.6360083             53.508
                       -69.504291             96.721        -86.2440718           -178.885         -72.206049            -33.799        -78.7183313             30.828
                      -74.7225465            -46.201
                      -67.0915546            115.051        -74.7178169           -170.595        -70.6626476             80.417       -0.518981944            -14.417
                       -68.603162             90.403        -73.1318281             50.997        -69.6428916             12.584        -72.6156829           -172.132
                       -69.421666           -120.507
                      -71.5219816            -31.094        -76.6536533            -15.914        -68.2435366             49.575        -65.9324526             95.911
                     -0.518981944            -14.808        -81.4290107             40.851        -68.3723862             45.561        -72.7164873            -21.789
                      -77.7882058            -41.926
                      -1.95994217             -2.678        -74.4569877             73.328        -77.5951041              5.126        -75.9611387            -83.163
                      -82.5708765             151.44        -13.8500792              1.189        -69.1484705             86.956        -68.9905409            -23.375
                      -79.3315249            -150.16
                      -69.4370984            148.256        -73.2388425            -62.422         -68.542568             78.001        -66.6677686             29.895
                      -87.0797718            107.974        -64.9237443             45.726       -0.500560114            -14.395        -71.9754367            130.711
                      -70.1895938            -70.769
                      -68.9758811              61.49        -71.8047179             -68.26         -71.958213            -61.559        -71.1441355             65.199
                      -73.8458015             32.273        -64.4109563             57.515        -73.1515464             36.347       -0.518981944            -14.495
                      -68.2750072             102.18
                      -67.7995795             62.331        -75.4680019           -143.259        -69.0052254             16.463        -69.2562155            -53.916
                      -79.9653257            129.955        -68.3360245             19.539        -72.9602109           -112.175        -71.4925767            142.804
                     -0.528207531            -14.449

            143.46        -14.424928              2.463        -65.4801348             83.367        -75.8580892             75.551        -84.5067415              74.42
                       -81.859301           -145.262        -2.01453625             -3.814        -70.2657245             68.505        -66.7637463             78.788
                       -69.724997              74.07
                      -66.1412999            104.988       -0.982970822             -19.79        -71.7844553             95.224        -74.5864233            141.139
                      -76.1263794            -72.231        -71.6306596             20.533        -78.2160327            124.448        -69.9705986            -74.195
                      -81.7300808            -64.413
                      -70.6596836              61.69        -72.8374943             76.488       -0.992702912            -19.731        -71.1629565             56.903
                      -84.6021193             49.434        -76.0433661            164.433        -74.7414906             78.323        -73.8031399             30.979
                      -89.4913289            -11.462
                      -76.0323574             100.92        -75.8634825              -6.74        -68.8282283              79.27       -0.963539294            -19.927
                      -71.1786719              57.55        -77.5425815             99.565         -73.335086            -78.663        -74.3702422            -23.362
                      -78.0479134            -50.879
                      -75.5508733            178.174        -74.7842666              8.167        -70.3797516            114.358        -66.2797942             67.429
                     -0.973249624            -20.449        -74.9575089            -62.878        -77.8761821           -144.036        -80.6294071           -147.186
                      -71.5613437            -89.967
                      -1.97083357             -3.753        -81.7470579            -52.051        -78.8390754             -62.96        -72.8948019            -54.312
                      -81.6372955            159.415        -13.8500792              2.142        -64.3735109             107.25        -71.1629565             62.759
                      -71.2070314             37.943
                      -78.9461212             29.981        -74.8945499            -14.487        -80.6322092             57.273        -81.1162708            101.042
                      -82.5650396           -124.182        -64.3347953             95.021       -0.963539294            -19.904        -73.7437635             87.247
                      -71.0972606             58.614
                      -66.2726379             81.985         -76.869017            124.313         -71.059942            -98.496        -76.5479414            -71.074
                       -77.457904            -72.898         -72.453875             19.261        -73.4896867             67.237       -0.973249624            -19.937
                      -78.7408433             99.734
                      -64.9559569             52.062        -71.5876846           -115.375        -74.4524005           -149.791         -73.672205            -71.651
                      -69.9569221             41.686         -68.254763             19.446        -72.5344021             45.184        -72.3021841             29.907
                     -0.982970822            -19.835

            188.19       -14.3339754              3.247        -67.5640155             87.499        -74.6565654            109.956        -81.7322011             74.739
                      -74.3611613              16.41        -2.02549637             -4.849        -67.6767937             40.253        -65.3827402             65.114
                      -64.6035948             77.267
                      -65.5276033            105.138        -1.55587445            -24.289        -70.5976729             65.061        -76.4839673              96.11
                      -81.8636057           -123.821        -68.4777821             40.536        -73.0066803            175.151        -74.6753661            164.265
                      -73.4364868             26.894
                      -72.7767801             64.074        -72.0446749             63.534        -1.55587445            -24.223        -70.0531124              66.12
                      -80.2645653             58.796        -76.0433661             67.567        -81.6761868             107.07        -78.2728034             19.252
                      -80.4510155           -141.029
                      -80.8077258            148.658        -80.9267387             65.881        -68.8956919             63.977        -1.51441428            -24.531
                      -66.9126182             58.783        -78.6884057             45.871        -83.9925329            -82.812        -78.8771548             95.525
                      -80.6527852             39.476
                      -88.8546694           -140.975         -93.655453            176.391        -78.2301906             80.484        -66.3969172             81.997
                      -1.54549084            -25.246         -83.673848             72.444        -75.6345429            -59.946        -71.6605365             13.423
                      -76.4262152             10.347
                      -1.98173865             -4.779        -73.9360789             31.117        -87.4220087             94.055        -81.5975335            -57.413
                      -81.2176056            122.667        -13.8073967              2.636         -61.853923             90.472        -69.9678616              51.54
                      -68.6948531             36.723
                      -65.5637877             39.045        -76.8327502             -5.751        -71.9375896              51.14         -74.093057           -110.082
                      -75.8204297            -10.139        -62.7502167              79.22        -1.51441428            -24.586        -69.3883228             68.948
                      -80.5809813            -169.55
                       -65.615032             59.786        -73.8714994             80.196        -75.5300812           -126.003        -82.2679297            169.339
                      -76.9481184           -160.996        -68.2952987             55.794        -67.8487551             82.649        -1.53511963            -24.526
                      -69.8374893             91.102
                       -64.959031              66.37        -76.4897637             122.78        -80.4455279             53.938        -77.4903747            -80.062
                       -74.424928           -113.476        -68.4847004             35.026         -77.290986             120.56        -67.4855218            109.143
                      -1.55587445            -24.323

            232.92       -14.2439654              3.421        -62.8859834            113.462         -73.659638             87.945        -74.4615774              9.909
                      -78.1385739             11.191        -2.01453625             -5.911         -64.855117             26.429        -65.6749235             55.382
                      -64.0865699             71.386
                      -64.5169628              93.82        -2.15810795            -27.739         -75.734959             82.135        -85.0782191            161.651
                      -79.1721463            -77.532        -69.4525583             39.572        -72.0655544           -134.172        -78.7860432             79.402
                      -86.9686252            104.557
                      -70.5712319              87.36        -71.9135907             68.405        -2.16925085            -27.648        -73.5556141             54.499
                      -89.3857632            152.821        -74.9332399              9.438        -75.3808089            -20.646         -74.212681             10.808
                      -80.3591004              168.3
                      -80.7953425            110.102        -78.8771548            -18.036        -69.1709114             91.096        -2.11367875            -28.144
                      -65.5177609              88.13        -78.1596306            107.444        -70.6507978            134.836        -75.5508733             14.322
                      -79.2196536            -44.717
                      -79.7264061             53.644        -75.1045648             45.644        -72.7881317             122.51        -65.4817674             87.706
                      -2.13586494            -29.021        -76.7248495             92.586        -81.5206207           -170.371        -76.5830359             68.398
                      -83.6844616            -81.648
                      -1.97083357              -5.91        -71.7172528              46.64        -86.8397721              93.58        -74.3611613             33.542
                      -77.1334574             81.706        -13.8073967              3.017        -60.4035714             93.095        -67.0582114             38.681
                       -65.496474             28.454
                      -64.4587169             18.202        -83.0275977           -115.716        -77.9650585            -59.042        -77.5688031              17.78
                      -76.1430777             -30.17         -60.975193             85.981        -2.11367875            -28.253        -66.7675318             94.621
                      -80.2744209             88.608
                      -66.9919066             59.016         -78.322784            169.624        -87.7464416             96.665        -81.6268141            -31.909
                      -86.6341458            -65.917        -66.5672881              57.73        -64.6747182             86.885        -2.14697932            -28.114
                      -64.6687689             85.607
                      -63.9022251             69.429        -74.4021004            160.667        -85.9015542           -177.898        -82.8763015            115.689
                      -82.4525731           -140.637        -67.9327815             39.821        -76.9910118           -163.408        -67.3488297             89.992
                      -2.16925085            -27.769

            277.65       -14.1106755               4.04        -62.3086237              98.07        -72.6008479             68.477        -76.6832475             41.683
