!Hittite Microwave Corporation								
!12 Elizabeth Drive								
!Chelmsford, MA 01824								
!Tel: 978-250-3343								
!Fax: 978-250-3373								
!Device: HMC396, DC-8 GHz InGaP HBT Gain Block MMIC Amplifier								
!Misc: Vdd=+5V, Data includes (two) K connectors, Room								
!
# MHZ S MA R 50

50 0.11 8.222 4.043 178.954 0.157 0.248 0.114 -2.099
99.75 0.107 4.859 4.045 178.005 0.156 -0.422 0.113 -5.423
149.5 0.103 1.501 4.047 177.056 0.156 -1.093 0.111 -8.749
199.25 0.1 -1.854 4.049 176.106 0.156 -1.764 0.11 -12.078
249 0.088 -3.236 4.033 175.166 0.155 -2.065 0.112 -12.214
298.75 0.088 -0.799 4.029 174.477 0.155 -2.007 0.111 -16.031
348.5 0.088 -2.584 4.028 173.577 0.155 -2.309 0.11 -17.021
398.25 0.09 -5.636 4.026 172.608 0.155 -2.799 0.11 -18.317
448 0.09 -4.7 4.022 171.808 0.155 -3.122 0.109 -21.518
497.75 0.089 0.787 4.019 170.937 0.155 -3.183 0.107 -26.004
547.5 0.089 2.144 4.02 169.957 0.155 -3.434 0.106 -28.814
597.25 0.089 -1.317 4.019 169.247 0.155 -3.97 0.105 -29.863
647 0.087 -4.194 4.013 168.446 0.155 -4.256 0.103 -31.473
696.75 0.087 -1.567 4.016 167.255 0.155 -4.199 0.102 -35.703
746.5 0.088 0.536 4.023 166.324 0.155 -4.953 0.102 -38.054
796.25 0.089 -2.681 4.012 166.154 0.155 -5.059 0.102 -39.939
846 0.089 -5.734 4.009 164.623 0.155 -5.115 0.102 -41.813
895.75 0.089 -3.553 4.023 163.471 0.155 -5.847 0.102 -45.311
945.5 0.091 -1.366 4.018 163.68 0.155 -5.676 0.102 -48.898
995.25 0.092 -4.186 4.006 162.11 0.155 -6.268 0.102 -49.424
1045 0.093 -8.176 4.021 160.808 0.155 -6.599 0.102 -51.372
1094.75 0.093 -6.985 4.024 160.555 0.155 -6.44 0.102 -54.819
1144.5 0.095 -4.332 4.014 159.854 0.155 -7.295 0.102 -58.682
1194.25 0.097 -6.398 4.017 158.521 0.155 -7.287 0.101 -59.885
1244 0.097 -9.949 4.025 157.25 0.154 -7.302 0.1 -61.069
1293.75 0.096 -9.573 4.027 157.266 0.155 -8.214 0.099 -64.989
1343.5 0.098 -6.92 4.021 156.413 0.155 -8.069 0.098 -68.543
1393.25 0.099 -8.921 4.023 154.639 0.155 -8.212 0.097 -71.206
1443 0.099 -11.368 4.031 153.957 0.155 -8.872 0.096 -72.046
1492.75 0.099 -11.121 4.033 153.7 0.155 -9.227 0.095 -76.377
1542.5 0.1 -9.94 4.032 152.537 0.155 -9.044 0.094 -80.435
1592.25 0.101 -10.716 4.022 151.312 0.155 -9.51 0.093 -82.711
1642 0.101 -14.066 4.041 150.068 0.154 -10.08 0.092 -85.72
1691.75 0.101 -14.154 4.038 149.874 0.155 -10.584 0.091 -88.773
1741.5 0.103 -11.788 4.022 149.369 0.155 -9.835 0.091 -92.821
1791.25 0.104 -14.649 4.03 146.753 0.155 -10.783 0.092 -96.35
1841 0.104 -16.97 4.04 147.336 0.155 -12.171 0.092 -99.415
1890.75 0.104 -18.037 4.026 146.118 0.155 -10.206 0.092 -102.335
1940.5 0.106 -18.129 4.026 144.586 0.155 -12.148 0.092 -104.447
1990.25 0.107 -20.457 4.035 144.647 0.155 -12.521 0.093 -107.674
2040 0.108 -23.37 4.025 142.893 0.155 -11.646 0.094 -109.508
2089.75 0.109 -24.156 4.026 142.285 0.155 -13.344 0.095 -114.216
2139.5 0.111 -26.055 4.023 141.638 0.155 -13.026 0.096 -116.503
2189.25 0.114 -27.142 4.025 140.143 0.155 -12.988 0.096 -117.896
2239 0.115 -30.139 4.024 140.075 0.154 -14.057 0.097 -120.451
2288.75 0.116 -31.291 4.015 138.857 0.155 -14.167 0.098 -124.417
2338.5 0.118 -31.661 4.022 137.279 0.155 -13.892 0.099 -127.874
2388.25 0.119 -33.747 4.027 137.282 0.154 -14.631 0.1 -129.61
2438 0.12 -36.109 4.022 136.534 0.154 -15.02 0.1 -130.748
2487.75 0.12 -37.828 4.014 135.161 0.155 -15.731 0.101 -134.558
2537.5 0.122 -38.36 4.03 133.874 0.154 -14.777 0.102 -139.331
2587.25 0.124 -39.533 4.039 133.508 0.154 -15.644 0.102 -140.215
2637 0.125 -44.522 4.016 133.732 0.155 -17.546 0.103 -143.306
2686.75 0.125 -43.772 4.029 130.387 0.154 -14.851 0.104 -146.491
2736.5 0.127 -43.442 4.05 131.012 0.154 -17.075 0.105 -148.692
2786.25 0.128 -46.815 4.029 131.011 0.155 -17.718 0.108 -154.2
2836 0.129 -49.578 4.03 127.605 0.154 -16.027 0.107 -154.864
2885.75 0.13 -51.326 4.051 128.433 0.154 -18.578 0.109 -156.875
2935.5 0.132 -52.315 4.038 127.702 0.154 -17.597 0.112 -161.523
2985.25 0.133 -54.51 4.029 125.662 0.153 -17.518 0.114 -163.814
3035 0.134 -56.932 4.045 125.111 0.154 -19.124 0.115 -165.553
3084.75 0.136 -60.034 4.044 124.279 0.154 -17.769 0.117 -167.921
3134.5 0.137 -60.595 4.036 123.964 0.153 -19.04 0.119 -170.942
3184.25 0.138 -61.93 4.032 122.243 0.154 -19.656 0.121 -173.395
3234 0.14 -65.448 4.036 120.896 0.155 -19.05 0.123 -175.257
3283.75 0.141 -68.147 4.049 120.727 0.153 -19.157 0.124 -177.355
3333.5 0.142 -70.116 4.034 120.553 0.154 -21.05 0.126 179.933
3383.25 0.143 -71.293 4.031 118.476 0.154 -20.455 0.128 177.823
3433 0.145 -73.803 4.038 117.41 0.154 -19.547 0.131 175.311
3482.75 0.146 -76.611 4.059 116.798 0.153 -21.072 0.132 172.547
3532.5 0.147 -78.661 4.034 116.827 0.154 -21.954 0.133 170.755
3582.25 0.149 -79.688 4.027 115.019 0.154 -21.356 0.136 168.301
3632 0.151 -83.077 4.053 112.62 0.153 -19.422 0.138 164.68
3681.75 0.151 -84.454 4.046 114.39 0.154 -24.594 0.138 163.732
3731.5 0.153 -86.267 4.028 111.633 0.155 -21.51 0.141 160.359
3781.25 0.155 -88.386 4.043 111.25 0.153 -20.947 0.142 159.017
3831 0.155 -91.025 4.044 110.489 0.153 -24.964 0.145 155.615
3880.75 0.158 -93.134 4.029 108.881 0.155 -21.989 0.147 153.978
3930.5 0.159 -95.699 4.045 108.52 0.154 -23.243 0.149 151.146
3980.25 0.161 -97.502 4.042 107.481 0.153 -23.952 0.152 149.113
4030 0.163 -100.103 4.026 106.485 0.154 -24.019 0.154 148.599
4079.75 0.165 -103.213 4.03 105.063 0.154 -24.072 0.156 145.467
4129.5 0.167 -105.259 4.044 104.358 0.154 -23.98 0.158 143.639
4179.25 0.169 -107.083 4.026 103.865 0.153 -25.596 0.16 141.351
4229 0.172 -109.566 4.017 102.522 0.154 -24.542 0.162 140.299
4278.75 0.174 -112.666 4.028 101.082 0.154 -25.334 0.164 138.626
4328.5 0.176 -114.667 4.033 100.545 0.153 -25.27 0.166 135.89
4378.25 0.177 -116.209 4.008 100.367 0.154 -26.194 0.167 134.046
4428 0.179 -118.789 4.014 97.89 0.154 -26.617 0.169 131.801
4477.75 0.183 -121.954 4.022 97.46 0.154 -25.269 0.17 131.012
4527.5 0.183 -123.857 4.007 97.17 0.154 -27.592 0.171 128.103
4577.25 0.186 -125.438 3.991 95.599 0.155 -26.624 0.173 126.459
4627 0.188 -128.258 3.999 93.932 0.154 -27.742 0.174 124.478
4676.75 0.191 -130.934 4 93.609 0.154 -27.244 0.176 122.13
4726.5 0.193 -132.28 3.971 94.013 0.154 -27.622 0.177 120.918
4776.25 0.194 -134.297 3.964 90.568 0.154 -29.066 0.178 117.76
4826 0.199 -136.922 3.98 90.479 0.154 -27.205 0.18 116.305
4875.75 0.2 -138.533 3.97 90.963 0.154 -30.059 0.181 113.812
4925.5 0.202 -140.808 3.942 89.16 0.154 -28.646 0.182 112.829
4975.25 0.205 -142.951 3.946 87.193 0.154 -28.854 0.183 111.376
5025 0.207 -145.244 3.962 86.801 0.154 -30.564 0.185 108.415
5074.75 0.211 -147.744 3.942 87.555 0.154 -29.671 0.186 107.338
5124.5 0.212 -149.791 3.925 84.872 0.154 -30.652 0.186 104.703
5174.25 0.215 -151.632 3.931 83.768 0.155 -30.162 0.188 104.247
5224 0.218 -153.849 3.944 83.524 0.154 -31.449 0.189 102.174
5273.75 0.222 -156.681 3.921 83.127 0.154 -30.659 0.189 99.912
5323.5 0.222 -158.614 3.912 81.665 0.154 -32.581 0.188 98.107
5373.25 0.226 -160.471 3.93 79.64 0.154 -31.384 0.189 96.896
5423 0.232 -163.302 3.92 80.578 0.154 -31.242 0.191 96.598
5472.75 0.233 -165.976 3.898 78.508 0.154 -34.29 0.191 91.994
5522.5 0.236 -166.986 3.91 77.276 0.154 -31.881 0.19 90.648
5572.25 0.24 -168.613 3.914 77.283 0.153 -32.789 0.191 89.676
5622 0.244 -171.26 3.885 76.087 0.153 -33.625 0.193 88.805
5671.75 0.246 -173.372 3.888 74.187 0.154 -33.715 0.192 85.838
5721.5 0.249 -174.514 3.901 73.854 0.153 -33.759 0.19 82.745
5771.25 0.253 -176.294 3.882 73.788 0.153 -34.035 0.192 82.813
5821 0.257 -179.33 3.862 71.702 0.153 -34.722 0.192 80.218
5870.75 0.26 178.935 3.873 70.358 0.153 -34.306 0.194 79.204
5920.5 0.263 177.905 3.872 70.222 0.153 -35.199 0.192 75.898
5970.25 0.267 176.192 3.848 69.641 0.153 -35.307 0.192 74.698
6020 0.27 173.879 3.843 67.628 0.153 -35.233 0.193 73.827
6069.75 0.273 172.051 3.85 66.891 0.153 -35.588 0.191 70.537
6119.5 0.276 170.625 3.836 66.631 0.153 -36.19 0.19 69.532
6169.25 0.279 168.46 3.821 65.097 0.152 -35.83 0.188 66.936
6219 0.283 166.196 3.82 64.157 0.152 -36.232 0.191 66.651
6268.75 0.286 164.593 3.818 63.143 0.152 -37.016 0.189 63.474
6318.5 0.289 163.043 3.803 62.642 0.152 -36.44 0.187 61.608
6368.25 0.291 161.429 3.795 61.327 0.152 -37.181 0.188 61.563
6418 0.295 159.295 3.794 60.131 0.152 -37.471 0.186 58.009
6467.75 0.298 157.883 3.784 59.923 0.152 -37.162 0.184 55.912
6517.5 0.3 156.025 3.768 58.392 0.152 -37.812 0.181 53.165
6567.25 0.304 153.784 3.763 57.247 0.152 -38.113 0.183 53.057
6617 0.307 152.509 3.758 56.794 0.152 -38.137 0.181 50.862
6666.75 0.309 151.155 3.744 55.859 0.152 -38.434 0.179 47.303
6716.5 0.312 149.444 3.739 54.678 0.153 -38.732 0.177 44.998
6766.25 0.314 147.71 3.736 53.825 0.153 -38.899 0.176 43.413
6816 0.316 146.315 3.724 53.13 0.152 -39.112 0.178 43.134
6865.75 0.319 144.619 3.715 51.752 0.153 -39.376 0.174 37.958
6915.5 0.32 142.788 3.713 50.882 0.153 -39.793 0.172 35.769
6965.25 0.322 141.347 3.702 50.296 0.153 -39.775 0.17 34.914
7015 0.325 139.603 3.694 49.145 0.153 -39.843 0.172 33.675
7064.75 0.326 138.172 3.689 47.981 0.153 -40.249 0.169 29.083
7114.5 0.328 136.67 3.682 47.379 0.153 -41.242 0.162 23.732
7164.25 0.33 135.322 3.672 45.967 0.153 -40.02 0.164 25.898
7214 0.332 133.967 3.662 45.475 0.153 -40.714 0.162 23.009
7263.75 0.331 132.703 3.659 44.213 0.153 -42.648 0.16 19.288
7313.5 0.334 131.531 3.649 43.438 0.153 -39.837 0.152 14.866
7363.25 0.335 129.363 3.638 42.313 0.153 -42.284 0.151 12.71
7413 0.335 127.9 3.635 41.056 0.153 -42.55 0.155 14.339
7462.75 0.338 127.051 3.628 41.257 0.153 -41.114 0.15 8.548
7512.5 0.339 125.715 3.605 38.983 0.154 -42.703 0.147 4.224
7562.25 0.339 123.997 3.601 37.826 0.154 -42.35 0.143 1.065
7612 0.34 122.862 3.6 38.049 0.153 -43.251 0.145 1.338
7661.75 0.341 121.854 3.575 36.811 0.155 -42.918 0.142 -2.836
7711.5 0.342 120.558 3.564 35.284 0.154 -42.42 0.135 -9.412
7761.25 0.341 118.754 3.566 34.179 0.153 -44.237 0.134 -9.809
7811 0.342 117.226 3.555 34.159 0.155 -43.948 0.133 -11.926
7860.75 0.343 116.349 3.526 32.878 0.155 -43.502 0.131 -15.563
7910.5 0.344 114.442 3.527 31.43 0.154 -43.381 0.125 -22.178
7960.25 0.343 112.947 3.526 30.454 0.155 -45.943 0.128 -22.069
8010 0.344 112.239 3.49 30.427 0.156 -44.325 0.125 -25.98
8059.75 0.343 110.999 3.485 28.017 0.156 -44.604 0.124 -32.82
8109.5 0.344 109.497 3.484 28.305 0.155 -43.724 0.121 -35.823
8159.25 0.341 107.809 3.47 27.392 0.157 -47.214 0.122 -40.316
8209 0.34 107.169 3.445 25.648 0.157 -45.286 0.122 -38.733
8258.75 0.341 105.826 3.443 24.994 0.156 -43.451 0.117 -48.119
8308.5 0.337 103.999 3.439 23.472 0.157 -49.488 0.121 -52.005
8358.25 0.339 102.089 3.415 24.591 0.159 -44.514 0.116 -54.173
8408 0.337 101.289 3.389 21.892 0.157 -45.369 0.118 -57.339
8457.75 0.333 100.487 3.39 19.506 0.158 -49.408 0.123 -59.907
8507.5 0.336 98.274 3.385 21.737 0.159 -46.164 0.117 -69.493
8557.25 0.333 96.808 3.352 20.31 0.159 -46.616 0.116 -66.743
8607 0.332 95.156 3.344 17.932 0.159 -47.794 0.118 -68.891
8656.75 0.33 93.715 3.339 16.918 0.159 -48.544 0.118 -75.426
8706.5 0.329 93.064 3.315 16.542 0.16 -48.622 0.117 -83.576
8756.25 0.328 91.956 3.293 16.174 0.16 -47.262 0.116 -88.322
8806 0.326 90.532 3.28 15.083 0.159 -49.431 0.119 -86.721
8855.75 0.323 88.623 3.278 13.657 0.161 -50.332 0.123 -91.555
8905.5 0.323 87.511 3.251 13.097 0.161 -47.924 0.123 -97.245
8955.25 0.321 86.615 3.239 11.893 0.16 -48.651 0.124 -103.635
9005 0.318 84.747 3.233 11.385 0.163 -52.424 0.127 -100.549
9054.75 0.318 83.025 3.213 11.705 0.164 -48.506 0.126 -103.481
9104.5 0.313 81.625 3.196 8.368 0.162 -49.729 0.131 -111.029
9154.25 0.31 81.059 3.187 8.562 0.163 -52.405 0.132 -113.123
9204 0.309 78.64 3.187 8.316 0.166 -51.874 0.132 -114.191
9253.75 0.305 76.541 3.163 7.882 0.165 -50.804 0.132 -113.479
9303.5 0.302 76.259 3.147 5.972 0.163 -51.465 0.137 -121.557
9353.25 0.295 74.331 3.157 3.063 0.166 -56.267 0.142 -122.757
9403 0.298 71.458 3.145 6.874 0.167 -49.898 0.136 -126.663
9452.75 0.294 70.805 3.104 3.395 0.164 -51.865 0.141 -127.011
9502.5 0.287 68.177 3.114 1.305 0.166 -57.783 0.146 -126.47
9552.25 0.29 66.841 3.119 2.983 0.168 -52.103 0.145 -133.521
9602 0.287 66.016 3.065 0.997 0.165 -53.202 0.147 -133.579
9651.75 0.28 63.204 3.063 -1.036 0.166 -56.557 0.152 -136.486
9701.5 0.277 61.973 3.078 -0.45 0.169 -56.835 0.153 -137.112
9751.25 0.277 61.486 3.045 0.253 0.166 -53.608 0.153 -141.43
9801 0.27 58.144 3.02 -4.288 0.166 -57.469 0.16 -144.719
9850.75 0.267 55.477 3.04 -3.644 0.168 -57.015 0.158 -142.355
9900.5 0.267 54.505 3.029 -3.026 0.167 -55.453 0.162 -147.679
9950.25 0.266 53.544 3.019 -2.403 0.165 -53.886 0.166 -152.894
10000 0.265 52.595 3.008 -1.777 0.164 -52.316 0.171 -157.99
