!Hittite Microwave Corporation								
!12 Elizabeth Drive								
!Chelmsford, MA 01824								
!Tel: 978-250-3343								
!Fax: 978-250-3373								
!Device: HMC373LP3, 750-1000 MHz, GaAs PHEMT MMIC Low Noise Amplifier with Bypass Mode in leadless QFN SMT package																
!Misc: Vdd = 5V, LNA Mode, data is deembedded to the pins of the device, Room
!
# MHZ S MA R 50

50 0.986 -109.577 0.147 -74.137 1.119e-3 -112.877 0.993 -10.642
69.5 0.943 -93.605 0.356 -72.79 818.6e-6 -26.984 0.993 -14.846
89 0.919 -82.82 0.585 -74.315 843.5e-6 57.932 0.992 -19.113
108.5 0.904 -75.502 0.831 -77.344 1.104e-3 143.557 0.989 -23.475
128 0.884 -70.896 1.158 -80.871 2.25e-3 148.607 0.986 -28.034
147.5 0.869 -67.502 1.483 -84.86 3.477e-3 147.302 0.981 -32.675
167 0.854 -65.188 1.831 -89.107 4.846e-3 146.988 0.975 -37.434
186.5 0.835 -64.122 2.223 -93.594 6.75e-3 148.474 0.963 -42.369
206 0.818 -63.547 2.613 -98.403 8.87e-3 149.333 0.948 -47.326
225.5 0.801 -63.61 3.03 -103.533 0.011 148.35 0.932 -52.28
245 0.778 -64.166 3.446 -108.884 0.014 146.241 0.905 -57.418
264.5 0.755 -64.933 3.853 -114.484 0.017 143.772 0.875 -62.599
284 0.727 -66.113 4.263 -120.229 0.02 141.693 0.841 -67.642
303.5 0.698 -67.399 4.641 -126.116 0.024 139.089 0.803 -72.454
323 0.668 -68.809 5.004 -132.192 0.027 136.151 0.765 -77.264
342.5 0.636 -70.09 5.301 -138.158 0.031 133.454 0.724 -81.561
362 0.603 -71.226 5.562 -143.985 0.034 130.345 0.683 -85.658
381.5 0.571 -72.437 5.794 -149.774 0.038 126.954 0.64 -89.841
401 0.539 -73.087 5.952 -155.306 0.041 124.119 0.6 -93.269
420.5 0.509 -73.588 6.076 -160.626 0.045 121.125 0.56 -96.631
440 0.48 -74.024 6.164 -165.752 0.048 118.008 0.52 -99.894
459.5 0.454 -73.706 6.203 -170.465 0.051 115.453 0.485 -102.451
479 0.429 -73.398 6.225 -175.031 0.054 112.961 0.45 -104.894
498.5 0.407 -72.962 6.228 -179.384 0.057 110.584 0.416 -107.013
518 0.388 -72.091 6.213 176.518 0.059 108.27 0.386 -108.922
537.5 0.37 -71.182 6.173 172.534 0.062 106.134 0.357 -110.502
557 0.354 -70.1 6.101 168.742 0.064 104.318 0.33 -111.539
576.5 0.34 -68.935 6.03 165.411 0.067 102.556 0.307 -112.346
596 0.327 -67.818 5.956 162.196 0.069 100.858 0.284 -112.866
615.5 0.316 -66.715 5.878 159.099 0.071 99.328 0.264 -113.071
635 0.307 -65.636 5.795 156.175 0.073 97.91 0.246 -112.982
654.5 0.299 -64.6 5.707 153.359 0.076 96.551 0.229 -112.58
674 0.291 -63.588 5.608 150.771 0.078 95.315 0.214 -111.976
693.5 0.285 -62.686 5.518 148.24 0.08 94.1 0.201 -110.995
713 0.279 -61.877 5.432 145.77 0.082 92.918 0.189 -109.656
732.5 0.274 -61.17 5.346 143.558 0.084 91.928 0.179 -108.125
752 0.27 -60.54 5.255 141.412 0.086 91.016 0.17 -106.496
771.5 0.266 -59.988 5.162 139.305 0.088 90.142 0.163 -104.723
791 0.262 -59.497 5.076 137.195 0.09 89.17 0.155 -102.511
810.5 0.258 -59.111 4.987 135.294 0.092 88.266 0.149 -100.299
830 0.255 -58.832 4.898 133.568 0.093 87.418 0.145 -98.16
849.5 0.253 -58.602 4.828 131.758 0.095 86.655 0.141 -95.841
869 0.251 -58.352 4.751 129.992 0.097 85.851 0.138 -93.49
888.5 0.249 -58.08 4.665 128.282 0.099 85.005 0.135 -91.164
908 0.247 -57.84 4.597 126.713 0.101 84.349 0.134 -88.946
927.5 0.245 -57.724 4.529 125.134 0.103 83.654 0.133 -86.687
947 0.243 -57.691 4.457 123.52 0.105 82.872 0.132 -84.318
966.5 0.242 -57.602 4.387 122.055 0.107 82.338 0.132 -82.482
986 0.24 -57.598 4.318 120.625 0.109 81.787 0.132 -80.713
1005.5 0.237 -57.618 4.251 119.215 0.11 81.098 0.133 -78.831
1025 0.236 -57.704 4.189 117.866 0.112 80.576 0.134 -77.354
1044.5 0.234 -57.895 4.129 116.549 0.114 80.054 0.135 -75.984
1064 0.232 -58.175 4.068 115.28 0.116 79.37 0.136 -74.47
1083.5 0.23 -58.466 4.003 113.968 0.118 78.881 0.138 -73.337
1103 0.228 -58.809 3.94 112.677 0.12 78.433 0.139 -72.364
1122.5 0.225 -59.216 3.894 111.615 0.122 77.735 0.141 -71.151
1142 0.222 -59.68 3.848 110.561 0.124 77.213 0.143 -70.065
1161.5 0.22 -60.209 3.804 109.492 0.126 76.79 0.145 -69.099
1181 0.219 -60.775 3.762 108.208 0.128 76.26 0.148 -68.349
1200.5 0.217 -61.465 3.711 107.013 0.13 75.7 0.151 -67.696
1220 0.215 -62.28 3.656 105.889 0.132 75.109 0.154 -67.138
1239.5 0.213 -63.091 3.61 104.809 0.133 74.822 0.156 -66.774
1259 0.211 -63.959 3.563 103.774 0.135 74.409 0.159 -66.395
1278.5 0.21 -64.873 3.513 102.794 0.138 73.851 0.161 -65.997
1298 0.209 -65.848 3.476 101.797 0.139 73.217 0.164 -65.581
1317.5 0.207 -66.886 3.436 100.817 0.141 72.737 0.167 -65.372
1337 0.206 -67.985 3.391 99.872 0.143 72.52 0.169 -65.428
1356.5 0.205 -69.038 3.357 98.9 0.145 72.127 0.172 -65.186
1376 0.204 -70.14 3.322 97.882 0.147 71.6 0.175 -64.99
1395.5 0.202 -71.324 3.28 96.784 0.149 70.853 0.178 -64.966
1415 0.201 -72.51 3.238 95.825 0.151 70.325 0.181 -65.18
1434.5 0.2 -73.738 3.195 94.915 0.152 69.912 0.184 -65.409
1454 0.199 -75.024 3.153 94.039 0.154 69.673 0.186 -65.455
1473.5 0.197 -76.344 3.118 93.296 0.157 69.13 0.189 -65.428
1493 0.197 -77.72 3.088 92.583 0.159 68.447 0.191 -65.433
1512.5 0.196 -79.196 3.068 91.73 0.16 67.75 0.194 -65.677
1532 0.195 -80.649 3.045 90.784 0.161 67.448 0.197 -65.915
1551.5 0.194 -82.123 3.018 89.777 0.164 67.355 0.2 -66.156
1571 0.193 -83.824 2.983 88.714 0.166 66.786 0.203 -66.471
1590.5 0.192 -85.564 2.947 87.795 0.168 66.123 0.206 -66.835
1610 0.191 -87.337 2.911 86.999 0.17 65.379 0.209 -67.227
1629.5 0.191 -89.009 2.878 86.142 0.171 65.159 0.211 -67.69
1649 0.191 -90.783 2.846 85.403 0.172 64.976 0.213 -68.025
1668.5 0.191 -92.665 2.818 84.802 0.175 64.836 0.215 -68.221
1688 0.191 -94.622 2.803 83.988 0.177 63.89 0.218 -68.61
1707.5 0.191 -96.592 2.782 83.111 0.178 63.163 0.221 -69.075
1727 0.191 -98.546 2.75 82.164 0.179 62.899 0.223 -69.614
1746.5 0.192 -100.457 2.729 81.391 0.181 62.93 0.225 -69.998
1766 0.192 -102.423 2.706 80.555 0.184 62.701 0.228 -70.405
1785.5 0.194 -104.502 2.677 79.512 0.188 61.775 0.231 -70.936
1805 0.195 -106.566 2.645 78.736 0.189 61.086 0.234 -71.577
1824.5 0.196 -108.609 2.614 78.048 0.19 60.557 0.236 -72.202
1844 0.197 -110.551 2.588 77.393 0.191 60.331 0.238 -72.713
1863.5 0.198 -112.482 2.568 76.724 0.194 59.952 0.24 -73.133
1883 0.2 -114.44 2.551 76.031 0.197 59.435 0.243 -73.575
1902.5 0.202 -116.545 2.533 75.232 0.198 58.532 0.246 -74.332
1922 0.204 -118.61 2.516 74.398 0.199 58.042 0.248 -74.982
1941.5 0.206 -120.645 2.499 73.528 0.2 57.8 0.249 -75.563
1961 0.209 -122.551 2.47 72.496 0.203 57.444 0.252 -76.124
1980.5 0.211 -124.533 2.444 71.715 0.205 56.933 0.254 -76.722
2000 0.213 -126.577 2.421 71.149 0.206 56.289 0.256 -77.345
