!Hittite Microwave Corporation								
!12 Elizabeth Drive								
!Chelmsford, MA 01824								
!Tel: 978-250-3343								
!Fax: 978-250-3373								
!Device: HMC375LP3, 1.7-2.2 GHz, GaAs MMIC Low Noise Amplifier in leadless QFN SMT package																
!Misc: Vs = 5V, data is deembedded to the pins of the device, Room
!
# MHZ S MA R 50

50 1.108 -137.698 0.025 84.014 0.03 73.114 1.001 -2.399
99.5 1.016 -104.288 4.71e-3 -26.114 0.011 48.153 1.003 -5.606
149 0.974 -81.128 3.04e-3 -159.061 3.147e-3 -4.069 0.999 -8.312
198.5 0.98 -67.723 6.624e-3 -129.739 1.471e-3 -83.438 1 -11.054
248 0.986 -59.867 0.016 -96.507 2.617e-3 22.646 1.001 -13.805
297.5 0.989 -56.003 0.045 -93.28 2.294e-3 -124.561 1 -16.689
347 0.987 -55.094 0.09 -98.626 236.3e-6 133.804 0.999 -19.503
396.5 0.965 -56.536 0.18 -106.066 366e-6 101.95 0.998 -22.359
446 0.91 -59.87 0.313 -117.115 585.4e-6 152.5 0.997 -25.185
495.5 0.807 -63.992 0.515 -132.877 469e-6 64.809 0.994 -28.205
545 0.65 -64.698 0.749 -150.206 710.4e-6 -61.14 0.993 -31.138
594.5 0.512 -57.659 0.98 -167.675 372.9e-6 -14.801 0.99 -34.182
644 0.459 -42.782 1.175 176.698 506.6e-6 94.918 0.987 -37.315
693.5 0.494 -31.106 1.358 164.908 515.5e-6 39.543 0.981 -40.545
743 0.551 -25.736 1.545 156.664 503.8e-6 45.011 0.975 -43.972
792.5 0.607 -24.301 1.757 147.708 666.4e-6 48.288 0.967 -47.478
842 0.652 -24.874 2.063 142.898 1.408e-3 -2.402 0.953 -51.188
891.5 0.689 -26.605 2.452 136.054 1.684e-3 5.824 0.937 -54.944
941 0.716 -29.295 2.865 130.195 1.576e-3 -2.561 0.914 -58.828
990.5 0.734 -32.733 3.594 120.603 2.739e-3 -12.652 0.883 -62.673
1040 0.739 -36.876 4.289 112.076 4.208e-3 -34.547 0.846 -65.986
1089.5 0.729 -41.42 5.061 99.494 4.766e-3 -39.346 0.808 -68.69
1139 0.702 -45.874 5.895 87.21 6.159e-3 -61.786 0.777 -71.016
1188.5 0.664 -49.861 6.534 73.918 7.371e-3 -78.969 0.756 -73.191
1238 0.62 -53.034 7.129 62.862 8.288e-3 -89.605 0.741 -75.796
1287.5 0.577 -55.346 7.403 49.011 9.045e-3 -101.012 0.725 -79.007
1337 0.537 -57.196 7.934 39.331 9.452e-3 -108.612 0.709 -83.047
1386.5 0.502 -58.676 8.141 27.389 0.011 -119.795 0.683 -87.693
1436 0.471 -60.111 8.397 17.904 0.011 -125.45 0.653 -93.025
1485.5 0.441 -61.443 8.789 6.617 0.012 -133.736 0.614 -98.808
1535 0.414 -63.041 8.948 -2.634 0.013 -142.393 0.566 -105.341
1584.5 0.389 -64.717 9.096 -13.254 0.014 -146.618 0.507 -112.403
1634 0.364 -66.597 9.193 -24.634 0.015 -155.699 0.442 -120.065
1683.5 0.338 -68.746 9.195 -33.5 0.015 -160.831 0.369 -128.852
1733 0.313 -70.993 9.069 -44.867 0.016 -166.916 0.291 -138.959
1782.5 0.285 -73.302 8.784 -54.117 0.017 -174.006 0.211 -151.726
1832 0.259 -75.66 8.596 -64.903 0.018 -179.055 0.134 -170.733
1881.5 0.232 -77.298 8.206 -73.436 0.018 174.736 0.081 145.262
1931 0.205 -78.731 7.785 -82.76 0.018 170.909 0.091 84.499
1980.5 0.182 -79.334 7.389 -90.899 0.019 164.525 0.146 53.295
2030 0.16 -79.026 6.892 -99.224 0.018 160.664 0.209 38.499
2079.5 0.143 -78.175 6.498 -106.458 0.018 155.908 0.268 28.347
2129 0.128 -76.554 6.027 -113.212 0.019 150.068 0.324 20.678
2178.5 0.117 -75.035 5.606 -120.418 0.019 147.41 0.373 14.554
2228 0.11 -73.741 5.259 -126.191 0.019 142.875 0.416 9.213
2277.5 0.105 -73.103 4.869 -132.243 0.019 141.256 0.456 4.244
2327 0.102 -73.973 4.501 -137.769 0.019 138.196 0.49 0.104
2376.5 0.101 -75.407 4.231 -143.322 0.019 134.616 0.522 -3.88
2426 0.101 -79.323 3.934 -147.78 0.019 131.565 0.548 -7.544
2475.5 0.102 -83.73 3.649 -152.224 0.018 130.483 0.574 -10.744
2525 0.103 -89.09 3.41 -158.772 0.018 128.741 0.595 -14.032
2574.5 0.107 -96.489 3.173 -161.041 0.019 123.346 0.615 -16.955
2624 0.11 -103.257 2.986 -166.491 0.018 123.712 0.632 -19.661
2673.5 0.116 -111.004 2.663 -169.88 0.018 121.718 0.649 -22.453
2723 0.123 -118.852 2.629 -175.694 0.018 119.777 0.663 -24.973
2772.5 0.131 -126.886 2.368 -177.155 0.018 118.21 0.675 -27.499
2822 0.142 -134.092 2.233 178.142 0.019 115.393 0.687 -29.767
2871.5 0.151 -140.861 2.061 174.621 0.018 113.38 0.697 -32.113
2921 0.164 -147.796 1.955 171.612 0.017 110.929 0.707 -34.384
2970.5 0.176 -153.835 1.771 169.522 0.017 106.417 0.716 -36.611
3020 0.186 -159.951 1.697 162.841 0.018 109.356 0.726 -38.812
3069.5 0.199 -165.137 1.573 163.918 0.018 104.751 0.733 -40.891
3119 0.21 -170.494 1.483 158.05 0.016 102.906 0.74 -43.027
3168.5 0.222 -175.271 1.333 157.169 0.017 101.456 0.745 -45.191
3218 0.232 -179.584 1.306 152.452 0.017 100.627 0.751 -47.229
3267.5 0.242 176.034 1.134 153.03 0.016 101.679 0.757 -49.367
3317 0.251 171.977 1.101 149.359 0.016 95.684 0.762 -51.407
3366.5 0.259 168.078 1.027 146.698 0.015 97.158 0.766 -53.418
3416 0.266 164.365 0.968 146.292 0.016 95.491 0.77 -55.5
3465.5 0.271 160.865 0.895 144.405 0.014 94.485 0.775 -57.491
3515 0.277 157.365 0.832 140.563 0.014 95.999 0.779 -59.687
3564.5 0.28 154.367 0.809 141.981 0.015 91.461 0.784 -61.74
3614 0.282 151.002 0.719 137.099 0.014 95.368 0.787 -63.866
3663.5 0.284 148.031 0.696 138.085 0.013 93.466 0.79 -65.835
3713 0.286 145.121 0.653 133.114 0.013 90.392 0.793 -67.913
3762.5 0.285 142.088 0.614 136.731 0.013 91.175 0.796 -70.049
3812 0.284 139.47 0.567 130.638 0.013 88.742 0.798 -72.116
3861.5 0.282 136.598 0.555 133.779 0.012 90.856 0.802 -74.237
3911 0.279 133.939 0.495 129.269 0.012 89.337 0.806 -76.298
3960.5 0.275 131.204 0.482 130.751 0.012 91.164 0.808 -78.543
4010 0.271 128.399 0.445 124.457 0.011 89.746 0.811 -80.557
4059.5 0.265 125.765 0.441 130.443 0.011 88.885 0.813 -82.682
4109 0.259 122.761 0.394 124.376 0.011 89.565 0.815 -84.869
4158.5 0.252 119.857 0.382 127.058 0.011 86.173 0.818 -86.915
4208 0.245 116.856 0.364 123.18 0.011 90.148 0.82 -89.066
4257.5 0.237 113.832 0.336 124.98 0.011 87.234 0.822 -91.154
4307 0.23 110.544 0.319 121.344 0.01 87.387 0.824 -93.237
4356.5 0.221 107.275 0.309 122.163 9.978e-3 89.904 0.827 -95.421
4406 0.213 103.639 0.283 121.907 0.01 88.262 0.828 -97.435
4455.5 0.204 99.785 0.279 120.935 9.577e-3 89.512 0.83 -99.568
4505 0.196 95.512 0.252 119.338 9.73e-3 86.633 0.832 -101.596
4554.5 0.188 91.215 0.252 120.853 9.275e-3 89.441 0.833 -103.679
4604 0.18 86.241 0.224 116.384 8.732e-3 91.077 0.836 -105.772
4653.5 0.173 81.062 0.227 119.034 9.05e-3 89.295 0.837 -107.719
4703 0.166 75.379 0.21 116.228 8.876e-3 90.728 0.838 -109.767
4752.5 0.162 69.501 0.197 117.873 8.318e-3 91.373 0.841 -111.775
4802 0.156 63.061 0.187 115.63 8.234e-3 89.36 0.841 -113.738
4851.5 0.154 56.157 0.182 115.058 7.9e-3 91.918 0.843 -115.642
4901 0.152 49.42 0.162 116.58 8.154e-3 94.199 0.843 -117.593
4950.5 0.152 42.332 0.165 112.813 8.381e-3 92.46 0.846 -119.527
5000 0.154 35.274 0.146 114.096 7.8e-3 90.444 0.847 -121.418
