!Hittite Microwave Corporation								
!12 Elizabeth Drive								
!Chelmsford, MA 01824								
!Tel: 978-250-3343								
!Fax: 978-250-3373								
!Device: HMC397, DC-10 GHz InGaP HBT Gain Block MMIC Amplifier								
!Misc: Vdd=+5V, Data includes (two) K connectors, Room								
!
# MHZ S MA R 50

50 0.177 0.957 5.643 177.997 0.119 -1.199 0.188 -4.389
99.75 0.175 -0.215 5.653 177.961 0.12 -0.569 0.187 -6.131
149.5 0.173 -1.387 5.663 177.925 0.12 0.061 0.185 -7.874
199.25 0.171 -2.559 5.673 177.889 0.12 0.691 0.183 -9.618
249 0.162 -4.249 5.672 177.422 0.12 0.584 0.183 -11.885
298.75 0.161 -5.21 5.666 176.775 0.12 1.15 0.183 -14.256
348.5 0.161 -6.81 5.669 176.129 0.12 1.25 0.183 -16.761
398.25 0.161 -8.109 5.67 175.752 0.12 1.137 0.183 -19.66
448 0.162 -8.457 5.658 175.335 0.12 1.466 0.183 -21.77
497.75 0.162 -9.505 5.656 174.498 0.12 1.974 0.183 -23.99
547.5 0.161 -10.741 5.668 174.26 0.12 2.002 0.182 -26.461
597.25 0.16 -12.272 5.655 174.001 0.12 1.711 0.181 -28.594
647 0.16 -13.156 5.64 173.013 0.12 2.598 0.18 -31.183
696.75 0.159 -13.51 5.667 172.344 0.12 2.641 0.18 -33.477
746.5 0.16 -14.96 5.662 172.925 0.12 2.489 0.179 -36.475
796.25 0.159 -15.765 5.638 171.565 0.12 2.979 0.178 -38.691
846 0.159 -16.835 5.666 170.405 0.12 3.134 0.177 -41.02
895.75 0.159 -17.836 5.677 171.445 0.12 3.456 0.177 -43.576
945.5 0.158 -18.932 5.647 170.463 0.12 3.127 0.176 -46.262
995.25 0.158 -20.453 5.665 168.892 0.12 3.816 0.175 -48.358
1045 0.158 -21.173 5.697 169.45 0.12 4.4 0.175 -51.021
1094.75 0.158 -21.849 5.669 169.065 0.12 3.502 0.174 -54.241
1144.5 0.158 -22.893 5.661 167.304 0.12 4.571 0.173 -56.999
1194.25 0.158 -24.128 5.69 167.55 0.12 5.183 0.173 -59.197
1244 0.158 -24.785 5.689 167.237 0.121 4.287 0.173 -62.061
1293.75 0.158 -25.623 5.661 166.623 0.121 4.699 0.172 -65.201
1343.5 0.159 -27.325 5.679 165.607 0.12 5.528 0.172 -67.4
1393.25 0.159 -28.145 5.699 165.242 0.121 4.936 0.172 -69.701
1443 0.159 -28.923 5.684 165.826 0.121 5.664 0.172 -72.668
1492.75 0.159 -30.15 5.674 163.757 0.121 5.919 0.171 -75.654
1542.5 0.159 -31.624 5.703 163.222 0.121 5.616 0.171 -77.927
1592.25 0.159 -32.825 5.699 163.773 0.121 5.764 0.171 -80.443
1642 0.159 -33.318 5.684 163.096 0.121 6.624 0.171 -83.347
1691.75 0.159 -34.874 5.689 161.709 0.121 6.47 0.171 -86.023
1741.5 0.16 -36.301 5.717 161.068 0.122 6.319 0.171 -88.417
1791.25 0.159 -37.21 5.693 161.507 0.122 6.177 0.171 -91.329
1841 0.16 -38.102 5.685 160.719 0.122 7.882 0.171 -93.819
1890.75 0.16 -39.715 5.705 158.62 0.122 5.982 0.171 -96.417
1940.5 0.16 -41.369 5.713 160.836 0.122 7.281 0.171 -99.018
1990.25 0.159 -42.394 5.691 158.213 0.122 8.16 0.17 -102.009
2040 0.159 -43.625 5.698 157.552 0.122 5.809 0.17 -104.889
2089.75 0.16 -44.897 5.707 158.16 0.123 8.151 0.171 -107.112
2139.5 0.16 -46.324 5.709 156.717 0.122 7.647 0.17 -109.953
2189.25 0.16 -47.152 5.69 157.241 0.122 7.588 0.17 -112.692
2239 0.16 -48.355 5.668 154.362 0.122 8.065 0.17 -115.294
2288.75 0.16 -49.999 5.706 155.087 0.122 6.678 0.17 -118.032
2338.5 0.16 -51.563 5.669 156.014 0.122 8.99 0.17 -120.452
2388.25 0.16 -52.681 5.639 153.813 0.122 8.547 0.169 -123.217
2438 0.16 -53.344 5.691 152.827 0.122 7.538 0.17 -126.125
2487.75 0.16 -55.34 5.677 154.009 0.123 8.928 0.17 -129.123
2537.5 0.161 -57.276 5.636 152.953 0.122 8.273 0.17 -132.352
2587.25 0.161 -58.179 5.663 150.881 0.122 9.003 0.171 -134.967
2637 0.162 -59.413 5.693 152.605 0.122 8.638 0.172 -137.676
2686.75 0.163 -60.791 5.623 151.048 0.122 9.032 0.172 -140.259
2736.5 0.163 -62.231 5.655 149.146 0.122 10.047 0.173 -142.674
2786.25 0.163 -62.964 5.673 150.761 0.121 8.114 0.174 -145.561
2836 0.164 -64.559 5.642 149.816 0.122 10.019 0.174 -148.624
2885.75 0.164 -66.362 5.646 148.283 0.122 10.474 0.175 -150.894
2935.5 0.164 -67.818 5.665 147.946 0.121 10.046 0.175 -153.801
2985.25 0.165 -68.896 5.654 148.051 0.121 10.565 0.176 -157.008
3035 0.165 -70.501 5.631 147.346 0.122 9.334 0.178 -159.704
3084.75 0.166 -72.331 5.669 146.181 0.122 12.337 0.179 -162.396
3134.5 0.166 -73.696 5.661 146.916 0.121 11.105 0.18 -165.033
3184.25 0.166 -75.081 5.647 145.064 0.122 9.743 0.182 -167.888
3234 0.167 -76.678 5.66 144.837 0.122 12.427 0.183 -170.025
3283.75 0.168 -78.801 5.667 144.45 0.121 11.957 0.184 -172.543
3333.5 0.168 -80.175 5.652 144.129 0.121 11.296 0.185 -175.196
3383.25 0.169 -81.375 5.643 143.136 0.122 12.366 0.186 -177.665
3433 0.17 -83.107 5.668 142.034 0.122 13.319 0.187 179.532
3482.75 0.17 -85.281 5.664 142.877 0.122 12.026 0.188 177.515
3532.5 0.17 -87.046 5.649 141.898 0.123 11.677 0.19 174.651
3582.25 0.17 -87.81 5.676 140.229 0.123 14.899 0.19 172.693
3632 0.171 -90.38 5.681 140.324 0.122 12.89 0.192 170.134
3681.75 0.171 -92.456 5.654 140.333 0.123 12.54 0.193 167.593
3731.5 0.171 -93.193 5.655 138.357 0.123 14.468 0.193 165.697
3781.25 0.172 -95.387 5.683 138.376 0.123 13.638 0.195 163.043
3831 0.173 -97.134 5.652 138.757 0.123 13.764 0.195 160.655
3880.75 0.174 -98.946 5.645 136.921 0.124 14.255 0.196 158.629
3930.5 0.174 -100.666 5.667 135.9 0.124 14.807 0.197 156.428
3980.25 0.175 -102.228 5.659 136.796 0.124 14.11 0.198 153.548
4030 0.176 -104.412 5.639 135.673 0.124 14.008 0.199 151.597
4079.75 0.177 -106.185 5.649 134.062 0.124 15.497 0.199 149.945
4129.5 0.177 -107.875 5.656 134.143 0.124 15.199 0.199 147.022
4179.25 0.178 -108.901 5.634 134.05 0.124 14.761 0.2 144.222
4229 0.18 -111.242 5.626 132.725 0.125 15.339 0.201 142.187
4278.75 0.181 -113.899 5.623 131.604 0.125 15.674 0.202 140.28
4328.5 0.182 -114.877 5.618 132.084 0.125 15.482 0.203 137.31
4378.25 0.183 -116.697 5.594 131.268 0.125 15.715 0.204 135.071
4428 0.184 -119.086 5.582 129.806 0.125 16.223 0.205 133.572
4477.75 0.185 -121.027 5.595 129.683 0.125 15.997 0.206 131.112
4527.5 0.186 -122.435 5.58 129.907 0.125 16.096 0.206 128.496
4577.25 0.188 -124.042 5.559 128.624 0.125 16.572 0.207 126.121
4627 0.189 -126.139 5.568 127.234 0.125 17.011 0.208 124.691
4676.75 0.191 -128.246 5.568 128.008 0.125 16.609 0.209 122.542
4726.5 0.192 -129.272 5.536 127.111 0.125 16.797 0.209 119.368
4776.25 0.194 -130.82 5.539 125.658 0.126 17.451 0.211 117.854
4826 0.196 -133.333 5.542 125.956 0.126 17.226 0.211 115.927
4875.75 0.197 -135.235 5.513 125.256 0.126 17.559 0.212 113.745
4925.5 0.198 -136.578 5.505 124.093 0.126 17.897 0.212 111.569
4975.25 0.2 -138.303 5.509 123.869 0.126 17.802 0.213 109.406
5025 0.202 -140.942 5.494 123.579 0.126 18.05 0.213 107.845
5074.75 0.203 -142.299 5.483 122.648 0.126 18.312 0.213 105.529
5124.5 0.204 -143.281 5.481 122.008 0.126 18.489 0.213 103.251
5174.25 0.207 -145.734 5.473 121.541 0.127 18.632 0.213 101.452
5224 0.208 -147.868 5.463 120.878 0.127 18.808 0.213 99.639
5273.75 0.208 -149.109 5.455 120.357 0.127 19.037 0.212 97.377
5323.5 0.21 -150.65 5.44 119.695 0.127 19.28 0.211 95.048
5373.25 0.212 -152.41 5.436 118.946 0.127 19.35 0.211 93.093
5423 0.213 -154.637 5.43 118.593 0.127 19.442 0.21 91.047
5472.75 0.213 -155.774 5.414 117.95 0.128 19.915 0.209 88.532
5522.5 0.215 -156.775 5.407 117.123 0.128 19.921 0.208 86.21
5572.25 0.217 -159.048 5.41 116.669 0.128 20.072 0.208 84.439
5622 0.218 -160.898 5.39 116.596 0.128 20.091 0.206 82.142
5671.75 0.219 -162.089 5.372 115.448 0.128 20.676 0.204 80.07
5721.5 0.22 -163.71 5.378 114.146 0.128 20.987 0.203 77.28
5771.25 0.222 -165.871 5.363 114.843 0.129 20.162 0.202 75.318
5821 0.223 -167.579 5.328 113.63 0.129 21.46 0.2 73.321
5870.75 0.223 -168.524 5.336 112.729 0.129 21.102 0.199 70.402
5920.5 0.225 -169.556 5.34 112.359 0.129 21.063 0.198 68.213
5970.25 0.226 -171.72 5.301 112.333 0.13 21.666 0.196 65.998
6020 0.228 -173.841 5.291 110.894 0.13 21.511 0.196 63.993
6069.75 0.229 -174.507 5.306 109.955 0.13 22.075 0.193 61.303
6119.5 0.23 -175.803 5.284 111.472 0.13 21.288 0.192 58.385
6169.25 0.232 -178.448 5.237 108.549 0.13 22.755 0.191 56.251
6219 0.232 -179.868 5.257 108.047 0.131 22.105 0.19 54.547
6268.75 0.233 179.32 5.253 108.71 0.131 22.209 0.187 51.739
6318.5 0.233 178.471 5.196 108.477 0.131 23.377 0.185 48.593
6368.25 0.235 175.584 5.196 106.256 0.131 21.64 0.185 47.746
6418 0.236 173.692 5.223 104.918 0.132 23.937 0.18 44.249
6467.75 0.236 173.704 5.179 108.581 0.132 23.515 0.178 41.153
6517.5 0.238 171.674 5.128 103.822 0.132 22.469 0.178 39.268
6567.25 0.24 169.63 5.183 103.656 0.132 24.099 0.176 37.059
6617 0.241 168.255 5.147 105.561 0.132 23.328 0.174 34.303
6666.75 0.241 167.771 5.089 102.934 0.133 24.295 0.172 30.389
6716.5 0.243 166.073 5.11 101.77 0.133 23.529 0.171 29.477
6766.25 0.243 164.238 5.11 102.016 0.134 24.072 0.168 26.509
6816 0.241 164.099 5.065 103.737 0.133 25.225 0.165 23.448
6865.75 0.243 162.126 5.035 99.305 0.134 22.744 0.164 22.176
6915.5 0.244 160.549 5.072 99.437 0.134 25.01 0.16 17.009
6965.25 0.244 158.644 5.028 101.675 0.134 26.336 0.157 13.423
7015 0.244 157.189 4.996 99.061 0.135 22.826 0.156 11.866
7064.75 0.245 157.057 5.011 97.573 0.135 25.981 0.153 7.59
7114.5 0.247 155.285 4.995 98.148 0.136 24.815 0.152 5.367
7164.25 0.246 153.89 4.965 98.619 0.136 25.277 0.151 2.118
7214 0.245 152.513 4.926 95.09 0.136 26.096 0.148 -1.389
7263.75 0.246 151.955 4.958 96.217 0.137 23.622 0.145 -5.212
7313.5 0.245 149.829 4.925 97.377 0.137 28.033 0.144 -10.616
7363.25 0.246 147.431 4.878 94.515 0.137 23.555 0.143 -10.817
7413 0.247 148.001 4.892 92.469 0.137 25.809 0.141 -15.735
7462.75 0.247 147.005 4.905 95.07 0.138 27.894 0.142 -22.341
7512.5 0.248 144.713 4.836 94.996 0.137 23.846 0.142 -23.417
7562.25 0.248 143.612 4.807 89.341 0.138 27.017 0.14 -26.486
7612 0.248 143.233 4.868 92.336 0.139 25.703 0.139 -30.284
7661.75 0.247 142.553 4.78 93.815 0.139 26.926 0.141 -34.981
7711.5 0.248 139.522 4.737 88.136 0.138 26.029 0.139 -37.446
7761.25 0.247 138.532 4.79 89.367 0.139 26.321 0.138 -39.587
7811 0.246 138.843 4.734 92.481 0.14 27.104 0.14 -46.78
7860.75 0.248 136.509 4.682 86.863 0.139 26.075 0.139 -48.919
7910.5 0.247 134.758 4.685 87.199 0.14 26.912 0.14 -52.134
7960.25 0.245 134.138 4.698 89.47 0.141 27.316 0.142 -56.82
8010 0.245 133.486 4.608 86.904 0.14 27.525 0.143 -59.661
8059.75 0.247 132.315 4.622 86.163 0.14 25.685 0.144 -63.589
8109.5 0.245 130.193 4.608 85.662 0.142 27.737 0.145 -65.406
8159.25 0.244 129.921 4.574 86.779 0.142 27.404 0.146 -70.218
8209 0.244 129.203 4.549 83.621 0.14 28.013 0.147 -73.107
8258.75 0.244 127.813 4.535 85.654 0.142 26.75 0.149 -76.402
8308.5 0.243 126.221 4.539 83.848 0.142 27.438 0.151 -80.678
8358.25 0.241 124.838 4.482 82.756 0.142 28.546 0.153 -84.019
8408 0.242 125.12 4.478 83.393 0.142 26.485 0.155 -87.752
8457.75 0.243 123.861 4.462 80.827 0.143 28.57 0.156 -89.742
8507.5 0.239 121.653 4.447 83.443 0.143 28.458 0.161 -93.3
8557.25 0.239 120.851 4.385 81.018 0.143 27.218 0.161 -96.673
8607 0.241 121.144 4.405 78.889 0.144 27.691 0.164 -101.026
8656.75 0.239 119.85 4.4 81.129 0.143 29.041 0.171 -104.238
8706.5 0.236 117.918 4.311 80.501 0.144 27.753 0.172 -105.569
8756.25 0.237 117.725 4.346 77.748 0.144 28.407 0.175 -109.105
8806 0.238 117.858 4.34 78.779 0.144 28.267 0.18 -111.882
8855.75 0.236 116.004 4.279 79.36 0.144 27.679 0.184 -114.487
8905.5 0.233 113.842 4.25 75.303 0.144 30.061 0.186 -116.791
8955.25 0.233 114.262 4.287 76.988 0.145 27.608 0.189 -120.031
9005 0.231 113.741 4.221 78.28 0.145 29.41 0.198 -123.659
9054.75 0.231 111.246 4.175 74.174 0.145 28.745 0.199 -126.424
9104.5 0.229 110.124 4.212 74.303 0.146 27.846 0.2 -128.055
9154.25 0.225 110.033 4.16 75.959 0.146 30.604 0.208 -130.461
9204 0.228 109.571 4.122 74.072 0.146 28.069 0.213 -134.392
9253.75 0.224 107.499 4.112 73.071 0.146 29.85 0.216 -135.67
9303.5 0.221 106.19 4.115 73.024 0.147 28.578 0.216 -136.716
9353.25 0.221 106.874 4.056 72.867 0.147 29.396 0.222 -139.494
9403 0.221 105.929 4.034 71.841 0.147 30.1 0.228 -142.485
9452.75 0.218 103.626 4.044 71.532 0.147 28.771 0.229 -143.863
9502.5 0.213 102.606 4.005 71.885 0.148 30.099 0.232 -144.684
9552.25 0.216 102.72 3.97 69.525 0.147 29.417 0.237 -148.126
9602 0.215 102.097 3.951 70.125 0.148 29.574 0.241 -150.422
9651.75 0.211 99.953 3.953 69.754 0.148 30.406 0.243 -151.315
9701.5 0.208 99.439 3.902 69.616 0.148 29.984 0.246 -153.088
9751.25 0.21 99.44 3.882 68.499 0.148 29.521 0.249 -155.449
9801 0.209 97.975 3.878 66.781 0.149 30.371 0.253 -157.471
9850.75 0.203 96.264 3.84 68.796 0.149 30.377 0.256 -158.669
9900.5 0.202 95.661 3.811 66.973 0.149 30.161 0.257 -160.318
9950.25 0.2 95.057 3.781 65.15 0.149 29.945 0.258 -161.947
10000 0.199 94.451 3.752 63.328 0.149 29.731 0.259 -163.555
