!Hittite Microwave Corporation								
!20 Alpha Rd								
!Chelmsford, MA 01824								
!Tel: 978-250-3343								
!Fax: 978-250-3373
!Device: HMC336MS8G, DC - 6 GHz  SPDT Switch in  MSOP8G SMT package
!Misc: Port1=RFC, Port2= RF1, Port3=RF2, RF1 ON, Data taken on a part mounted on 104122-5 Eval PCB,Bias: +5VDC
# MHZ S MA R 50

10 0.828 -31.391 0.521 55.402 130.1e-6 -149.223
          0.523 55.231 0.812 -32.533 88.96e-6 37.833
          151.7e-6 -83.106 170.3e-6 -103.961 0.991 -2.213
49.95 0.286 -60.341 0.886 14.802 257.8e-6 100.968
          0.888 14.72 0.275 -63.842 354.5e-6 72.71
          208.8e-6 100.077 251.3e-6 68.715 0.971 -11.231
89.9 0.169 -56.519 0.912 6.504 178.4e-6 54.521
          0.913 6.44 0.158 -62.162 207.2e-6 32.591
          190.9e-6 56.955 249.9e-6 41.769 0.929 -19.559
129.85 0.124 -48.56 0.917 2.537 341.3e-6 65.688
          0.919 2.481 0.112 -55.688 339.7e-6 51.99
          309e-6 66.11 324.7e-6 55.767 0.873 -26.97
169.8 0.104 -39.806 0.919 -0.141 394.6e-6 64.986
          0.92 -0.189 0.09 -47.78 429.2e-6 53.485
          396.9e-6 63.305 405.6e-6 55.984 0.811 -33.385
209.75 0.093 -31.62 0.919 -2.23 404.7e-6 68.104
          0.92 -2.259 0.078 -39.368 452.7e-6 57.963
          422.2e-6 68.172 459.6e-6 57.837 0.748 -38.777
249.7 0.087 -24.258 0.92 -4 488.1e-6 76.255
          0.92 -4.021 0.071 -31.222 538.3e-6 65.249
          484.6e-6 76.439 531.5e-6 64.298 0.69 -43.235
289.65 0.085 -17.925 0.918 -5.581 602.2e-6 69.403
          0.92 -5.603 0.068 -23.945 638.2e-6 61.445
          604.8e-6 69.446 645.6e-6 61.858 0.637 -46.933
329.6 0.084 -12.586 0.917 -7.031 583e-6 70.814
          0.919 -7.066 0.066 -17.785 621.2e-6 62.024
          598.6e-6 70.619 633.4e-6 62.243 0.588 -50.021
369.55 0.085 -8.362 0.917 -8.442 700.3e-6 69.171
          0.918 -8.468 0.067 -12.633 712.6e-6 61.428
          696.3e-6 68.978 710.8e-6 62.372 0.545 -52.529
409.5 0.086 -4.748 0.917 -9.764 765.5e-6 67.959
          0.918 -9.794 0.068 -8.15 769.9e-6 61.145
          762.8e-6 67.573 764.5e-6 62.227 0.507 -54.541
449.45 0.087 -2.021 0.916 -11.079 804.3e-6 68.571
          0.918 -11.099 0.069 -4.645 807.1e-6 63.456
          814.4e-6 68.297 804.3e-6 63.34 0.473 -56.21
489.4 0.089 0.616 0.916 -12.321 868e-6 69.33
          0.917 -12.363 0.071 -1.587 848.2e-6 65.041
          853e-6 68.35 843.3e-6 64.288 0.444 -57.592
529.35 0.092 2.848 0.915 -13.521 920.4e-6 66.92
          0.916 -13.585 0.072 1.342 913.5e-6 63.821
          921.6e-6 67.254 893.6e-6 64.652 0.417 -58.667
569.3 0.095 4.633 0.914 -14.747 971.7e-6 67.731
          0.916 -14.783 0.075 3.316 957.6e-6 65.049
          968.2e-6 68.111 941.1e-6 65.492 0.394 -59.514
609.25 0.097 6.254 0.913 -15.974 1.026e-3 68.003
          0.915 -15.98 0.077 5.388 991.2e-6 65.47
          1.033e-3 67.482 1.001e-3 65.255 0.373 -60.141
649.2 0.1 7.673 0.912 -17.12 1.077e-3 67.358
          0.914 -17.189 0.079 7.162 1.047e-3 66.996
          1.076e-3 67.224 1.033e-3 67.081 0.354 -60.634
689.15 0.102 9.163 0.912 -18.281 1.132e-3 66.649
          0.914 -18.352 0.082 8.544 1.091e-3 67.209
          1.132e-3 66.662 1.083e-3 67.135 0.337 -61.043
729.1 0.105 9.897 0.911 -19.43 1.188e-3 66.307
          0.912 -19.542 0.085 9.372 1.138e-3 68.443
          1.174e-3 66.324 1.132e-3 68.144 0.323 -61.28
769.05 0.108 10.563 0.91 -20.619 1.227e-3 66.838
          0.912 -20.693 0.087 10.515 1.187e-3 69.542
          1.235e-3 66.985 1.191e-3 69.741 0.309 -61.337
809 0.111 11.311 0.909 -21.754 1.29e-3 66.465
          0.912 -21.829 0.09 12.11 1.246e-3 69.348
          1.288e-3 66.84 1.234e-3 69.198 0.297 -61.293
848.95 0.115 12.011 0.908 -22.873 1.345e-3 65.618
          0.911 -22.991 0.092 13.946 1.283e-3 69.51
          1.351e-3 65.337 1.282e-3 69.663 0.285 -61.256
888.9 0.117 13.057 0.907 -23.977 1.386e-3 65.138
          0.911 -24.105 0.095 14.661 1.337e-3 69.917
          1.384e-3 64.896 1.332e-3 70.011 0.274 -61.151
928.85 0.12 13.482 0.908 -25.147 1.433e-3 65.165
          0.909 -25.307 0.098 15.308 1.39e-3 70.94
          1.441e-3 65.065 1.391e-3 71.1 0.265 -60.879
968.8 0.123 13.865 0.905 -26.297 1.488e-3 64.703
          0.908 -26.42 0.101 16.476 1.448e-3 71.159
          1.498e-3 64.546 1.445e-3 71.563 0.257 -60.509
1008.75 0.127 14.143 0.906 -27.367 1.539e-3 64.574
          0.907 -27.541 0.104 18.105 1.523e-3 71.675
          1.54e-3 64.335 1.506e-3 71.651 0.248 -60.166
1048.7 0.13 14.792 0.905 -28.478 1.608e-3 63.281
          0.906 -28.654 0.107 18.891 1.564e-3 70.82
          1.599e-3 62.989 1.564e-3 70.825 0.24 -59.828
1088.65 0.134 15.066 0.906 -29.62 1.619e-3 63.354
          0.907 -29.787 0.11 19.235 1.587e-3 72.066
          1.628e-3 62.759 1.585e-3 71.665 0.234 -59.372
1128.6 0.137 15.367 0.903 -30.783 1.67e-3 62.917
          0.906 -30.961 0.114 19.77 1.654e-3 72.42
          1.683e-3 62.505 1.661e-3 72.343 0.228 -58.773
1168.55 0.141 15.856 0.903 -31.872 1.706e-3 62.213
          0.905 -32.043 0.118 20.93 1.71e-3 72.612
          1.712e-3 61.882 1.702e-3 72.563 0.221 -58.175
1208.5 0.144 15.957 0.9 -33.004 1.768e-3 62.701
          0.904 -33.206 0.122 21.687 1.766e-3 72.86
          1.773e-3 62.599 1.764e-3 72.5 0.216 -57.606
1248.45 0.148 15.936 0.901 -34.05 1.821e-3 61.592
          0.901 -34.294 0.126 22.12 1.812e-3 73.14
          1.812e-3 61.442 1.812e-3 72.954 0.211 -57.039
1288.4 0.152 16.165 0.9 -35.217 1.849e-3 61.57
          0.901 -35.403 0.13 22.82 1.875e-3 73.745
          1.845e-3 61.312 1.87e-3 73.747 0.206 -56.41
1328.35 0.156 16.252 0.9 -36.311 1.894e-3 60.99
          0.9 -36.548 0.135 23.328 1.927e-3 73.894
          1.894e-3 60.65 1.916e-3 73.6 0.201 -55.604
1368.3 0.161 16.007 0.898 -37.411 1.917e-3 60.416
          0.899 -37.66 0.14 23.672 1.977e-3 74.178
          1.928e-3 60.141 1.975e-3 74.056 0.197 -54.839
1408.25 0.165 16.192 0.898 -38.545 1.966e-3 60.407
          0.898 -38.785 0.144 24.554 2.04e-3 74.758
          1.965e-3 60.281 2.043e-3 74.694 0.192 -54.221
1448.2 0.169 16.07 0.895 -39.648 2.006e-3 59.852
          0.897 -39.9 0.149 24.768 2.103e-3 74.791
          2.017e-3 59.855 2.105e-3 74.857 0.189 -53.473
1488.15 0.174 15.954 0.895 -40.756 2.049e-3 59.46
          0.895 -40.999 0.155 24.992 2.165e-3 75.061
          2.054e-3 59.248 2.155e-3 75.104 0.185 -52.69
1528.1 0.178 15.803 0.894 -41.89 2.086e-3 59.115
          0.893 -42.106 0.161 25.143 2.237e-3 75.519
          2.084e-3 59.08 2.224e-3 75.342 0.182 -51.767
1568.05 0.183 15.656 0.892 -42.967 2.119e-3 58.701
          0.892 -43.193 0.166 25.261 2.285e-3 75.595
          2.124e-3 58.705 2.28e-3 75.868 0.178 -50.994
1608 0.188 15.38 0.891 -44.079 2.142e-3 58.643
          0.89 -44.317 0.171 25.163 2.368e-3 76.013
          2.137e-3 58.23 2.357e-3 76.008 0.175 -50.161
1647.95 0.193 14.969 0.89 -45.194 2.201e-3 58.505
          0.889 -45.404 0.177 24.98 2.448e-3 75.733
          2.204e-3 57.98 2.437e-3 75.56 0.172 -49.333
1687.9 0.198 14.89 0.888 -46.285 2.228e-3 57.856
          0.887 -46.495 0.182 24.789 2.493e-3 75.837
          2.223e-3 57.856 2.478e-3 76.019 0.17 -48.297
1727.85 0.204 14.321 0.886 -47.377 2.263e-3 57.731
          0.885 -47.559 0.187 24.554 2.579e-3 76.201
          2.245e-3 57.676 2.571e-3 76.451 0.166 -47.411
1767.8 0.208 13.799 0.885 -48.434 2.308e-3 57.663
          0.883 -48.618 0.191 24.512 2.642e-3 76.544
          2.288e-3 57.776 2.639e-3 76.36 0.163 -46.591
1807.75 0.213 13.6 0.884 -49.502 2.332e-3 57.305
          0.882 -49.658 0.196 24.019 2.736e-3 76.127
          2.338e-3 57.533 2.739e-3 76.663 0.161 -45.611
1847.7 0.218 12.74 0.881 -50.529 2.378e-3 57.499
          0.88 -50.695 0.201 24.066 2.802e-3 76.105
          2.37e-3 57.752 2.793e-3 76.536 0.159 -44.659
1887.65 0.223 12.13 0.881 -51.586 2.454e-3 57.177
          0.88 -51.714 0.206 23.79 2.889e-3 76.267
          2.445e-3 57.085 2.875e-3 76.401 0.157 -43.561
1927.6 0.228 11.39 0.879 -52.638 2.465e-3 57.239
          0.878 -52.766 0.211 23.566 2.954e-3 76.373
          2.47e-3 57.015 2.947e-3 76.084 0.154 -42.664
1967.55 0.232 10.704 0.879 -53.709 2.518e-3 56.135
          0.877 -53.809 0.216 23.355 3.048e-3 76.505
          2.53e-3 56.005 3.037e-3 76.291 0.151 -41.795
2007.5 0.237 9.964 0.878 -54.72 2.564e-3 56.153
          0.877 -54.862 0.22 22.906 3.15e-3 76.21
          2.567e-3 55.942 3.135e-3 76.269 0.149 -40.84
2047.45 0.241 9.301 0.877 -55.85 2.629e-3 55.264
          0.876 -55.922 0.226 22.42 3.207e-3 76.008
          2.628e-3 55.394 3.206e-3 76.117 0.147 -39.667
2087.4 0.245 8.781 0.876 -56.883 2.661e-3 55.033
          0.874 -56.976 0.23 22.087 3.315e-3 75.966
          2.639e-3 54.479 3.289e-3 76.037 0.145 -38.745
2127.35 0.249 7.954 0.874 -57.948 2.714e-3 54.971
          0.872 -58.013 0.234 21.505 3.407e-3 75.888
          2.711e-3 54.52 3.395e-3 75.839 0.143 -37.898
2167.3 0.253 7.178 0.873 -59.001 2.749e-3 54.035
          0.872 -59.067 0.238 20.894 3.497e-3 75.513
          2.746e-3 53.726 3.481e-3 75.512 0.141 -36.917
2207.25 0.258 6.466 0.871 -60.073 2.8e-3 53.251
          0.87 -60.14 0.242 20.417 3.58e-3 75.293
          2.803e-3 53.24 3.58e-3 75.396 0.14 -35.692
2247.2 0.263 5.577 0.871 -61.144 2.83e-3 52.713
          0.87 -61.162 0.245 19.929 3.679e-3 74.669
          2.83e-3 53.064 3.683e-3 75.059 0.138 -34.716
2287.15 0.266 4.949 0.867 -62.239 2.892e-3 51.916
          0.869 -62.228 0.248 19.379 3.784e-3 74.193
          2.887e-3 52.224 3.766e-3 74.535 0.136 -33.846
2327.1 0.27 4.138 0.868 -63.223 2.912e-3 51.904
          0.868 -63.303 0.251 18.96 3.873e-3 73.816
          2.915e-3 51.76 3.864e-3 74.023 0.134 -32.942
2367.05 0.274 3.173 0.866 -64.3 2.972e-3 51.161
          0.866 -64.34 0.254 18.461 3.962e-3 73.489
          2.982e-3 50.961 3.944e-3 73.562 0.132 -31.856
2407 0.277 2.19 0.866 -65.375 3.018e-3 49.969
          0.864 -65.387 0.257 18.113 4.058e-3 72.752
          3.025e-3 50.22 4.072e-3 72.852 0.13 -30.817
2446.95 0.28 1.329 0.864 -66.398 3.077e-3 49.184
          0.864 -66.421 0.258 17.646 4.137e-3 72.155
          3.07e-3 49.363 4.132e-3 72.344 0.128 -29.962
2486.9 0.283 0.442 0.862 -67.477 3.096e-3 48.297
          0.861 -67.519 0.26 17.133 4.207e-3 71.658
          3.078e-3 48.264 4.198e-3 71.837 0.127 -29.197
2526.85 0.287 -0.402 0.86 -68.489 3.139e-3 47.64
          0.86 -68.513 0.262 16.518 4.279e-3 71.324
          3.12e-3 47.808 4.285e-3 71.545 0.125 -28.205
2566.8 0.289 -1.287 0.859 -69.541 3.169e-3 46.663
          0.858 -69.585 0.264 16.188 4.374e-3 70.924
          3.17e-3 46.863 4.358e-3 71.05 0.124 -27.117
2606.75 0.292 -2.213 0.857 -70.544 3.203e-3 46.106
          0.857 -70.579 0.265 15.906 4.428e-3 70.433
          3.194e-3 45.82 4.429e-3 70.5 0.121 -26.169
2646.7 0.294 -3.234 0.855 -71.573 3.242e-3 45.035
          0.855 -71.588 0.265 15.524 4.526e-3 69.913
          3.234e-3 45 4.526e-3 70.051 0.12 -25.448
2686.65 0.298 -4.252 0.854 -72.532 3.248e-3 44.349
          0.856 -72.568 0.267 15.046 4.592e-3 69.691
          3.259e-3 44.098 4.593e-3 69.613 0.118 -24.688
2726.6 0.3 -5.285 0.853 -73.545 3.296e-3 42.986
          0.854 -73.602 0.27 14.815 4.694e-3 69.27
          3.284e-3 42.646 4.679e-3 69.269 0.117 -23.649
2766.55 0.302 -6.29 0.852 -74.506 3.291e-3 41.997
          0.852 -74.573 0.271 14.696 4.77e-3 68.757
          3.295e-3 41.925 4.77e-3 68.859 0.116 -22.594
2806.5 0.304 -7.334 0.85 -75.446 3.328e-3 40.963
          0.851 -75.553 0.272 14.493 4.847e-3 68.403
          3.339e-3 40.852 4.858e-3 68.583 0.114 -21.798
2846.45 0.305 -8.433 0.85 -76.372 3.331e-3 39.906
          0.85 -76.46 0.273 14.073 4.914e-3 68.011
          3.33e-3 39.717 4.919e-3 68.069 0.112 -21.163
2886.4 0.307 -9.561 0.848 -77.427 3.337e-3 38.721
          0.85 -77.504 0.275 13.543 4.987e-3 67.527
          3.34e-3 38.558 4.982e-3 67.746 0.111 -20.319
2926.35 0.308 -10.775 0.848 -78.271 3.344e-3 37.865
          0.848 -78.409 0.277 13.13 5.072e-3 67.223
          3.339e-3 37.875 5.066e-3 67.523 0.11 -19.248
2966.3 0.308 -11.967 0.849 -79.318 3.353e-3 36.762
          0.849 -79.406 0.279 12.712 5.149e-3 66.881
          3.344e-3 36.808 5.143e-3 67.108 0.108 -18.273
3006.25 0.31 -13.144 0.849 -80.262 3.336e-3 36.151
          0.85 -80.41 0.279 12.097 5.243e-3 66.62
          3.336e-3 36.086 5.225e-3 66.773 0.105 -17.839
3046.2 0.309 -14.237 0.85 -81.233 3.353e-3 35.224
          0.851 -81.421 0.281 11.269 5.32e-3 66.271
          3.365e-3 35.102 5.326e-3 66.392 0.104 -17.169
3086.15 0.309 -15.403 0.851 -82.253 3.336e-3 34.029
          0.85 -82.371 0.282 10.449 5.423e-3 66.036
          3.328e-3 33.852 5.399e-3 66.029 0.103 -16.268
3126.1 0.309 -16.618 0.85 -83.28 3.327e-3 33.368
          0.851 -83.387 0.283 9.78 5.492e-3 65.566
          3.334e-3 33.129 5.505e-3 65.812 0.102 -15.354
3166.05 0.308 -17.867 0.851 -84.294 3.319e-3 32.234
          0.851 -84.461 0.283 9.087 5.573e-3 65.295
          3.311e-3 32.284 5.573e-3 65.463 0.1 -14.744
3206 0.307 -19.031 0.851 -85.328 3.297e-3 31.61
          0.852 -85.475 0.282 8.252 5.667e-3 64.863
          3.3e-3 31.554 5.655e-3 65.173 0.098 -14.431
3245.95 0.306 -20.191 0.851 -86.343 3.27e-3 30.76
          0.852 -86.55 0.281 7.326 5.751e-3 64.638
          3.286e-3 30.738 5.757e-3 64.751 0.096 -14.313
3285.9 0.304 -21.316 0.851 -87.374 3.269e-3 29.917
          0.852 -87.562 0.281 6.545 5.843e-3 64.172
          3.269e-3 29.621 5.843e-3 64.19 0.095 -13.503
3325.85 0.302 -22.523 0.853 -88.463 3.25e-3 28.919
          0.853 -88.649 0.28 5.89 5.928e-3 63.855
          3.251e-3 29.014 5.928e-3 64.006 0.093 -12.692
3365.8 0.301 -23.669 0.853 -89.512 3.222e-3 28.467
          0.852 -89.688 0.279 5.105 6.007e-3 63.618
          3.222e-3 28.23 6.014e-3 63.657 0.091 -12.249
3405.75 0.299 -24.806 0.854 -90.566 3.197e-3 27.755
          0.852 -90.772 0.278 4.166 6.123e-3 63.293
          3.183e-3 27.519 6.109e-3 63.431 0.09 -11.988
3445.7 0.297 -25.903 0.854 -91.658 3.174e-3 27.075
          0.853 -91.852 0.276 3.205 6.225e-3 62.898
          3.166e-3 26.897 6.211e-3 62.998 0.088 -11.843
3485.65 0.295 -27.009 0.854 -92.723 3.138e-3 26.564
          0.854 -92.917 0.276 2.446 6.315e-3 62.613
          3.142e-3 26.34 6.322e-3 62.672 0.086 -10.991
3525.6 0.292 -28.186 0.855 -93.794 3.113e-3 25.964
          0.854 -93.997 0.274 1.652 6.429e-3 62.173
          3.102e-3 25.838 6.429e-3 62.222 0.084 -10.352
3565.55 0.29 -29.187 0.855 -94.889 3.068e-3 25.369
          0.854 -95.061 0.272 0.73 6.514e-3 61.915
          3.068e-3 25.177 6.521e-3 61.895 0.082 -10.152
3605.5 0.287 -30.364 0.855 -95.993 3.032e-3 25.534
          0.855 -96.165 0.27 -0.258 6.62e-3 61.328
          3.035e-3 25.257 6.636e-3 61.425 0.08 -10.385
3645.45 0.284 -31.46 0.855 -97.089 3.003e-3 24.977
          0.854 -97.269 0.269 -1.053 6.709e-3 61.013
          3.014e-3 24.952 6.709e-3 61.057 0.079 -9.759
3685.4 0.282 -32.593 0.856 -98.197 2.983e-3 25.015
          0.854 -98.377 0.266 -1.796 6.827e-3 60.702
          2.998e-3 24.955 6.835e-3 60.687 0.077 -9.047
3725.35 0.279 -33.649 0.856 -99.335 2.966e-3 24.708
          0.854 -99.424 0.264 -2.747 6.915e-3 60.305
          2.974e-3 24.684 6.923e-3 60.368 0.075 -8.744
3765.3 0.275 -34.652 0.856 -100.435 2.933e-3 24.778
          0.855 -100.613 0.262 -3.779 7.038e-3 60.163
          2.947e-3 24.552 7.063e-3 60.085 0.074 -8.829
3805.25 0.272 -35.759 0.856 -101.536 2.924e-3 24.776
          0.854 -101.734 0.26 -4.877 7.147e-3 59.645
          2.91e-3 24.325 7.14e-3 59.781 0.072 -9.127
3845.2 0.269 -36.948 0.857 -102.687 2.908e-3 25.054
          0.854 -102.842 0.259 -5.627 7.282e-3 59.319
          2.895e-3 24.717 7.282e-3 59.346 0.071 -8.481
3885.15 0.267 -38.061 0.856 -103.848 2.909e-3 24.924
          0.854 -103.903 0.256 -6.52 7.401e-3 58.926
          2.915e-3 24.653 7.385e-3 59.065 0.069 -7.973
3925.1 0.264 -39.221 0.855 -104.92 2.902e-3 24.989
          0.855 -105.043 0.254 -7.568 7.531e-3 58.484
          2.898e-3 24.805 7.54e-3 58.482 0.067 -8.027
3965.05 0.26 -40.236 0.855 -106.113 2.898e-3 24.829
          0.854 -106.255 0.253 -8.656 7.665e-3 57.98
          2.911e-3 24.71 7.674e-3 57.933 0.065 -8.137
4005 0.258 -41.203 0.854 -107.207 2.889e-3 24.946
          0.853 -107.307 0.252 -9.647 7.775e-3 57.393
          2.885e-3 24.476 7.793e-3 57.448 0.064 -8.412
4044.95 0.254 -42.478 0.855 -108.362 2.917e-3 24.608
          0.853 -108.521 0.25 -10.465 7.902e-3 56.724
          2.918e-3 24.739 7.92e-3 56.807 0.062 -7.842
4084.9 0.249 -43.672 0.854 -109.498 2.929e-3 24.757
          0.851 -109.586 0.247 -11.473 8.042e-3 56.314
          2.918e-3 24.317 8.052e-3 56.408 0.06 -7.764
4124.85 0.247 -44.844 0.853 -110.663 2.953e-3 24.705
          0.85 -110.769 0.246 -12.72 8.175e-3 55.817
          2.947e-3 24.393 8.184e-3 55.835 0.058 -8.11
4164.8 0.243 -46.046 0.852 -111.717 2.964e-3 24.458
          0.85 -111.752 0.245 -13.736 8.337e-3 55.24
          2.957e-3 24.048 8.338e-3 55.265 0.057 -8.252
4204.75 0.241 -46.938 0.851 -112.915 2.998e-3 23.965
          0.85 -113.057 0.244 -14.833 8.469e-3 54.38
          2.988e-3 23.735 8.478e-3 54.358 0.055 -8.026
4244.7 0.237 -48.08 0.849 -113.994 3.015e-3 23.637
          0.847 -114.146 0.242 -15.87 8.606e-3 53.65
          3.021e-3 23.095 8.607e-3 53.568 0.054 -7.856
4284.65 0.232 -49.309 0.848 -115.143 3.059e-3 23.22
          0.847 -115.212 0.24 -17.147 8.719e-3 52.848
          3.048e-3 22.859 8.719e-3 52.854 0.052 -8.18
4324.6 0.229 -50.41 0.848 -116.23 3.085e-3 22.278
          0.845 -116.228 0.239 -18.571 8.825e-3 52.137
          3.081e-3 22.082 8.825e-3 52.125 0.05 -8.605
4364.55 0.225 -51.602 0.846 -117.37 3.117e-3 21.307
          0.846 -117.456 0.238 -20.026 8.95e-3 51.174
          3.103e-3 20.942 8.95e-3 51.199 0.049 -9.648
4404.5 0.222 -52.686 0.847 -118.391 3.132e-3 20.165
          0.842 -118.555 0.235 -21.268 9.056e-3 50.515
          3.128e-3 19.736 9.057e-3 50.405 0.047 -9.566
4444.45 0.218 -53.906 0.844 -119.581 3.154e-3 19.425
          0.842 -119.583 0.234 -22.812 9.156e-3 49.742
          3.134e-3 19.325 9.155e-3 49.72 0.045 -9.923
4484.4 0.215 -54.811 0.843 -120.621 3.18e-3 17.992
          0.84 -120.651 0.232 -24.414 9.243e-3 48.788
          3.155e-3 18.161 9.222e-3 48.849 0.043 -10.686
4524.35 0.211 -55.937 0.841 -121.683 3.18e-3 16.897
          0.84 -121.771 0.231 -25.861 9.32e-3 48.081
          3.173e-3 16.927 9.31e-3 48.162 0.042 -11.211
4564.3 0.207 -56.803 0.841 -122.807 3.197e-3 15.802
          0.838 -122.803 0.229 -27.331 9.391e-3 47.25
          3.174e-3 15.414 9.38e-3 47.205 0.041 -11.359
4604.25 0.205 -57.814 0.839 -123.859 3.199e-3 14.375
          0.839 -123.792 0.228 -28.701 9.435e-3 46.451
          3.196e-3 14.345 9.446e-3 46.529 0.039 -11.703
4644.2 0.201 -59.054 0.839 -124.891 3.249e-3 13.259
          0.837 -124.972 0.226 -30.492 9.507e-3 45.748
          3.235e-3 13.067 9.507e-3 45.736 0.037 -12.519
4684.15 0.199 -60.009 0.838 -125.982 3.251e-3 11.535
          0.836 -125.972 0.225 -31.987 9.541e-3 45.142
          3.24e-3 11.201 9.541e-3 45.147 0.036 -13.329
4724.1 0.195 -61.167 0.838 -127.015 3.27e-3 9.899
          0.834 -126.991 0.223 -33.512 9.568e-3 44.658
          3.245e-3 9.614 9.557e-3 44.703 0.034 -13.993
4764.05 0.193 -62.153 0.836 -128.03 3.285e-3 7.817
          0.836 -127.985 0.221 -34.892 9.604e-3 44.202
          3.264e-3 7.724 9.593e-3 44.318 0.033 -14.535
4804 0.19 -63.026 0.837 -129.154 3.287e-3 5.614
          0.834 -129.188 0.218 -36.271 9.65e-3 43.761
          3.283e-3 5.431 9.65e-3 43.759 0.031 -14.046
4843.95 0.187 -64.086 0.835 -130.181 3.266e-3 3.358
          0.834 -130.162 0.216 -38.02 9.687e-3 43.437
          3.259e-3 3.161 9.686e-3 43.473 0.03 -15.325
4883.9 0.185 -65.072 0.836 -131.263 3.273e-3 0.831
