!Hittite Microwave Corporation								
!12 Elizabeth Drive								
!Chelmsford Massachusetts 01824								
!Tel: 978 250-3343								
!Fax: 978 250-3373								
!Device: HMC308, 1.3-3 GHz GaAs Amplifier								
!Misc: Vdd = 3V, ROOM TEMP , DEEMBEDDED TO THE PINS OF THE DEVICE								
!	
# MHZ S MA R 50

1000 0.512 85.27 4.554 -131.972 2.249e-3 20.698 0.626 38.811
1025 0.52 88.181 4.889 -133.796 958.7e-6 -131.986 0.592 38.12
1050 0.522 90.908 5.349 -135.84 1.568e-3 -53.21 0.537 37.623
1075 0.52 91.557 5.803 -140.444 124.8e-6 -79.274 0.469 38.166
1100 0.516 95.089 5.921 -143.797 2.355e-3 -82.027 0.441 43.147
1125 0.52 96.903 6.253 -145.548 2.388e-3 -47.398 0.391 43.137
1150 0.525 98.027 6.731 -148.498 1.446e-3 -60.808 0.333 44.052
1175 0.515 100.755 6.953 -155.168 4.312e-3 -49.408 0.263 58.844
1200 0.522 103.172 6.97 -154.896 3.275e-3 -39.786 0.267 59.185
1225 0.525 104.793 7.453 -157.848 2.87e-3 -52.408 0.199 66.628
1250 0.513 106.846 7.727 -163.646 4.576e-3 -26.806 0.168 95.351
1275 0.515 109.611 7.34 -166.728 3.937e-3 -47.958 0.233 103.997
1300 0.514 111.852 7.593 -167.897 4.25e-3 -57.627 0.218 112.149
1325 0.515 113.732 7.625 -171.406 4.353e-3 -41.896 0.248 124.56
1350 0.516 116.136 7.536 -173.782 5.397e-3 -52.712 0.284 128.584
1375 0.514 118.572 7.48 -175.386 6.485e-3 -46.316 0.303 132.338
1400 0.521 120.609 7.437 -176.933 5.57e-3 -46.153 0.322 135.139
1425 0.522 123.098 7.365 -178.427 7.033e-3 -49.127 0.348 138.631
1450 0.524 125.298 7.292 -179.482 6.836e-3 -45.232 0.356 139.824
1475 0.534 127.139 7.3 -179.77 7.012e-3 -51.82 0.361 142.928
1500 0.526 128.539 7.323 178.338 7.416e-3 -48.682 0.384 146.599
1525 0.53 131.014 7.236 177.432 6.959e-3 -50.618 0.394 148.04
1550 0.536 132.86 7.189 177.081 8.141e-3 -47.219 0.403 150.333
1575 0.528 134.393 7.228 176.131 7.354e-3 -44.119 0.409 153.032
1600 0.537 136.521 7.146 175.274 7.835e-3 -51.566 0.421 154.657
1625 0.538 137.743 7.127 174.82 8.608e-3 -47.61 0.426 156.907
1650 0.535 139.687 7.137 174.37 7.516e-3 -50.82 0.432 159.42
1675 0.539 140.818 7.099 173.559 8.169e-3 -53.481 0.441 161.816
1700 0.537 142.859 7.05 172.879 7.467e-3 -44.411 0.448 163.826
1725 0.538 144.659 6.984 172.674 8.253e-3 -52.726 0.452 165.579
1750 0.539 145.893 6.985 172.081 8.825e-3 -43.879 0.456 167.895
1775 0.535 147.671 6.969 171.787 7.677e-3 -41.713 0.463 170.515
1800 0.533 149.298 6.911 170.898 9.551e-3 -42.492 0.475 171.988
1825 0.536 150.769 6.855 171.135 8.463e-3 -37.675 0.473 174.187
1850 0.531 152.269 6.842 170.641 8.644e-3 -43.479 0.475 175.741
1875 0.532 153.567 6.807 170.229 9.526e-3 -37.781 0.483 178.562
1900 0.528 155.486 6.711 169.685 8.887e-3 -33.625 0.488 179.787
1925 0.526 157.257 6.696 169.885 0.01 -35.155 0.488 -178.452
1950 0.523 158.395 6.648 169.575 9.444e-3 -30.745 0.493 -176.011
1975 0.519 160.455 6.6 169.3 8.923e-3 -28.37 0.493 -174.259
2000 0.521 161.972 6.52 169.512 0.011 -28.778 0.496 -173.094
2025 0.517 163.76 6.476 169.475 9.211e-3 -24.415 0.494 -170.479
2050 0.508 165.155 6.428 169.472 0.01 -26.318 0.495 -169.173
2075 0.509 166.583 6.374 169.605 0.01 -24.125 0.494 -167.188
2100 0.504 168.081 6.365 169.778 0.01 -24.912 0.495 -165.299
2125 0.503 169.489 6.297 169.947 0.011 -20.873 0.495 -163.422
2150 0.499 171.477 6.256 169.979 0.01 -19.191 0.492 -161.355
2175 0.491 172.349 6.221 170.138 0.011 -19.862 0.491 -159.561
2200 0.491 174.751 6.148 170.171 0.011 -14.609 0.49 -157.647
2225 0.484 175.766 6.139 170.573 0.011 -16.457 0.49 -155.775
2250 0.485 177.647 6.066 170.709 0.012 -9.041 0.492 -153.747
2275 0.476 179.359 6.049 171.076 0.012 -9.394 0.487 -152.05
2300 0.472 -179.678 5.974 171.641 0.012 -12.539 0.483 -150.414
2325 0.467 -177.624 5.936 171.909 0.013 -5.901 0.484 -148.475
2350 0.464 -176.055 5.894 172.656 0.012 -8.024 0.477 -146.649
2375 0.46 -174.804 5.837 172.876 0.013 -4.164 0.478 -144.805
2400 0.451 -172.606 5.824 173.268 0.012 -3.492 0.471 -142.667
2425 0.45 -171.652 5.775 173.803 0.013 -3.627 0.468 -140.668
2450 0.443 -170.179 5.753 174.415 0.014 1.275 0.467 -138.963
2475 0.436 -168.142 5.723 174.915 0.013 0.545 0.46 -136.803
2500 0.434 -167.098 5.675 175.608 0.014 3.518 0.459 -135.043
2525 0.427 -164.839 5.652 175.988 0.014 7.338 0.456 -133.05
2550 0.42 -163.819 5.617 176.812 0.015 5.362 0.452 -131.164
2575 0.416 -162.466 5.58 177.233 0.015 9.783 0.448 -129.203
2600 0.404 -160.375 5.563 178.035 0.014 10.435 0.444 -126.949
2625 0.405 -159.393 5.52 178.713 0.016 12.533 0.44 -125.218
2650 0.394 -157.278 5.492 179.219 0.015 13.859 0.436 -123.331
2675 0.387 -156.556 5.459 -179.683 0.016 14.567 0.431 -121.514
2700 0.384 -154.302 5.43 -179.311 0.015 18.189 0.427 -119.178
2725 0.373 -153.064 5.417 -178.221 0.015 21.829 0.424 -117.346
2750 0.372 -151.502 5.35 -177.446 0.016 19.564 0.418 -115.602
2775 0.364 -150.276 5.328 -176.716 0.017 25.444 0.416 -113.46
2800 0.355 -148.164 5.306 -175.931 0.017 25.289 0.41 -111.521
2825 0.35 -147.328 5.267 -175.018 0.018 25.032 0.406 -109.715
2850 0.34 -145.979 5.257 -174.18 0.017 28.83 0.401 -107.73
2875 0.334 -143.884 5.218 -173.17 0.017 29.08 0.395 -105.766
2900 0.326 -143.029 5.201 -172.334 0.019 32.556 0.393 -104.125
2925 0.318 -141.541 5.17 -171.188 0.018 36.442 0.39 -101.525
2950 0.315 -139.901 5.125 -170.369 0.019 34.231 0.382 -99.981
2975 0.303 -138.449 5.118 -169.407 0.019 38.343 0.378 -98.043
3000 0.299 -137.596 5.076 -168.229 0.018 40.891 0.373 -95.685
3025 0.289 -134.79 5.059 -167.514 0.019 41.286 0.368 -94.062
3050 0.283 -135.223 5.035 -166.079 0.019 44.551 0.365 -92.102
3075 0.275 -132.849 5.01 -165.398 0.019 43.212 0.359 -90.205
3100 0.265 -132.13 4.991 -164.205 0.02 50.975 0.359 -87.966
3125 0.261 -131.421 4.931 -163.138 0.02 48.072 0.351 -86.433
3150 0.253 -129.011 4.922 -162.112 0.021 50.728 0.347 -84.569
3175 0.248 -129.107 4.89 -160.753 0.02 53.447 0.345 -82.204
3200 0.241 -127.411 4.852 -159.929 0.021 54.911 0.339 -80.598
3225 0.233 -126.667 4.838 -158.585 0.022 56.895 0.336 -78.635
3250 0.229 -125.829 4.798 -157.459 0.021 62.261 0.333 -76.537
3275 0.22 -124.56 4.784 -156.36 0.022 60.99 0.327 -75.026
3300 0.213 -124.698 4.743 -154.953 0.022 64.697 0.326 -72.989
3325 0.205 -123.335 4.711 -153.949 0.022 64.771 0.32 -70.993
3350 0.195 -122.604 4.71 -152.642 0.022 67.038 0.316 -69.148
3375 0.194 -121.358 4.658 -151.362 0.022 71.608 0.314 -67.055
3400 0.187 -121.262 4.633 -150.307 0.023 71.053 0.309 -65.572
3425 0.182 -120.639 4.611 -148.821 0.023 74.069 0.305 -63.615
3450 0.175 -120.401 4.574 -147.697 0.023 74.893 0.302 -61.723
3475 0.166 -122.091 4.555 -146.116 0.025 77.964 0.299 -60.051
3500 0.167 -119.975 4.509 -144.981 0.024 81.399 0.295 -58.097
3525 0.159 -120.419 4.492 -143.59 0.024 80 0.293 -56.641
3550 0.153 -120.816 4.458 -142.208 0.026 84.052 0.288 -54.666
3575 0.154 -120.376 4.415 -141.075 0.025 87.095 0.285 -52.806
3600 0.143 -121.845 4.403 -139.562 0.025 89.448 0.282 -51.102
3625 0.142 -122.767 4.352 -138.204 0.026 91.866 0.28 -49.344
3650 0.138 -122.448 4.335 -136.827 0.025 92.263 0.275 -47.58
3675 0.132 -125.454 4.309 -135.345 0.026 94.735 0.273 -45.994
3700 0.133 -122.144 4.273 -134.266 0.026 97.784 0.27 -43.918
3725 0.129 -126.244 4.256 -132.591 0.026 98.269 0.266 -42.096
3750 0.127 -125.905 4.204 -131.251 0.027 101.129 0.264 -40.74
3775 0.128 -126.137 4.188 -129.945 0.026 104.425 0.261 -38.689
3800 0.123 -130.729 4.166 -128.28 0.027 104.32 0.258 -37.256
3825 0.121 -129.441 4.133 -126.956 0.027 107.444 0.256 -35.455
3850 0.123 -131.341 4.113 -125.484 0.028 107.096 0.253 -33.768
3875 0.125 -134.057 4.069 -123.975 0.028 111.775 0.251 -32.298
3900 0.122 -133.293 4.051 -122.609 0.028 114.061 0.249 -30.262
3925 0.127 -135.926 4.02 -121.031 0.029 115.209 0.247 -28.785
3950 0.125 -135.384 3.989 -119.858 0.029 119.272 0.244 -27.242
3975 0.121 -136.806 3.971 -118.202 0.028 118.778 0.242 -25.47
4000 0.134 -138.69 3.931 -116.894 0.03 121.856 0.241 -23.701
4025 0.127 -137.325 3.912 -115.454 0.029 125.086 0.238 -21.891
4050 0.13 -140.099 3.883 -113.896 0.03 124.654 0.236 -20.671
4075 0.135 -140.73 3.844 -112.537 0.03 128.863 0.235 -18.407
4100 0.131 -139.309 3.831 -111.184 0.03 131.506 0.232 -16.777
4125 0.144 -140.728 3.793 -109.558 0.032 132.552 0.231 -15.82
4150 0.141 -140.724 3.767 -108.248 0.03 135.052 0.23 -13.792
4175 0.144 -140.772 3.744 -106.602 0.03 135.788 0.227 -12.038
4200 0.15 -140.685 3.708 -105.246 0.031 138.534 0.227 -10.401
4225 0.149 -140.72 3.696 -103.734 0.031 141.086 0.224 -8.607
4250 0.157 -140.635 3.665 -102.331 0.031 141.139 0.222 -6.855
4275 0.16 -138.896 3.632 -100.717 0.032 145.733 0.221 -5.488
4300 0.158 -140.837 3.604 -99.196 0.031 146.684 0.219 -3.576
4325 0.167 -137.66 3.571 -97.839 0.032 148.451 0.219 -1.844
4350 0.164 -138.421 3.552 -96.263 0.032 152.467 0.217 -0.163
4375 0.172 -137.72 3.518 -94.853 0.032 153.437 0.216 1.496
4400 0.174 -135.495 3.498 -93.503 0.033 155.907 0.214 3.47
4425 0.177 -136.747 3.468 -91.803 0.032 157.827 0.214 5.125
4450 0.178 -134.111 3.437 -90.474 0.033 158.956 0.212 6.62
4475 0.183 -134.899 3.426 -88.937 0.033 162.043 0.211 8.77
4500 0.186 -134.263 3.384 -87.307 0.032 163.293 0.209 10.341
4525 0.187 -131.01 3.368 -86.115 0.034 165.195 0.209 12.195
4550 0.189 -131.63 3.348 -84.215 0.034 169.395 0.208 14.1
4575 0.194 -129.963 3.317 -82.861 0.034 170.589 0.206 16.052
4600 0.197 -128.889 3.301 -81.401 0.035 172.379 0.206 17.98
4625 0.199 -128.592 3.274 -79.777 0.034 174.343 0.202 19.509
4650 0.201 -124.952 3.258 -78.229 0.034 175.901 0.201 21.801
4675 0.204 -125.259 3.226 -76.676 0.035 179.334 0.201 23.338
4700 0.21 -124.529 3.196 -75.352 0.035 179.398 0.199 25.831
4725 0.209 -122.239 3.183 -73.713 0.036 -177.703 0.198 27.569
4750 0.217 -121.461 3.157 -72.287 0.035 -174.707 0.195 29.551
4775 0.216 -120.077 3.144 -71.017 0.035 -173.487 0.195 31.738
4800 0.217 -118.572 3.12 -69.436 0.036 -170.336 0.193 33.823
4825 0.226 -118.35 3.09 -67.977 0.036 -169.187 0.193 35.788
4850 0.222 -115.643 3.075 -66.7 0.037 -167.48 0.191 38.019
4875 0.231 -115.196 3.039 -65.02 0.036 -164.14 0.189 40.741
4900 0.232 -113.954 3.019 -63.86 0.037 -163.84 0.188 42.11
4925 0.233 -112.439 2.993 -62.169 0.038 -161.379 0.188 44.617
4950 0.239 -111.428 2.961 -60.878 0.037 -159.418 0.187 46.911
4975 0.237 -110.774 2.941 -59.396 0.039 -159.256 0.185 48.86
5000 0.239 -109.64 2.911 -57.998 0.038 -155.078 0.185 51.337
5025 0.246 -108.797 2.894 -56.39 0.039 -153.99 0.182 53.258
5050 0.241 -107.748 2.858 -54.888 0.039 -152.028 0.183 55.78
5075 0.249 -106.901 2.827 -53.469 0.038 -150.639 0.182 57.809
5100 0.244 -105.768 2.805 -51.673 0.039 -149.393 0.18 60.267
5125 0.241 -104.659 2.769 -50.296 0.039 -146.236 0.178 62.16
5150 0.251 -103.551 2.739 -48.81 0.039 -144.19 0.178 64.707
5175 0.244 -102.944 2.705 -46.929 0.039 -142.499 0.176 66.865
5200 0.248 -101.062 2.684 -45.274 0.039 -140.414 0.173 68.371
5225 0.248 -101.154 2.655 -43.668 0.039 -139.548 0.174 70.928
5250 0.242 -100.619 2.622 -41.667 0.039 -136.877 0.172 73.017
5275 0.245 -97.382 2.61 -40.011 0.039 -133.991 0.17 74.919
5300 0.239 -97.302 2.592 -38.286 0.04 -133.216 0.168 76.799
5325 0.239 -96.306 2.561 -36.699 0.039 -129.709 0.167 80.016
5350 0.238 -94.271 2.554 -34.6 0.039 -128.59 0.163 81.104
5375 0.239 -94.234 2.533 -33.089 0.04 -126.919 0.161 83.658
5400 0.24 -91.625 2.513 -31.393 0.039 -123.853 0.16 86.325
5425 0.235 -91.291 2.488 -29.563 0.039 -122.923 0.156 87.949
5450 0.234 -89.987 2.472 -27.724 0.04 -120.754 0.155 90.09
5475 0.234 -88.469 2.445 -25.91 0.039 -118.9 0.152 92.46
5500 0.234 -89.257 2.419 -24.031 0.04 -116.721 0.15 94.233
5525 0.227 -87.282 2.411 -21.889 0.039 -114.119 0.148 95.956
5550 0.223 -85.283 2.394 -19.912 0.04 -112.932 0.143 97.969
5575 0.22 -84.984 2.385 -18.138 0.04 -108.908 0.14 99.696
5600 0.215 -81.673 2.382 -16.085 0.039 -107.045 0.136 101.784
5625 0.213 -80.782 2.367 -14.157 0.039 -103.737 0.133 104.352
5650 0.212 -79.595 2.367 -12.297 0.039 -100.747 0.127 105.816
5675 0.205 -76.4 2.358 -10.385 0.039 -100.615 0.124 108.316
5700 0.205 -75.32 2.349 -8.721 0.04 -96.681 0.12 109.649
5725 0.199 -72.954 2.357 -7.098 0.039 -92.928 0.114 112.696
5750 0.2 -71.106 2.342 -5.185 0.04 -93.695 0.111 113.676
5775 0.199 -69.959 2.347 -3.665 0.04 -90.525 0.106 116.53
5800 0.19 -67.532 2.339 -1.7 0.039 -88.43 0.102 119.059
5825 0.2 -65.26 2.328 -0.146 0.04 -85.806 0.097 120.733
5850 0.192 -63.215 2.323 1.631 0.041 -82.539 0.093 124.572
5875 0.188 -61.622 2.311 3.202 0.04 -81.818 0.087 125.236
5900 0.196 -59.471 2.314 4.912 0.042 -77.758 0.083 127.616
5925 0.187 -57.819 2.301 6.636 0.04 -75.944 0.08 129.829
5950 0.19 -55.767 2.289 8.093 0.042 -74.827 0.074 133.01
5975 0.192 -53.734 2.287 9.996 0.042 -71.234 0.069 134.479
6000 0.184 -53.137 2.271 11.79 0.041 -69.91 0.064 136.969
