!Hittite Microwave Corporation								
!12 Elizabeth Drive								
!Chelmsford, MA 01824								
!Tel: 978-250-3343								
!Fax: 978-250-3373								
!Device: HMC393MS8G, 5-6 GHz GaAs MMIC DPDT Diversity Switch in 8-lead Grounded Base surface Mount Plastic Package								
!Misc:  Port 1 = ANT1, Port 2 = ANT2, Port 3 = Tx, Port 4 = Rx, Vctl=+5V, State 1 selected, Room							
!
# MHZ S MA R 50

4000 0.269 59.348 0.277 1.512 0.776 55.053 0.271 1.647
          0.257 0.725 0.786 -1.159 0.245 1.972 0.129 -19.573
          0.789 53.599 0.258 -2.766 0.28 65.828 0.273 0.822
          0.252 0.958 0.124 -23.596 0.254 0.285 0.777 -1.526
4015 0.266 58.793 0.272 -2.452 0.792 54.264 0.266 -2.131
          0.254 -0.331 0.785 -1.845 0.247 1.163 0.126 -23.092
          0.789 52.769 0.245 -4.412 0.277 65.305 0.267 -3.029
          0.249 -0.067 0.117 -24.982 0.251 -0.835 0.777 -2.273
4030 0.262 58.211 0.258 -5.225 0.799 53.108 0.252 -4.725
          0.25 -1.133 0.785 -2.49 0.246 -0.079 0.118 -25.521
          0.784 52.121 0.232 -4.186 0.273 64.804 0.252 -5.77
          0.244 -0.748 0.111 -24.587 0.246 -1.764 0.777 -2.883
4045 0.259 57.613 0.239 -5.882 0.795 52.003 0.234 -5.29
          0.244 -1.492 0.787 -3.166 0.243 -1.236 0.11 -25.783
          0.776 51.945 0.223 -2.507 0.269 64.559 0.234 -6.396
          0.239 -1.016 0.106 -22.714 0.241 -2.161 0.779 -3.59
4060 0.255 56.941 0.224 -4.255 0.784 51.332 0.219 -3.614
          0.24 -1.401 0.788 -3.823 0.236 -1.923 0.102 -23.766
          0.77 52.178 0.219 -0.363 0.266 64.38 0.219 -4.752
          0.235 -0.878 0.104 -20.322 0.236 -2.149 0.781 -4.352
4075 0.252 56.177 0.215 -0.933 0.769 51.357 0.211 -0.22
          0.236 -1.064 0.788 -4.454 0.229 -1.907 0.098 -20.115
          0.768 52.615 0.22 1.239 0.264 64.007 0.211 -1.465
          0.231 -0.457 0.103 -18.446 0.232 -1.959 0.781 -5.064
4090 0.248 55.454 0.216 2.75 0.758 52.13 0.212 3.519
          0.235 -0.911 0.79 -5.253 0.223 -1.117 0.099 -16.014
          0.77 53.121 0.223 1.825 0.261 63.486 0.212 2.136
          0.229 -0.029 0.105 -17.604 0.229 -1.572 0.781 -5.752
4105 0.244 54.639 0.226 4.595 0.757 53.346 0.221 5.494
          0.233 -0.846 0.789 -5.819 0.221 0.09 0.103 -13.819
          0.775 53.209 0.224 1.33 0.258 62.901 0.221 4.008
          0.228 0.078 0.105 -17.684 0.228 -1.627 0.782 -6.438
4120 0.24 53.833 0.238 4.225 0.766 54.299 0.233 5.254
          0.231 -1.163 0.79 -6.493 0.222 0.932 0.108 -13.85
          0.778 53.162 0.222 0.909 0.255 62.489 0.232 3.66
          0.226 -0.102 0.104 -17.901 0.226 -1.912 0.784 -7.129
4135 0.237 52.937 0.245 2.006 0.78 54.695 0.24 3.237
          0.228 -1.438 0.791 -7.165 0.223 1.143 0.111 -15.627
          0.778 53.101 0.217 1.22 0.251 62.034 0.239 1.484
          0.223 -0.21 0.101 -17.389 0.222 -2.145 0.786 -7.812
4150 0.234 51.992 0.245 -1.058 0.795 54.491 0.241 0.38
          0.224 -1.462 0.792 -7.838 0.225 0.747 0.111 -18.25
          0.776 53.22 0.215 2.307 0.248 61.571 0.239 -1.553
          0.22 -0.06 0.1 -16.021 0.219 -2.16 0.787 -8.469
4165 0.23 51.071 0.238 -3.72 0.803 53.846 0.233 -2.135
          0.221 -1.171 0.794 -8.517 0.224 -0.037 0.107 -20.559
          0.775 53.661 0.215 3.769 0.245 61.191 0.231 -4.219
          0.217 0.371 0.1 -14.23 0.215 -1.89 0.789 -9.109
4180 0.227 50.165 0.224 -4.888 0.804 53.062 0.22 -3.126
          0.218 -0.565 0.793 -9.092 0.221 -0.884 0.101 -21.299
          0.777 54.396 0.221 4.948 0.242 60.838 0.219 -5.32
          0.215 0.939 0.103 -12.839 0.212 -1.353 0.79 -9.791
4195 0.224 49.198 0.214 -3.798 0.798 52.707 0.211 -1.912
          0.219 -0.337 0.796 -9.872 0.216 -1.279 0.097 -19.759
          0.787 54.95 0.23 4.188 0.24 60.151 0.209 -4.191
          0.215 1.487 0.107 -13.557 0.213 -0.777 0.792 -10.479
4210 0.221 48.354 0.21 -1.857 0.792 52.853 0.207 0.013
          0.22 -0.518 0.797 -10.52 0.212 -1.103 0.095 -17.518
          0.801 55.07 0.236 1.576 0.236 59.516 0.205 -2.366
          0.217 1.497 0.109 -15.824 0.213 -0.807 0.793 -11.117
4225 0.218 47.459 0.211 -0.396 0.79 53.265 0.208 1.563
          0.22 -1.2 0.798 -11.174 0.208 -0.625 0.096 -15.866
          0.815 54.576 0.234 -1.96 0.233 58.978 0.206 -0.964
          0.217 0.958 0.108 -19.035 0.214 -1.466 0.795 -11.756
4240 0.215 46.57 0.215 -0.124 0.793 53.736 0.212 1.957
          0.219 -2.258 0.8 -11.842 0.206 -0.092 0.097 -15.366
          0.824 53.678 0.224 -5.132 0.23 58.565 0.209 -0.699
          0.216 8.382e-3 0.104 -21.907 0.213 -2.546 0.796 -12.423
4255 0.213 45.789 0.218 -1.187 0.801 54.049 0.215 0.976
          0.215 -3.419 0.8 -12.502 0.205 0.254 0.099 -16.069
          0.823 52.718 0.209 -6.682 0.227 58.162 0.212 -1.784
          0.212 -1.021 0.096 -23.179 0.21 -3.738 0.798 -13.1
4270 0.21 45.076 0.218 -3.235 0.81 53.934 0.215 -0.787
          0.21 -4.337 0.802 -13.218 0.205 0.151 0.098 -17.737
          0.814 51.92 0.192 -5.781 0.225 57.374 0.211 -3.845
          0.207 -1.584 0.088 -22.326 0.204 -4.754 0.799 -13.703
4285 0.207 44.255 0.211 -5.024 0.815 53.435 0.208 -2.384
          0.203 -4.302 0.803 -13.856 0.203 -0.195 0.095 -18.881
          0.801 51.898 0.183 -2.174 0.221 56.739 0.204 -5.474
          0.201 -1.569 0.084 -18.478 0.198 -4.964 0.8 -14.415
4300 0.205 43.458 0.202 -5.478 0.815 52.983 0.199 -2.634
          0.198 -3.903 0.804 -14.499 0.201 -0.531 0.09 -18.69
          0.793 52.429 0.182 1.571 0.219 56.233 0.195 -5.901
          0.196 -0.989 0.084 -14.587 0.192 -4.618 0.803 -15.095
4315 0.202 42.652 0.195 -4.835 0.812 52.73 0.193 -1.757
          0.195 -3.213 0.805 -15.166 0.197 -0.724 0.087 -17.462
          0.791 53.25 0.187 4.041 0.216 55.679 0.188 -5.237
          0.193 -0.178 0.086 -11.8 0.189 -3.909 0.804 -15.748
4330 0.199 41.819 0.191 -3.672 0.808 52.764 0.189 -0.399
          0.194 -2.627 0.806 -15.827 0.194 -0.65 0.086 -15.788
          0.796 53.976 0.195 4.659 0.214 54.979 0.185 -4.051
          0.192 0.555 0.089 -10.812 0.187 -3.227 0.806 -16.358
4345 0.196 40.966 0.19 -2.748 0.807 53.05 0.189 0.664
          0.193 -2.506 0.808 -16.463 0.191 -0.305 0.086 -14.385
          0.807 54.296 0.201 3.51 0.212 54.164 0.184 -3.118
          0.192 0.936 0.092 -11.68 0.186 -2.927 0.807 -16.962
4360 0.193 40.134 0.192 -2.853 0.81 53.356 0.19 0.81
          0.193 -2.816 0.81 -17.13 0.19 0.085 0.087 -13.915
          0.818 54.168 0.203 1.18 0.209 53.453 0.185 -3.174
          0.192 0.735 0.092 -13.615 0.186 -3.084 0.81 -17.739
4375 0.19 39.259 0.19 -4.192 0.817 53.286 0.189 -0.375
          0.191 -3.508 0.811 -17.819 0.188 0.061 0.086 -14.736
          0.823 53.672 0.197 -0.903 0.206 52.829 0.184 -4.539
          0.19 0.31 0.09 -15.377 0.184 -3.652 0.811 -18.327
4390 0.187 38.31 0.184 -5.408 0.82 52.949 0.184 -1.404
          0.188 -4.083 0.811 -18.447 0.186 -0.183 0.084 -15.494
          0.824 53.202 0.189 -1.629 0.203 52.115 0.178 -5.647
          0.187 -0.073 0.086 -15.826 0.181 -4.264 0.812 -18.975
4405 0.184 37.293 0.176 -5.541 0.819 52.515 0.176 -1.293
          0.184 -4.482 0.814 -19.15 0.184 -0.573 0.08 -15.123
          0.822 52.96 0.182 -1.155 0.201 51.363 0.17 -5.694
          0.184 -0.205 0.083 -14.974 0.178 -4.64 0.815 -19.617
4420 0.182 36.273 0.168 -4.11 0.813 52.248 0.168 0.385
          0.181 -4.622 0.817 -19.859 0.18 -0.767 0.077 -13.157
          0.819 52.999 0.178 -0.095 0.199 50.644 0.163 -4.25
          0.181 -0.112 0.081 -13.572 0.175 -4.795 0.818 -20.255
4435 0.179 35.278 0.164 -1.306 0.803 52.396 0.164 3.386
          0.178 -4.543 0.818 -20.495 0.175 -0.458 0.076 -9.849
          0.819 53.207 0.177 0.807 0.196 49.936 0.159 -1.477
          0.178 0.112 0.081 -12.491 0.172 -4.837 0.82 -20.876
4450 0.177 34.175 0.166 1.804 0.796 53.08 0.166 6.682
          0.175 -4.553 0.819 -21.175 0.171 0.335 0.077 -6.309
          0.822 53.29 0.177 0.993 0.194 49 0.161 1.658
          0.175 0.465 0.081 -12.118 0.169 -4.757 0.82 -21.38
4465 0.174 32.974 0.174 3.344 0.799 54.116 0.175 8.348
          0.173 -4.772 0.82 -21.808 0.169 1.366 0.081 -4.654
          0.825 53.2 0.174 0.319 0.191 48.256 0.169 2.978
          0.174 0.33 0.08 -12.661 0.167 -4.953 0.824 -22.047
4480 0.173 31.907 0.185 2.537 0.809 54.965 0.186 7.749
          0.17 -5.163 0.823 -22.505 0.168 2.297 0.086 -5.074
          0.825 52.955 0.169 0.056 0.189 47.523 0.179 2.108
          0.171 0.277 0.078 -12.789 0.164 -5.341 0.826 -22.601
4495 0.171 30.855 0.193 -0.536 0.826 55.368 0.194 4.948
          0.166 -5.328 0.824 -23.079 0.169 2.749 0.09 -7.787
          0.823 52.793 0.163 0.889 0.187 46.601 0.187 -0.966
          0.167 0.311 0.075 -11.622 0.161 -5.678 0.828 -23.154
4510 0.169 29.794 0.195 -5.262 0.843 55.163 0.197 0.595
          0.162 -5.22 0.824 -23.632 0.169 2.599 0.091 -12.029
          0.818 52.874 0.159 2.84 0.184 45.618 0.188 -5.653
          0.164 0.6 0.073 -9.373 0.157 -5.764 0.83 -23.693
4525 0.168 28.745 0.189 -10.461 0.858 54.361 0.19 -4.174
          0.159 -4.909 0.827 -24.282 0.169 1.94 0.088 -16.431
          0.815 53.279 0.159 5.369 0.18 44.878 0.182 -10.775
          0.16 1.233 0.073 -6.766 0.153 -5.472 0.832 -24.206
4540 0.167 27.728 0.173 -14.328 0.864 53.223 0.175 -7.836
          0.156 -4.351 0.828 -24.884 0.168 1.048 0.081 -19.402
          0.815 54.002 0.163 7.478 0.177 44.705 0.167 -14.585
          0.158 1.962 0.076 -4.445 0.15 -4.796 0.835 -24.805
4555 0.165 26.694 0.156 -14.695 0.859 52.193 0.158 -7.912
          0.155 -3.839 0.83 -25.483 0.164 0.313 0.074 -19.261
          0.826 54.502 0.172 7.244 0.178 44.119 0.15 -14.928
          0.157 2.704 0.08 -4.275 0.148 -4.213 0.837 -25.355
4570 0.164 25.777 0.144 -12.842 0.85 51.574 0.146 -5.676
          0.154 -3.827 0.831 -26.064 0.159 0.021 0.068 -16.783
          0.84 54.717 0.179 4.864 0.177 42.972 0.138 -13.019
          0.157 3.077 0.083 -6.406 0.148 -4 0.839 -25.929
4585 0.163 24.865 0.136 -10.025 0.84 51.39 0.139 -2.589
          0.154 -4.334 0.833 -26.658 0.155 0.143 0.065 -13.372
          0.853 54.327 0.18 0.792 0.175 41.566 0.131 -10.3
          0.157 2.836 0.084 -10.289 0.147 -4.394 0.841 -26.435
4600 0.161 24.012 0.133 -7.336 0.832 51.527 0.136 0.253
          0.152 -5.248 0.836 -27.221 0.151 0.551 0.064 -10.232
          0.863 53.436 0.173 -3.65 0.172 40.376 0.128 -7.788
          0.155 2.196 0.081 -14.505 0.146 -5.32 0.843 -26.911
4615 0.16 23.259 0.132 -5.455 0.829 51.795 0.135 2.273
          0.149 -6.338 0.837 -27.743 0.148 1.078 0.064 -8.061
          0.864 52.348 0.159 -6.729 0.169 39.657 0.126 -6.054
          0.153 1.502 0.074 -17.281 0.143 -6.472 0.845 -27.423
4630 0.158 22.464 0.131 -4.355 0.827 51.988 0.134 3.564
          0.145 -7.258 0.839 -28.349 0.145 1.575 0.064 -6.756
          0.856 51.339 0.141 -6.759 0.167 39.052 0.125 -5.214
          0.148 0.886 0.066 -17.027 0.139 -7.407 0.848 -27.97
4645 0.157 21.814 0.128 -3.533 0.825 52.039 0.132 4.81
          0.139 -7.672 0.84 -28.888 0.142 1.94 0.063 -5.083
          0.841 51.121 0.13 -2.76 0.166 38.684 0.122 -4.146
          0.143 0.867 0.061 -12.768 0.133 -8.065 0.849 -28.4
4660 0.155 20.967 0.126 -1.944 0.821 52.212 0.13 6.746
          0.135 -7.334 0.842 -29.483 0.139 2.377 0.063 -2.933
          0.829 51.48 0.125 2.05 0.166 37.95 0.12 -2.404
          0.138 1.522 0.06 -7.679 0.128 -7.919 0.85 -28.92
4675 0.154 20.135 0.126 0.075 0.817 52.641 0.13 9.134
          0.131 -6.611 0.844 -30.085 0.136 3.028 0.064 -0.341
          0.822 52.205 0.127 6.249 0.166 36.812 0.12 -0.339
          0.135 2.437 0.061 -3.463 0.124 -7.244 0.853 -29.459
4690 0.153 19.244 0.129 1.819 0.816 53.321 0.134 11.305
          0.128 -5.945 0.847 -30.666 0.134 3.937 0.066 1.931
          0.823 52.987 0.131 8.604 0.165 35.343 0.122 1.488
          0.133 3.447 0.064 -1.018 0.121 -6.443 0.855 -29.956
4705 0.152 18.197 0.135 2.444 0.82 54.118 0.14 12.404
          0.126 -5.624 0.848 -31.212 0.132 4.992 0.069 2.984
          0.831 53.518 0.136 8.622 0.163 33.8 0.127 2.304
          0.131 4.364 0.066 -0.617 0.119 -5.885 0.856 -30.384
4720 0.151 17.087 0.142 1.218 0.831 54.795 0.148 11.657
          0.125 -5.551 0.85 -31.713 0.131 5.892 0.073 2.385
          0.84 53.603 0.139 7.129 0.161 32.683 0.134 1.129
          0.13 4.724 0.068 -2.075 0.117 -5.735 0.858 -30.787
4735 0.149 16.005 0.147 -2.747 0.847 54.938 0.153 8.108
          0.123 -5.861 0.851 -32.191 0.131 6.54 0.077 -1.18
          0.846 53.302 0.136 5.483 0.159 31.998 0.138 -2.616
          0.128 4.882 0.067 -3.703 0.116 -5.915 0.86 -31.233
4750 0.148 14.84 0.146 -8.153 0.863 54.526 0.153 3.108
          0.12 -6.115 0.853 -32.744 0.131 6.478 0.077 -5.958
          0.847 52.989 0.131 4.809 0.158 31.08 0.137 -7.952
          0.126 4.956 0.065 -4.232 0.113 -6.043 0.862 -31.705
4765 0.147 13.739 0.137 -13.336 0.874 53.629 0.144 -1.655
          0.117 -6.265 0.855 -33.245 0.13 6.02 0.073 -10.581
          0.845 52.8 0.127 5.41 0.157 30.04 0.129 -13.087
          0.123 5.213 0.063 -3.603 0.11 -6.198 0.865 -32.148
4780 0.146 12.726 0.123 -16.454 0.877 52.52 0.13 -4.31
          0.114 -6.248 0.857 -33.738 0.128 5.419 0.067 -13.167
          0.843 52.852 0.124 6.843 0.156 29.055 0.115 -16.17
          0.12 5.725 0.062 -2.194 0.107 -6.194 0.867 -32.587
4795 0.146 11.76 0.108 -16.24 0.87 51.552 0.115 -3.594
          0.111 -6.068 0.86 -34.289 0.124 4.95 0.06 -12.365
          0.843 53.115 0.124 8.215 0.155 28.177 0.102 -15.947
          0.118 6.452 0.063 -0.758 0.104 -5.886 0.869 -33.039
4810 0.146 10.762 0.097 -12.742 0.857 51.034 0.104 0.348
          0.108 -5.892 0.861 -34.846 0.12 5.002 0.055 -8.397
          0.848 53.307 0.125 8.443 0.155 27.133 0.092 -12.416
          0.116 7.302 0.064 -0.382 0.102 -5.477 0.872 -33.424
4825 0.145 9.988 0.094 -8.122 0.844 51.279 0.101 5.417
          0.106 -5.817 0.862 -35.315 0.116 5.591 0.054 -3.319
          0.855 53.211 0.125 7.299 0.155 25.604 0.089 -7.638
          0.114 7.704 0.064 -1.62 0.1 -5.417 0.872 -33.758
4840 0.145 9.067 0.095 -4.837 0.838 51.851 0.102 9.179
          0.104 -6.17 0.864 -35.813 0.113 6.629 0.055 0.193
          0.86 52.921 0.122 5.754 0.153 24.387 0.089 -4.437
          0.112 7.977 0.063 -3.253 0.098 -5.635 0.874 -34.198
4855 0.146 8.222 0.097 -3.619 0.839 52.405 0.105 10.922
          0.101 -6.544 0.867 -36.345 0.11 7.733 0.057 1.751
          0.861 52.577 0.117 4.818 0.152 23.471 0.091 -3.362
          0.11 8.172 0.061 -4.25 0.095 -5.874 0.876 -34.588
4870 0.146 7.505 0.098 -4.257 0.844 52.735 0.107 10.806
          0.098 -6.708 0.868 -36.837 0.109 8.705 0.058 1.55
          0.858 52.302 0.11 5.123 0.151 22.635 0.092 -4.117
          0.107 8.495 0.058 -3.862 0.092 -6.11 0.878 -34.934
4885 0.146 6.909 0.097 -5.953 0.851 52.751 0.106 9.636
          0.095 -6.637 0.869 -37.239 0.107 9.46 0.058 0.286
          0.853 52.196 0.105 6.819 0.151 21.689 0.091 -5.844
          0.104 9.114 0.056 -2.039 0.089 -6.333 0.879 -35.284
4900 0.146 6.464 0.093 -7.688 0.855 52.454 0.102 8.633
          0.091 -6.537 0.87 -37.626 0.105 9.949 0.057 -0.923
          0.849 52.323 0.102 9.457 0.15 20.701 0.086 -7.411
          0.101 9.95 0.055 0.166 0.086 -6.327 0.881 -35.606
4915 0.146 5.79 0.087 -7.643 0.853 52.089 0.097 9.347
          0.089 -6.169 0.873 -38.197 0.102 10.393 0.054 -0.155
          0.852 52.568 0.103 10.891 0.15 19.836 0.081 -7.32
          0.099 10.819 0.056 1.688 0.083 -5.683 0.883 -36.071
4930 0.145 5.221 0.082 -6.069 0.849 52.006 0.093 11.657
          0.087 -5.909 0.875 -38.686 0.1 10.984 0.053 1.979
          0.856 52.7 0.103 11.063 0.149 18.838 0.077 -5.738
          0.097 11.687 0.057 1.511 0.081 -5.515 0.885 -36.423
4945 0.145 4.788 0.08 -4.07 0.845 52.173 0.091 14.416
          0.084 -6.087 0.876 -39.133 0.097 11.931 0.052 4.484
          0.861 52.555 0.102 10.161 0.149 17.84 0.075 -3.747
          0.095 12.336 0.057 0.167 0.079 -5.539 0.887 -36.769
4960 0.144 4.324 0.08 -2.514 0.843 52.511 0.091 16.683
          0.082 -6.443 0.877 -39.561 0.095 13.059 0.053 6.432
          0.863 52.178 0.098 8.99 0.148 17.048 0.074 -2.257
          0.093 12.888 0.055 -1.184 0.076 -5.681 0.888 -37.106
4975 0.144 3.734 0.08 -2.042 0.845 52.891 0.092 17.831
          0.079 -6.644 0.878 -39.974 0.093 14.138 0.054 7.162
          0.861 51.726 0.091 8.793 0.148 16.442 0.074 -1.868
          0.091 13.495 0.052 -1.263 0.074 -5.989 0.889 -37.407
4990 0.143 3.214 0.08 -3.054 0.852 53.141 0.093 17.637
          0.076 -6.814 0.88 -40.366 0.092 15.213 0.056 6.48
          0.855 51.349 0.084 11.07 0.148 15.433 0.074 -2.748
          0.088 14.019 0.049 0.804 0.07 -6.554 0.89 -37.711
5005 0.143 2.524 0.078 -4.944 0.858 53.008 0.092 16.695
          0.072 -6.618 0.882 -40.869 0.09 16.037 0.056 5.291
          0.846 51.532 0.08 15.919 0.148 14.182 0.072 -4.523
          0.085 15.092 0.047 4.99 0.067 -6.381 0.893 -38.099
5020 0.142 1.885 0.074 -6.586 0.862 52.707 0.088 16.23
          0.069 -6.125 0.884 -41.356 0.088 16.766 0.054 4.298
          0.84 52.148 0.081 20.615 0.148 13.161 0.068 -5.951
          0.082 16.648 0.048 9.135 0.064 -5.793 0.895 -38.402
5035 0.142 1.043 0.07 -7.169 0.862 52.47 0.084 16.897
          0.067 -5.601 0.886 -41.766 0.086 17.611 0.053 4.413
          0.84 52.903 0.084 23.902 0.147 12.354 0.064 -6.219
          0.08 18.56 0.05 12.106 0.061 -5.135 0.895 -38.668
5050 0.141 0.129 0.067 -6.735 0.861 52.386 0.081 18.601
          0.064 -5.027 0.887 -42.16 0.084 18.611 0.052 5.495
          0.848 53.493 0.088 25.306 0.146 11.478 0.061 -5.529
          0.079 20.302 0.053 12.945 0.059 -4.405 0.896 -38.966
5065 0.141 -0.717 0.064 -5.923 0.859 52.464 0.08 20.689
          0.062 -4.433 0.888 -42.59 0.082 19.763 0.051 6.804
          0.86 53.694 0.091 24.679 0.146 10.383 0.058 -4.62
          0.077 21.61 0.056 11.314 0.057 -3.658 0.898 -39.309
5080 0.14 -1.73 0.062 -5.754 0.862 52.674 0.079 22.137
          0.06 -4.228 0.889 -42.958 0.08 21.136 0.052 7.448
          0.872 53.455 0.093 21.769 0.145 9.405 0.057 -4.29
          0.076 23.138 0.057 7.963 0.055 -3.418 0.9 -39.564
5095 0.14 -2.533 0.061 -6.998 0.866 52.718 0.079 22.039
          0.058 -4.704 0.892 -43.402 0.078 22.632 0.053 6.66
          0.879 52.799 0.089 18.209 0.144 8.75 0.055 -5.316
          0.075 23.848 0.056 3.969 0.053 -3.541 0.902 -39.92
5110 0.139 -3.375 0.058 -9.165 0.872 52.496 0.077 20.999
          0.055 -5.428 0.893 -43.824 0.077 23.819 0.052 4.802
          0.879 52.077 0.082 16.573 0.144 7.906 0.053 -7.636
          0.073 24.496 0.052 1.552 0.05 -3.697 0.903 -40.171
5125 0.139 -3.941 0.053 -11.242 0.876 52.053 0.073 20.206
          0.052 -5.701 0.895 -44.231 0.075 24.914 0.05 2.73
          0.875 51.533 0.074 17.908 0.143 6.856 0.049 -9.771
          0.071 25.593 0.048 1.901 0.048 -3.991 0.904 -40.427
5140 0.138 -4.309 0.048 -11.826 0.875 51.519 0.067 20.802
          0.049 -5.614 0.896 -44.623 0.073 25.976 0.047 2.101
          0.868 51.308 0.069 21.592 0.142 5.929 0.043 -10.423
          0.069 27.084 0.045 4.307 0.045 -4.246 0.905 -40.701
5155 0.138 -4.671 0.042 -9.98 0.869 51.083 0.061 23.662
          0.046 -5.349 0.897 -44.997 0.071 27.103 0.043 4.127
          0.862 51.433 0.066 26.143 0.141 5.41 0.038 -8.775
          0.067 28.827 0.044 7.433 0.042 -4.069 0.906 -40.958
5170 0.139 -4.996 0.038 -6.029 0.86 50.974 0.057 29.182
          0.044 -4.454 0.898 -45.338 0.069 28.604 0.041 8.334
          0.859 51.825 0.066 30.029 0.14 5.216 0.034 -4.766
          0.065 31.058 0.045 10.583 0.039 -2.935 0.907 -41.168
5185 0.139 -5.299 0.037 -1.445 0.852 51.31 0.057 35.204
          0.041 -4.051 0.9 -45.805 0.067 30.658 0.041 13.045
          0.86 52.069 0.066 32.297 0.14 4.577 0.033 -0.124
          0.063 33.255 0.046 11.535 0.036 -2.392 0.909 -41.441
5200 0.139 -5.667 0.036 1.141 0.849 51.867 0.058 39.932
