!Hittite Microwave Corporation								
!20 Alpha Road								
!Chelmsford, MA 01824								
!Tel: 978-250-3343								
!Fax: 978-250-3373								
!Device: HMC383, 12-30 GHz, Driver Amplifier Die																
!Misc: Vcc = 4.5V, data includes two K connectors, Room	
!
# MHZ S MA R 50

10037.5 0.232 -161.094 4.215 145.251 1.702e-3 -16.806 0.366 -128.094
10237.25 0.229 -172.153 4.641 131.939 1.65e-3 -27.989 0.337 -139.425
10437 0.226 175.491 4.916 118.318 1.832e-3 -28.337 0.313 -150.312
10636.75 0.225 164.903 5.125 105.83 1.764e-3 -21.462 0.289 -161.046
10836.5 0.222 152.777 5.447 92.144 1.676e-3 -28.972 0.264 -171.951
11036.25 0.223 143.025 5.697 78.418 1.65e-3 -27.077 0.243 177.312
11236 0.218 131.142 5.925 65.231 1.723e-3 -39.454 0.226 168.157
11435.75 0.22 120.276 6.154 52.876 1.598e-3 -38.24 0.21 159.076
11635.5 0.217 110.106 6.302 40.604 1.463e-3 -40.767 0.198 149.789
11835.25 0.217 99.027 6.361 27.478 1.595e-3 -41.97 0.19 140.526
12035 0.216 90.254 6.399 15.009 1.486e-3 -45.389 0.183 132.121
12234.75 0.212 79.254 6.606 3.193 1.796e-3 -43.148 0.179 123.593
12434.5 0.215 70.038 6.6 -8.524 1.491e-3 -57.64 0.177 114.115
12634.25 0.211 61.097 6.627 -18.899 1.61e-3 -54.836 0.179 105.675
12834 0.21 51.204 6.727 -29.292 1.815e-3 -58.891 0.181 97.01
13033.75 0.209 42.383 6.645 -40.881 1.533e-3 -55.993 0.184 86.645
13233.5 0.209 33.723 6.583 -50.827 1.466e-3 -59.989 0.187 77.24
13433.25 0.208 25.734 6.766 -60.121 1.662e-3 -65.156 0.19 68.709
13633 0.204 17.486 6.727 -72.246 1.711e-3 -66.063 0.195 59.517
13832.75 0.201 9.367 6.598 -81.254 1.332e-3 -65.022 0.2 49.747
14032.5 0.2 0.516 6.691 -89.918 1.53e-3 -71.834 0.205 40.223
14232.25 0.2 -6.643 6.676 -101.958 1.503e-3 -77.063 0.206 31.382
14432 0.195 -14.32 6.608 -110.756 1.286e-3 -81.768 0.208 22.212
14631.75 0.194 -21.958 6.774 -118.003 1.514e-3 -76.358 0.215 13.198
14831.5 0.191 -29.441 6.774 -127.487 1.471e-3 -78.321 0.219 5.143
15031.25 0.19 -36.717 6.576 -137.114 1.535e-3 -84.768 0.218 -4.076
15231 0.187 -43.956 6.656 -144.942 1.554e-3 -87.787 0.223 -12.976
15430.75 0.188 -51.186 6.699 -154.809 1.38e-3 -87.178 0.226 -20.335
15630.5 0.187 -57.051 6.675 -164.718 1.666e-3 -89.867 0.225 -28.307
15830.25 0.185 -63.382 6.843 -172.272 1.457e-3 -97.483 0.228 -36.729
16030 0.182 -69.811 6.988 179.557 1.472e-3 -89.443 0.233 -44.969
16229.75 0.184 -76.824 6.844 170.23 1.432e-3 -100.061 0.232 -52.385
16429.5 0.188 -82.358 6.909 160.812 1.41e-3 -103.739 0.228 -59.553
16629.25 0.188 -87.381 7.203 153.203 1.347e-3 -109.658 0.234 -67.415
16829 0.187 -92.949 7.151 144.544 1.094e-3 -113.349 0.238 -74.553
17028.75 0.187 -100.144 6.94 135.778 1.197e-3 -99.137 0.231 -81.36
17228.5 0.191 -106.322 7.212 126.155 1.259e-3 -97.935 0.232 -88.705
17428.25 0.198 -111.118 7.31 117.443 1.169e-3 -113.682 0.235 -95.489
17628 0.2 -115.259 7.233 109.168 1.255e-3 -115.117 0.234 -101.089
17827.75 0.202 -121.238 7.38 100.498 1.182e-3 -114.166 0.235 -107.787
18027.5 0.206 -127.145 7.412 92.08 1.416e-3 -112.01 0.234 -115.319
18227.25 0.213 -133.77 7.38 83.348 1.23e-3 -117.413 0.233 -121.307
18427 0.22 -138.558 7.448 74.623 1.221e-3 -116.166 0.236 -126.013
18626.75 0.223 -144.774 7.515 65.935 1.303e-3 -124.378 0.233 -132.355
18826.5 0.231 -150.982 7.549 57.467 1.229e-3 -117.944 0.235 -139.368
19026.25 0.236 -157.511 7.587 48.736 1.331e-3 -135.816 0.237 -144.408
19226 0.247 -163.488 7.656 39.979 1.076e-3 -130.038 0.232 -149.11
19425.75 0.251 -169.353 7.685 31.845 1.247e-3 -139.753 0.234 -154.312
19625.5 0.261 -175.249 7.655 22.74 1.137e-3 -130.332 0.241 -160.312
19825.25 0.263 179.782 7.747 13.383 982.4e-6 -152.242 0.238 -165.392
20025 0.267 173.168 7.836 5.805 1.035e-3 -140.001 0.237 -168.928
20224.75 0.268 167.007 7.719 -2.183 1.136e-3 -150.766 0.242 -174.418
20424.5 0.275 159.774 7.77 -12.239 911.5e-6 -158.316 0.245 -179.116
20624.25 0.283 154.437 7.71 -19.293 914.2e-6 -149.621 0.247 177.931
20824 0.286 148.851 7.473 -29.183 911.9e-6 -148.436 0.249 172.166
21023.75 0.286 143.642 7.748 -39.239 899.3e-6 -149.71 0.253 168.039
21223.5 0.284 137.333 7.925 -45.317 798.9e-6 -142.594 0.261 166.173
21423.25 0.285 131.422 7.395 -51.674 1e-3 -139.635 0.267 160.57
21623 0.286 125.504 7.461 -64.153 675.7e-6 -157.301 0.27 155.463
21822.75 0.288 120.032 7.755 -71.052 491.7e-6 174.554 0.276 153.461
22022.5 0.284 114.839 7.365 -77.211 876.2e-6 178.189 0.288 149.173
22222.25 0.284 109.063 7.356 -87.093 585.3e-6 -174.511 0.293 144.706
22422 0.279 103.855 7.546 -96.242 657.2e-6 -138.139 0.301 140.382
22621.75 0.276 97.727 7.351 -103.145 717.3e-6 -148.135 0.311 136.478
22821.5 0.272 93.013 7.544 -111.051 638.7e-6 -176.979 0.316 133.341
23021.25 0.265 87.815 7.565 -119.791 772.4e-6 172.315 0.325 128.72
23221 0.259 83.581 7.15 -128.08 729.8e-6 -170.764 0.341 124.36
23420.75 0.25 78.168 7.281 -135.689 559e-6 151.198 0.352 120.678
23620.5 0.248 73.076 7.422 -145.978 572.9e-6 151.294 0.359 115.855
23820.25 0.242 68.658 7.167 -154.916 375.4e-6 153.708 0.369 111.261
24020 0.237 65.063 7.43 -160.002 103.2e-6 125.987 0.386 107.15
24219.75 0.224 61.383 7.33 -167.394 348.8e-6 154.323 0.401 102.435
24419.5 0.214 56.325 6.942 -177.1 303.6e-6 140.365 0.406 97.086
24619.25 0.204 52.046 6.833 176.083 231.9e-6 142.865 0.418 91.788
24819 0.197 48.596 7.03 164.701 267.8e-6 -178.259 0.431 87.824
25018.75 0.182 46.145 7.105 155.491 512.4e-6 130.921 0.441 82.91
25218.5 0.169 41.847 7.265 152.445 228.1e-6 65.121 0.455 76.449
25418.25 0.157 38.833 7.083 143.817 198.4e-6 138.483 0.464 72.092
25618 0.147 36.607 7.039 133.203 481.1e-6 13.149 0.47 67.707
25817.75 0.134 37.512 7.071 128.426 256e-6 -23.157 0.482 60.797
26017.5 0.119 38.839 7.055 119.728 368.6e-6 -15.04 0.489 55.745
26217.25 0.106 44.176 7.233 108.051 51.24e-6 -99.758 0.498 51.772
26417 0.092 49.026 7.301 103.245 549.9e-6 56.192 0.51 45.102
26616.75 0.094 58.466 7.202 94.377 181.8e-6 -33.066 0.512 38.422
26816.5 0.096 69.81 7.342 83.722 505.6e-6 -64.429 0.513 34.523
27016.25 0.114 75.656 7.442 74.735 811.8e-6 -44.598 0.521 29.541
27216 0.138 83.926 7.657 67.038 656.7e-6 -48.253 0.531 22.822
27415.75 0.163 84.97 7.58 57.886 346.9e-6 -75.03 0.541 16.024
27615.5 0.195 84.888 7.428 48.55 662.7e-6 -104.394 0.53 10.867
27815.25 0.224 81.124 7.424 37.641 295e-6 -59.439 0.526 5.813
28015 0.267 76.03 7.405 28.376 738.8e-6 -55.834 0.549 -0.262
28214.75 0.304 71.561 7.3 18.784 915.3e-6 -89.16 0.545 -6.969
28414.5 0.346 65.669 7.182 9.123 589.5e-6 -101.851 0.535 -13.319
28614.25 0.38 60.468 7.057 0.286 931.6e-6 -89.762 0.542 -19.145
28814 0.417 52.949 7.011 -9.71 1.143e-3 -94.024 0.541 -24.993
29013.75 0.454 46.295 6.913 -17.393 1.348e-3 -104.484 0.542 -30.782
29213.5 0.489 38.64 6.419 -26.137 881.1e-6 -122.781 0.549 -38.523
29413.25 0.523 31.624 6.46 -37.93 926.7e-6 -116.518 0.546 -46.237
29613 0.554 23.563 6.532 -47.043 990.7e-6 -110.291 0.534 -51.942
29812.75 0.586 16.445 6.255 -53.532 676e-6 -113.187 0.537 -58.365
30012.5 0.612 8.527 6.071 -64.386 1.319e-3 -130.251 0.544 -65.841
30212.25 0.638 0.548 5.811 -74.723 832e-6 -123.984 0.546 -72.855
30412 0.659 -7.749 5.453 -84.966 339.6e-6 -132.201 0.545 -81.653
30611.75 0.683 -15.538 5.669 -99.606 956.7e-6 -139.981 0.535 -89.426
30811.5 0.698 -23.633 5.696 -106.119 846.9e-6 -124.785 0.529 -95.259
31011.25 0.715 -32.208 5.515 -107.217 443.5e-6 -106.572 0.546 -102.377
31211 0.729 -41.104 4.557 -119.656 630.6e-6 -144.03 0.553 -111.579
31410.75 0.746 -49.258 3.957 -133.3 1.193e-3 -145.094 0.541 -121.564
31610.5 0.754 -56.982 4.099 -147.688 779.6e-6 -178.911 0.527 -128.308
31810.25 0.757 -65.834 4.453 -156.273 1.252e-3 -177.46 0.528 -133.871
32010 0.765 -74.307 3.869 -155.221 957e-6 161.294 0.55 -143.178
32209.75 0.774 -83.434 3.473 -164.236 720e-6 179.673 0.547 -153.117
32409.5 0.782 -90.96 3.26 -178.659 283.1e-6 144.311 0.528 -160.33
32609.25 0.775 -99.004 3.196 177.482 564.4e-6 140.851 0.526 -167.785
32809 0.777 -107.282 2.993 173.65 730e-6 89.251 0.529 -175.437
33008.75 0.779 -116.419 2.847 162.707 665.5e-6 75.646 0.527 176.857
33208.5 0.787 -124.664 2.574 156.906 541.6e-6 86.115 0.529 169.088
33408.25 0.791 -132.374 2.553 150.635 991.9e-6 105.049 0.526 160.277
33608 0.79 -140.25 2.536 139.693 288e-6 -15.241 0.522 152.214
33807.75 0.792 -148.406 2.318 132.746 422e-6 19.984 0.511 145.61
34007.5 0.793 -156.65 2.418 128.405 945.3e-6 35.446 0.515 138.473
34207.25 0.798 -164.786 2.433 119.284 1.451e-3 68.111 0.532 130.663
34407 0.8 -172.585 2.003 115.931 1.37e-3 55.429 0.521 120.844
34606.75 0.804 179.931 1.953 105.18 1.097e-3 44.805 0.506 111.839
34806.5 0.8 172.338 2.013 90.887 1.122e-3 48.285 0.505 106.897
35006.25 0.797 163.861 1.904 87.144 808.8e-6 72.387 0.513 98.972
