!Hittite Microwave Corporation								
!12 Elizabeth Drive								
!Chelmsford, MA 01824								
!Tel: 978-250-3343								
!Fax: 978-250-3373								
!Device: HMC393MS8G, 5-6 GHz GaAs MMIC DPDT Diversity Switch in 8-lead Grounded Base surface Mount Plastic Package								
!Misc:  Port 1 = ANT1, Port 2 = ANT2, Port 3 = Tx, Port 4 = Rx, Vctl=+5V, State 3 selected, Room							
!
# MHZ S MA R 50

4000 0.772 -3.279 0.272 2.539 0.286 8.58 0.1 -55.88
          0.286 -2.708 0.33 64.353 0.739 55.394 0.297 7.377
          0.301 3.466 0.754 54.045 0.321 61.719 0.292 1.905
          0.096 -59.887 0.277 7.235 0.273 1.649 0.764 -2.149
4015 0.773 -3.911 0.276 1.432 0.29 7.553 0.097 -59.659
          0.271 -4.329 0.326 63.982 0.757 54.494 0.292 3.718
          0.285 1.969 0.757 52.947 0.317 61.124 0.286 -1.866
          0.091 -61.691 0.276 6.029 0.271 0.39 0.764 -2.844
4030 0.775 -4.499 0.275 -0.16 0.29 6.107 0.091 -62.405
          0.257 -4.148 0.323 63.549 0.764 53.189 0.276 1.261
          0.271 2.255 0.751 52.169 0.314 60.515 0.271 -4.474
          0.085 -61.595 0.271 5.155 0.266 -0.575 0.765 -3.589
4045 0.776 -5.111 0.271 -1.679 0.285 4.769 0.084 -63.137
          0.248 -2.65 0.319 63.089 0.76 51.966 0.258 0.875
          0.261 3.864 0.743 51.844 0.31 59.981 0.252 -5.055
          0.081 -60.123 0.265 4.754 0.26 -1.055 0.766 -4.28
4060 0.777 -5.765 0.263 -2.674 0.277 3.995 0.078 -61.659
          0.244 -0.738 0.316 62.569 0.748 51.264 0.242 2.713
          0.257 5.898 0.736 52.021 0.306 59.421 0.236 -3.432
          0.079 -58.204 0.26 4.915 0.254 -1.062 0.767 -4.929
4075 0.778 -6.437 0.255 -2.841 0.268 4.057 0.074 -58.585
          0.246 0.699 0.312 61.99 0.732 51.367 0.233 6.208
          0.259 7.446 0.732 52.587 0.303 58.764 0.228 -0.153
          0.078 -56.87 0.255 5.529 0.249 -0.734 0.767 -5.604
4090 0.779 -7.059 0.247 -2.072 0.262 4.913 0.074 -55.345
          0.249 1.212 0.308 61.504 0.72 52.296 0.235 10.073
          0.262 8.009 0.734 53.173 0.299 58.198 0.229 3.481
          0.078 -56.957 0.254 6.158 0.247 -0.264 0.769 -6.365
4105 0.781 -7.716 0.245 -0.882 0.259 6.163 0.076 -53.762
          0.25 0.458 0.305 60.865 0.721 53.675 0.247 11.994
          0.264 7.411 0.74 53.386 0.295 57.582 0.239 5.235
          0.078 -57.599 0.253 6.383 0.246 -0.271 0.77 -6.993
4120 0.782 -8.378 0.245 -0.039 0.26 7.123 0.079 -54.358
          0.246 -0.085 0.301 60.354 0.731 54.705 0.259 11.768
          0.261 6.979 0.744 53.284 0.292 56.973 0.251 4.85
          0.076 -58.123 0.252 6.242 0.244 -0.579 0.772 -7.707
4135 0.783 -9.006 0.247 0.171 0.263 7.368 0.08 -56.536
          0.242 0.076 0.297 59.825 0.747 55.131 0.268 9.789
          0.257 7.287 0.743 53.168 0.288 56.326 0.26 2.72
          0.073 -58.002 0.249 6.188 0.241 -0.834 0.773 -8.361
4150 0.785 -9.628 0.249 -0.316 0.265 6.926 0.08 -59.514
          0.239 1.027 0.293 59.261 0.762 54.886 0.269 6.995
          0.254 8.418 0.74 53.297 0.284 55.717 0.26 -0.232
          0.071 -57.145 0.245 6.346 0.237 -0.855 0.774 -8.997
4165 0.787 -10.271 0.249 -1.326 0.265 6.09 0.077 -62.268
          0.24 2.364 0.289 58.659 0.772 54.117 0.261 4.569
          0.255 9.936 0.737 53.813 0.28 55.157 0.252 -2.828
          0.071 -55.862 0.242 6.768 0.233 -0.53 0.776 -9.671
4180 0.789 -10.906 0.246 -2.43 0.262 5.221 0.071 -63.489
          0.247 3.116 0.287 57.91 0.773 53.211 0.248 3.643
          0.263 10.855 0.739 54.664 0.277 54.384 0.239 -3.913
          0.072 -54.841 0.239 7.695 0.23 0.275 0.777 -10.287
4195 0.79 -11.504 0.241 -3.033 0.257 4.772 0.067 -62.35
          0.256 2.247 0.282 57.434 0.765 52.814 0.238 4.986
          0.274 9.931 0.749 55.497 0.273 53.68 0.228 -2.788
          0.074 -56.213 0.24 8.548 0.231 0.94 0.779 -10.987
4210 0.792 -12.074 0.235 -3.036 0.252 4.994 0.066 -60.678
          0.263 -0.5 0.278 56.813 0.758 52.997 0.234 6.957
          0.281 7.377 0.767 55.69 0.269 53.073 0.224 -0.96
          0.075 -59.024 0.243 8.793 0.233 0.985 0.78 -11.607
4225 0.793 -12.631 0.231 -2.69 0.248 5.478 0.065 -59.376
          0.261 -4.136 0.275 56.173 0.756 53.508 0.236 8.419
          0.279 3.928 0.783 55.279 0.265 52.449 0.225 0.417
          0.073 -62.71 0.246 8.344 0.235 0.309 0.782 -12.257
4240 0.795 -13.187 0.229 -2.293 0.247 5.942 0.065 -59.273
          0.25 -7.419 0.271 55.578 0.759 54.091 0.241 8.758
          0.267 0.794 0.793 54.301 0.262 51.76 0.23 0.664
          0.07 -65.988 0.247 7.358 0.235 -0.941 0.784 -12.915
4255 0.796 -13.74 0.229 -2.144 0.247 6.169 0.066 -60.612
          0.232 -9.122 0.267 55.024 0.768 54.469 0.245 7.861
          0.249 -0.744 0.796 52.994 0.258 51.032 0.233 -0.391
          0.064 -67.577 0.245 6.119 0.232 -2.425 0.785 -13.543
4270 0.798 -14.281 0.229 -2.5 0.247 5.946 0.065 -62.543
          0.214 -8.301 0.264 54.44 0.778 54.334 0.245 6.098
          0.23 0.246 0.787 51.994 0.255 50.38 0.232 -2.388
          0.058 -66.926 0.239 4.908 0.227 -3.669 0.788 -14.205
4285 0.8 -14.761 0.228 -3.211 0.245 5.343 0.062 -64.6
          0.204 -5.135 0.26 53.7 0.784 53.775 0.237 4.631
          0.22 3.589 0.772 51.829 0.251 49.602 0.225 -4.023
          0.055 -63.84 0.231 4.752 0.219 -3.883 0.789 -14.841
4300 0.801 -15.305 0.224 -3.896 0.242 4.787 0.058 -64.962
          0.203 -1.775 0.256 53.114 0.783 53.272 0.228 4.491
          0.219 7.026 0.76 52.445 0.248 48.841 0.216 -4.376
          0.054 -60.532 0.224 5.453 0.212 -3.511 0.791 -15.507
4315 0.803 -15.867 0.22 -4.329 0.237 4.542 0.056 -64.41
          0.209 0.413 0.253 52.447 0.78 53.014 0.221 5.472
          0.226 9.263 0.756 53.387 0.244 48.078 0.209 -3.654
          0.055 -58.541 0.22 6.548 0.208 -2.567 0.793 -16.192
4330 0.804 -16.426 0.216 -4.454 0.233 4.634 0.054 -63.375
          0.217 0.816 0.249 51.772 0.777 53.091 0.218 6.922
          0.235 9.743 0.761 54.323 0.241 47.315 0.205 -2.473
          0.056 -58.282 0.219 7.677 0.207 -1.626 0.795 -16.851
4345 0.806 -16.974 0.213 -4.352 0.23 4.933 0.053 -62.42
          0.224 -0.537 0.245 51.177 0.776 53.442 0.218 8.033
          0.242 8.522 0.772 54.942 0.237 46.564 0.206 -1.591
          0.057 -59.634 0.22 8.494 0.207 -1.235 0.796 -17.464
4360 0.808 -17.513 0.211 -4.196 0.228 5.246 0.053 -62.705
          0.225 -3.083 0.241 50.469 0.78 53.805 0.221 8.145
          0.244 6.155 0.786 54.855 0.234 45.82 0.207 -1.643
          0.056 -62.52 0.221 8.577 0.208 -1.314 0.798 -18.107
4375 0.809 -18.102 0.21 -4.478 0.227 5.196 0.052 -64.121
          0.219 -5.487 0.237 49.793 0.788 53.708 0.22 7.019
          0.237 4.118 0.794 54.341 0.23 45.073 0.206 -2.985
          0.054 -65.023 0.222 7.969 0.207 -2.05 0.8 -18.763
4390 0.811 -18.663 0.207 -5.038 0.225 4.856 0.05 -65.383
          0.21 -6.52 0.234 49.026 0.792 53.324 0.215 6.063
          0.227 3.422 0.796 53.74 0.227 44.242 0.2 -4.163
          0.051 -65.85 0.219 7.412 0.205 -2.802 0.801 -19.344
4405 0.813 -19.257 0.204 -5.708 0.221 4.45 0.047 -65.685
          0.202 -6.218 0.23 48.339 0.79 52.833 0.206 6.208
          0.219 3.986 0.794 53.358 0.223 43.484 0.192 -4.251
          0.049 -65.632 0.216 7.082 0.201 -3.324 0.804 -19.985
4420 0.816 -19.866 0.199 -6.155 0.216 4.304 0.044 -64.417
          0.197 -5.299 0.226 47.62 0.783 52.56 0.199 7.835
          0.215 5.13 0.792 53.289 0.22 42.737 0.184 -2.82
          0.047 -64.952 0.213 7.063 0.198 -3.496 0.807 -20.631
4435 0.817 -20.451 0.193 -6.08 0.211 4.677 0.043 -61.661
          0.196 -4.634 0.223 46.77 0.774 52.796 0.195 10.704
          0.214 6.038 0.791 53.476 0.217 41.934 0.18 -0.075
          0.046 -64.331 0.21 7.3 0.194 -3.387 0.809 -21.21
4450 0.819 -21.013 0.188 -5.431 0.207 5.585 0.042 -58.692
          0.195 -4.721 0.219 45.975 0.767 53.62 0.198 13.869
          0.214 6.201 0.792 53.758 0.214 41.193 0.183 3.009
          0.045 -64.227 0.209 7.545 0.192 -3.322 0.812 -21.833
4465 0.821 -21.538 0.186 -4.435 0.205 6.749 0.044 -57.573
          0.193 -5.569 0.215 45.138 0.771 54.796 0.209 15.322
          0.212 5.434 0.798 53.549 0.211 40.332 0.193 4.279
          0.044 -65.498 0.206 7.487 0.191 -3.68 0.814 -22.383
4480 0.823 -22.067 0.186 -3.669 0.205 7.607 0.046 -58.698
          0.187 -6.052 0.212 44.314 0.783 55.718 0.222 14.564
          0.206 5.071 0.799 53.289 0.208 39.489 0.205 3.339
          0.042 -66.105 0.204 7.137 0.188 -4.139 0.816 -22.996
4495 0.825 -22.576 0.187 -3.418 0.207 7.907 0.047 -61.893
          0.181 -5.547 0.209 43.458 0.801 56.086 0.233 11.633
          0.199 5.874 0.796 53.096 0.205 38.635 0.214 0.208
          0.04 -65.759 0.2 6.94 0.184 -4.516 0.818 -23.538
4510 0.827 -23.052 0.188 -3.841 0.209 7.583 0.047 -66.605
          0.176 -3.934 0.205 42.669 0.821 55.756 0.236 7.191
          0.195 7.732 0.791 53.132 0.202 37.775 0.216 -4.515
          0.038 -64.399 0.196 7.127 0.18 -4.59 0.821 -24.066
4525 0.83 -23.504 0.188 -4.885 0.209 6.732 0.045 -71.76
          0.176 -1.705 0.202 41.968 0.837 54.784 0.228 2.464
          0.195 10 0.786 53.524 0.199 36.94 0.209 -9.644
          0.037 -62.329 0.192 7.79 0.176 -4.209 0.824 -24.638
4540 0.832 -23.974 0.186 -6.221 0.207 5.579 0.041 -75.615
          0.181 -0.083 0.2 41.061 0.843 53.466 0.21 -0.822
          0.201 11.852 0.786 54.282 0.196 36.177 0.192 -13.413
          0.038 -60.355 0.189 8.956 0.173 -3.401 0.825 -25.137
4555 0.833 -24.454 0.182 -7.397 0.202 4.69 0.036 -76.107
          0.19 -0.461 0.197 40.213 0.837 52.3 0.191 -0.806
          0.211 11.526 0.794 55.223 0.193 35.28 0.174 -13.794
          0.039 -61.052 0.189 9.98 0.172 -2.837 0.827 -25.661
4570 0.835 -24.916 0.177 -8.126 0.196 4.306 0.033 -74.435
          0.197 -3.276 0.194 39.31 0.826 51.682 0.177 1.407
          0.219 9.097 0.811 55.578 0.19 34.449 0.161 -11.975
          0.04 -63.71 0.19 10.555 0.173 -2.64 0.83 -26.191
4585 0.837 -25.354 0.171 -8.401 0.191 4.366 0.031 -71.914
          0.198 -7.656 0.192 38.432 0.815 51.572 0.17 4.41
          0.221 4.956 0.828 55.316 0.188 33.57 0.154 -9.332
          0.039 -68.429 0.192 10.455 0.173 -3.163 0.832 -26.733
4600 0.839 -25.769 0.167 -8.333 0.186 4.763 0.029 -69.407
          0.191 -12.348 0.189 37.618 0.807 51.8 0.168 7.146
          0.213 0.479 0.841 54.454 0.185 32.694 0.15 -6.891
          0.037 -73.658 0.192 9.702 0.173 -4.371 0.834 -27.215
4615 0.842 -26.181 0.163 -8.123 0.182 5.323 0.029 -67.623
          0.175 -15.784 0.187 36.827 0.803 52.14 0.167 9.044
          0.195 -2.536 0.847 53.168 0.183 31.907 0.149 -5.231
          0.033 -77.272 0.19 8.51 0.17 -5.937 0.835 -27.629
4630 0.844 -26.639 0.16 -8.043 0.179 5.778 0.028 -67.432
          0.156 -16.159 0.184 35.884 0.802 52.373 0.167 10.139
          0.174 -2.425 0.841 51.909 0.18 31.204 0.148 -4.38
          0.029 -77.651 0.186 7.218 0.165 -7.348 0.838 -28.185
4645 0.846 -27.107 0.156 -8.141 0.176 6.131 0.027 -66.63
          0.143 -12.626 0.182 35.086 0.8 52.472 0.164 11.333
          0.16 1.548 0.826 51.268 0.178 30.495 0.145 -3.578
          0.026 -74.551 0.179 7.032 0.158 -7.908 0.84 -28.68
4660 0.847 -27.625 0.153 -8.058 0.172 6.521 0.026 -65.488
          0.138 -8.158 0.18 34.172 0.797 52.747 0.163 13.206
          0.156 6.378 0.811 51.476 0.176 29.695 0.143 -1.941
          0.025 -69.844 0.173 7.45 0.152 -7.666 0.842 -29.206
4675 0.849 -28.097 0.149 -7.755 0.169 7.181 0.026 -63.761
          0.139 -4.577 0.178 33.26 0.794 53.284 0.164 15.467
          0.158 10.318 0.801 52.228 0.175 28.89 0.144 0.123
          0.024 -66.365 0.169 8.499 0.148 -6.804 0.844 -29.689
4690 0.851 -28.535 0.146 -7.172 0.166 8.099 0.026 -62.101
          0.144 -2.794 0.176 32.297 0.793 54.069 0.169 17.475
          0.164 12.453 0.8 53.138 0.173 28.053 0.147 1.855
          0.025 -65.143 0.166 9.729 0.145 -5.864 0.847 -30.181
4705 0.852 -28.983 0.144 -6.422 0.165 9.103 0.026 -61.641
          0.149 -2.982 0.174 31.24 0.8 54.957 0.177 18.413
          0.171 12.566 0.807 53.85 0.172 27.168 0.154 2.437
          0.025 -65.949 0.165 10.627 0.144 -5.321 0.85 -30.704
4720 0.854 -29.444 0.143 -5.961 0.164 9.944 0.027 -63.566
          0.152 -4.744 0.172 30.222 0.814 55.625 0.187 17.467
          0.174 11.013 0.817 54.144 0.17 26.315 0.162 1.28
          0.025 -67.826 0.164 11.047 0.143 -5.144 0.851 -31.083
4735 0.855 -29.885 0.143 -5.878 0.165 10.274 0.027 -67.735
          0.149 -6.997 0.17 29.122 0.833 55.677 0.195 13.865
          0.171 9.17 0.825 53.897 0.168 25.345 0.169 -2.725
          0.024 -70.377 0.163 11.032 0.142 -5.711 0.853 -31.521
4750 0.858 -30.355 0.143 -6.405 0.165 10.118 0.027 -73.307
          0.144 -8.194 0.168 28.096 0.851 55.072 0.195 8.791
          0.166 8.441 0.829 53.534 0.166 24.475 0.168 -8.172
          0.023 -71.925 0.161 10.945 0.139 -6.005 0.855 -31.944
4765 0.86 -30.815 0.142 -7.405 0.164 9.509 0.025 -78.935
          0.138 -8.155 0.166 27.174 0.862 53.997 0.184 3.992
          0.16 8.959 0.829 53.29 0.164 23.661 0.158 -13.362
          0.021 -71.85 0.158 11.079 0.136 -6.316 0.858 -32.366
4780 0.862 -31.264 0.139 -8.625 0.161 8.769 0.022 -82.738
          0.135 -7.35 0.164 26.31 0.863 52.737 0.167 1.323
          0.157 10.223 0.827 53.274 0.163 22.849 0.143 -16.47
          0.02 -71.314 0.155 11.463 0.133 -6.484 0.859 -32.789
4795 0.864 -31.699 0.135 -9.715 0.157 8.278 0.019 -83.282
          0.134 -6.588 0.162 25.435 0.855 51.656 0.149 2.008
          0.156 11.441 0.827 53.474 0.161 22.035 0.127 -16.279
          0.02 -71.708 0.153 12.009 0.13 -6.351 0.86 -33.208
4810 0.866 -32.09 0.13 -10.242 0.152 8.226 0.016 -80.565
          0.135 -6.719 0.161 24.498 0.84 51.164 0.136 5.91
          0.158 11.853 0.831 53.755 0.16 21.291 0.115 -12.907
          0.019 -73.055 0.151 12.657 0.128 -6.212 0.864 -33.626
4825 0.868 -32.469 0.125 -10.112 0.147 8.973 0.016 -76.196
          0.135 -8.343 0.16 23.479 0.828 51.474 0.134 10.677
          0.158 10.655 0.838 53.78 0.159 20.53 0.112 -8.563
          0.019 -74.331 0.15 12.83 0.126 -6.388 0.864 -33.977
4840 0.87 -32.831 0.121 -9.71 0.143 9.995 0.015 -74.362
          0.131 -10.542 0.159 22.354 0.823 52.126 0.136 14.008
          0.155 9.063 0.844 53.461 0.158 19.617 0.113 -5.66
          0.018 -77.731 0.149 12.835 0.124 -6.706 0.867 -34.395
4855 0.872 -33.154 0.118 -9.264 0.141 11.001 0.015 -74.306
          0.125 -12.204 0.157 21.263 0.824 52.712 0.14 15.396
          0.149 8.03 0.848 52.985 0.157 18.787 0.116 -4.668
          0.017 -80.218 0.146 12.764 0.122 -7.237 0.87 -34.806
4870 0.874 -33.47 0.116 -8.952 0.14 11.818 0.015 -75.807
          0.118 -12.629 0.156 20.22 0.831 53.027 0.142 15.053
          0.142 8.191 0.847 52.569 0.156 18.057 0.118 -5.45
          0.015 -81.087 0.143 12.759 0.118 -7.775 0.872 -35.163
4885 0.875 -33.808 0.114 -8.923 0.138 12.353 0.015 -78.701
          0.112 -11.625 0.155 19.18 0.838 52.996 0.142 13.696
          0.136 9.682 0.842 52.379 0.155 17.373 0.117 -7.359
          0.014 -80.955 0.139 12.987 0.115 -8.036 0.873 -35.468
4900 0.876 -34.117 0.112 -9.32 0.136 12.559 0.014 -82.413
          0.109 -9.622 0.154 18.1 0.843 52.598 0.137 12.34
          0.133 11.957 0.838 52.448 0.154 16.732 0.112 -9.315
          0.013 -80.752 0.136 13.621 0.111 -7.862 0.876 -35.796
4915 0.879 -34.405 0.109 -9.582 0.133 12.777 0.012 -83.474
          0.109 -8.947 0.152 17.162 0.84 52.218 0.13 12.905
          0.134 13.425 0.838 52.76 0.154 16.083 0.106 -9.343
          0.013 -81.165 0.134 14.366 0.108 -7.876 0.878 -36.228
4930 0.879 -34.716 0.105 -9.681 0.13 13.19 0.012 -83.054
          0.109 -9.471 0.151 16.055 0.835 52.126 0.125 14.967
          0.135 13.409 0.842 52.919 0.153 15.418 0.101 -7.921
          0.012 -84.155 0.132 15.127 0.106 -7.826 0.88 -36.574
4945 0.881 -35.038 0.102 -9.438 0.127 13.879 0.011 -82.932
          0.107 -11.17 0.15 15.047 0.832 52.346 0.123 17.475
          0.133 12.244 0.849 52.805 0.153 14.736 0.099 -6.159
          0.012 -87.748 0.13 15.612 0.104 -8.014 0.881 -36.916
4960 0.883 -35.384 0.1 -9.115 0.125 14.8 0.01 -83.839
          0.103 -13.159 0.149 14.095 0.831 52.75 0.124 19.488
          0.129 10.87 0.853 52.415 0.152 14.055 0.099 -4.861
          0.011 -91.285 0.128 15.772 0.102 -8.504 0.882 -37.245
4975 0.884 -35.752 0.097 -8.95 0.123 15.799 0.01 -85.938
          0.096 -14.145 0.148 13.11 0.834 53.139 0.126 20.369
          0.12 10.535 0.853 51.872 0.152 13.414 0.1 -4.645
          9.543e-3 -94.519 0.125 15.819 0.099 -9.184 0.884 -37.557
4990 0.886 -36.106 0.095 -8.688 0.121 16.624 9.632e-3 -89.308
          0.088 -12.88 0.147 12.175 0.842 53.327 0.128 19.967
          0.111 12.488 0.846 51.436 0.151 12.834 0.1 -6.058
          8.225e-3 -96.843 0.121 16.25 0.095 -9.839 0.886 -37.949
5005 0.888 -36.475 0.093 -8.909 0.119 17.133 8.916e-3 -93.36
          0.084 -9.599 0.146 11.292 0.848 53.157 0.127 18.786
          0.107 16.815 0.836 51.559 0.151 12.206 0.098 -8.09
          7.58e-3 -95.091 0.117 17.183 0.091 -9.82 0.888 -38.289
5020 0.889 -36.855 0.091 -9.249 0.117 17.71 8.371e-3 -99.079
          0.083 -5.944 0.146 10.315 0.852 52.816 0.123 18.11
          0.107 21.132 0.83 52.003 0.151 11.596 0.095 -9.696
          7.384e-3 -94.119 0.115 18.462 0.088 -9.356 0.89 -38.581
5035 0.891 -37.215 0.088 -9.678 0.115 18.292 7.752e-3 -102.716
          0.085 -3.658 0.145 9.399 0.852 52.536 0.118 18.394
          0.111 24.304 0.83 52.647 0.15 11.045 0.09 -10.352
          7.278e-3 -94.387 0.112 19.937 0.085 -8.631 0.89 -38.826
5050 0.893 -37.588 0.086 -10.01 0.112 19.001 7.164e-3 -105.427
          0.088 -3.336 0.144 8.456 0.85 52.431 0.115 19.606
          0.117 25.659 0.836 53.286 0.15 10.452 0.086 -10.066
          7.238e-3 -97.414 0.111 21.333 0.083 -8.103 0.891 -39.105
5065 0.894 -37.993 0.083 -10.13 0.11 19.96 6.697e-3 -109.094
          0.091 -5.045 0.144 7.374 0.85 52.512 0.113 21.214
          0.122 24.88 0.846 53.68 0.149 9.75 0.083 -9.377
          7.32e-3 -103.919 0.11 22.385 0.081 -8.11 0.893 -39.452
5080 0.895 -38.361 0.08 -10.222 0.108 21.107 6.078e-3 -112.468
          0.093 -8.952 0.143 6.205 0.852 52.708 0.114 22.18
          0.125 21.894 0.859 53.608 0.149 9.065 0.083 -9.367
          7.395e-3 -112.138 0.11 22.967 0.08 -8.48 0.896 -39.732
5095 0.897 -38.683 0.078 -10.281 0.106 21.935 6.262e-3 -119.916
          0.089 -14.1 0.142 5.135 0.858 52.701 0.114 21.538
          0.121 18.065 0.868 53.001 0.148 8.538 0.082 -10.965
          7.047e-3 -122.107 0.109 23.15 0.078 -9.308 0.898 -40.048
5110 0.898 -39.023 0.075 -10.71 0.105 22.647 6.034e-3 -127.828
          0.081 -17.519 0.141 4.159 0.864 52.4 0.111 19.961
          0.112 15.928 0.87 52.26 0.147 7.972 0.079 -13.683
          6.138e-3 -130.454 0.106 23.461 0.075 -10.243 0.899 -40.329
5125 0.9 -39.333 0.073 -11.314 0.103 23.258 5.59e-3 -135.603
          0.073 -18.31 0.14 3.277 0.868 51.904 0.105 18.526
          0.103 16.322 0.867 51.619 0.146 7.529 0.073 -16.31
          5.362e-3 -135.986 0.103 23.961 0.072 -10.994 0.9 -40.613
5140 0.901 -39.615 0.07 -11.949 0.101 23.799 5.163e-3 -142.674
          0.066 -16.671 0.138 2.542 0.866 51.34 0.097 18.632
          0.095 19.01 0.86 51.307 0.146 7.246 0.066 -17.493
          5.052e-3 -139.765 0.1 24.779 0.068 -11.422 0.902 -40.885
5155 0.904 -39.893 0.067 -12.479 0.099 24.381 4.911e-3 -147.828
          0.062 -13.782 0.138 1.903 0.859 50.885 0.089 21.237
          0.092 22.931 0.853 51.394 0.145 7.041 0.06 -16.285
          5.124e-3 -143.573 0.097 25.994 0.065 -11.497 0.904 -41.126
5170 0.905 -40.177 0.064 -12.725 0.096 25.26 4.798e-3 -148.61
          0.06 -11.69 0.137 1.103 0.849 50.787 0.084 26.102
          0.091 26.454 0.851 51.637 0.145 6.794 0.055 -12.675
          5.042e-3 -147.953 0.095 27.512 0.062 -11.252 0.904 -41.361
5185 0.906 -40.408 0.06 -12.646 0.093 26.809 5.013e-3 -149.855
          0.06 -11.567 0.137 0.178 0.842 51.166 0.084 31.411
