!Hittite Microwave Corporation								
!12 Elizabeth Drive								
!Chelmsford, MA 01824								
!Tel: 978-250-3343								
!Fax: 978-250-3373								
!Device: HMC395, DC-4 GHz InGaP HBT Gain Block MMIC Amplifier								
!Misc: Vdd=+5V, Data includes (two) K connectors, Room								
!
# MHZ S MA R 50

50 0.112 2.771 6.313 178.124 0.112 -0.272 0.124 -7.549
99.75 0.108 1.548 6.326 177.525 0.112 -0.064 0.123 -11.449
149.5 0.104 0.329 6.338 176.926 0.112 0.144 0.123 -15.353
199.25 0.1 -0.886 6.351 176.327 0.112 0.351 0.122 -19.262
249 0.097 0.029 6.339 175.507 0.112 0.476 0.123 -24.166
298.75 0.097 -1.953 6.327 174.498 0.112 0.767 0.123 -28.968
348.5 0.097 -2.273 6.326 173.628 0.111 0.957 0.124 -33.887
398.25 0.097 -2.478 6.319 172.948 0.111 0.863 0.125 -38.861
448 0.098 -2.637 6.305 171.957 0.111 1.158 0.127 -43.441
497.75 0.099 -3.23 6.303 170.936 0.111 1.538 0.128 -48.35
547.5 0.099 -4.31 6.305 170.445 0.111 1.688 0.13 -52.301
597.25 0.1 -5.274 6.285 169.544 0.111 1.419 0.132 -56.584
647 0.101 -5.983 6.277 168.182 0.111 2.042 0.134 -61.469
696.75 0.102 -6.723 6.288 167.609 0.111 2.182 0.136 -65.833
746.5 0.103 -7.679 6.267 167.526 0.111 2.082 0.138 -70.307
796.25 0.104 -8.101 6.253 165.462 0.111 2.418 0.141 -74.418
846 0.105 -9.15 6.272 164.718 0.111 2.539 0.143 -78.758
895.75 0.107 -10.282 6.255 165.144 0.111 2.913 0.146 -82.691
945.5 0.108 -11.314 6.231 162.998 0.111 2.684 0.149 -86.867
995.25 0.109 -12.408 6.249 162.082 0.111 3.182 0.152 -91.017
1045 0.111 -13.362 6.242 162.166 0.111 3.637 0.155 -95.043
1094.75 0.112 -14.635 6.208 160.729 0.111 3.075 0.158 -99.253
1144.5 0.114 -15.904 6.204 158.921 0.111 3.95 0.162 -103.163
1194.25 0.116 -16.896 6.211 159.313 0.11 4.44 0.166 -106.751
1244 0.117 -17.955 6.184 158.695 0.111 3.805 0.169 -110.455
1293.75 0.119 -19.416 6.158 156.756 0.111 4.172 0.173 -114.209
1343.5 0.12 -21.154 6.174 155.795 0.11 4.934 0.177 -117.904
1393.25 0.122 -22.212 6.159 155.965 0.11 4.436 0.181 -121.286
1443 0.124 -23.6 6.12 154.865 0.111 5.056 0.185 -124.79
1492.75 0.125 -25.565 6.112 153.042 0.11 5.391 0.189 -128.528
1542.5 0.127 -27.165 6.126 152.521 0.11 5.137 0.194 -131.66
1592.25 0.128 -28.696 6.079 152.519 0.111 5.265 0.198 -134.955
1642 0.13 -30.279 6.048 150.726 0.11 6.117 0.202 -138.368
1691.75 0.131 -32.321 6.053 149.782 0.11 6.069 0.206 -141.783
1741.5 0.133 -34.272 6.049 149.569 0.111 5.937 0.211 -144.562
1791.25 0.134 -36.018 5.975 148.655 0.11 5.937 0.215 -147.717
1841 0.135 -37.681 5.991 146.591 0.11 7.483 0.219 -150.968
1890.75 0.136 -39.925 5.981 146.566 0.11 5.842 0.224 -153.764
1940.5 0.138 -42.327 5.941 147.331 0.111 7.05 0.227 -156.685
1990.25 0.138 -44.074 5.91 144.217 0.11 7.842 0.231 -160.14
2040 0.139 -46.085 5.911 143.161 0.11 5.869 0.236 -163.083
2089.75 0.141 -48.522 5.88 143.716 0.11 8.006 0.24 -165.637
2139.5 0.142 -50.699 5.832 142.621 0.11 7.693 0.245 -168.52
2189.25 0.144 -52.54 5.801 142.046 0.11 7.629 0.249 -171.394
2239 0.144 -54.716 5.781 139.101 0.11 8.276 0.253 -174.241
2288.75 0.145 -57.241 5.781 140.325 0.11 6.93 0.258 -176.984
2338.5 0.147 -59.436 5.69 141.371 0.11 9.181 0.261 -179.751
2388.25 0.147 -61.565 5.708 135.817 0.11 8.935 0.266 177.324
2438 0.148 -63.578 5.741 139.243 0.109 7.876 0.27 175.037
2487.75 0.15 -66.997 5.641 138.717 0.11 9.68 0.274 171.703
2537.5 0.151 -69.671 5.628 132.953 0.109 8.835 0.279 168.815
2587.25 0.154 -71.567 5.648 136.51 0.109 9.375 0.283 166.564
2637 0.156 -74.495 5.584 135.396 0.109 9.813 0.287 163.765
2686.75 0.157 -76.798 5.524 133.793 0.109 9.787 0.292 161.41
2736.5 0.158 -78.773 5.572 130.632 0.108 11.187 0.297 159.106
2786.25 0.16 -80.965 5.52 134.141 0.108 9.243 0.301 156.676
2836 0.161 -84.177 5.463 131.46 0.108 11.097 0.305 153.701
2885.75 0.162 -86.591 5.491 128.819 0.108 12.228 0.309 151.644
2935.5 0.163 -88.567 5.462 131.832 0.108 11.258 0.312 149.133
2985.25 0.164 -91.474 5.405 127.564 0.108 12.167 0.317 146.457
3035 0.166 -94.238 5.405 128.295 0.109 11.319 0.321 144.014
3084.75 0.168 -97.079 5.403 127.538 0.108 13.905 0.325 141.608
3134.5 0.168 -99.166 5.364 127.953 0.108 13 0.328 139.463
3184.25 0.169 -101.47 5.328 124.861 0.109 11.938 0.333 137.024
3234 0.171 -104.365 5.34 123.922 0.109 15.11 0.336 134.843
3283.75 0.173 -107.339 5.295 125.591 0.108 14.032 0.339 132.503
3333.5 0.173 -109.52 5.255 123.277 0.109 13.313 0.343 130.201
3383.25 0.175 -111.842 5.252 122.586 0.11 15.507 0.346 127.78
3433 0.177 -115.159 5.261 122.001 0.109 15.798 0.349 125.529
3482.75 0.178 -117.873 5.201 121.71 0.11 14.339 0.353 123.456
3532.5 0.179 -120.423 5.165 119.761 0.11 15.075 0.356 120.973
3582.25 0.181 -122.84 5.204 118.72 0.11 17.544 0.358 119.012
3632 0.183 -125.882 5.132 120.191 0.11 15.556 0.361 116.612
3681.75 0.184 -128.992 5.061 117.039 0.111 15.995 0.364 114.355
3731.5 0.185 -130.847 5.086 115.534 0.111 17.597 0.366 112.599
3781.25 0.187 -133.529 5.07 117.608 0.111 16.728 0.368 109.979
3831 0.189 -136.437 4.966 116.304 0.112 16.912 0.371 107.817
3880.75 0.19 -139.139 4.979 113.056 0.112 17.636 0.374 105.884
3930.5 0.192 -141.306 4.987 114.251 0.112 18.249 0.376 103.714
3980.25 0.193 -143.896 4.896 113.904 0.112 17.795 0.378 101.271
4030 0.195 -147.154 4.859 111.84 0.113 17.278 0.381 99.217
4079.75 0.196 -149.095 4.881 111.274 0.113 19.508 0.382 97.44
4129.5 0.197 -151.079 4.831 111.396 0.113 18.706 0.384 94.89
4179.25 0.199 -153.66 4.748 110.888 0.113 18.595 0.386 92.625
4229 0.201 -156.626 4.747 108.111 0.114 19.62 0.388 90.653
4278.75 0.203 -159.126 4.723 108.659 0.114 19.332 0.39 88.492
4328.5 0.205 -161.028 4.653 109.255 0.114 19.717 0.391 86.355
4378.25 0.207 -163.898 4.602 107.665 0.114 19.658 0.393 84.198
4428 0.208 -166.689 4.605 105.69 0.115 20.675 0.395 82.387
4477.75 0.209 -168.796 4.583 106.453 0.115 20.669 0.395 80.255
4527.5 0.21 -170.746 4.514 107.585 0.115 19.97 0.396 77.968
4577.25 0.212 -173.437 4.507 103.478 0.115 21.537 0.398 75.901
4627 0.213 -175.914 4.512 104.222 0.116 21.312 0.399 73.91
4676.75 0.214 -177.578 4.452 105.617 0.116 21.141 0.4 71.887
4726.5 0.216 -179.622 4.407 102.458 0.117 21.946 0.401 69.634
4776.25 0.218 177.69 4.422 101.891 0.117 21.94 0.402 67.622
4826 0.22 175.343 4.38 103.597 0.117 22.25 0.402 65.694
4875.75 0.221 173.67 4.32 101.515 0.118 22.476 0.403 63.695
4925.5 0.223 171.344 4.323 99.763 0.118 22.772 0.403 61.683
4975.25 0.225 168.592 4.302 100.916 0.118 22.969 0.403 59.511
5025 0.225 166.479 4.259 100.455 0.119 23.012 0.403 57.429
5074.75 0.226 165.004 4.245 98.729 0.119 23.528 0.403 55.553
5124.5 0.227 162.904 4.232 98.608 0.12 23.601 0.403 53.328
5174.25 0.228 160.242 4.201 98.322 0.12 23.844 0.403 51.183
5224 0.229 158.231 4.173 97.415 0.12 24.046 0.403 49.249
5273.75 0.229 156.752 4.152 96.898 0.121 24.253 0.402 47.115
5323.5 0.231 154.421 4.122 96.166 0.121 24.498 0.401 44.847
5373.25 0.232 151.789 4.099 95.646 0.122 24.569 0.401 42.723
5423 0.231 149.92 4.075 95.562 0.122 24.797 0.401 40.626
5472.75 0.232 148.486 4.044 94.37 0.123 25.143 0.4 38.397
5522.5 0.233 146.222 4.032 93.608 0.123 25.172 0.399 36.16
5572.25 0.233 143.889 4.018 93.833 0.124 25.431 0.398 33.954
5622 0.232 142.36 3.971 93.427 0.124 25.353 0.398 31.954
5671.75 0.234 140.759 3.956 91.651 0.125 25.899 0.396 29.639
5721.5 0.235 138.201 3.946 91.019 0.125 25.913 0.396 27.216
5771.25 0.234 136.104 3.903 92.428 0.126 25.746 0.395 25.138
5821 0.234 134.598 3.853 89.517 0.126 26.882 0.394 22.952
5870.75 0.235 132.92 3.868 89.616 0.126 25.862 0.394 20.834
5920.5 0.234 131.006 3.842 90.448 0.127 26.212 0.392 18.442
5970.25 0.232 128.806 3.781 88.617 0.128 27.259 0.392 16.276
6020 0.232 127.394 3.793 87.134 0.128 26.448 0.391 14.14
6069.75 0.232 126.186 3.788 87.888 0.129 26.969 0.389 11.628
6119.5 0.23 123.846 3.735 89.597 0.129 27.05 0.389 9.017
6169.25 0.231 121.348 3.689 84.737 0.13 26.736 0.389 6.982
6219 0.23 120.702 3.728 84.959 0.13 27.762 0.388 5.143
6268.75 0.229 119.113 3.676 87.963 0.131 27.373 0.386 2.522
6318.5 0.228 116.668 3.593 85.059 0.131 27.482 0.385 0.308
6368.25 0.227 114.927 3.644 82.923 0.132 27.997 0.383 -1.551
6418 0.225 113.522 3.639 83.975 0.133 26.958 0.38 -4.621
6467.75 0.223 112.341 3.554 86.505 0.133 28.759 0.379 -6.933
6517.5 0.224 109.217 3.527 79.605 0.134 27.327 0.379 -8.817
6567.25 0.222 108.059 3.601 81.926 0.134 28.04 0.378 -11.567
6617 0.219 107.231 3.494 86.62 0.135 28.841 0.379 -14.371
6666.75 0.221 104.674 3.441 78.342 0.136 26.506 0.378 -16.451
6716.5 0.217 102.867 3.507 79.587 0.136 29.455 0.377 -18.542
6766.25 0.214 101.469 3.457 81.942 0.136 28.087 0.376 -21.056
6816 0.213 101.145 3.396 81.708 0.137 27.912 0.375 -23.126
6865.75 0.212 98.676 3.403 77.523 0.138 28.674 0.372 -25.35
6915.5 0.209 96.107 3.441 77.144 0.138 27.428 0.37 -28.574
6965.25 0.203 95.3 3.348 82.733 0.139 29.497 0.371 -31.714
7015 0.205 93.843 3.333 76.183 0.14 27.726 0.369 -33.479
7064.75 0.202 91.781 3.374 75.91 0.14 28.419 0.368 -36.257
7114.5 0.197 89.852 3.31 79.064 0.14 28.87 0.369 -38.765
7164.25 0.196 89.104 3.278 76.345 0.141 27.864 0.368 -40.944
7214 0.194 87.467 3.264 73.964 0.142 28.339 0.366 -43.772
7263.75 0.19 85.385 3.294 74.665 0.142 29.003 0.365 -46.466
7313.5 0.183 83.29 3.22 79.515 0.142 28.37 0.366 -49.845
7363.25 0.184 82.38 3.201 72.209 0.143 27.644 0.364 -51.472
7413 0.183 81.484 3.235 69.318 0.144 28.473 0.364 -53.853
7462.75 0.174 78.696 3.194 77.997 0.143 28.782 0.369 -58.072
7512.5 0.172 76.999 3.125 73.401 0.145 28.235 0.369 -59.876
7562.25 0.172 76.515 3.138 66.456 0.145 28.06 0.367 -61.639
7612 0.167 75.469 3.165 73.971 0.145 28.788 0.369 -64.588
7661.75 0.161 72.857 3.039 74.879 0.146 27.876 0.37 -67.124
7711.5 0.161 71.313 3.054 64.162 0.146 27.982 0.368 -69.32
7761.25 0.156 71.413 3.089 70.431 0.146 28.701 0.37 -71.961
7811 0.15 69.14 2.99 75.598 0.147 28.493 0.373 -75.081
7860.75 0.149 66.227 2.974 63.185 0.147 27.941 0.37 -77.213
7910.5 0.143 65.489 2.983 68.23 0.148 27.42 0.372 -79.64
7960.25 0.139 65.344 2.966 70.931 0.148 29.585 0.375 -82.442
8010 0.138 63.29 2.885 67.503 0.149 27.03 0.375 -84.592
8059.75 0.132 61.001 2.925 65.791 0.149 28.41 0.376 -87.054
8109.5 0.127 59.955 2.887 67.512 0.149 28.456 0.378 -89.348
8159.25 0.125 59.744 2.868 68.233 0.149 27.897 0.38 -91.563
8209 0.122 57.399 2.847 63.169 0.15 27.754 0.379 -94.156
8258.75 0.113 55.332 2.84 68.575 0.15 27.508 0.382 -96.364
8308.5 0.109 55.385 2.847 64.718 0.15 29.998 0.383 -98.878
8358.25 0.108 54.153 2.789 64.857 0.151 25.985 0.384 -101.657
8408 0.1 51.121 2.797 63.921 0.152 28.371 0.386 -103.978
8457.75 0.094 49.125 2.786 62.841 0.152 28.822 0.387 -105.823
8507.5 0.092 49.726 2.765 66.585 0.152 26.688 0.39 -108.225
8557.25 0.089 48.582 2.707 62.121 0.153 28.532 0.391 -110.791
8607 0.083 45.663 2.753 60.191 0.152 27.405 0.391 -113.498
8656.75 0.074 43.526 2.729 64.445 0.153 27.542 0.396 -115.936
8706.5 0.073 43.76 2.642 62.529 0.153 27.527 0.398 -117.564
8756.25 0.071 43.299 2.707 58.219 0.153 27.697 0.399 -120.036
8806 0.061 39.136 2.685 63.974 0.154 28.196 0.404 -122.124
8855.75 0.058 39.017 2.62 60.9 0.154 27.214 0.405 -124.266
8905.5 0.058 41.253 2.612 55.925 0.154 27.045 0.405 -126.34
8955.25 0.05 39.272 2.645 60.729 0.154 28.02 0.41 -128.875
9005 0.04 33.671 2.567 62.009 0.155 27.136 0.413 -131.655
9054.75 0.038 36.467 2.545 55.355 0.155 27.382 0.412 -133.437
9104.5 0.036 39.575 2.585 56.418 0.155 27.494 0.416 -135.714
9154.25 0.028 33.761 2.519 60.502 0.155 26.66 0.421 -138.182
9204 0.02 31.562 2.497 55.649 0.155 27.885 0.423 -140.245
9253.75 0.017 38.251 2.493 56.797 0.156 26.495 0.426 -142.089
9303.5 0.017 42.562 2.491 56.55 0.155 27.797 0.429 -143.602
9353.25 0.011 40.772 2.434 55.838 0.156 27.132 0.431 -145.815
9403 2.778e-3 78.402 2.428 54.953 0.156 26.432 0.433 -147.821
9452.75 4.575e-3 135.969 2.438 55.125 0.156 27.856 0.437 -149.554
9502.5 5.588e-3 146.665 2.397 56.948 0.156 26.766 0.44 -151.637
9552.25 9.009e-3 176.347 2.37 51.407 0.156 27.227 0.441 -153.656
9602 0.019 -170.688 2.359 54.251 0.156 26.999 0.445 -155.548
9651.75 0.021 -177.586 2.358 54.015 0.156 26.785 0.447 -157.193
9701.5 0.022 -177.788 2.309 54.016 0.156 26.997 0.449 -158.939
9751.25 0.031 -173.039 2.303 52.342 0.157 27.22 0.451 -160.958
9801 0.037 -175.609 2.306 50.511 0.156 26.963 0.452 -162.451
9850.75 0.038 -176.97 2.267 54.406 0.157 26.751 0.456 -164.336
9900.5 0.039 -177.712 2.246 50.698 0.157 27.132 0.457 -166.066
9950.25 0.04 -178.354 2.225 46.992 0.157 27.514 0.457 -167.78
10000 0.041 -178.899 2.204 43.287 0.158 27.899 0.457 -169.478
