! Hittite Microwave Corporation					
! 20 Alpha Road
! Chelmsford, MA 01824
! Tel: 978-250-3343
! Fax: 978-250-3373
! Device: HMC344LH5, DC-12 GHz GaAs MMIC SP4T Non-Reflective Switch in Hermetic Leadless SMT Package
! Misc: Data was de-embedded to package pins.
!       Port 1 = RFC
!       Port 2 = RF1
!       Port 3 = RF2
!       Port 4 = RF3
!       Port 5 = RF4
!  
!  RF2 selected, Vctl= 0/-5 V
!
!  Data reformated to new Touchstone file format - Tue Jan 09 13:44:54 2007
!
# MHz S DB R 50
! 5 Port Network Data
! freq  dbS11  angS11  dbS12  angS12  dbS13  angS13  dbS14  angS14  
!       dbS15  angS15  
!       dbS21  angS21  dbS22  angS22  dbS23  angS23  
!       dbS24  angS24  dbS25  angS25  
!       dbS31  angS31  dbS32  angS32  
!       dbS33  angS33  dbS34  angS34  dbS35  angS35  
!       dbS41  angS41  
!       dbS42  angS42  dbS43  angS43  dbS44  angS44  dbS45  angS45  
!       dbS51  angS51  dbS52  angS52  dbS53  angS53  dbS54  angS54  
!       dbS55  angS55  
!     
                10       -16.2495856             -0.934        -64.8809792            105.534        -1.74493393             -1.174        -61.6814558            131.036
                      -73.8714994            -35.653
                      -71.5679215            115.405        -15.3910216              1.906        -67.7612875            143.581        -67.6894155           -160.227
                      -61.2396181            -95.547
                      -1.15983894             -0.364        -62.2792145            -51.233        -17.2024183              -0.49        -62.5092041             45.192
                      -71.4308245            -37.491
                      -65.4199458            -57.705        -68.1698038             70.223        -70.2515758             24.804         -16.137508              2.082
                       -60.140098             31.573
                       -68.949069            159.681        -65.0099115             35.883        -65.5506123           -128.597         -65.329635             -7.597
                      -15.8096997              1.944

             69.95        -17.139704             -2.542        -78.3586613             53.383        -1.43208295             -2.042        -78.7935994            102.056
                      -82.8605913             96.261
                      -74.9429394              84.92         -15.139239             -1.581        -86.2797942            -12.821         -76.351707             32.901
                      -73.0729405              88.96
                      -1.41162149             -2.102        -74.0842612             99.708         -17.139704             -2.069        -74.5631679            -59.395
                      -72.3416573            -79.976
                      -74.1770648             113.33        -76.6241596            124.811        -77.4773719             62.988        -15.8096997             -1.687
                      -75.0651058             58.421
                      -83.7778879             21.294        -74.8512287             -83.44        -76.7069957             97.281        -68.6924899            107.811
                      -15.4938144             -1.515

             129.9        -17.139704             -4.693        -75.4938144             64.936        -1.44233179              -3.58        -86.8972313            141.664
                      -82.4594877                -35
                      -78.3802591            102.739         -15.139239             -3.329        -74.4295007             67.285        -80.7034976            116.566
                      -80.1533488             67.166
                      -1.44233179              -3.62        -77.6016918             82.736         -17.139704             -4.482        -78.5109856              86.33
                      -80.5448383           -130.127
                      -88.8450452             161.34        -87.9133185            -83.684        -84.7389312            101.879        -15.7562479             -3.476
                      -74.3929861             88.477
                      -81.7757821             75.701        -80.2439943             37.986         -79.667689           -119.932        -71.8352007             72.847
                      -15.4938144             -3.165

            189.85        -17.139704             -6.524        -72.6193956              66.91        -1.44233179             -5.206        -84.9436714           -162.237
                      -83.5253002             86.878
                      -71.4730285             90.216        -15.0897466             -4.808        -76.9115205               61.5        -75.8365495            104.804
                      -78.3156263             95.514
                      -1.43208295             -5.246        -75.6714034             62.375         -17.139704              -6.24        -90.9734838             81.864
                      -83.3115859            -168.96
                      -85.1832759           -129.985        -74.3385005             50.365        -80.8067726            123.123        -15.7562479             -4.986
                      -69.7463121             75.986
                      -84.4297398             88.246         -78.525633             76.704        -85.6665805            165.633         -69.215968             61.456
                      -15.4422659             -4.596

             249.8       -17.0774393             -8.458         -71.961655              85.09        -1.45259274             -6.672        -91.6273463             19.821
                      -81.4454088            108.785
                      -70.5273415             73.729        -15.0405347             -6.337        -76.1097132             90.734        -75.1690704             78.723
                      -79.6593332             76.392
                      -1.45259274             -6.702        -74.3884326             63.639         -17.139704             -8.122        -81.6614507             31.071
                      -81.6362468             85.424
                      -90.4460014            164.773        -80.3981137            103.823        -87.4834657            -17.261         -15.703123             -6.584
                      -67.5474315             83.745
                      -75.8688791            101.159        -77.2655887             91.682        -90.1196925            130.327        -68.3587327             78.295
                      -15.4422659             -6.017

            309.75       -17.0774393            -10.456        -67.6264892             79.986        -1.46286582             -8.278        -83.8709735            155.625
                      -82.0024961            102.519
                       -67.296359             78.649        -15.0405347             -7.916        -74.7890325             65.312        -75.3910216             86.221
                      -76.2326815              72.77
                      -1.46286582             -8.298        -74.1815088             70.989        -17.0774393            -10.451        -83.8020751             95.215
                      -83.7283802           -134.517
                      -98.1035924            177.861        -76.2891569             77.901        -85.0037283             44.975         -15.703123             -8.141
                      -66.9203219             81.483
                      -82.0375685             85.178         -76.869017              77.32        -83.9623259             162.56        -65.9997788             78.343
                      -15.3910216             -7.518

             369.7       -17.0774393            -12.689        -67.5143581             80.261        -1.46286582             -9.782        -84.4703349           -169.188
                      -75.6292899             97.324
                      -66.7071605             81.639           -14.9916             -9.552        -73.7310926             88.485        -74.3566244             71.202
                      -75.0160329              68.01
                      -1.46286582             -9.882        -71.8318084             75.874        -17.0156177            -12.518        -83.6143871             76.473
                      -89.5485073             36.483
                       -90.827243            167.784        -74.8224674             84.342         -81.444383             79.342        -15.6503211             -9.808
                      -65.5835884             82.394
                      -77.4062022            108.681        -74.3023657              66.88        -84.6198426            148.268        -65.3040034             81.964
                      -15.3910216             -9.021

            429.65       -17.0156177            -14.539        -65.7335499             78.043        -1.47315107            -11.306        -86.2780046           -149.519
                      -75.2140104              99.99
                      -65.6532483             78.209        -14.9429394            -10.968        -71.3374096             84.975         -72.435677             67.334
                      -72.2166783             83.402
                      -1.47315107            -11.366        -71.4827971             81.879        -16.9542331            -14.521        -81.2848179             91.889
                      -81.3302542           -167.221
                      -81.6572449           -151.048        -74.8176831             71.774        -82.7145261             94.492        -15.6503211            -11.305
                      -63.8263298             81.036
                      -77.2592509            105.243        -74.8752693             77.692        -102.011251            -137.22         -63.896782             78.446
                      -15.3400778            -10.433

             489.6       -17.0156177             -16.54        -64.8901254             82.744        -1.47315107            -12.839        -85.5177609           -145.843
                      -74.9477932            103.629
                      -65.0704298             82.093        -14.8945499            -12.447        -70.9489387             81.465        -72.3885399             76.586
                      -71.5187095             79.533
                      -1.47315107            -12.879        -71.7407146             78.291        -16.8932793            -16.561        -78.6511431             81.465
                      -84.2168502             174.24
                      -89.6034401            176.124        -72.8794829             79.886        -79.1406185            117.136        -15.5978382            -12.898
                      -62.8884055             80.778
                      -74.3068743             92.042         -71.737359             79.093        -89.4783862            138.487        -63.1278706             78.018
                      -15.3400778            -11.927

            549.55       -17.0774393            -18.655        -63.7043971             80.641        -1.48344851             -14.41         -85.956561           -176.158
                      -72.4247765             91.321
                      -63.7631399             80.063        -14.8464285            -13.967        -69.9760752             87.479        -71.2228268             78.431
                      -73.6053901             68.568
                      -1.48344851             -14.42        -70.6153451             83.888        -16.8327502            -18.886        -79.8194852             88.612
                      -92.5307256           -150.417
                      -84.0449574           -166.499         -71.814867             79.691        -80.2842876             87.833        -15.5456706            -14.552
                      -62.0937595             80.394
                      -73.0925254             94.775        -71.1222291             76.298        -85.2593294            157.951         -62.013441             78.604
                      -15.2894311            -13.502

             609.5       -17.0156177            -20.773        -62.4860448             80.473        -1.48344851             -15.86        -80.5033209           -166.776
                      -71.6306596             98.468
                      -62.9199553             82.154        -14.7985722            -15.379        -69.1062396             87.063        -70.9366921             72.975
                      -70.4257849             79.172
                      -1.49375817             -15.89        -69.2814652             92.816        -16.8327502             -20.92        -79.5844902             99.104
                      -87.4056933             145.27
                      -81.9893804            161.146        -70.8970096             79.245        -78.9000828             97.707        -15.5456706            -16.172
                      -60.9858893             77.149
                      -71.8521819            100.283        -71.3374096             78.492        -84.9176221            139.429        -61.2256037             76.529
                      -15.2894311             -14.99

            669.45       -17.0156177            -22.338        -62.2106043             80.661        -1.49375817            -17.439        -80.7422003             171.84
                      -71.7575119             90.744
                      -62.1292031             77.943        -14.7509782              -16.7        -69.1534523             93.623         -70.979631             72.363
                      -69.5380832              80.69
                      -1.49375817            -17.449         -68.936909             93.517        -16.8327502            -22.498        -76.9115205             90.032
                      -84.5023647            162.004
                      -80.5670624           -177.469        -69.8590826             71.783        -77.3676267             91.946        -15.4938144            -17.673
                      -60.4090325             78.417
                      -72.8070841             98.138        -69.9897818              76.54        -82.0562585            159.776        -60.5986441             78.287
                      -15.2390779            -16.407

             729.4       -17.0156177            -23.996        -61.4567005             82.872        -1.49375817            -18.866        -77.6612071            178.123
                      -71.0537378             94.617
                      -61.4382308             80.101        -14.7509782            -18.038        -67.9371125             92.584        -69.0716147             73.242
                      -69.4113929             76.598
                      -1.49375817            -18.916        -68.1831633             97.023          -16.77264            -24.379        -77.4255543             87.413
                       -83.709721            156.326
                      -78.7108402           -176.801        -68.6125218             73.242        -76.7606677            101.607        -15.4938144              -19.1
                      -59.7601377             78.736
                      -71.8623866            101.313        -68.5031761             83.048        -79.7095892            159.015        -59.6093663             76.616
                      -15.2390779            -17.784

            789.35       -17.0156177            -25.908         -60.815355             78.171        -1.50408008            -20.422        -76.7427401            179.379
                      -69.0003278             98.127
                      -60.7526133             78.508        -14.6565654             -19.54        -66.9899641             98.123        -68.8787768             75.751
                      -69.1285715             79.626
                      -1.50408008            -20.432        -67.4301779             92.168        -16.7129429            -26.706        -77.0279469            115.284
                      -80.7639872           -176.044
                      -80.2413147           -178.248        -69.3576577              71.87        -73.4896867             97.963        -15.3910216             -20.77
                      -58.9692322             77.365
                      -69.8834393             99.606        -68.0878713             79.886        -82.7394941            147.597        -59.0857188             78.015
                       -15.189015            -19.354

             849.3       -16.9542331            -27.387        -60.2941656             77.526        -1.50408008            -21.903        -75.4989861            164.085
                      -69.0938577             108.44
                      -60.1374503             78.906        -14.6097411             -20.91        -66.5932272             96.002        -67.4199676             75.331
                      -67.7506807             79.047
                      -1.50408008            -21.913        -67.1329208             98.469        -16.6536533            -28.544        -74.5910818             106.67
                      -80.9693642            164.235
                      -75.8419294            164.455        -68.8090489             75.901        -73.0533997            110.248        -15.3400778            -22.221
                       -58.438117             77.366
                      -69.8915734            107.364        -67.5391513             80.547        -78.6734815            168.087        -58.7108402             75.976
                       -15.139239            -20.768

            909.25       -16.9542331            -28.688         -59.576214             78.931        -1.51441428            -23.427        -74.7699845            179.294
                      -68.1943119            100.592
                      -59.3074309             77.027        -14.6097411            -22.058        -66.4023612            102.252        -67.9740138             71.362
                      -67.4731927             77.647
                      -1.51441428            -23.507        -66.2494208             94.885        -16.7129429            -29.949        -73.7353142            110.032
                       -77.503397            160.695
                      -76.2948247            165.741        -67.1625891             67.751        -73.7268731             98.556        -15.3400778            -23.511
                      -57.9102578             77.156
                      -68.4386823            105.844         -67.113198             72.287        -79.8792409            159.597        -57.7011117             77.436
                      -15.0897466             -22.02

             969.2       -16.9542331             -30.29        -59.2117176             76.731        -1.51441428              -24.9        -73.6137139            163.747
                        -68.33149            102.329
                      -58.9000828             77.255         -14.516843            -23.269        -65.5276033            100.339        -66.8207031             74.925
                       -67.399583              75.12
                      -1.51441428             -24.93        -65.1959053            101.544        -16.6536533            -31.716        -74.2171433            107.442
                      -78.0687512            165.212
                       -74.424928            167.009        -66.4991053             72.255        -72.0655544            108.216        -15.2390779             -24.85
                      -57.5164389              77.09
                      -68.0944858            100.321        -67.4301779              75.45        -77.4708777            157.493         -57.386893              75.33
                      -15.0405347            -23.313

