!Hittite Microwave Corporation								
!12 Elizabeth Drive								
!Chelmsford, MA 01824								
!Tel: 978-250-3343								
!Fax: 978-250-3373								
!Device: HMC372LP3, 750-1000 MHz, GaAs PHEMT MMIC Low Noise Amplifier in leadless QFN SMT package																
!Misc: Vs = 5V, data is deembedded to the pins of the device, Room
!
# MHZ S MA R 50

50 0.93 -90.96 0.134 -61.318 1.728e-3 -95.198 1 -8.616
69.5 0.895 -74.732 0.282 -61.108 277.6e-6 -120.185 1 -11.999
89 0.88 -65.137 0.465 -63.164 1.476e-3 172.938 0.999 -15.346
108.5 0.867 -59.679 0.675 -66.688 2.197e-3 166.458 0.998 -18.786
128 0.851 -56.779 0.903 -70.568 2.557e-3 169.564 0.997 -22.295
147.5 0.836 -54.989 1.148 -74.452 3.492e-3 175.751 0.994 -25.938
167 0.82 -54.361 1.404 -78.436 5.002e-3 173.717 0.99 -29.6
186.5 0.805 -54.265 1.676 -82.454 6.237e-3 170.493 0.984 -33.393
206 0.792 -54.643 1.961 -86.456 8.255e-3 168.346 0.978 -37.242
225.5 0.777 -55.535 2.262 -90.457 0.01 167.293 0.969 -41.178
245 0.761 -56.795 2.584 -94.75 0.012 165.45 0.955 -45.195
264.5 0.745 -58.3 2.907 -99.268 0.014 163.313 0.94 -49.213
284 0.727 -60.043 3.223 -104.064 0.017 160.506 0.923 -53.349
303.5 0.707 -61.957 3.539 -108.75 0.02 158.433 0.902 -57.487
323 0.686 -64.012 3.852 -113.381 0.023 156.147 0.876 -61.666
342.5 0.663 -66.165 4.162 -118.06 0.026 153.358 0.848 -65.894
362 0.638 -68.374 4.478 -122.749 0.029 150.053 0.817 -70.031
381.5 0.612 -70.57 4.788 -127.848 0.033 147.307 0.785 -74.014
401 0.583 -72.735 5.053 -133.193 0.036 143.91 0.75 -78.04
420.5 0.554 -74.748 5.264 -138.317 0.04 140.428 0.714 -81.924
440 0.524 -76.622 5.45 -143.193 0.044 137.277 0.676 -85.579
459.5 0.494 -78.252 5.613 -147.797 0.047 134.018 0.637 -89.007
479 0.464 -79.575 5.771 -152.28 0.051 130.924 0.6 -92.244
498.5 0.435 -80.672 5.915 -156.939 0.054 127.7 0.562 -95.411
518 0.407 -81.37 6.005 -161.625 0.057 124.941 0.525 -98.224
537.5 0.381 -81.789 6.058 -166.075 0.06 122.14 0.488 -100.808
557 0.357 -81.874 6.069 -170.358 0.063 119 0.452 -103.18
576.5 0.335 -81.618 6.038 -174.234 0.066 116.845 0.42 -104.94
596 0.316 -81.033 6.005 -177.632 0.068 114.426 0.388 -106.43
615.5 0.298 -80.185 5.999 179.151 0.07 112.15 0.359 -107.773
635 0.283 -79.046 5.99 175.837 0.073 110.007 0.332 -108.808
654.5 0.27 -77.697 5.962 172.443 0.075 108.013 0.306 -109.768
674 0.259 -76.308 5.899 169.168 0.077 106.212 0.282 -110.139
693.5 0.249 -74.855 5.82 166.187 0.079 104.406 0.26 -109.901
713 0.241 -73.31 5.728 163.487 0.081 102.726 0.24 -109.384
732.5 0.235 -71.934 5.646 161.143 0.083 101.188 0.222 -108.642
752 0.23 -70.446 5.593 158.96 0.085 99.7 0.206 -107.654
771.5 0.226 -69.026 5.553 156.518 0.086 98.387 0.191 -106.518
791 0.223 -67.806 5.493 154.019 0.088 97.254 0.178 -104.856
810.5 0.22 -66.538 5.423 151.591 0.09 95.813 0.165 -102.472
830 0.218 -65.625 5.324 149.254 0.092 94.834 0.156 -99.696
849.5 0.216 -64.914 5.214 147.378 0.093 93.96 0.149 -96.574
869 0.215 -64.194 5.128 145.877 0.095 92.568 0.141 -93.762
888.5 0.215 -63.683 5.071 144.257 0.097 91.779 0.135 -90.62
908 0.214 -63.068 5.026 142.533 0.098 90.767 0.129 -87.721
927.5 0.214 -62.571 4.978 140.63 0.1 89.748 0.126 -84.021
947 0.213 -62.41 4.911 138.633 0.102 88.971 0.122 -80.419
966.5 0.212 -62.189 4.818 136.87 0.103 88.158 0.122 -77.013
986 0.212 -62.315 4.726 135.449 0.104 87.463 0.121 -73.761
1005.5 0.212 -62.423 4.655 134.276 0.106 86.696 0.121 -70.699
1025 0.212 -62.618 4.615 133.154 0.108 86.029 0.121 -68.292
1044.5 0.212 -62.785 4.588 131.667 0.11 85.396 0.121 -64.898
1064 0.212 -63.001 4.549 129.945 0.112 84.709 0.122 -61.872
1083.5 0.212 -63.32 4.485 128.171 0.113 83.8 0.125 -59.497
1103 0.211 -63.788 4.401 126.629 0.114 83.11 0.128 -57.396
1122.5 0.211 -64.46 4.316 125.487 0.116 82.617 0.13 -55.643
1142 0.211 -65.075 4.255 124.626 0.118 82.046 0.132 -53.684
1161.5 0.211 -65.605 4.216 123.626 0.12 81.513 0.134 -52.127
1181 0.211 -66.313 4.192 122.503 0.122 80.901 0.136 -50.466
1200.5 0.211 -67.127 4.167 121.131 0.123 80.216 0.139 -48.945
1220 0.211 -67.994 4.113 119.547 0.125 79.397 0.143 -47.752
1239.5 0.21 -68.814 4.043 118.231 0.126 79.224 0.146 -47.218
1259 0.21 -69.729 3.973 117.257 0.127 78.75 0.149 -46.293
1278.5 0.209 -70.824 3.918 116.489 0.129 78.376 0.152 -45.197
1298 0.209 -71.804 3.883 115.741 0.131 77.765 0.154 -44.248
1317.5 0.209 -72.676 3.872 114.74 0.134 77.163 0.157 -43.144
1337 0.209 -73.852 3.847 113.392 0.135 76.243 0.162 -42.396
1356.5 0.208 -75.001 3.801 111.997 0.136 75.495 0.165 -42.191
1376 0.207 -76.252 3.741 110.74 0.136 75.124 0.168 -41.997
1395.5 0.207 -77.502 3.672 109.808 0.138 75.196 0.17 -41.505
1415 0.207 -78.937 3.62 109.23 0.14 75.12 0.172 -40.98
1434.5 0.206 -80.258 3.596 108.672 0.143 74.581 0.175 -40.206
1454 0.207 -81.525 3.585 107.854 0.146 73.736 0.178 -39.598
1473.5 0.207 -83.029 3.569 106.653 0.147 72.747 0.182 -39.455
1493 0.206 -84.56 3.534 105.204 0.148 71.978 0.186 -39.713
1512.5 0.206 -85.955 3.474 104.023 0.148 71.621 0.188 -39.671
1532 0.205 -87.329 3.411 103.247 0.149 71.683 0.19 -39.557
1551.5 0.206 -88.992 3.367 102.783 0.152 71.47 0.192 -39.147
1571 0.206 -90.492 3.349 102.356 0.155 70.91 0.195 -38.86
1590.5 0.206 -92.26 3.352 101.464 0.156 70.013 0.198 -38.677
1610 0.206 -93.943 3.34 100.249 0.157 69.139 0.201 -38.84
1629.5 0.205 -95.588 3.295 98.792 0.157 68.939 0.204 -38.964
1649 0.206 -97.291 3.244 97.784 0.159 68.905 0.206 -38.957
1668.5 0.207 -99.065 3.185 97.187 0.161 68.893 0.208 -38.682
1688 0.207 -100.86 3.153 96.951 0.165 68.475 0.211 -38.436
1707.5 0.208 -102.582 3.153 96.405 0.167 67.282 0.214 -38.36
1727 0.209 -104.495 3.15 95.394 0.167 66.335 0.217 -38.689
1746.5 0.209 -106.499 3.135 94.097 0.167 65.865 0.219 -38.963
1766 0.209 -108.187 3.092 92.672 0.167 65.792 0.219 -39.104
1785.5 0.211 -109.906 3.027 91.625 0.168 66.149 0.221 -38.999
1805 0.213 -111.958 2.971 91.243 0.172 66.163 0.224 -38.958
1824.5 0.213 -113.827 2.942 91.09 0.175 65.367 0.227 -38.949
1844 0.215 -115.578 2.938 90.798 0.177 64.314 0.229 -38.861
1863.5 0.217 -117.693 2.943 89.992 0.178 63.282 0.232 -38.966
1883 0.218 -119.673 2.934 88.74 0.177 62.82 0.233 -39.253
1902.5 0.219 -121.613 2.904 87.456 0.177 62.996 0.234 -39.297
1922 0.221 -123.465 2.854 86.461 0.178 63.089 0.236 -39.304
1941.5 0.223 -125.641 2.807 85.978 0.181 62.894 0.238 -39.31
1961 0.225 -127.639 2.785 85.783 0.184 62.174 0.24 -39.305
1980.5 0.227 -129.534 2.781 85.258 0.185 61.549 0.242 -39.402
2000 0.229 -131.572 2.777 84.416 0.186 61.296 0.243 -39.386
