!Hittite Microwave Corporation								
!12 Elizabeth Drive								
!Chelmsford, MA 01824								
!Tel: 978-250-3343								
!Fax: 978-250-3373								
!Device: HMC344LP3, DC-8 GHz GaAs MMIC SP4T Non-Reflective Switch in Leadless LP3 SMT Package							
!Misc: Room Temp Vctl=-5V Port1=RFC, Port2=RF1, Port3=RF2, Port4=RF3, Port5=RF4, RF2 ON.								
!
# MHZ S MA R 50

10	1.157	29.933	0.016	91.887	0.151	-80.199	0.003174	140.089
	0.00157	118.267	0.00897	78.666	0.857	35.354	0.023	68.061
	0.004126	1.234	0.007231	-11.179	0.148	-84.876	0.004081	-23.167
	1.117	32.676	0.005719	110.836	0.003793	31.737	0.012	88.113
	0.011	-61.153	0.012	74.525	0.86	35.39	0.002095	63.808
	0.02	46.533	0.029	-24.372	0.013	1.697	0.023	-15.046
	0.859	35.382						
69.82	0.302	40.2	0.001091	89.293	0.825	-16.843	0.000462	-21.825
	0.0005765	68.185	0.0009724	-43.315	0.313	8.485	0.0004723	-128.262
	0.0008301	39.339	0.0004737	-34.839	0.821	-16.646	0.000625	70.298
	0.293	42.895	0.0008042	-65.591	0.0005508	-35.27	0.001752	-133.032
	0.000855	-167.313	0.0009025	80.501	0.313	9.097	0.00108	-172.25
	0.001895	143.218	0.001967	-154.275	0.0009201	19.896	0.001694	38.118
	0.313	9.14						
129.641	0.209	23.923	0.0002594	65.814	0.843	-12.066	0.0004504	30.804
	0.0004246	83.311	0.0005984	153.82	0.305	-0.578	0.0001954	117.73
	0.0000288	-47.071	0.0003681	-19.18	0.84	-11.956	0.0006719	84.233
	0.196	28.643	0.0004463	117.416	0.0002592	59.691	0.0004652	-123.851
	0.000632	159.093	0.0003314	70.741	0.306	-0.27	0.0004698	103.692
	0.0001772	-59.421	0.0001587	-70.175	0.0001216	54.52	0.0002505	-173.541
	0.305	-0.274						
189.461	0.18	10.461	0.0004669	59.676	0.841	-10.6	0.00008283	134.459
	0.0003155	93.579	0.0004089	45.24	0.303	-6.62	0.0003313	86.295
	0.000198	1.26	0.00006441	-2.453	0.837	-10.351	0.0004331	121.588
	0.166	15.838	0.0003343	54.284	0.000248	-2.041	0.0003277	-148.789
	0.0002405	-128.359	0.0004323	52.951	0.304	-5.917	0.0007354	98.481
	0.0007895	85.337	0.00004627	40.274	0.0001913	127.785	0.0002963	89.396
	0.303	-6.074						
249.281	0.166	-0.372	0.000523	86.316	0.847	-10.643	0.0001066	46.409
	0.0007413	93.495	0.0007958	79.308	0.303	-11.743	0.0003461	77.955
	0.00002769	51.422	0.0002928	35.91	0.844	-10.413	0.0007813	102.165
	0.153	4.774	0.0002637	66.109	0.0003064	72.494	0.0002312	16.516
	0.0002257	-161.957	0.0002149	62.14	0.304	-10.839	0.0007134	74.695
	0.0008225	111.55	0.00007962	41.184	0.00009328	-57.953	0.0006005	97.903
	0.303	-11.121						
309.102	0.16	-11.25	0.000434	123.557	0.848	-11.386	0.0003783	-53.109
	0.001129	100.808	0.0004786	71.356	0.305	-16.349	0.0007805	69.7
	0.000181	158.083	0.00009339	1.115	0.842	-11.421	0.001643	79.917
	0.149	-5.112	0.0005193	82.313	0.0003201	-19.347	0.001118	97.929
	0.0007374	-158.803	0.0001335	-68.252	0.306	-15.215	0.0008532	73.313
	0.0005089	87.82	0.0002054	142.122	0.0005107	170.36	0.0005438	64.086
	0.305	-15.434						
368.922	0.157	-19.126	0.0008468	67.525	0.846	-12.309	0.0002805	15.251
	0.001118	79.445	0.0007674	68.307	0.307	-20.495	0.0005773	78.674
	0.0001625	146.282	0.0005498	-4.934	0.841	-12.359	0.0007872	86.281
	0.147	-13.045	0.0005516	28.79	0.0001427	101.855	0.0002779	-67.022
	0.0002485	74.929	0.0003003	85.299	0.306	-19.173	0.0005729	56.353
	0.001006	70.181	0.0005141	151.688	0.0003911	-154.848	0.001259	47.417
	0.306	-19.628						
428.743	0.154	-26.058	0.0006981	81.919	0.844	-13.356	0.0002012	-0.044
	0.001252	79.288	0.001292	77.1	0.31	-24.461	0.001088	86.143
	0.0007922	26.84	0.0004563	45.612	0.838	-13.386	0.001258	69.304
	0.147	-19.892	0.00062	62.684	0.000176	-0.973	0.0006195	33.248
	0.0005341	34.763	0.0005196	-101.114	0.308	-22.998	0.001078	78.353
	0.0008176	94.946	0.0001855	-17.578	0.0001184	-31.932	0.001091	88.054
	0.308	-23.379						
488.563	0.15	-32.752	0.0009279	72.255	0.847	-14.491	0.0001528	55.517
	0.001161	84.679	0.0006166	73.294	0.312	-28.217	0.001139	78.547
	0.0002041	162.804	0.0002642	96.257	0.842	-14.189	0.0007294	92.954
	0.147	-26.467	0.0003901	40.44	0.0001309	168.723	0.0006642	-35.272
	0.0001811	-95.669	0.0001444	91.983	0.31	-26.61	0.0008686	83.013
	0.00134	71.562	0.00007564	-139.835	0.0004584	84.962	0.001074	73.728
	0.31	-27.178						
548.383	0.148	-39.724	0.001107	80.278	0.842	-15.886	0.00009336	81.667
	0.001686	73.737	0.001003	82.543	0.315	-32.054	0.001158	80.695
	0.0001623	-20.398	0.0002726	92.399	0.841	-15.673	0.001504	78.619
	0.148	-32.61	0.0003548	65.851	0.00006475	78.45	0.0003267	-41.287
	0.0001266	57.156	0.0003264	113.831	0.311	-30.466	0.001087	73.578
	0.001266	84.93	0.0000807	-73.319	0.000212	-133.209	0.001346	63.457
	0.311	-30.981						
608.204	0.148	-45.071	0.001273	78.447	0.841	-17.166	0.00007271	114.003
	0.001673	70.595	0.001319	67.754	0.318	-35.764	0.001411	81.417
	0.0002003	47.548	0.0002979	77.155	0.835	-16.994	0.001058	63.703
	0.15	-38.311	0.0002645	96.157	0.0003147	5.117	0.0002829	83.128
	0.000315	-71.604	0.0006413	110.976	0.314	-33.986	0.001334	83.633
	0.00158	79.901	0.0005873	91.08	0.0003116	20.558	0.001128	71.019
	0.315	-34.617						
668.024	0.147	-49.921	0.001178	65.716	0.84	-17.98	0.0003118	91.918
	0.001439	78.984	0.001168	69.952	0.322	-39.291	0.001332	88.205
	0.0001095	138.825	0.0002328	96.291	0.834	-18.12	0.000937	73.724
	0.151	-43.301	0.0002173	72.2	0.0002456	77.149	0.0004065	31.63
	0.0004011	76.677	0.0004882	76.725	0.317	-37.302	0.001328	80.348
	0.001659	87.071	0.0005969	70.147	0.0003668	35.75	0.001309	71.912
	0.318	-38.028						
727.844	0.143	-54.181	0.001325	77.718	0.844	-19.696	0.0002465	173.283
	0.001911	68.529	0.001105	84.679	0.324	-42.728	0.001657	74.024
	0.0003318	96.008	0.0003923	58.09	0.839	-19.287	0.001491	82.144
	0.152	-47.751	0.0004126	62.432	0.0001508	62.636	0.0002587	96.877
	0.0004875	3.732	0.0005334	109.87	0.319	-40.675	0.001528	78.695
	0.001645	75.418	0.0004701	107.837	0.0004297	66.399	0.001406	82.214
	0.321	-41.336						
787.665	0.142	-58.712	0.001514	75.936	0.833	-21.182	0.0003425	-171.77
	0.002147	75.719	0.001339	77.299	0.328	-46.098	0.001666	75.539
	0.0003844	100.724	0.0001605	107.968	0.834	-21.271	0.001515	80.946
	0.155	-52.456	0.0003892	81.143	0.0002427	55.891	0.0003168	-36.378
	0.0006589	50.178	0.0006207	54.338	0.321	-43.792	0.001498	72.189
	0.002125	75.604	0.0001418	23.266	0.0004569	-3.428	0.001203	78.185
	0.324	-44.722						
847.485	0.141	-62.403	0.00132	68.396	0.834	-22.009	0.00009753	117.906
	0.002167	79.89	0.001604	70.341	0.331	-49.279	0.001718	76.923
	0.00006582	24.464	0.0001687	126.337	0.825	-22.004	0.001947	81.608
	0.156	-56.328	0.0001992	71.158	0.000258	22.011	0.0003713	19.309
	0.0002603	-15.48	0.000439	58.958	0.324	-46.884	0.001706	80
	0.002142	81.579	0.0004322	91.431	0.0002756	-36.777	0.001291	93.255
	0.326	-47.89						
907.305	0.138	-64.974	0.001685	70.399	0.835	-23.686	0.00005199	-135.225
	0.002414	75.299	0.001608	74.402	0.335	-52.369	0.001867	72.864
	0.0002104	24.012	0.0003502	88.255	0.834	-23.294	0.001777	79.113
	0.156	-59.838	0.0006408	68.194	0.000177	-3.856	0.0001574	123.804
	0.0003299	71.975	0.0003949	78.595	0.326	-49.872	0.001796	74.961
	0.002257	75.071	0.0001313	73.706	0.0002622	-47.356	0.001854	74.31
	0.329	-50.988						
967.126	0.135	-67.648	0.001558	65.646	0.83	-24.876	0.0001984	165.695
	0.002271	73.499	0.001701	68.1	0.338	-55.491	0.001766	75.299
	0.0001595	78.081	0.0002377	70.448	0.829	-25.133	0.00196	73.531
	0.157	-63.696	0.000598	68.822	0.0002248	70.691	0.0002649	61.851
	0.0001335	98.151	0.0005322	86.467	0.328	-53.246	0.001832	73.191
	0.002329	74.402	0.0001381	48.956	0.00008447	32.865	0.001802	73.079
	0.331	-54.204						
1026.946	0.133	-70.097	0.001661	62.484	0.832	-26.251	0.0002725	115.777
	0.002665	74.167	0.001561	74.391	0.342	-58.564	0.002018	70.325
	0.000162	70.799	0.0001954	87.454	0.825	-25.933	0.001773	73.22
	0.159	-67.106	0.0005914	50.845	0.0001127	36.982	0.0002835	149.474
	0.0002264	97.18	0.0003124	71.107	0.331	-56.332	0.001971	73.338
	0.002378	70.381	0.0001968	117.891	0.0003646	51.811	0.001856	70.65
	0.334	-57.322						
1086.766	0.134	-71.436	0.001694	60.08	0.824	-27.735	0.0001902	84.936
	0.002653	77.171	0.00196	68.867	0.346	-61.438	0.002028	73.909
	0.0003033	72.603	0.0000819	94.305	0.825	-27.82	0.002173	77.427
	0.16	-70.195	0.0005628	58.847	0.0002125	19.85	0.0002738	152.255
	0.0001051	-0.895	0.0007107	65.09	0.334	-59.227	0.001904	73.364
	0.002662	71.719	0.0003171	33.42	0.0002091	-4.282	0.001914	74.527
	0.338	-60.224						
1146.587	0.134	-72.147	0.001837	67.61	0.822	-28.601	0.0003531	121.459
	0.00273	73.136	0.001673	74.082	0.349	-64.161	0.00217	74.369
	0.0001988	101.958	0.0003485	62.423	0.815	-28.598	0.002193	77.377
	0.16	-72.75	0.0006868	53.735	0.0001372	7.444	0.0002086	118.594
	0.0002669	53.944	0.0007567	57.503	0.336	-62.035	0.00223	71.388
	0.00286	75.625	0.0003087	65.757	0.0003439	15.19	0.00202	67.373
	0.34	-63.04						
1206.407	0.132	-72.611	0.002033	70.894	0.826	-29.966	0.0001691	164.707
	0.002952	74.235	0.0018	59.949	0.351	-66.907	0.002077	79.694
	0.0002913	79.353	0.0004135	86.464	0.824	-29.778	0.002003	78.811
	0.16	-75.192	0.0006832	58.67	0.0002938	-52.573	0.000209	148.008
	0.000178	111.703	0.0007182	61.347	0.338	-65.007	0.002185	75.463
	0.003084	73.616	0.0002043	95.814	0.0002625	-3.542	0.00221	69.073
	0.343	-65.939						
1266.228	0.132	-73.495	0.00209	67.373	0.82	-31.67	0.0003005	139.472
	0.002917	69.95	0.002037	67.33	0.355	-69.511	0.002254	75.797
	0.0002322	61.509	0.0003424	49.212	0.822	-31.798	0.002395	72.341
	0.162	-77.817	0.0006333	69.122	0.0002104	-57.045	0.0004084	112.087
	0.0003035	75.265	0.0006343	64.027	0.341	-67.661	0.002277	74.042
	0.003037	73.056	0.000366	78.549	0.0001095	-94	0.002332	71.729
	0.347	-68.659						
1326.048	0.135	-74.256	0.002045	64.337	0.813	-32.732	0.0002331	127.049
	0.00312	69.36	0.002167	65.129	0.36	-72.029	0.002245	75.89
	0.0002204	93.014	0.0004644	66.152	0.809	-33.078	0.002224	76.335
	0.162	-79.856	0.0006481	52.55	0.0001499	-110.938	0.0004246	113.29
	0.0004632	51.451	0.000819	39.747	0.345	-70.067	0.002261	75.698
	0.003093	71.702	0.0003142	71.224	0.000007373	-19.947	0.002317	68.96
	0.351	-71.138						
1385.868	0.138	-73.676	0.002239	66.775	0.809	-33.618	0.0003594	134.803
	0.003269	71.833	0.002148	66.3	0.363	-74.22	0.002272	74.138
	0.0002629	104.733	0.0004524	68.07	0.806	-33.633	0.002327	73.556
	0.16	-81.116	0.0007129	61.621	0.0001859	19.659	0.0003609	97.51
	0.0003945	82.974	0.0008542	48.791	0.348	-72.329	0.002343	75.106
	0.003245	75.637	0.0003261	70.868	0.0002341	-34.331	0.002414	71.816
	0.355	-73.311						
1445.689	0.14	-72.59	0.002218	65.191	0.816	-34.713	0.0003572	128.147
	0.003382	71.758	0.002317	64.848	0.366	-76.492	0.002424	77.076
	0.0002776	77.527	0.0004714	52.959	0.811	-34.666	0.002273	77.695
	0.158	-82.364	0.0007368	51.373	0.0002713	-52.956	0.0002859	105.812
	0.0003923	58.977	0.0005287	54.169	0.35	-74.502	0.002535	70.961
	0.003396	72.577	0.0004859	65.544	0.0002706	-49.412	0.00262	69.445
	0.357	-75.545						
1505.509	0.142	-72.371	0.00247	64.137	0.808	-36.561	0.0004724	113.227
	0.003543	69.968	0.002619	65.858	0.37	-78.822	0.002467	80.463
	0.0005061	68.878	0.0004005	74.107	0.815	-36.345	0.002335	73.173
	0.159	-83.691	0.0006656	55.596	0.000245	-109.365	0.0002086	131.309
	0.0003793	52.566	0.0008896	50.718	0.353	-76.972	0.002651	68.398
	0.003539	68.913	0.0005089	81.083	0.0001978	-88.456	0.002677	69.404
	0.361	-77.957						
1565.329	0.146	-72.898	0.002505	58.731	0.805	-36.837	0.0002825	128.967
	0.003523	69.471	0.002501	59.122	0.375	-81.156	0.002512	79.637
	0.0003644	41.304	0.0005424	68.871	0.805	-37.898	0.002407	73.986
	0.158	-84.702	0.0008848	33.597	0.00001486	-163.072	0.000556	104.481
	0.0004614	63.272	0.0008478	49.444	0.355	-79.377	0.002581	68.234
	0.003742	69.281	0.0006997	59.253	0.0002019	-86.609	0.002791	65.607
	0.365	-80.332						
1625.15	0.153	-72.591	0.002531	58.055	0.816	-38.459	0.0004363	119.787
	0.003838	69.636	0.002556	56.453	0.378	-83.501	0.002635	83.1
	0.0002372	52.519	0.0005334	55.296	0.8	-38.195	0.002606	84.216
	0.157	-85.288	0.0008399	38.517	0.000101	-110.725	0.0004372	136.449
	0.0003971	34.727	0.0006732	50.892	0.357	-81.796	0.002751	72.806
	0.00388	72.345	0.0005353	76.975	0.000178	-56.504	0.002581	67.392
	0.367	-82.685						
1684.97	0.16	-71.779	0.002022	54.045	0.806	-39.821	0.0004615	119.188
	0.003745	67.741	0.001991	55.424	0.377	-86.068	0.002853	86.599
	0.0002643	52.799	0.0004008	63.107	0.815	-39.595	0.002826	88.977
	0.155	-85.47	0.000737	52.552	0.0001437	-68.119	0.0005286	139.834
	0.0002253	57.672	0.0007703	36.124	0.359	-84.257	0.002906	71.519
	0.003955	69.238	0.0005297	71.484	0.0001483	-176.594	0.002936	68.189
	0.37	-85.115						
1744.79	0.166	-71.393	0.002069	63.782	0.807	-40.724	0.0005657	118.119
	0.003911	70.801	0.002197	59.57	0.377	-87.824	0.003261	86.284
	0.0002999	68.613	0.0006962	68.375	0.806	-41.518	0.003188	90.116
	0.154	-85.723	0.0007483	49.047	0.000108	-133.417	0.0006623	109.191
	0.0002221	54.366	0.0008513	50.879	0.36	-86.763	0.002924	69.898
	0.003924	68.001	0.0005032	41.314	0.0000576	-143.365	0.002953	70.303
	0.371	-87.543						
1804.611	0.174	-71.758	0.002278	64.375	0.811	-42.128	0.0005229	142.961
	0.004053	70.505	0.002254	67.937	0.381	-89.611	0.003417	80.236
	0.0002692	83.072	0.0006889	51.631	0.805	-42.144	0.003522	82.69
	0.154	-85.577	0.0007122	53.245	0.0001176	167.502	0.0004995	139.913
	0.0003202	38.683	0.0007472	61.642	0.361	-88.928	0.003007	69.627
	0.003931	69.202	0.0007296	57.9	0.00007251	-149.856	0.002925	72.488
	0.374	-89.79						
1864.431	0.183	-72.46	0.002505	65.233	0.807	-43.83	0.0005125	133.932
	0.004226	67.71	0.002534	67.34	0.384	-91.625	0.00325	84.008
	0.0002905	56.701	0.0005702	47.112	0.81	-43.534	0.003338	82.03
	0.153	-85.32	0.0007763	45.044	0.0001318	-56.089	0.0005365	128.133
	0.0003067	61.294	0.0008357	37.564	0.362	-91.198	0.003135	66.704
	0.004041	70.38	0.0006975	50.776	0.0001632	-170.235	0.003117	68.685
	0.376	-91.995						
1924.251	0.193	-72.995	0.002735	69.054	0.804	-44.221	0.0005964	129.664
	0.00442	70.121	0.002636	66.939	0.385	-93.729	0.003789	81.876
	0.0002853	87.661	0.0006184	57.548	0.808	-45.176	0.003752	84.319
	0.152	-85.075	0.0009267	44.023	0.00009702	-68.345	0.0005445	107.164
	0.0002802	61.851	0.0007229	39.459	0.362	-93.492	0.003182	69.253
	0.004525	69.755	0.0006744	58.39	0.0002301	-122.543	0.003187	70.192
	0.377	-94.311						
1984.072	0.203	-73.757	0.002913	67.055	0.817	-46.197	0.000603	126.342
	0.004698	68.385	0.002828	66.908	0.387	-95.751	0.003771	78.653
	0.0003199	66.909	0.0006966	49.283	0.802	-46.233	0.003868	78.171
	0.153	-84.353	0.0008015	39.545	0.00009538	-78.116	0.0003987	131.632
	0.0001321	118.402	0.0007077	47.094	0.363	-95.696	0.00327	68.348
	0.004415	67.384	0.0005016	56.377	0.000234	-108.206	0.003302	68.53
	0.378	-96.375						
2043.892	0.212	-75.08	0.002598	66.805	0.799	-47.614	0.0005993	128.033
	0.00461	67.693	0.002966	70.985	0.388	-97.742	0.003857	77.414
	0.0003386	41.066	0.0004664	42.616	0.808	-47.615	0.003892	75.974
	0.155	-83.411	0.0007464	43.403	0.0001959	-136.753	0.000516	142.9
	0.0004093	82.89	0.0007957	38.545	0.363	-97.612	0.00323	66.27
	0.00446	68.362	0.0005829	51.553	0.0001577	-144.791	0.003194	66.218
	0.379	-98.294						
2103.713	0.224	-76.459	0.002875	66.23	0.809	-48.136	0.0006637	131.541
	0.004677	67.507	0.002975	65.836	0.388	-99.647	0.003922	79.191
	0.0002995	58.549	0.0005672	41.069	0.796	-49.05	0.003861	81.356
	0.155	-81.895	0.0008181	49.466	0.0001623	-123.325	0.0006419	120.524
	0.0003507	81.802	0.0007685	45.535	0.361	-99.491	0.003354	68.649
	0.00464	67.109	0.0003824	44.363	0.0002275	148.866	0.003237	66.582
	0.379	-100.202						
2163.533	0.235	-77.43	0.002988	67.865	0.807	-50.118	0.0006323	118.112
	0.004879	66.703	0.00335	66.844	0.387	-101.603	0.004016	76.122
	0.0001989	100.15	0.000538	48.559	0.809	-48.845	0.004224	77.472
	0.156	-80.552	0.0008052	38.378	0.0002264	-150.861	0.0006922	116.152
	0.000179	82.121	0.0008265	53.718	0.359	-101.583	0.003432	63.164
	0.004893	68.263	0.0007409	52.357	0.0001468	-157.67	0.003661	66.477
	0.378	-102.247						
2223.353	0.244	-78.844	0.003143	68.493	0.804	-51.153	0.000764	119.973
	0.00522	66.483	0.003435	69.314	0.386	-103.726	0.004387	77.869
	0.0004508	66.955	0.0006048	60.668	0.82	-52.315	0.004283	76.241
	0.159	-80.145	0.0009277	53.406	0.0003106	141.809	0.0007177	134.235
	0.0003303	102.627	0.0009414	59.683	0.357	-103.929	0.00345	66.846
	0.00518	64.883	0.0009829	53.138	0.0001202	146.09	0.003621	62.131
	0.377	-104.536						
2283.174	0.253	-81.061	0.003581	70.708	0.802	-52.35	0.0009853	123.935
	0.005316	66.776	0.003404	67.878	0.386	-105.424	0.004583	74.092
	0.0002696	98.344	0.0006852	43.531	0.79	-53.761	0.004412	72.396
	0.163	-79.89	0.001034	48.107	0.000233	53.219	0.0008773	118.535
	0.0006604	84.323	0.0009021	53.985	0.356	-106.144	0.003794	65.327
	0.005252	64.247	0.000441	45.727	0.0003027	18.595	0.003621	64.259
	0.377	-106.628						
2342.994	0.264	-83.169	0.003748	67.222	0.807	-53.592	0.0009196	118.393
	0.005447	64.33	0.003491	65.248	0.386	-107.102	0.004672	71.988
	0.000525	63.908	0.0005196	33.34	0.786	-53.419	0.004707	74.539
	0.166	-78.831	0.001041	36.924	0.00005375	-0.383	0.000717	112.556
	0.0004274	82.03	0.00108	38.967	0.354	-108.131	0.003818	63.071
	0.005273	64.585	0.0007232	40.408	0.0002303	5.448	0.003863	67.301
	0.376	-108.459						
2402.814	0.276	-84.707	0.003795	63.611	0.802	-55.043	0.0008411	117.479
	0.005384	63.136	0.003726	63.678	0.383	-109.015	0.004482	68.718
	0.0003807	67.704	0.0006357	48.286	0.809	-53.774	0.00483	71.042
	0.169	-77.414	0.0009102	23.288	0.0001515	-28.038	0.0007544	106.984
	0.0005067	85.144	0.001058	37.938	0.351	-110.146	0.003784	63.545
	0.005696	62.11	0.0004844	68.24	0.0002759	-9.936	0.004183	64.443
	0.374	-110.467						
2462.635	0.286	-86.096	0.00384	63.155	0.806	-56.457	0.001014	114.372
	0.005584	62.575	0.003913	63.423	0.381	-111.18	0.00446	68.187
	0.000494	76.149	0.0006767	54.211	0.822	-57.295	0.004441	65.633
	0.174	-77.017	0.0008452	43.599	0.0001093	-71.164	0.000995	107.167
	0.0004226	61.866	0.0009915	28.387	0.348	-112.374	0.004062	62.86
	0.005892	61.867	0.0003799	35.364	0.00008076	-66.011	0.004038	61.255
	0.372	-112.596						
2522.455	0.292	-88.107	0.003685	66.034	0.79	-57.676	0.0008437	114.587
	0.005574	63.911	0.003883	61.176	0.379	-113.057	0.004475	68.343
	0.0004275	52.203	0.000635	61.893	0.793	-59.115	0.004275	68.025
	0.178	-77.168	0.0009846	33.916	0.0000794	-140.822	0.0008584	115.909
	0.0002689	97.949	0.0009954	27.22	0.346	-114.587	0.003912	62.571
	0.005618	61.716	0.0006294	51.594	0.00007867	-113.233	0.003944	58.812
	0.371	-114.7						
2582.275	0.3	-90.426	0.004087	66.121	0.805	-57.889	0.001058	117.158
	0.005878	63.856	0.004033	59.477	0.377	-114.786	0.004601	69.057
	0.0005211	59.127	0.0006806	54.642	0.781	-59.421	0.004233	73.322
	0.183	-76.887	0.001038	29.085	0.0002286	-132.269	0.0009634	119.888
	0.000505	58.471	0.0009957	42.459	0.343	-116.493	0.004206	62.941
	0.005755	61.556	0.0005827	44.362	0.0002724	-129.573	0.004001	63.555
	0.37	-116.484						
2642.096	0.309	-92.749	0.004206	58.118	0.803	-60.538	0.001002	115.793
	0.005935	59.149	0.004405	64.668	0.373	-116.367	0.004645	67.735
	0.0004032	64.532	0.0006964	48.5	0.789	-58.839	0.004505	72.63
	0.188	-76.094	0.001033	33.748	0.0000667	-151.414	0.001182	120.577
	0.0005499	45.791	0.0008784	44.843	0.339	-118.26	0.004095	59.005
	0.006064	61.609	0.0007862	53.901	0.0003246	176.629	0.004051	63.787
	0.367	-118.101						
2701.916	0.318	-94.322	0.004433	52.086	0.798	-61.015	0.001108	121.194
	0.006147	61.49	0.004523	53.531	0.368	-118.216	0.004673	71.917
	0.0004448	78.983	0.0007942	47.385	0.817	-61.611	0.004692	69.198
	0.195	-76.042	0.0009567	44.645	0.0002378	-178.934	0.001045	115.116
	0.0004803	49.328	0.001001	26.315	0.335	-120.22	0.004231	59.766
	0.006252	59.995	0.0006736	54.765	0.00009115	-115.258	0.004175	57.098
	0.363	-119.861						
2761.737	0.324	-95.979	0.003998	48.551	0.801	-62.892	0.001191	115.259
	0.006213	59.94	0.003899	46.861	0.364	-119.955	0.004941	70.678
