!Hittite Microwave Corporation								
!12 Elizabeth Drive								
!Chelmsford, MA 01824								
!Tel: 978-250-3343								
!Fax: 978-250-3373
!Device: HMC349LP4C, DC - 4 GHz High Isolation SPDT Non-Reflective Switch in Low Cost Leadless SMT Package
!Misc: Port1=RFC, Port2= RF1, Port3=RF2, RF2 ON, Bias: +5VDC								
!
# MHZ S MA R 50

10 0.062 39.603 1.606e-3 41.622 0.947 -3.64
          2.331e-3 -61.105 0.965 -9.5 4.202e-3 101.146
          0.943 -6.04 2.801e-3 -168.675 0.119 57.507
34.95 0.07 8.827 539.3e-6 8.78 0.926 -2.86
          556.8e-6 -3.093 0.85 -29.36 693e-6 4.151
          0.924 -2.77 639.9e-6 -11.279 0.065 10.989
59.9 0.07 -0.567 420.8e-6 -56.107 0.922 -3.332
          461.3e-6 -26.845 0.699 -43.289 270.1e-6 -159.441
          0.923 -3.352 252.3e-6 -52.906 0.061 -1.019
84.85 0.071 -6.155 328.9e-6 -32.915 0.922 -4.205
          193.4e-6 -3.216 0.574 -52.368 291.7e-6 -36.574
          0.922 -4.175 413.3e-6 -27.022 0.062 -5.133
109.8 0.071 -12.487 74.92e-6 -98.505 0.921 -5.106
          107.9e-6 -61.446 0.48 -58.338 137.3e-6 53.639
          0.919 -5.116 206e-6 -10.95 0.062 -11.165
134.75 0.072 -16.381 205.9e-6 -79.859 0.921 -6.133
          275.8e-6 -33.003 0.41 -62.34 135.9e-6 -24.815
          0.92 -6.053 104.3e-6 -62.965 0.063 -13.733
159.7 0.073 -20.668 180.3e-6 -40.265 0.921 -7.156
          189.6e-6 -10.463 0.358 -65.112 152.9e-6 -0.834
          0.92 -7.136 193.9e-6 31.026 0.064 -17.406
184.65 0.074 -24.085 255.5e-6 3.147 0.92 -8.168
          307.7e-6 51.454 0.318 -67.062 192.5e-6 102.859
          0.92 -8.148 168e-6 32.612 0.065 -21.222
209.6 0.075 -27.667 165.4e-6 -4.552 0.919 -9.101
          125.2e-6 -8.267 0.285 -68.242 156.8e-6 11.166
          0.919 -9.211 166.3e-6 14.002 0.066 -23.463
234.55 0.076 -31.424 165.3e-6 30.84 0.918 -10.158
          184.3e-6 14.919 0.26 -69.237 183.9e-6 52.041
          0.917 -10.078 186.8e-6 80.743 0.067 -26.683
259.5 0.077 -35.04 327.3e-6 10.328 0.918 -11.172
          207.2e-6 -25.538 0.24 -69.87 267.1e-6 58.7
          0.917 -11.132 228e-6 29.723 0.068 -29.867
284.45 0.079 -38.745 158.4e-6 -6.045 0.917 -12.114
          108.8e-6 -0.531 0.223 -70.366 190.3e-6 39.974
          0.917 -12.174 325.5e-6 58.648 0.07 -33.228
309.4 0.081 -41.68 212.8e-6 50.043 0.917 -13.223
          204.9e-6 36.397 0.209 -70.443 230.6e-6 58.871
          0.916 -13.123 287.9e-6 71.488 0.072 -35.861
334.35 0.083 -44.214 138.3e-6 33.38 0.916 -14.205
          224.1e-6 28.235 0.197 -70.443 255.5e-6 45.991
          0.915 -14.165 267.5e-6 52.329 0.073 -37.49
359.3 0.084 -46.724 245.8e-6 29.82 0.915 -15.205
          193e-6 7.17 0.187 -70.43 259.8e-6 65.99
          0.915 -15.315 266.3e-6 51.332 0.074 -39.611
384.25 0.085 -49.537 194.3e-6 23.256 0.915 -16.25
          113e-6 3.997 0.179 -70.331 338.9e-6 56.132
          0.915 -16.18 293.1e-6 63.675 0.075 -41.165
409.2 0.086 -52.188 205.2e-6 36.458 0.914 -17.252
          170.3e-6 8.856 0.171 -70.238 371.1e-6 57.779
          0.914 -17.232 314.6e-6 63.924 0.077 -43.581
434.15 0.088 -54.69 140.3e-6 34.82 0.914 -18.292
          220.8e-6 31.401 0.165 -70.037 341.2e-6 66.307
          0.914 -18.292 303.6e-6 64.826 0.08 -46.237
459.1 0.089 -57.673 199.6e-6 39.149 0.913 -19.263
          155.2e-6 35.053 0.159 -70.011 326.8e-6 74.395
          0.913 -19.263 345.2e-6 69.59 0.08 -48.205
484.05 0.09 -60.075 217.4e-6 47.634 0.913 -20.299
          190.5e-6 34.597 0.155 -69.854 362.5e-6 60.082
          0.912 -20.339 316e-6 61.476 0.081 -50.323
509 0.092 -62.276 172.8e-6 35.321 0.912 -21.364
          182.4e-6 50.856 0.152 -69.428 361.9e-6 73.126
          0.912 -21.314 331.5e-6 88.601 0.085 -52.432
533.95 0.094 -64.49 265e-6 42.704 0.912 -22.337
          276.1e-6 32.364 0.148 -68.956 325.8e-6 73.259
          0.911 -22.357 389.1e-6 61.871 0.088 -54.007
558.9 0.096 -66.579 263.6e-6 39.732 0.911 -23.303
          250e-6 42.064 0.144 -68.394 357.3e-6 68.772
          0.911 -23.353 425.9e-6 78.78 0.088 -55.634
583.85 0.097 -68.493 232.3e-6 39.549 0.91 -24.341
          246.1e-6 39.058 0.142 -67.92 420.8e-6 78.915
          0.91 -24.341 425.4e-6 76.8 0.088 -57.383
608.8 0.098 -70.631 267e-6 44.825 0.91 -25.369
          239.5e-6 58.683 0.139 -67.537 437.8e-6 78.977
          0.91 -25.339 483.7e-6 72.135 0.09 -58.412
633.75 0.1 -72.482 251.4e-6 54.355 0.911 -26.406
          234e-6 46.412 0.137 -67.119 485.9e-6 80.487
          0.909 -26.336 506.5e-6 70.949 0.091 -60.07
658.7 0.101 -74.436 264.1e-6 47.25 0.909 -27.309
          269.4e-6 54.166 0.136 -66.965 512.3e-6 77.024
          0.909 -27.329 525.4e-6 70.751 0.093 -61.946
683.65 0.102 -76.141 289.4e-6 60.659 0.908 -28.379
          308.5e-6 64.255 0.135 -66.585 530.7e-6 75.333
          0.908 -28.369 463.1e-6 79.923 0.094 -63.451
708.6 0.104 -77.645 287.4e-6 58.115 0.908 -29.376
          289e-6 54.705 0.134 -66.143 498.3e-6 79.343
          0.908 -29.366 501.6e-6 79.445 0.095 -64.54
733.55 0.104 -78.966 295.4e-6 46.44 0.907 -30.378
          250.4e-6 43 0.133 -65.616 500.4e-6 80.815
          0.907 -30.388 528.2e-6 81.511 0.096 -65.848
758.5 0.104 -80.572 270.3e-6 50.274 0.907 -31.376
          275.8e-6 47.224 0.132 -65.049 575.2e-6 79.082
          0.906 -31.356 587.8e-6 78.057 0.096 -66.625
783.45 0.104 -82.097 344e-6 42.473 0.906 -32.368
          319.4e-6 54.856 0.131 -64.568 595.9e-6 78.409
          0.907 -32.378 609.6e-6 78.128 0.098 -67.342
808.4 0.105 -83.815 307.2e-6 55.96 0.907 -33.372
          338.9e-6 56.223 0.131 -64.188 550e-6 80.718
          0.907 -33.342 595.6e-6 83.073 0.099 -68.36
833.35 0.106 -85.386 341.7e-6 56.158 0.906 -34.382
          349.2e-6 49.354 0.13 -63.806 579.1e-6 81.216
          0.906 -34.382 597.8e-6 79.547 0.1 -69.276
858.3 0.107 -86.729 375.2e-6 53.953 0.906 -35.416
          320.6e-6 54.074 0.13 -63.391 605.9e-6 80.161
          0.905 -35.356 594.8e-6 83.302 0.101 -70.577
883.25 0.107 -87.653 355e-6 55.736 0.904 -36.391
          376.5e-6 58.074 0.13 -62.918 586e-6 82.532
          0.904 -36.361 638.2e-6 78.638 0.102 -71.517
908.2 0.107 -88.553 384.5e-6 50.462 0.904 -37.378
          361.7e-6 50.516 0.131 -62.367 601.5e-6 78.943
          0.904 -37.398 626.8e-6 75.93 0.103 -72.474
933.15 0.107 -89.237 341.5e-6 58.08 0.903 -38.381
          408.7e-6 57.982 0.13 -61.868 656.5e-6 79.291
          0.903 -38.381 664.8e-6 88.215 0.103 -72.9
958.1 0.107 -90.244 443.6e-6 51.285 0.903 -39.367
          388.9e-6 50.791 0.13 -61.305 686.2e-6 83.643
          0.902 -39.377 685.1e-6 83.344 0.102 -73.254
983.05 0.105 -91.445 418.2e-6 42.138 0.902 -40.361
          421.5e-6 51.201 0.13 -60.743 671.6e-6 85.097
          0.902 -40.371 684.5e-6 81.696 0.103 -73.549
1008 0.105 -92.634 460.5e-6 51.562 0.902 -41.381
          421.2e-6 57.485 0.13 -60.272 733.2e-6 82.554
          0.902 -41.361 757e-6 89.574 0.103 -73.964
1032.95 0.105 -93.898 411.2e-6 53.867 0.901 -42.371
          482.2e-6 50.189 0.13 -60.053 690.3e-6 86.044
          0.901 -42.381 703.5e-6 88.122 0.103 -75.028
1057.9 0.104 -94.833 450.2e-6 53.526 0.9 -43.381
          478.4e-6 49.347 0.131 -59.675 766.6e-6 86.327
          0.9 -43.311 758.4e-6 84.447 0.104 -75.766
1082.85 0.104 -95.56 403.6e-6 54.946 0.899 -44.386
          477.2e-6 54.006 0.132 -59.308 833.7e-6 89.404
          0.899 -44.336 760.6e-6 91.686 0.104 -76.673
1107.8 0.104 -96.177 471.5e-6 55.985 0.9 -45.381
          484e-6 53.384 0.132 -58.938 763.5e-6 92.414
          0.9 -45.391 840.9e-6 88.796 0.103 -77.118
1132.75 0.103 -96.415 491e-6 48.94 0.901 -46.372
          484.3e-6 49.342 0.133 -58.347 812.4e-6 90.336
          0.9 -46.392 842.3e-6 92.436 0.103 -76.933
1157.7 0.102 -97.026 419e-6 48.849 0.9 -47.402
          478.3e-6 58.418 0.134 -57.884 834.2e-6 90.551
          0.9 -47.362 877.1e-6 91.38 0.103 -76.921
1182.65 0.101 -97.716 504.8e-6 45.954 0.902 -48.383
          481e-6 44.623 0.134 -57.437 851.7e-6 92.083
          0.901 -48.373 872.2e-6 90.935 0.103 -77.547
1207.6 0.1 -98.431 492.4e-6 46.528 0.902 -49.402
          532.2e-6 53.208 0.135 -57.034 889.2e-6 90.307
          0.901 -49.352 864.1e-6 92.32 0.103 -77.698
1232.55 0.1 -98.541 509e-6 48.437 0.901 -50.381
          564.3e-6 51.506 0.136 -56.723 938.3e-6 94.617
          0.899 -50.361 914.8e-6 89.383 0.102 -77.519
1257.5 0.099 -98.837 512.3e-6 55.169 0.899 -51.396
          527.2e-6 50.684 0.137 -56.32 926.3e-6 92.844
          0.899 -51.376 916.5e-6 95.036 0.102 -77.806
1282.45 0.097 -98.891 492.6e-6 53.599 0.899 -52.381
          489.6e-6 54.246 0.137 -55.804 940.4e-6 95.997
          0.898 -52.371 966.8e-6 95.588 0.101 -77.957
1307.4 0.095 -98.945 507.5e-6 53.879 0.898 -53.4
          560.3e-6 45.902 0.138 -55.352 1.031e-3 97.687
          0.898 -53.41 970.8e-6 94.274 0.101 -77.378
1332.35 0.094 -98.745 531.2e-6 48.875 0.898 -54.404
          538.3e-6 50.074 0.14 -54.871 1.007e-3 94.143
          0.897 -54.414 1.016e-3 93.985 0.1 -76.798
1357.3 0.092 -99.06 571.6e-6 50.276 0.897 -55.425
          547.2e-6 46.416 0.14 -54.268 1.065e-3 95.563
          0.897 -55.415 1.117e-3 95.13 0.099 -76.336
1382.25 0.091 -99.28 579.3e-6 52.159 0.897 -56.456
          577.1e-6 48.403 0.14 -53.954 1.114e-3 94.484
          0.896 -56.436 1.061e-3 95.793 0.099 -76.637
1407.2 0.09 -99.51 594.9e-6 50.853 0.896 -57.448
          602.7e-6 53.526 0.142 -53.662 1.149e-3 92.517
          0.895 -57.418 1.128e-3 93.271 0.099 -76.742
1432.15 0.088 -99.778 634.6e-6 51.515 0.897 -58.45
          625e-6 53.481 0.142 -53.383 1.126e-3 93.105
          0.896 -58.43 1.118e-3 94.48 0.097 -76.826
1457.1 0.088 -99.052 640.2e-6 47.187 0.896 -59.48
          603.2e-6 55.106 0.144 -53.051 1.174e-3 96.05
          0.896 -59.45 1.246e-3 93.043 0.097 -76.338
1482.05 0.087 -98.543 682e-6 46.41 0.895 -60.483
          685.5e-6 51.455 0.144 -52.618 1.194e-3 95.738
          0.895 -60.473 1.206e-3 96.883 0.096 -75.765
1507 0.086 -97.518 673.6e-6 48.746 0.895 -61.504
          659.8e-6 47.743 0.146 -52.154 1.18e-3 98.504
          0.895 -61.524 1.223e-3 97.321 0.096 -75.108
1531.95 0.084 -96.766 672.4e-6 46.293 0.895 -62.514
          647.9e-6 47.436 0.147 -51.704 1.234e-3 99.031
          0.895 -62.474 1.244e-3 98.48 0.095 -74.106
1556.9 0.083 -95.823 684.3e-6 47.052 0.895 -63.525
          688.3e-6 52.212 0.147 -51.32 1.322e-3 99.449
          0.894 -63.535 1.338e-3 98.781 0.094 -73.454
1581.85 0.082 -94.964 721.5e-6 49.362 0.894 -64.546
          712.6e-6 45.029 0.149 -50.959 1.392e-3 98.496
          0.893 -64.556 1.361e-3 99.027 0.094 -72.873
1606.8 0.081 -94.07 831.6e-6 46.526 0.893 -65.586
          786.2e-6 50.778 0.149 -50.617 1.409e-3 99.359
          0.893 -65.576 1.436e-3 96.866 0.093 -72.891
1631.75 0.081 -92.943 805.4e-6 42.329 0.892 -66.602
          762.6e-6 45.307 0.15 -50.312 1.434e-3 97.864
          0.892 -66.592 1.393e-3 95.841 0.093 -71.79
1656.7 0.08 -91.208 728.8e-6 45.532 0.892 -67.643
          780.7e-6 45.596 0.151 -49.897 1.485e-3 99.949
          0.891 -67.613 1.442e-3 99.902 0.092 -70.973
1681.65 0.08 -89.516 800.7e-6 42.93 0.891 -68.659
          832.4e-6 41.432 0.153 -49.449 1.541e-3 99.566
          0.89 -68.619 1.529e-3 99.079 0.092 -70.342
1706.6 0.079 -87.798 940.1e-6 43.702 0.889 -69.644
          844e-6 42.406 0.153 -48.949 1.578e-3 99.288
          0.888 -69.634 1.594e-3 98.335 0.091 -68.948
1731.55 0.079 -85.771 964.7e-6 38.848 0.888 -70.663
          950.2e-6 37.148 0.155 -48.563 1.611e-3 100.345
          0.887 -70.613 1.633e-3 96.547 0.091 -67.709
1756.5 0.079 -84.034 974.1e-6 39.118 0.888 -71.648
          936.9e-6 36.185 0.155 -48.049 1.618e-3 98.741
          0.887 -71.608 1.628e-3 98.6 0.089 -66.96
1781.45 0.08 -82.417 1.021e-3 32.991 0.887 -72.624
          986.4e-6 35.615 0.157 -47.772 1.775e-3 100.952
          0.886 -72.614 1.649e-3 100.825 0.09 -66.573
1806.4 0.081 -81.16 1.017e-3 28.667 0.886 -73.631
          1.016e-3 29.555 0.157 -47.524 1.852e-3 98.496
          0.886 -73.661 1.832e-3 99.213 0.088 -65.719
1831.35 0.082 -80.215 1.022e-3 27.318 0.885 -74.6
          1.005e-3 24.274 0.159 -47.161 1.913e-3 98.771
          0.884 -74.6 1.899e-3 99.562 0.088 -64.256
1856.3 0.084 -79.003 1.041e-3 23.967 0.884 -75.597
          1.024e-3 20.681 0.159 -46.746 1.987e-3 96.348
          0.883 -75.577 2.079e-3 95.97 0.087 -63.136
1881.25 0.086 -78.07 1.025e-3 16.002 0.884 -76.586
          985.4e-6 19.902 0.161 -46.391 2.031e-3 94.39
          0.883 -76.526 2.049e-3 94.86 0.087 -61.532
1906.2 0.087 -77.029 978.8e-6 14.011 0.883 -77.573
          1.05e-3 11.217 0.161 -45.954 2.208e-3 92.105
          0.882 -77.513 2.11e-3 91.691 0.087 -59.86
1931.15 0.089 -76.605 984.5e-6 9.269 0.883 -78.551
          1.062e-3 7.157 0.163 -45.685 2.07e-3 88.828
          0.882 -78.561 2.107e-3 89.904 0.088 -58.789
1956.1 0.09 -76.192 976.8e-6 2.29 0.884 -79.542
          965.4e-6 5.216 0.163 -45.151 2.027e-3 87.26
          0.883 -79.452 2.001e-3 90.161 0.087 -57.495
1981.05 0.092 -75.957 794.9e-6 1.521 0.883 -80.551
          840.9e-6 -1.73 0.164 -44.854 2.04e-3 87.777
          0.882 -80.551 2.062e-3 86.715 0.086 -55.497
2006 0.094 -75.974 797e-6 1.614 0.883 -81.55
          852.4e-6 3.345 0.165 -44.614 2.036e-3 88.644
          0.882 -81.55 2.007e-3 88.8 0.087 -54.659
2030.95 0.095 -75.617 804.2e-6 -0.932 0.883 -82.53
          832.7e-6 -2.788 0.166 -44.294 2.069e-3 88.76
          0.883 -82.54 2.003e-3 90.451 0.086 -52.701
2055.9 0.097 -75.271 731.2e-6 -2.451 0.882 -83.582
          665.4e-6 0.77 0.167 -43.996 2.014e-3 90.146
          0.883 -83.602 1.968e-3 89.408 0.088 -50.842
2080.85 0.098 -74.642 734.5e-6 -3.105 0.882 -84.624
          706e-6 3.237 0.168 -43.585 2.07e-3 92.861
          0.882 -84.634 1.963e-3 91.414 0.088 -49.33
2105.8 0.099 -74.536 722.5e-6 -0.456 0.882 -85.627
          564.6e-6 3.311 0.169 -43.195 2.043e-3 90.616
          0.882 -85.637 2.017e-3 91.362 0.089 -47.619
2130.75 0.101 -74.244 684.7e-6 3.93 0.882 -86.708
          671.4e-6 3.309 0.17 -42.808 2.13e-3 93.569
          0.881 -86.708 2.037e-3 92.602 0.091 -45.688
2155.7 0.102 -73.873 632.8e-6 3.711 0.881 -87.772
          674.5e-6 9.519 0.171 -42.463 2.153e-3 93.408
          0.88 -87.772 2.145e-3 92.184 0.092 -44.762
2180.65 0.103 -74.08 629.9e-6 5.741 0.88 -88.802
          603.7e-6 8.839 0.173 -42.165 2.164e-3 95.644
          0.88 -88.782 2.15e-3 95.369 0.094 -43.863
2205.6 0.104 -73.944 632.9e-6 0.585 0.879 -89.884
          687.1e-6 11.42 0.173 -41.799 2.216e-3 94.966
          0.879 -89.854 2.223e-3 95.557 0.095 -42.281
2230.55 0.106 -74 694.6e-6 4.721 0.878 -90.896
          678.8e-6 4.965 0.174 -41.403 2.357e-3 96.198
          0.878 -90.906 2.331e-3 96.765 0.096 -41.132
2255.5 0.108 -74.206 682.4e-6 4.29 0.878 -91.957
          666.6e-6 5.961 0.176 -41.115 2.49e-3 97.295
          0.877 -91.957 2.516e-3 96.678 0.099 -40.427
2280.45 0.109 -74.221 671.3e-6 -0.187 0.876 -92.997
          755.8e-6 8.185 0.176 -40.714 2.702e-3 98.38
          0.875 -92.987 2.734e-3 97.979 0.1 -39.288
2305.4 0.111 -74.348 686.5e-6 3.625 0.875 -94.089
          684.2e-6 1.166 0.177 -40.316 2.889e-3 95.875
          0.875 -94.049 2.932e-3 98.514 0.102 -38.635
2330.35 0.113 -74.956 659.9e-6 2.798 0.874 -95.098
          753e-6 -4.339 0.179 -40.023 3.135e-3 93.423
          0.873 -95.058 3.194e-3 93.913 0.104 -38.442
2355.3 0.114 -75.165 706.4e-6 -1.521 0.872 -96.151
          718.1e-6 -3.222 0.18 -39.665 3.307e-3 88.863
          0.871 -96.111 3.333e-3 88.276 0.105 -38.154
2380.25 0.116 -75.695 714.1e-6 -9.841 0.87 -97.201
          739.6e-6 -7.999 0.18 -39.293 3.327e-3 84.421
          0.869 -97.151 3.353e-3 83.457 0.105 -36.988
2405.2 0.118 -76.287 838.1e-6 -10.687 0.87 -98.105
          720.7e-6 -9.454 0.182 -39.053 3.268e-3 79.507
          0.871 -98.135 3.223e-3 80.314 0.107 -36.361
2430.15 0.119 -76.533 774.6e-6 -19.056 0.869 -99.117
          701.1e-6 -13.781 0.183 -38.685 3.178e-3 76.147
          0.869 -99.107 3.108e-3 76.568 0.108 -36.108
2455.1 0.12 -77.578 632.7e-6 -27.16 0.868 -100.094
          598.7e-6 -28.129 0.184 -38.354 3.092e-3 75.155
          0.868 -100.084 2.989e-3 73.909 0.108 -35.134
2480.05 0.121 -78.438 604.2e-6 -24.729 0.866 -101.127
          654.2e-6 -33.34 0.186 -38.119 3.003e-3 73.276
          0.866 -101.087 2.904e-3 74.341 0.11 -34.004
2505 0.122 -78.616 502.5e-6 -30.378 0.865 -102.042
          569.9e-6 -27.666 0.187 -37.832 2.895e-3 73.82
          0.865 -102.112 2.828e-3 73.418 0.111 -33.306
2529.95 0.122 -79.437 517.8e-6 -34.672 0.864 -103.049
          459.2e-6 -35.899 0.188 -37.63 2.788e-3 73.971
          0.863 -103.119 2.741e-3 73.123 0.112 -32.831
2554.9 0.122 -80.186 441.5e-6 -40.375 0.863 -104.055
          506.5e-6 -35.7 0.19 -37.455 2.744e-3 74.366
          0.862 -104.055 2.799e-3 73.623 0.114 -32.178
2579.85 0.123 -80.755 406.5e-6 -40.049 0.861 -105.115
          391.7e-6 -35.199 0.191 -37.194 2.8e-3 74.917
          0.86 -105.055 2.737e-3 74.986 0.115 -31.294
2604.8 0.123 -81.216 445.2e-6 -31.699 0.86 -106.087
          407.6e-6 -29.451 0.193 -36.986 2.732e-3 74.224
          0.86 -105.997 2.652e-3 76.555 0.117 -30.076
2629.75 0.124 -81.952 398.7e-6 -28.419 0.858 -106.945
          462.9e-6 -33.21 0.195 -36.783 2.691e-3 74.943
          0.858 -106.975 2.681e-3 74.608 0.121 -29.519
2654.7 0.124 -82.363 408.6e-6 -32.915 0.857 -107.918
          318.2e-6 -29.514 0.196 -36.585 2.685e-3 76.296
          0.857 -107.928 2.743e-3 74.736 0.122 -29.108
2679.65 0.125 -82.688 370.3e-6 -38.598 0.856 -108.809
          388.1e-6 -52.258 0.197 -36.385 2.714e-3 76.058
          0.856 -108.859 2.66e-3 77.269 0.124 -28.441
2704.6 0.126 -83.324 286.4e-6 -51.186 0.856 -109.771
          352.9e-6 -53.718 0.199 -36.287 2.698e-3 76.963
          0.856 -109.781 2.682e-3 76.387 0.126 -27.52
2729.55 0.127 -83.773 197.9e-6 -74.488 0.855 -110.688
          250.2e-6 -84.263 0.201 -36.274 2.705e-3 78.441
          0.855 -110.718 2.798e-3 78.202 0.129 -27.023
2754.5 0.127 -84.042 103e-6 -122.286 0.855 -111.647
          161.5e-6 -58.191 0.202 -36.145 2.765e-3 77.689
          0.855 -111.687 2.724e-3 78.816 0.132 -26.625
2779.45 0.129 -84.774 106.6e-6 -33.581 0.855 -112.63
          107.8e-6 -24.263 0.205 -36.099 2.811e-3 78.361
          0.855 -112.61 2.75e-3 78.654 0.136 -26.385
2804.4 0.128 -85.404 104.3e-6 19.724 0.854 -113.578
          44.08e-6 58.669 0.205 -35.962 2.768e-3 78.372
          0.854 -113.618 2.776e-3 78.711 0.137 -26.194
2829.35 0.129 -86.205 77.03e-6 -40.562 0.855 -114.613
          86.61e-6 23.073 0.206 -35.901 2.772e-3 78.7
          0.854 -114.523 2.746e-3 80.173 0.14 -26.184
2854.3 0.131 -86.57 141.5e-6 23.866 0.855 -115.467
          108.3e-6 3.802 0.207 -35.777 2.824e-3 78.434
          0.854 -115.457 2.747e-3 78.943 0.142 -25.795
2879.25 0.132 -87.515 113.3e-6 34.24 0.856 -116.462
          89e-6 -3.563 0.208 -35.805 2.803e-3 79.406
          0.856 -116.422 2.856e-3 78.446 0.145 -25.861
2904.2 0.132 -88.349 142.9e-6 56.787 0.856 -117.436
          152.6e-6 44.476 0.209 -35.851 2.824e-3 81.634
          0.855 -117.416 2.833e-3 80.676 0.147 -25.987
2929.15 0.133 -89.823 197.5e-6 45.603 0.856 -118.446
          188e-6 12.203 0.208 -35.936 2.855e-3 80.555
          0.856 -118.426 2.898e-3 80.735 0.146 -26.141
2954.1 0.134 -90.727 179.5e-6 64.753 0.857 -119.504
          181e-6 27.083 0.21 -36.071 2.944e-3 81.336
          0.856 -119.454 2.9e-3 81.134 0.149 -26.605
2979.05 0.136 -91.742 158e-6 45.108 0.857 -120.433
          146.7e-6 59.74 0.21 -36.121 3.012e-3 82.147
          0.857 -120.453 2.999e-3 82.733 0.152 -27.04
3004 0.137 -93.006 186.9e-6 57.304 0.857 -121.472
          197.2e-6 37.646 0.212 -36.094 3.076e-3 82.479
          0.857 -121.412 3.006e-3 82.174 0.154 -26.857
