!Hittite Microwave Corporation								
!12 Elizabeth Drive								
!Chelmsford, MA 01824								
!Tel: 978-250-3343								
!Fax: 978-250-3373
!Device: HMC347C8, DC - 8 GHz GaAs MMIC High-Isolation SPDT Switch in 8-lead non-hermetic SMT ceramic package
!Misc: Port1=RFC, Port2= RF1, Port3=RF2, RF1 ON, Control: -5VDC								
!
# MHZ S MA R 50

100 0.133 -2.539 0.859 -1.877 141.1e-6 -60.808
          0.858 -1.859 0.131 -3.268 344.7e-6 72.775
          142.2e-6 -11.642 368.9e-6 93.395 0.319 178.842
179 0.112 7.366 0.878 -5.166 233.9e-6 -100.709
          0.878 -5.126 0.109 7.862 499.4e-6 56.187
          172e-6 -79.983 517.9e-6 68.222 0.34 170.264
258 0.123 4.449 0.867 -6.631 272.4e-6 -78.932
          0.866 -6.591 0.118 4.615 397.2e-6 93.073
          278.4e-6 -102.427 596.2e-6 63.386 0.328 168.394
337 0.125 5.401 0.864 -8.436 210.2e-6 -97.757
          0.864 -8.378 0.12 5.348 707.4e-6 80.314
          170.6e-6 -101.559 740.5e-6 75.327 0.327 165.217
416 0.129 6.105 0.863 -10.25 199.8e-6 -94.618
          0.863 -10.217 0.121 6.626 866.5e-6 81.834
          216.4e-6 -99.007 963.4e-6 85.023 0.327 161.977
495 0.132 6.367 0.863 -12.066 294e-6 -132.811
          0.862 -12.046 0.122 7.08 1.018e-3 83.978
          235.7e-6 -130.631 1.058e-3 83.898 0.328 158.934
574 0.134 6.497 0.861 -13.901 256.3e-6 -140.846
          0.861 -13.924 0.124 7.268 1.257e-3 88.397
          267.1e-6 -135.916 1.21e-3 86.871 0.328 155.92
653 0.137 7.053 0.859 -15.724 344.1e-6 -148.18
          0.86 -15.725 0.127 7.878 1.423e-3 86.412
          292.4e-6 -134.889 1.33e-3 87.512 0.327 152.686
732 0.141 8.084 0.859 -17.542 434.1e-6 -152.801
          0.858 -17.512 0.13 9.253 1.486e-3 89.94
          479.1e-6 -141.971 1.508e-3 89.342 0.327 149.073
811 0.147 8.899 0.858 -19.329 501.2e-6 -151.2
          0.858 -19.336 0.132 11.141 1.695e-3 92.641
          474.6e-6 -156.735 1.739e-3 90.183 0.33 145.566
890 0.153 9.113 0.857 -21.119 617.1e-6 -164.782
          0.857 -21.128 0.133 12.807 1.84e-3 90.356
          581.7e-6 -167.517 1.865e-3 90.754 0.334 142.534
969 0.157 8.994 0.856 -22.912 663.4e-6 -167.033
          0.856 -22.939 0.134 13.625 1.997e-3 90.538
          640.8e-6 -173.954 1.961e-3 91.665 0.337 139.666
1048 0.161 9.141 0.856 -24.749 731.5e-6 -176.832
          0.855 -24.68 0.137 14.3 2.125e-3 92.46
          691.5e-6 -172.252 2.15e-3 93.167 0.338 136.701
1127 0.166 9.316 0.855 -26.543 867.1e-6 -179.772
          0.854 -26.449 0.141 15.355 2.34e-3 92.55
          802.4e-6 -174.881 2.33e-3 92.969 0.341 133.377
1206 0.173 9.38 0.854 -28.362 968.1e-6 176.978
          0.853 -28.313 0.144 16.762 2.493e-3 91.899
          982e-6 176.419 2.489e-3 93.757 0.346 130.201
1285 0.18 9.158 0.853 -30.111 1.058e-3 171.008
          0.853 -30.071 0.146 17.944 2.659e-3 92.768
          1.048e-3 170.794 2.649e-3 92.126 0.35 127.474
1364 0.186 8.729 0.852 -31.904 1.162e-3 166.444
          0.852 -31.864 0.149 18.426 2.769e-3 93.812
          1.148e-3 166.867 2.798e-3 94.189 0.354 124.923
1443 0.19 8.83 0.851 -33.706 1.198e-3 162.76
          0.851 -33.661 0.153 18.39 2.964e-3 94.587
          1.255e-3 164.8 2.937e-3 94.297 0.357 122.104
1522 0.196 9.191 0.85 -35.488 1.356e-3 162.51
          0.849 -35.414 0.159 18.639 3.16e-3 93.275
          1.311e-3 161.136 3.127e-3 94.449 0.36 119.031
1601 0.203 9.173 0.848 -37.238 1.494e-3 159.061
          0.848 -37.188 0.166 19.278 3.314e-3 93.691
          1.445e-3 156.837 3.224e-3 93.594 0.366 116.131
1680 0.21 8.63 0.847 -38.979 1.66e-3 153.103
          0.846 -38.93 0.17 19.788 3.421e-3 94.103
          1.626e-3 154.051 3.405e-3 94.676 0.372 113.612
1759 0.215 8.197 0.847 -40.72 1.714e-3 149.544
          0.846 -40.702 0.173 19.708 3.582e-3 94.698
          1.743e-3 149.411 3.595e-3 94.468 0.376 111.272
1838 0.22 7.732 0.846 -42.476 1.878e-3 148.258
          0.845 -42.458 0.178 19.023 3.757e-3 94.515
          1.846e-3 146.699 3.755e-3 94.417 0.381 108.831
1917 0.225 7.409 0.845 -44.254 2.009e-3 143.767
          0.843 -44.213 0.184 18.482 3.818e-3 94.809
          2.035e-3 144.309 3.815e-3 93.813 0.385 106.267
1996 0.231 6.97 0.845 -46.038 2.134e-3 142.3
          0.843 -45.938 0.189 18.26 4.027e-3 96.307
          2.178e-3 142.402 4.03e-3 95.668 0.39 103.711
2075 0.236 6.235 0.843 -47.754 2.289e-3 138.957
          0.842 -47.703 0.193 17.703 4.222e-3 94.97
          2.2e-3 137.943 4.13e-3 95.523 0.396 101.525
2154 0.241 5.441 0.843 -49.454 2.4e-3 135.628
          0.842 -49.414 0.196 16.851 4.369e-3 94.303
          2.371e-3 135.553 4.334e-3 94.929 0.401 99.489
2233 0.244 4.728 0.842 -51.195 2.525e-3 133.458
          0.841 -51.177 0.199 15.75 4.464e-3 94.597
          2.488e-3 133.435 4.474e-3 95.234 0.405 97.369
2312 0.248 4.095 0.842 -52.937 2.696e-3 131.136
          0.84 -52.957 0.204 14.517 4.698e-3 94.687
          2.613e-3 130.733 4.654e-3 93.631 0.409 95.134
2391 0.253 3.274 0.841 -54.681 2.832e-3 128.332
          0.839 -54.647 0.208 13.553 4.839e-3 94.28
          2.813e-3 127.788 4.84e-3 93.329 0.414 92.926
2470 0.257 2.46 0.84 -56.44 2.953e-3 125.358
          0.839 -56.37 0.211 12.287 5.015e-3 94.116
          2.946e-3 126.906 4.976e-3 94.539 0.419 90.873
2549 0.26 1.566 0.84 -58.157 3.113e-3 123.712
          0.839 -58.062 0.215 10.96 5.179e-3 93.716
          3.076e-3 123.884 5.26e-3 94.289 0.423 88.931
2628 0.262 0.651 0.84 -59.843 3.273e-3 120.593
          0.839 -59.797 0.218 9.486 5.391e-3 93.035
          3.254e-3 121.622 5.402e-3 93.408 0.426 86.998
2707 0.265 -0.322 0.84 -61.606 3.381e-3 117.918
          0.839 -61.544 0.22 7.736 5.604e-3 92.99
          3.344e-3 117.571 5.582e-3 92.41 0.43 85.016
2786 0.267 -1.532 0.839 -63.35 3.534e-3 116.356
          0.839 -63.263 0.222 6.239 5.838e-3 92.192
          3.534e-3 116.165 5.904e-3 91.942 0.435 83.104
2865 0.269 -2.571 0.839 -65.057 3.65e-3 112.642
          0.838 -65.008 0.224 4.549 6.088e-3 90.61
          3.595e-3 112.919 6.091e-3 91.052 0.438 81.273
2944 0.27 -3.804 0.84 -66.775 3.76e-3 111.42
          0.839 -66.775 0.225 2.687 6.335e-3 88.651
          3.812e-3 111.349 6.265e-3 88.153 0.442 79.535
3023 0.269 -4.984 0.84 -68.556 3.903e-3 108.218
          0.84 -68.521 0.225 0.67 6.517e-3 86.967
          3.925e-3 108.051 6.468e-3 86.98 0.445 77.75
3102 0.269 -6.314 0.84 -70.322 3.823e-3 106.311
          0.839 -70.276 0.225 -1.303 6.647e-3 86.379
          3.85e-3 105.921 6.624e-3 85.819 0.447 75.967
3181 0.268 -7.716 0.84 -72.048 3.959e-3 107.56
          0.839 -71.994 0.225 -3.396 6.852e-3 84.59
          3.937e-3 107.101 6.835e-3 84.386 0.45 74.182
3260 0.268 -8.876 0.841 -73.798 4.317e-3 106.076
          0.84 -73.754 0.224 -5.64 6.999e-3 82.963
          4.275e-3 106.131 6.986e-3 82.993 0.452 72.376
3339 0.267 -10.121 0.841 -75.605 4.44e-3 102.427
          0.841 -75.575 0.223 -7.856 7.133e-3 81.44
          4.524e-3 102.151 7.159e-3 81.656 0.454 70.579
3418 0.265 -11.621 0.841 -77.381 4.565e-3 101.4
          0.841 -77.325 0.221 -10.308 7.373e-3 80.095
          4.563e-3 100.959 7.384e-3 80.262 0.456 68.791
3497 0.263 -13.22 0.842 -79.13 4.735e-3 100.101
          0.842 -79.118 0.219 -12.436 7.535e-3 78.086
          4.735e-3 99.485 7.577e-3 78.328 0.457 67.001
3576 0.261 -14.84 0.843 -80.959 4.87e-3 97.769
          0.842 -80.872 0.218 -14.859 7.748e-3 76.4
          4.859e-3 97.973 7.742e-3 76.813 0.458 65.13
3655 0.26 -16.522 0.844 -82.731 5.007e-3 97.177
          0.842 -82.641 0.215 -17.158 8e-3 73.85
          5.022e-3 97.653 7.969e-3 74.326 0.459 63.201
3734 0.256 -17.915 0.845 -84.506 5.355e-3 95.29
          0.844 -84.464 0.213 -19.117 8.094e-3 71.009
          5.285e-3 95.933 8.058e-3 71.258 0.46 61.175
3813 0.254 -19.569 0.845 -86.331 5.566e-3 94.21
          0.845 -86.311 0.212 -21.319 8.067e-3 68.878
          5.519e-3 94.145 8.071e-3 68.634 0.461 59.168
3892 0.251 -21.435 0.846 -88.262 5.861e-3 92.063
          0.846 -88.178 0.21 -23.734 7.979e-3 67.034
          5.854e-3 92.036 7.945e-3 67.402 0.461 57.123
3971 0.25 -23.183 0.847 -90.113 6.116e-3 89.133
          0.846 -90.003 0.209 -26.008 7.899e-3 67.035
          6.128e-3 89.526 7.992e-3 66.917 0.461 54.984
4050 0.249 -24.656 0.847 -91.99 6.334e-3 87.434
          0.846 -91.95 0.21 -28.04 8.131e-3 66.494
          6.324e-3 87.808 8.123e-3 66.644 0.461 52.681
4129 0.248 -26.188 0.846 -93.833 6.662e-3 85.201
          0.845 -93.793 0.209 -30.133 8.311e-3 65.931
          6.614e-3 85.214 8.281e-3 65.641 0.462 50.288
4208 0.247 -27.828 0.847 -95.682 6.911e-3 82.019
          0.846 -95.634 0.209 -31.816 8.47e-3 64.449
          6.84e-3 81.343 8.483e-3 64.727 0.464 47.928
4287 0.246 -29.303 0.848 -97.611 7.012e-3 77.998
          0.847 -97.492 0.209 -33.469 8.674e-3 63.187
          6.939e-3 78.397 8.64e-3 63.786 0.466 45.654
4366 0.247 -31.17 0.847 -99.523 6.948e-3 76.579
          0.847 -99.456 0.21 -35.084 8.82e-3 62.486
          6.943e-3 76.89 8.846e-3 62.413 0.466 43.199
4445 0.248 -32.909 0.848 -101.432 7.126e-3 76.054
          0.847 -101.386 0.212 -36.705 9.103e-3 61.777
          7.109e-3 76.466 9.053e-3 61.497 0.467 40.65
4524 0.25 -34.42 0.847 -103.365 7.501e-3 74.841
          0.845 -103.351 0.215 -38.184 9.36e-3 59.844
          7.478e-3 75.033 9.357e-3 60.133 0.469 37.905
4603 0.252 -36.15 0.847 -105.305 7.888e-3 72.601
          0.845 -105.279 0.217 -39.479 9.485e-3 57.877
          7.877e-3 72.457 9.451e-3 58.071 0.472 35.192
4682 0.256 -38.178 0.846 -107.208 8.083e-3 69.6
          0.845 -107.178 0.22 -40.561 9.569e-3 57.097
          8.155e-3 69.869 9.605e-3 57.009 0.475 32.677
4761 0.26 -40.004 0.845 -109.177 8.359e-3 66.739
          0.844 -109.127 0.223 -41.634 9.791e-3 55.686
          8.389e-3 66.948 9.785e-3 55.766 0.478 30.063
4840 0.265 -41.792 0.844 -111.094 8.568e-3 64.498
          0.842 -111.034 0.227 -42.785 0.01 54.531
          8.535e-3 64.664 9.938e-3 54.51 0.481 27.376
4919 0.27 -43.509 0.842 -113.026 8.805e-3 62.262
          0.841 -112.996 0.232 -43.664 0.01 53.568
          8.752e-3 62.21 0.01 53.656 0.485 24.594
4998 0.276 -45.4 0.84 -114.93 8.976e-3 59.67
          0.839 -114.917 0.237 -44.208 0.01 52.407
          8.974e-3 59.891 0.01 52.362 0.491 21.857
5077 0.283 -47.35 0.839 -116.864 9.117e-3 57.4
          0.838 -116.855 0.242 -44.686 0.011 51.036
          9.187e-3 57.439 0.011 51.246 0.497 19.329
5156 0.29 -49.167 0.837 -118.76 9.38e-3 54.975
          0.836 -118.714 0.247 -45.171 0.011 49.773
          9.362e-3 54.938 0.011 50.116 0.502 16.911
5235 0.297 -51.036 0.835 -120.698 9.52e-3 52.669
          0.834 -120.657 0.253 -45.833 0.011 48.757
          9.534e-3 52.599 0.011 48.716 0.508 14.333
5314 0.305 -52.767 0.833 -122.603 9.701e-3 50.296
          0.832 -122.587 0.26 -46.39 0.011 47.693
          9.686e-3 50.182 0.011 47.485 0.514 11.767
5393 0.313 -54.646 0.831 -124.506 9.847e-3 47.993
          0.83 -124.458 0.267 -46.681 0.012 46.307
          9.827e-3 48.16 0.011 46.368 0.522 9.347
5472 0.322 -56.781 0.828 -126.361 10e-3 45.699
          0.827 -126.323 0.275 -46.897 0.012 45.082
          9.991e-3 45.555 0.012 45.195 0.53 7.151
5551 0.331 -58.706 0.826 -128.25 0.01 43.684
          0.824 -128.195 0.282 -47.151 0.012 43.958
          0.01 43.563 0.012 43.848 0.537 5.101
5630 0.339 -60.624 0.822 -130.158 0.01 41.396
          0.821 -130.085 0.289 -47.557 0.012 42.639
          0.01 41.583 0.012 42.86 0.544 2.997
5709 0.348 -62.397 0.82 -132.021 0.01 39.482
          0.818 -131.938 0.296 -48.089 0.012 41.824
          0.01 39.44 0.012 41.897 0.551 0.859
5788 0.357 -64.28 0.818 -133.863 0.011 37.166
          0.816 -133.811 0.304 -48.558 0.012 40.408
          0.011 37.143 0.012 40.662 0.56 -1.138
5867 0.367 -66.28 0.815 -135.661 0.011 35.044
          0.813 -135.592 0.312 -48.755 0.013 39.412
          0.011 35.152 0.012 39.614 0.568 -2.864
5946 0.375 -68.274 0.811 -137.445 0.011 33.152
          0.81 -137.411 0.318 -49.093 0.013 38.176
          0.011 33.296 0.013 38.352 0.575 -4.41
6025 0.383 -70.178 0.808 -139.276 0.011 30.777
          0.808 -139.235 0.324 -49.699 0.013 37.407
          0.011 31.13 0.013 37.215 0.582 -5.961
6104 0.391 -71.988 0.806 -141.12 0.011 29.309
          0.804 -141.048 0.331 -50.397 0.013 35.87
          0.011 29.556 0.013 35.872 0.588 -7.645
6183 0.401 -73.712 0.803 -142.896 0.011 27.492
          0.801 -142.83 0.339 -51.113 0.013 34.352
          0.011 27.636 0.013 34.459 0.595 -9.204
6262 0.408 -75.532 0.8 -144.65 0.011 26.008
          0.798 -144.608 0.345 -51.654 0.013 33.078
          0.011 25.84 0.013 32.908 0.602 -10.586
6341 0.415 -77.297 0.797 -146.329 0.011 24.432
          0.796 -146.312 0.35 -52.376 0.013 31.953
          0.011 24.543 0.013 31.834 0.608 -11.799
6420 0.421 -79.088 0.794 -148.086 0.011 22.987
          0.793 -148.037 0.354 -53.137 0.013 30.692
          0.011 23.084 0.013 30.822 0.613 -13.026
6499 0.427 -80.808 0.792 -149.813 0.011 21.262
          0.791 -149.776 0.359 -54.141 0.013 29.597
          0.011 21.362 0.013 29.531 0.618 -14.301
6578 0.434 -82.403 0.79 -151.527 0.011 19.773
          0.788 -151.537 0.363 -55.128 0.013 28.037
          0.011 19.892 0.013 28.05 0.623 -15.58
6657 0.439 -83.942 0.787 -153.19 0.011 18.965
          0.786 -153.178 0.367 -55.979 0.013 26.553
          0.011 18.928 0.013 26.669 0.628 -16.65
6736 0.444 -85.541 0.786 -154.911 0.011 18.352
          0.784 -154.841 0.369 -56.905 0.013 25.3
          0.011 18.149 0.013 25.118 0.632 -17.663
6815 0.447 -87.181 0.784 -156.594 0.012 17.471
          0.783 -156.569 0.371 -57.921 0.013 23.918
          0.012 17.399 0.013 23.917 0.637 -18.622
6894 0.45 -88.718 0.782 -158.302 0.012 16.384
          0.782 -158.292 0.372 -59.079 0.013 22.461
          0.012 16.548 0.013 22.378 0.64 -19.586
6973 0.453 -90.044 0.781 -160.003 0.012 15.411
          0.779 -159.888 0.373 -60.213 0.013 20.704
          0.012 15.491 0.013 20.667 0.643 -20.52
7052 0.454 -91.247 0.779 -161.617 0.012 14.059
          0.778 -161.568 0.374 -61.362 0.013 19.186
          0.012 14.199 0.012 19.38 0.646 -21.46
7131 0.454 -92.411 0.778 -163.252 0.013 12.359
          0.778 -163.237 0.372 -62.627 0.012 18.404
          0.012 12.297 0.012 18.351 0.649 -22.336
7210 0.452 -93.629 0.778 -164.934 0.013 10.493
          0.777 -164.922 0.37 -63.895 0.012 17.97
          0.013 10.578 0.012 18.191 0.651 -23.201
7289 0.452 -94.816 0.778 -166.63 0.013 9.164
          0.776 -166.595 0.368 -65.217 0.012 17.595
          0.013 9.224 0.012 17.702 0.652 -24.077
7368 0.452 -95.867 0.777 -168.264 0.013 7.15
          0.776 -168.215 0.366 -66.525 0.012 16.874
          0.013 7.341 0.012 16.71 0.654 -24.947
7447 0.45 -96.887 0.777 -169.851 0.013 4.419
          0.776 -169.821 0.363 -68.04 0.012 15.491
          0.013 4.48 0.012 15.054 0.655 -25.9
7526 0.447 -97.878 0.778 -171.502 0.013 2.332
          0.777 -171.484 0.359 -69.637 0.012 12.932
          0.013 2.279 0.012 12.97 0.656 -26.854
7605 0.442 -98.846 0.779 -173.214 0.013 0.6
          0.777 -173.158 0.354 -71.185 0.012 9.925
          0.013 0.512 0.012 10.385 0.657 -27.708
7684 0.437 -99.678 0.779 -174.935 0.013 -0.425
          0.778 -174.875 0.348 -72.743 0.012 6.14
          0.013 -0.294 0.012 6.537 0.658 -28.569
7763 0.432 -100.482 0.779 -176.616 0.013 -1.451
          0.778 -176.565 0.341 -74.254 0.012 2.003
          0.013 -1.732 0.012 2.294 0.658 -29.475
7842 0.427 -101.103 0.781 -178.228 0.013 -3.156
          0.779 -178.193 0.335 -75.911 0.012 -2.713
          0.013 -3.252 0.012 -3.034 0.657 -30.399
7921 0.42 -101.579 0.782 -179.873 0.013 -4.711
          0.781 -179.798 0.327 -77.73 0.012 -9.098
          0.013 -4.591 0.012 -9.636 0.657 -31.396
8000 0.414 -102.179 0.784 178.516 0.013 -5.964
          0.783 178.593 0.319 -79.621 0.011 -16.127
          0.013 -5.786 0.011 -16.42 0.657 -32.409
