!Hittite Microwave Corporation								
!12 Elizabeth Drive								
!Chelmsford, MA 01824								
!Tel: 978-250-3343								
!Fax: 978-250-3373								
!Device: HMC331LP3, DC-6 GHz InGaP HBT Gain Block MMIc Amplifier in Leadless LP3 SMT Package								
!Misc: Vs=5V, Room								
!
# MHZ S MA R 50

200 0.593 39.194 5.632 116.831 0.124 -58.99 1 -112.636
249.246 0.5 36.057 5.536 127.557 0.123 -47.839 0.841 -100.793
298.492 0.439 31.822 5.479 134.752 0.122 -40.219 0.732 -91.905
347.739 0.396 27.112 5.446 139.832 0.122 -34.715 0.654 -84.884
396.985 0.362 22.004 5.419 143.785 0.121 -30.439 0.597 -79.102
446.231 0.339 17.28 5.398 146.294 0.12 -26.673 0.552 -74.235
495.477 0.323 12.185 5.393 148.127 0.121 -23.911 0.516 -70.338
544.724 0.308 7.43 5.394 150.256 0.121 -21.57 0.488 -66.89
593.97 0.295 2.632 5.384 151.432 0.12 -19.807 0.465 -64.011
643.216 0.293 -2.069 5.389 151.521 0.121 -17.71 0.445 -61.782
692.462 0.286 -6.347 5.403 152.754 0.121 -16.557 0.427 -59.999
741.709 0.28 -10.761 5.397 154.405 0.12 -15.205 0.413 -58.516
790.955 0.282 -15.427 5.402 152.793 0.121 -13.716 0.4 -57.385
840.201 0.281 -19.637 5.42 153.404 0.121 -13.299 0.388 -56.67
889.447 0.278 -22.668 5.421 155.31 0.122 -12.112 0.378 -56.208
938.693 0.279 -27.167 5.423 153.288 0.121 -11.426 0.368 -55.993
987.94 0.281 -30.61 5.436 153.427 0.122 -10.538 0.359 -56.289
1037.186 0.282 -33.409 5.446 154.54 0.123 -9.845 0.351 -56.857
1086.432 0.282 -37.235 5.444 153.38 0.121 -9.206 0.344 -57.479
1135.678 0.286 -40.702 5.453 152.015 0.123 -9.113 0.337 -58.592
1184.925 0.289 -43.346 5.469 153.294 0.125 -8.82 0.332 -59.957
1234.171 0.288 -46.334 5.462 153.609 0.122 -8.063 0.326 -61.334
1283.417 0.291 -49.744 5.463 151.507 0.123 -7.311 0.321 -62.943
1332.663 0.293 -52.564 5.472 151.009 0.124 -8.213 0.317 -64.711
1381.91 0.293 -54.92 5.474 152.169 0.123 -7.099 0.313 -66.866
1431.156 0.295 -57.839 5.474 150.812 0.124 -6.346 0.31 -69.133
1480.402 0.296 -60.676 5.471 149.793 0.124 -7.102 0.307 -71.207
1529.648 0.297 -63.018 5.473 149.801 0.123 -6.576 0.305 -73.63
1578.894 0.296 -65.24 5.471 149.72 0.124 -5.249 0.304 -76.242
1628.141 0.295 -68.002 5.458 148.148 0.123 -6.46 0.301 -78.724
1677.387 0.295 -70.42 5.47 147.842 0.123 -6.508 0.301 -81.175
1726.633 0.295 -72.422 5.456 148.511 0.124 -4.831 0.302 -83.995
1775.879 0.294 -74.439 5.442 147.308 0.123 -4.513 0.302 -86.691
1825.126 0.289 -76.741 5.445 145.164 0.123 -6.288 0.301 -89.147
1874.372 0.289 -79.097 5.437 146.532 0.121 -4.61 0.303 -91.954
1923.618 0.288 -80.948 5.429 146.044 0.123 -3.888 0.305 -94.643
1972.864 0.284 -82.695 5.413 144.787 0.123 -5.104 0.306 -96.848
2022.111 0.281 -84.852 5.406 144.107 0.121 -2.933 0.308 -99.305
2071.357 0.277 -86.681 5.411 143.597 0.122 -3.232 0.309 -101.742
2120.603 0.273 -88.13 5.398 143.817 0.123 -3.547 0.311 -104.011
2169.849 0.267 -89.673 5.4 142.791 0.121 -2.782 0.312 -106.045
2219.095 0.261 -91.564 5.401 142.558 0.124 -2.49 0.314 -108.085
2268.342 0.257 -93.075 5.39 142.722 0.123 -0.988 0.316 -110.141
2317.588 0.251 -94.204 5.394 141.832 0.122 -1.76 0.317 -112.27
2366.834 0.244 -95.361 5.401 140.062 0.125 -2.315 0.318 -114.051
2416.08 0.238 -97.087 5.405 141.27 0.122 -0.586 0.317 -115.614
2465.327 0.234 -98.085 5.396 141.175 0.125 -0.739 0.319 -117.132
2514.573 0.228 -98.57 5.408 137.997 0.127 -0.651 0.32 -118.628
2563.819 0.221 -100.099 5.429 139.001 0.122 0.098 0.318 -119.858
2613.065 0.215 -100.87 5.419 138.952 0.126 -0.051 0.317 -120.999
2662.312 0.209 -100.579 5.428 137.138 0.128 0.25 0.316 -122.21
2711.558 0.201 -100.486 5.445 137.648 0.126 -0.116 0.311 -123.141
2760.804 0.194 -100.535 5.438 136.802 0.128 0.681 0.307 -123.883
2810.05 0.189 -100.546 5.451 135.354 0.127 1.406 0.303 -124.884
2859.296 0.182 -99.593 5.472 135.216 0.129 -0.08 0.296 -126.005
2908.543 0.174 -98.712 5.476 135.273 0.129 0.27 0.288 -126.763
2957.789 0.168 -98.304 5.479 134.254 0.128 1.043 0.28 -127.47
3007.035 0.163 -97.126 5.496 133.078 0.131 1.087 0.272 -128.388
3056.281 0.159 -95.487 5.513 132.884 0.13 0.971 0.262 -129.242
3105.528 0.154 -93.528 5.516 132.017 0.128 0.42 0.249 -129.833
3154.774 0.149 -91.599 5.533 131.143 0.132 1.615 0.238 -130.296
3204.02 0.147 -89.046 5.544 131.131 0.133 1.233 0.225 -130.945
3253.266 0.148 -86.052 5.544 129.945 0.132 0.187 0.21 -131.862
3302.513 0.145 -83.91 5.557 128.913 0.131 1.707 0.194 -132.523
3351.759 0.145 -81.844 5.568 128.333 0.133 1.478 0.179 -133.002
3401.005 0.15 -79.661 5.574 127.698 0.134 0.218 0.162 -133.683
3450.251 0.154 -77.295 5.58 126.815 0.132 0.985 0.144 -134.198
3499.497 0.157 -75.387 5.593 125.943 0.134 1.603 0.124 -133.961
3548.744 0.162 -75.293 5.598 125.675 0.135 0.626 0.108 -133.492
3597.99 0.168 -75.604 5.599 124.741 0.132 0.362 0.09 -133.886
3647.236 0.172 -73.441 5.608 123.678 0.135 1.42 0.07 -133.892
3696.482 0.175 -72.99 5.611 123.556 0.136 0.873 0.051 -133.453
3745.729 0.181 -74.209 5.609 122.344 0.134 0.554 0.032 -133.228
3794.975 0.188 -73.711 5.617 120.944 0.135 1.121 0.011 -128.88
3844.221 0.194 -73.562 5.623 120.735 0.135 0.963 0.011 30.9
3893.467 0.199 -74.524 5.616 119.892 0.135 0.547 0.031 36.724
3942.714 0.204 -76.302 5.611 118.451 0.135 0.401 0.05 37.985
3991.96 0.211 -76.789 5.612 118.298 0.136 0.851 0.071 38.571
4041.206 0.214 -77.947 5.599 117.421 0.135 1.033 0.092 38.946
4090.452 0.218 -80.604 5.584 115.888 0.135 -0.106 0.11 39.334
4139.698 0.222 -81.654 5.576 115.272 0.135 0.751 0.129 39.518
4188.945 0.228 -82.782 5.56 114.735 0.136 0.662 0.15 39.618
4238.191 0.232 -84.45 5.536 113.705 0.135 0.24 0.17 39.603
4287.437 0.232 -86.727 5.518 112.269 0.134 0.808 0.187 39.72
4336.683 0.239 -88.812 5.5 111.992 0.135 0.486 0.205 39.865
4385.93 0.243 -90.609 5.47 111.151 0.135 0.697 0.225 40.282
4435.176 0.244 -93.289 5.441 110.011 0.134 0.175 0.241 40.472
4484.422 0.246 -95.611 5.42 109.395 0.135 0.469 0.255 40.655
4533.668 0.251 -97.763 5.388 109.044 0.134 1.215 0.272 41.338
4582.915 0.254 -100.472 5.355 108.137 0.134 0.128 0.287 41.752
4632.161 0.252 -103.17 5.335 106.655 0.133 0.866 0.297 42.218
4681.407 0.256 -105.85 5.312 107.014 0.134 0.974 0.309 42.821
4730.653 0.26 -108.995 5.279 106.288 0.134 0.535 0.323 43.826
4779.899 0.262 -111.664 5.258 104.851 0.133 1.242 0.332 44.641
4829.146 0.263 -114.986 5.244 105.039 0.133 1.008 0.34 45.406
4878.392 0.266 -119.189 5.218 104.412 0.133 1.189 0.348 46.706
4927.638 0.27 -122.822 5.197 103.234 0.132 1.275 0.358 47.931
4976.884 0.271 -126.072 5.184 102.831 0.133 1.34 0.364 49.275
5026.131 0.27 -129.461 5.164 102.485 0.133 1.779 0.369 50.58
5075.377 0.274 -133.682 5.146 101.485 0.132 1.564 0.376 51.978
5124.623 0.28 -136.759 5.131 100.71 0.132 1.928 0.383 53.396
5173.869 0.279 -140.23 5.116 100.321 0.133 1.913 0.386 54.834
5223.116 0.281 -144.481 5.101 99.554 0.133 1.955 0.389 56.365
5272.362 0.288 -147.956 5.084 98.806 0.133 2.196 0.395 57.838
5321.608 0.292 -151.039 5.07 98.145 0.133 2.321 0.398 59.31
5370.854 0.292 -154.533 5.059 97.479 0.133 2.381 0.397 60.848
5420.101 0.298 -158.415 5.045 96.864 0.133 2.451 0.4 62.485
5469.347 0.307 -161.362 5.026 96.117 0.133 2.681 0.403 63.825
5518.593 0.31 -164.134 5.018 95.427 0.133 2.759 0.403 65.441
5567.839 0.314 -167.282 5.012 94.932 0.134 2.847 0.4 67.035
5617.085 0.323 -170.742 4.997 94.294 0.134 2.827 0.401 68.761
5666.332 0.332 -173.395 4.988 93.4 0.134 3.017 0.4 70.348
5715.578 0.336 -175.986 4.987 92.792 0.135 3.143 0.396 72.152
5764.824 0.344 -179.555 4.977 92.29 0.135 2.733 0.393 74.152
5814.07 0.351 177.64 4.967 91.087 0.135 3.195 0.392 75.694
5863.317 0.363 175.262 4.968 90.581 0.136 3.089 0.389 77.704
5912.563 0.369 173.155 4.963 90.275 0.137 2.917 0.383 79.669
5961.809 0.373 169.801 4.954 88.855 0.136 3.113 0.378 81.722
6011.055 0.387 166.954 4.953 87.896 0.137 2.944 0.375 83.847
6060.302 0.396 165.575 4.956 87.79 0.137 2.934 0.366 86.092
6109.548 0.4 162.204 4.951 86.53 0.138 2.316 0.358 88.48
6158.794 0.411 159.68 4.945 85.29 0.139 2.795 0.351 91.176
6208.04 0.42 157.539 4.954 84.6 0.138 2.4 0.343 93.411
6257.286 0.426 155.637 4.948 84.184 0.139 1.975 0.331 96.15
6306.533 0.432 152.816 4.944 81.964 0.14 2.308 0.321 99.53
6355.779 0.439 150.163 4.956 81.263 0.139 1.103 0.312 102.52
6405.025 0.453 149.729 4.937 81.91 0.143 1.521 0.302 106.642
6454.271 0.448 146.647 4.934 78.253 0.141 1.369 0.288 110.624
6503.518 0.454 143.901 4.938 77.417 0.142 -0.243 0.277 115.431
6552.764 0.465 142.714 4.923 77.46 0.143 -0.111 0.268 121.141
6602.01 0.463 140.652 4.908 75.431 0.141 -0.74 0.258 127.294
6651.256 0.469 137.555 4.887 72.909 0.146 -1.744 0.254 134.402
6700.503 0.467 136.793 4.879 72.599 0.142 -2.267 0.249 142.522
6749.749 0.471 135.386 4.839 71.793 0.141 -3.096 0.25 150.178
6798.995 0.471 132.517 4.804 67.42 0.145 -3.428 0.256 158.466
6848.241 0.462 132.057 4.778 67.883 0.14 -5.646 0.271 167.123
6897.487 0.464 130.602 4.708 67.333 0.142 -6.426 0.288 173.495
6946.734 0.461 129.79 4.658 63.189 0.141 -4.722 0.308 -179.945
6995.98 0.44 128.591 4.601 61.48 0.137 -8.343 0.334 -174.084
7045.226 0.442 128.089 4.52 61.731 0.138 -8.869 0.368 -169.96
7094.472 0.438 127.693 4.429 59.942 0.135 -8.524 0.4 -166.388
7143.719 0.419 126.508 4.329 56.32 0.133 -10.381 0.431 -163.2
7192.965 0.423 127.235 4.244 56.936 0.133 -10.64 0.468 -160.619
7242.211 0.409 129.037 4.13 56.059 0.125 -11.784 0.502 -158.206
7291.457 0.402 127.991 4.018 51.402 0.127 -10.612 0.536 -156.152
7340.704 0.394 129.012 3.934 51.18 0.124 -13.148 0.568 -154.368
7389.95 0.397 131.89 3.812 53.973 0.118 -14.442 0.601 -153.155
7439.196 0.399 131.689 3.691 50.366 0.121 -10.654 0.632 -151.906
7488.442 0.379 134.218 3.604 46.408 0.114 -12.634 0.659 -150.226
7537.688 0.396 135.491 3.503 51.033 0.111 -13.905 0.686 -149.293
7586.935 0.402 136.175 3.383 50.76 0.11 -11.602 0.713 -148.503
7636.181 0.384 138.084 3.296 44.829 0.107 -11.69 0.737 -147.355
7685.427 0.403 137.959 3.214 49.081 0.106 -12.265 0.762 -146.402
7734.673 0.422 139.731 3.109 51.451 0.101 -10.904 0.787 -145.377
7783.92 0.407 141.955 3.031 44.235 0.1 -8.707 0.807 -144.236
7833.166 0.42 141.698 2.968 47.359 0.098 -9.064 0.828 -143.237
7882.412 0.437 141.831 2.885 52.098 0.095 -10.203 0.847 -142.196
7931.658 0.438 143.2 2.809 46.892 0.096 -6.219 0.866 -141.085
7980.905 0.444 143.626 2.76 47.132 0.095 -4.247 0.883 -140.001
8030.151 0.45 144.663 2.699 50.043 0.091 -7.145 0.898 -138.842
8079.397 0.468 144.474 2.638 49.921 0.088 -2.819 0.916 -137.686
8128.643 0.466 144.994 2.601 48.102 0.092 -1.238 0.93 -136.494
8177.889 0.473 145.076 2.557 51.483 0.091 -1.601 0.943 -135.421
8227.136 0.478 145.255 2.519 51.996 0.089 -1.166 0.956 -134.203
8276.382 0.491 145.181 2.478 49.864 0.086 3.305 0.968 -132.985
8325.628 0.497 144.002 2.456 53.129 0.09 6.072 0.979 -132.006
8374.874 0.492 146.123 2.442 53.709 0.087 -0.821 0.987 -130.733
8424.121 0.511 143.116 2.401 56.446 0.087 8.998 1 -129.549
8473.367 0.503 143.925 2.389 52.343 0.093 9.271 1.005 -128.096
8522.613 0.508 144.697 2.387 55.643 0.089 6.202 1.009 -126.905
8571.859 0.514 142.933 2.382 58.328 0.088 12.405 1.015 -125.909
8621.106 0.506 143.378 2.376 56.076 0.09 10.384 1.017 -124.567
8670.352 0.504 142.235 2.388 57.373 0.095 12.463 1.02 -123.36
8719.598 0.514 141.805 2.39 62.031 0.09 13.907 1.023 -122.177
8768.844 0.504 141.503 2.382 59.645 0.095 16.535 1.022 -120.995
8818.09 0.5 141.641 2.422 54.219 0.096 18.832 1.023 -119.644
8867.337 0.508 139.242 2.441 67.917 0.093 16.486 1.021 -118.498
8916.583 0.485 140.949 2.446 61.907 0.105 17.504 1.012 -117.275
8965.829 0.48 140.003 2.49 59.384 0.1 22.295 1.007 -116.027
9015.075 0.465 138.268 2.532 64.657 0.106 19.698 0.998 -114.738
9064.322 0.469 138.295 2.557 64.124 0.104 22.364 0.99 -113.656
9113.568 0.458 138.646 2.607 63.333 0.104 23.29 0.979 -112.63
9162.814 0.425 138.933 2.671 62.823 0.117 20.405 0.961 -111.396
9212.06 0.431 134.369 2.701 68.366 0.114 26.622 0.952 -110.639
9261.307 0.421 139.633 2.746 60.01 0.117 21.993 0.934 -109.29
9310.553 0.401 136.468 2.845 64.022 0.121 27.601 0.92 -108.722
9359.799 0.386 136.173 2.882 66.405 0.123 24.624 0.901 -107.523
9409.045 0.38 137.166 2.939 64.86 0.125 22.897 0.879 -106.642
9458.291 0.353 136.537 3.033 63.205 0.137 28.3 0.85 -106.254
9507.538 0.344 139.892 3.092 61.95 0.135 23.974 0.821 -104.885
9556.784 0.321 136.658 3.181 64.878 0.139 26.169 0.79 -104.522
9606.03 0.319 139.255 3.248 60.771 0.14 25.45 0.759 -103.943
9655.276 0.3 143.442 3.333 60.795 0.152 22.636 0.716 -103.194
9704.523 0.282 143.467 3.398 60.821 0.153 23.723 0.676 -102.676
9753.769 0.27 143.176 3.469 58.386 0.153 25.049 0.629 -102.341
9803.015 0.258 143.137 3.536 55.823 0.153 26.246 0.579 -102.012
9852.261 0.247 143.324 3.598 53.137 0.153 27.321 0.525 -101.649
9901.508 0.238 143.692 3.652 50.34 0.152 28.284 0.467 -101.186
9950.754 0.23 144.176 3.697 47.446 0.151 29.151 0.407 -100.519
10000 0.224 144.695 3.731 44.474 0.149 29.94 0.343 -99.467
