! Hittite Microwave Corporation
! 20 Alpha Road
! Chelmsford, MA 01824
! Tel: 978-250-3343
! Fax: 978-250-3373
! Device: HMC321LP4, DC-8.0 GHz, GaAS MMIC SP8T Non-Reflective Positive 
!         Control Switch in Low Cost Leadless SMT Package
! Misc: Data was de-embedded to package pins.
!       Port 1 = RFC
!       Port 2 = RF1    Port 6 = RF5
!       Port 3 = RF2    Port 7 = RF6
!       Port 4 = RF3    Port 8 = RF7
!       Port 5 = RF4    Port 9 = RF8
!          Vee = +5 V
!         Vctl =  0 V[Logic 0] / +5 V[Logic 1]
!
!  RF4 Selected,  VA = 1,  VB = 1,  VC = 0
!
!  Data reformated to new Touchstone file format - Fri Jan 12 11:48:06  2007
!
# MHz S DB R 50
! 9 Port Network Data
! freq  dbS11  angS11  dbS12  angS12  dbS13  angS13  dbS14  angS14  
!       dbS15  angS15  dbS16  angS16  dbS17  angS17  dbS18  angS18  
!       dbS19  angS19  
!       dbS21  angS21  dbS22  angS22  dbS23  angS23  
!       dbS24  angS24  dbS25  angS25  dbS26  angS26  dbS27  angS27  
!       dbS28  angS28  dbS29  angS29  
!       dbS31  angS31  dbS32  angS32  
!       dbS33  angS33  dbS34  angS34  dbS35  angS35  dbS36  angS36  
!       dbS37  angS37  dbS38  angS38  dbS39  angS39  
!       dbS41  angS41  
!       dbS42  angS42  dbS43  angS43  dbS44  angS44  dbS45  angS45  
!       dbS46  angS46  dbS47  angS47  dbS48  angS48  dbS49  angS49  
!       dbS51  angS51  dbS52  angS52  dbS53  angS53  dbS54  angS54  
!       dbS55  angS55  dbS56  angS56  dbS57  angS57  dbS58  angS58  
!       dbS59  angS59  
!       dbS61  angS61  dbS62  angS62  dbS63  angS63  
!       dbS64  angS64  dbS65  angS65  dbS66  angS66  dbS67  angS67  
!       dbS68  angS68  dbS69  angS69  
!       dbS71  angS71  dbS72  angS72  
!       dbS73  angS73  dbS74  angS74  dbS75  angS75  dbS76  angS76  
!       dbS77  angS77  dbS78  angS78  dbS79  angS79  
!       dbS81  angS81  
!       dbS82  angS82  dbS83  angS83  dbS84  angS84  dbS85  angS85  
!       dbS86  angS86  dbS87  angS87  dbS88  angS88  dbS89  angS89  
!       dbS91  angS91  dbS92  angS92  dbS93  angS93  dbS94  angS94  
!       dbS95  angS95  dbS96  angS96  dbS97  angS97  dbS98  angS98  
!       dbS99  angS99  
!     
                54        -14.516843              1.682        -63.6950882            144.667         -71.010432             160.62         -68.794692            127.267
                      -1.99265743             -1.951        -65.8230872            162.113        -74.8464285            -62.072          -69.60869             41.497
                       -66.331854           -162.171
                      -61.9730135            172.269       -0.184346164             -8.272        -67.2102702             37.109        -70.2912504           -113.775
                      -72.1284959             -47.82        -70.8605397           -112.509        -68.3655568             49.068        -64.9314032            -48.468
                      -65.7067001           -113.169
                      -65.1517824             24.837        -65.6332884            -98.437       -0.175478486             -8.143        -65.5161216            143.281
                      -73.2030243            -178.97          -67.52468            -65.812        -62.0342744             -8.865        -63.9253966            -83.948
                      -68.0504842            118.319
                      -64.9790393             135.81        -64.9713384            151.302        -73.3069047             50.467       -0.193222904             -8.223
                      -63.7030666             16.468        -76.9237027             94.222        -65.3827402            -88.174        -71.3791611             20.716
                      -68.4066141             41.852
                      -1.95994217             -1.787        -61.7587489              82.94        -67.8594824            -84.618        -70.8696428           -139.528
                      -13.8929726              2.389        -68.4616609             64.321        -65.0253889                 -5        -65.2816377           -125.667
                      -64.9360017              8.896
                       -75.055269            -14.118        -64.2267357            -64.361        -62.4180824           -137.702        -68.8018675           -113.673
                      -65.9066963             92.974       -0.193222904             -8.396        -63.0670734             80.849        -61.1757362            -95.718
                      -73.5929193            154.696
                      -66.4296324            178.575         -66.722214            125.969        -69.8051997           -133.201        -70.2487488            163.226
                      -73.7861338             70.457        -64.4500136             96.914       -0.175478486             -8.185        -75.5560791            -57.685
                      -66.9318902             23.557
                       -68.924766            -49.123         -64.655398             65.369        -64.9084469            -22.983        -69.9487266           -178.507
                      -64.1942967             83.706        -62.1569944            -21.944         -60.822991             -23.82       -0.175478486             -8.261
                      -72.7767801             18.384
                      -65.0331379            173.109        -75.9502337           -127.275        -67.7570432             -48.34        -63.4888814           -113.694
                      -67.0152506             50.162        -70.9153021           -141.674        -61.8679126             81.227         -65.701675            177.391
                     -0.193222904             -8.231

             98.73       -14.5631679              2.456        -70.3596885             23.396        -70.1419998              14.29        -66.1342569             -8.821
                      -1.99265743             -3.071        -75.3147175             81.719        -87.0210964           -105.739        -75.7936296             59.337
                      -83.9322235           -170.752
                      -72.7390481             91.366       -0.518981944            -14.451        -77.7814752             83.861        -72.3057651             -59.38
                      -70.1867869             67.674        -81.7226638            -81.528        -74.6942075              0.895        -68.7565227           -154.404
                      -67.0386574           -106.321
                       -65.560492             50.111        -69.7196764             11.379       -0.528207531            -14.314        -65.7689166             32.125
                      -70.0172601             65.287        -73.6889893            -111.12         -76.862962            -37.951        -80.2824929           -114.935
                      -74.4203577             -9.033
                      -79.0233983             37.856        -74.4432333           -139.264        -70.2798963            117.761       -0.518981944            -14.439
                      -73.9837441            130.783        -75.5978382            -44.336        -69.5120776              2.109         -70.183981            -68.531
                      -70.9214082            -89.471
                      -1.95994217              -2.97        -79.3880056            120.579        -67.6181334             73.593        -64.8733647             59.991
                      -13.8929726              2.497        -77.2087147            -47.916        -74.1859551            -54.589        -66.2013979           -169.987
                      -71.4502778             12.179
                      -71.0444398            155.594        -70.2600622             -81.22        -71.8047179            -42.569        -71.6041883              7.035
                      -95.1940084            163.118       -0.509766145            -14.777         -71.075472             78.413        -69.2235002            -12.012
                       -73.551479            105.099
                       -74.009854             72.488         -75.734959             -20.31        -77.2276313            -99.835        -75.0013649            -49.675
                       -69.218478              84.94        -71.3823811             29.302       -0.500560114            -14.396        -75.2190181             87.219
                      -66.8722856            178.981
                      -74.3385005             -5.118        -74.7842666            -27.518        -73.7818874             61.323        -69.8915734            126.995
                      -79.7348267            -88.492        -70.8091348             73.275         -71.700533             -7.741       -0.518981944            -14.495
                      -66.9068449             94.394
                      -73.8287117            164.154        -70.9183546            144.708        -80.4318241           -124.979        -75.8580892             77.056
                      -89.8590826             61.965        -79.9913185             58.332         -72.475763             19.469        -67.0386574            110.623
                     -0.518981944            -14.439

            143.46        -14.516843               2.89         -63.052249             86.659        -67.5702427             91.808        -70.7760342             39.429
                      -2.00358995              -4.01        -94.6424916           -139.872         -76.972603             70.757        -68.5961488             20.959
                      -68.1698038              50.62
                      -64.4398708             84.344       -0.982970822            -19.813        -69.5250707             65.995        -69.7944631            170.624
                      -69.5068858             10.608         -85.799346             26.132         -82.355203             91.016         -75.179037             -69.27
                       -75.703123            -15.765
                      -67.0778096              93.35        -68.5844726             73.198       -0.992702912            -19.709         -68.785134             35.452
                      -71.1159802               43.6        -89.8320993             75.741        -79.7432555             99.139        -71.9547724            -99.181
                      -69.6745823           -159.979
                      -71.6638626             -2.208        -71.0382467            -80.071        -71.5810919             51.675       -0.963539294            -19.905
                      -66.6155225             91.044        -83.1453196            -62.083        -73.8800823             75.465        -81.6993942           -144.468
                      -67.9718388           -178.596
                      -1.95994217              -3.93        -72.7240011             14.458        -67.9914335             75.584        -67.3609835             82.526
                      -13.8929726              2.815        -69.2009232             12.654        -80.3972044             -3.546        -71.9650984              48.89
                       -68.112149              5.298
                      -78.1877858            168.017        -71.7912043           -135.867        -75.9994147            -57.397        -71.3888246             -67.69
                      -71.8352007             17.508       -0.963539294             -20.44        -65.3424792             93.086          -84.49799             114.33
                      -77.6280927           -142.127
                      -79.1563681             66.295        -74.8897257             171.02        -76.5479414             -8.164        -75.7084209            -94.272
                      -81.9089347             42.347        -69.8267127             67.159       -0.963539294            -19.926        -64.8962283             82.017
                      -75.5665001             52.325
                      -73.1042975             101.42        -73.8972736            -130.75        -78.1596306            -24.648        -82.1125709            150.194
                      -78.2870542            -55.375        -74.2484438           -172.883         -78.861903            113.017       -0.973249624            -19.937
                      -74.7414906              90.62
                       -69.735648            104.544        -72.5160348             150.08        -78.7860432             104.32        -73.9837441           -151.543
                      -71.5449212              7.753        -72.0516292             75.752        -68.8618946            144.565        -67.0621275             56.622
                     -0.982970822            -19.812

            188.19       -14.4707639              3.359        -62.2487792             84.328        -66.5969391             81.251         -68.030756             52.771
                      -2.01453625             -4.976        -77.0712373             28.817        -82.4468151             -19.08        -79.5679457             27.163
                        -67.60353             62.776
                      -61.8378092              81.37        -1.55587445            -24.289        -68.2682539             88.452        -74.6612618             95.356
                      -68.4020426             42.602         -89.791781             23.927        -84.7045257            161.762        -76.5947657            -70.893
                      -76.6182729           -123.562
                      -65.8502998              58.68        -72.2166783             81.452        -1.55587445            -24.233        -76.2665227             62.211
                      -66.2851652             52.777        -86.6211053           -171.062        -74.1239128            -49.285        -76.9664754            152.269
                      -78.3442926               3.02
                      -64.8809792              30.75        -76.2326815            173.517        -65.1298047             76.328        -1.52476078            -24.528
                      -62.2916447             93.741        -85.5194005             45.447        -72.3849246             10.608         -77.290986             86.378
                      -74.7652291           -141.073
                      -1.98173865             -4.906        -62.6341662             32.872        -68.9053725             94.144        -63.5697294             93.864
                      -13.8500792              3.085        -73.7100154              3.744        -73.9750582            -32.591        -82.0694757             34.725
                      -69.1659195              13.63
                      -77.0526578             13.406        -88.6594727            -157.43        -78.7033556           -146.727         -75.189015             48.163
                      -80.4154081             62.547        -1.51441428            -25.273        -68.3382927             69.009        -79.7516925             33.186
                      -77.1584708            -90.604
                      -80.6126138            106.699         -83.783257           -106.059        -81.8668356            105.974        -77.5099155             -63.04
                      -74.4937729              36.67        -66.1730647             86.647        -1.51441428            -24.586        -72.4247765             77.293
                      -78.0063872            -89.819
                      -76.2891569             72.161         -71.906746            -58.424        -92.2415307             63.151        -78.8163076             41.485
                      -78.3156263            -22.694        -78.7033556             160.46        -73.2109712             65.531        -1.53511963            -24.515
                      -66.2049461             78.711
                      -67.1250263             77.102        -93.3957843               72.1        -89.1385153             64.118         -87.870223           -178.393
                      -76.1989716            -26.745        -75.1194082             95.538        -77.9444677            -60.535        -67.3528791            119.031
                      -1.55587445              -24.3

            232.92       -14.3793327              3.483        -58.9615217             88.871        -65.9376131             65.947        -62.9163091             14.814
                      -2.00358995             -5.956        -80.2708357             42.948        -86.1237029            -83.032         -71.408184             60.548
                      -68.4295079             88.835
                      -59.4938827             95.048        -2.15810795            -27.728        -74.2529245             65.643        -80.3085537             44.647
                      -63.6605992             33.197        -76.8872073             69.283        -80.9528705            156.074        -77.0033061            -12.145
                      -80.5300538            170.374
                      -65.8349822             69.212        -75.6030723            103.254        -2.16925085             -27.67        -66.0816149             89.281
                       -65.831582              56.85        -74.4478157           -116.219         -73.905882              44.73        -81.2226036           -121.815
                      -76.9848712             30.298
                       -63.265924             37.692        -80.8679882              53.49        -66.9628146             91.996        -2.11367875            -28.144
                      -59.9653257            106.736        -76.1709797             11.335        -78.7183313           -113.876        -78.2870542           -112.653
                      -92.9795429             80.791
                      -1.98173865             -5.925        -63.3052296             14.371        -68.4226334             46.273        -60.8795144            100.947
                      -13.8073967              3.352        -74.6942075             26.085        -77.1961264             96.149         -82.656545             -49.29
                      -74.7795033            -19.524
                      -75.9067498             126.65          -83.68048            103.512        -74.6942075            -70.022        -78.9924049            -54.152
                      -73.1594462             36.211        -2.12476476            -29.079        -63.2293146             99.517        -96.7129429             90.697
                      -73.2428314             135.51
                      -75.3706082            139.192        -73.1436537            126.712         -85.799346            -55.128        -78.4236163            -27.718
                        -83.87233               61.5        -66.2547731             76.378        -2.11367875            -28.286         -71.075472             74.934
                       -75.766912             57.268
                      -73.3674056             55.463        -78.4963629            153.632        -79.2834035             58.388        -81.9588538            126.625
                      -77.0341181               0.69        -70.6153451             87.464        -70.1029996             71.192        -2.14697932            -28.081
                      -65.5951596             81.275
                      -70.8909206             75.307        -80.5024005             -6.087        -82.8847726            -76.162        -75.2742945             15.086
                      -71.0382467               -3.3        -87.7189379            -145.46        -83.5474864             49.413        -66.8761188             64.429
                      -2.16925085            -27.758

            277.65       -14.2888538              3.972        -58.3371171             98.473         -65.387584             70.273        -63.0881181              13.11
