!Hittite Microwave Corporation								
!12 Elizabeth Drive								
!Chelmsford, MA 01824							
!Tel: 978-250-3343								
!Fax: 978-250-3373								
!Device: HMC315, DC-7 GHz HBT Darlington Amplifier 
!Misc:  Vcc=5V Icc=29.81mA , DEEMBEDDED TO THE PINS OF THE DEVICE							
!	
# MHZ S MA R 50

50 0.189 18.912 5.251 -12.127 0.081 7.813 0.316 -151.42
99.75 0.208 11.865 4.843 -10.347 0.085 6.883 0.355 -162.642
149.5 0.227 4.934 4.434 -8.571 0.088 5.949 0.392 -173.934
199.25 0.231 1.72 4.37 -7.47 0.088 6.14 0.396 -178.358
249 0.235 -1.427 4.306 -6.372 0.088 6.328 0.399 177.168
298.75 0.238 -3.578 4.298 -6.017 0.088 7.078 0.398 173.996
348.5 0.24 -5.661 4.289 -5.667 0.088 7.823 0.397 170.766
398.25 0.242 -7.577 4.276 -5.538 0.088 8.602 0.396 168.152
448 0.244 -9.413 4.263 -5.415 0.088 9.375 0.396 165.468
497.75 0.244 -10.75 4.282 -5.519 0.088 10.241 0.395 162.911
547.5 0.245 -12.008 4.301 -5.629 0.088 11.101 0.394 160.279
597.25 0.247 -13.068 4.281 -5.721 0.088 11.934 0.393 157.783
647 0.249 -14.044 4.26 -5.82 0.088 12.76 0.393 155.207
696.75 0.252 -14.767 4.288 -5.888 0.088 13.777 0.392 152.508
746.5 0.254 -15.411 4.315 -5.964 0.088 14.786 0.391 149.732
796.25 0.257 -16.47 4.308 -6.305 0.088 15.665 0.392 146.974
846 0.259 -17.443 4.3 -6.651 0.088 16.539 0.393 144.146
895.75 0.26 -18.302 4.307 -6.576 0.088 17.549 0.394 141.403
945.5 0.26 -19.081 4.313 -6.506 0.088 18.554 0.396 138.61
995.25 0.26 -19.411 4.306 -7.197 0.088 19.143 0.399 135.681
1045 0.259 -19.662 4.299 -7.892 0.088 19.728 0.402 132.725
1094.75 0.26 -19.51 4.288 -7.573 0.088 20.762 0.405 129.987
1144.5 0.261 -19.304 4.276 -7.255 0.088 21.795 0.408 127.242
1194.25 0.263 -19.428 4.299 -8.204 0.088 22.516 0.411 124.262
1244 0.264 -19.501 4.322 -9.15 0.088 23.24 0.416 121.306
1293.75 0.265 -19.9 4.305 -9.134 0.088 24.391 0.42 118.525
1343.5 0.266 -20.265 4.287 -9.113 0.088 25.547 0.425 115.786
1393.25 0.264 -20.519 4.341 -9.644 0.087 26.576 0.431 113.011
1443 0.262 -20.729 4.394 -10.167 0.087 27.613 0.438 110.304
1492.75 0.261 -20.416 4.346 -10.282 0.086 28.363 0.446 107.701
1542.5 0.26 -20.076 4.298 -10.387 0.086 29.123 0.454 105.178
1592.25 0.259 -19.747 4.367 -10.29 0.086 30.115 0.462 102.977
1642 0.257 -19.406 4.436 -10.181 0.086 31.119 0.469 100.859
1691.75 0.259 -19.304 4.372 -10.787 0.086 31.838 0.477 98.423
1741.5 0.261 -19.227 4.308 -11.377 0.085 32.573 0.484 96.08
1791.25 0.259 -19.604 4.356 -10.788 0.085 33.372 0.49 94.109
1841 0.257 -20.013 4.405 -10.187 0.085 34.183 0.496 92.225
1890.75 0.255 -20.267 4.385 -11.375 0.084 35.68 0.504 90.208
1940.5 0.252 -20.561 4.366 -12.549 0.084 37.191 0.511 88.273
1990.25 0.25 -20.414 4.434 -12.387 0.083 37.818 0.519 86.546
2040 0.247 -20.303 4.502 -12.211 0.082 38.459 0.526 84.889
2089.75 0.246 -20.333 4.494 -12.915 0.082 39.845 0.533 83.163
2139.5 0.245 -20.429 4.486 -13.605 0.081 41.245 0.539 81.501
2189.25 0.243 -21.127 4.492 -13.258 0.082 42.107 0.545 80.119
2239 0.242 -21.922 4.498 -12.903 0.082 42.977 0.551 78.783
2288.75 0.238 -22.781 4.53 -13.484 0.081 44.096 0.556 77.355
2338.5 0.234 -23.749 4.563 -14.062 0.08 45.218 0.56 75.963
2388.25 0.23 -24.81 4.566 -14.592 0.08 46.673 0.565 74.761
2438 0.227 -25.998 4.57 -15.12 0.08 48.13 0.569 73.579
2487.75 0.224 -27.109 4.594 -15.634 0.08 49.421 0.574 72.205
2537.5 0.221 -28.353 4.619 -16.15 0.079 50.71 0.577 70.84
2587.25 0.216 -30.002 4.657 -16.697 0.079 51.913 0.581 69.615
2637 0.211 -31.813 4.696 -17.25 0.079 53.11 0.585 68.384
2686.75 0.207 -33.741 4.697 -16.77 0.079 54.15 0.587 67.145
2736.5 0.202 -35.839 4.698 -16.297 0.079 55.183 0.59 65.886
2786.25 0.198 -37.395 4.747 -17.207 0.079 56.163 0.592 64.521
2836 0.194 -39.081 4.797 -18.126 0.079 57.134 0.593 63.125
2885.75 0.192 -42.019 4.734 -18.043 0.08 58.742 0.594 61.791
2935.5 0.189 -45.113 4.673 -17.974 0.08 60.336 0.594 60.415
2985.25 0.186 -47.961 4.709 -18.558 0.08 61.397 0.595 58.946
3035 0.183 -50.949 4.747 -19.155 0.08 62.445 0.595 57.423
3084.75 0.179 -54.167 4.743 -19.836 0.079 63.729 0.595 55.814
3134.5 0.176 -57.502 4.74 -20.531 0.079 64.999 0.594 54.141
3184.25 0.174 -60.151 4.868 -20.632 0.079 66.008 0.593 52.637
3234 0.173 -62.835 4.997 -20.746 0.079 67.004 0.592 51.065
3283.75 0.173 -65.331 5.059 -21.711 0.079 67.889 0.59 49.297
3333.5 0.174 -67.787 5.121 -22.69 0.078 68.76 0.588 47.455
3383.25 0.177 -71.27 5.146 -22.319 0.079 69.896 0.584 45.639
3433 0.181 -74.604 5.171 -21.962 0.08 71.018 0.581 43.747
3482.75 0.183 -77.886 5.212 -22.586 0.08 72.084 0.578 41.77
3532.5 0.185 -81.029 5.252 -23.22 0.08 73.14 0.575 39.721
3582.25 0.187 -84.459 5.267 -23.658 0.08 74.607 0.571 37.491
3632 0.189 -87.722 5.281 -24.102 0.08 76.068 0.567 35.188
3681.75 0.191 -89.887 5.377 -25.167 0.079 77.303 0.565 33.048
3731.5 0.193 -91.918 5.472 -26.236 0.079 78.534 0.562 30.85
3781.25 0.197 -93.566 5.478 -27.471 0.079 79.649 0.559 28.415
3831 0.2 -95.092 5.482 -28.708 0.079 80.762 0.556 25.933
3880.75 0.207 -97.532 5.571 -29.598 0.079 81.857 0.552 23.62
3930.5 0.213 -99.815 5.659 -30.485 0.079 82.955 0.549 21.274
3980.25 0.219 -102.235 5.714 -31.305 0.079 83.985 0.545 18.824
4030 0.224 -104.523 5.767 -32.119 0.079 85.021 0.542 16.356
4079.75 0.226 -107.247 5.807 -32.896 0.079 86.249 0.539 13.701
4129.5 0.228 -109.855 5.845 -33.664 0.078 87.486 0.537 11.044
4179.25 0.229 -111.701 5.869 -34.963 0.079 88.702 0.534 8.342
4229 0.231 -113.49 5.893 -36.253 0.079 89.927 0.531 5.655
4278.75 0.233 -114.62 5.91 -37.171 0.079 91.279 0.529 3.005
4328.5 0.235 -115.732 5.927 -38.077 0.078 92.643 0.526 0.382
4378.25 0.241 -117.769 5.943 -39.231 0.079 93.894 0.524 -2.114
4428 0.247 -119.801 5.958 -40.371 0.079 95.159 0.522 -4.571
4477.75 0.252 -122.317 5.969 -41.469 0.079 96.451 0.517 -7.089
4527.5 0.256 -124.838 5.981 -42.555 0.079 97.755 0.513 -9.565
4577.25 0.256 -127.627 5.989 -43.621 0.08 99.004 0.51 -12.095
4627 0.256 -130.445 5.997 -44.678 0.08 100.262 0.508 -14.58
4676.75 0.254 -132.438 6.011 -45.564 0.08 101.531 0.502 -17.28
4726.5 0.253 -134.492 6.025 -46.445 0.081 102.805 0.496 -19.944
4776.25 0.254 -136.284 6.036 -47.57 0.081 103.995 0.492 -22.456
4826 0.254 -138.158 6.049 -48.692 0.081 105.188 0.487 -24.935
4875.75 0.258 -140.39 6.038 -49.794 0.081 106.301 0.482 -27.453
4925.5 0.261 -142.705 6.028 -50.896 0.082 107.414 0.476 -29.951
4975.25 0.264 -145.99 6.034 -52.027 0.082 108.633 0.466 -32.322
5025 0.267 -149.346 6.041 -53.164 0.083 109.846 0.457 -34.691
5074.75 0.266 -152.696 6.018 -54.36 0.083 110.915 0.45 -37.037
5124.5 0.267 -156.115 5.995 -55.565 0.084 111.975 0.442 -39.396
5174.25 0.266 -159.213 6.017 -56.684 0.083 113.056 0.43 -42.027
5224 0.265 -162.376 6.039 -57.813 0.083 114.127 0.418 -44.699
5273.75 0.265 -165.32 6.016 -59.355 0.084 114.935 0.406 -47.295
5323.5 0.265 -168.314 5.993 -60.909 0.085 115.731 0.393 -49.952
5373.25 0.268 -171.009 5.932 -61.64 0.085 116.9 0.382 -52.281
5423 0.273 -173.692 5.871 -62.382 0.085 118.058 0.37 -54.689
5472.75 0.276 -177.089 5.881 -63.943 0.085 118.537 0.354 -57.597
5522.5 0.28 179.559 5.891 -65.513 0.086 119.007 0.338 -60.633
5572.25 0.286 176.102 5.785 -66.024 0.086 119.981 0.326 -62.857
5622 0.292 172.757 5.679 -66.541 0.086 120.949 0.313 -65.201
5671.75 0.296 169.345 5.676 -68.23 0.085 121.96 0.297 -68.3
5721.5 0.299 166.053 5.671 -69.92 0.085 122.97 0.28 -71.606
5771.25 0.301 163.853 5.573 -70.796 0.085 124.044 0.266 -74.968
5821 0.302 161.742 5.473 -71.672 0.085 125.118 0.253 -78.568
5870.75 0.307 159.378 5.459 -72.816 0.086 126.234 0.237 -82.197
5920.5 0.312 157.137 5.444 -73.955 0.086 127.355 0.221 -86.169
5970.25 0.319 155.222 5.339 -74.9 0.087 128.11 0.209 -90.291
6020 0.326 153.418 5.233 -75.837 0.088 128.873 0.198 -94.737
6069.75 0.333 150.885 5.229 -76.387 0.087 130.213 0.185 -98.538
6119.5 0.34 148.504 5.223 -76.921 0.086 131.569 0.173 -102.752
6169.25 0.343 146.277 5.131 -78.232 0.086 132.853 0.165 -107.916
6219 0.346 144.187 5.039 -79.527 0.085 134.153 0.158 -113.355
6268.75 0.348 142.488 5.007 -79.748 0.085 134.667 0.148 -118.347
6318.5 0.348 140.904 4.976 -79.955 0.085 135.195 0.139 -123.828
6368.25 0.351 139.896 4.918 -81.034 0.085 136.321 0.134 -130.509
6418 0.354 138.961 4.862 -82.098 0.084 137.462 0.131 -137.302
6467.75 0.358 137.569 4.812 -82.26 0.085 137.55 0.126 -142.463
6517.5 0.361 136.243 4.764 -82.409 0.086 137.651 0.123 -147.729
6567.25 0.365 134.839 4.746 -83.184 0.087 139.171 0.12 -153.951
6617 0.368 133.49 4.729 -83.948 0.087 140.702 0.118 -160.206
6666.75 0.368 131.951 4.638 -84.478 0.088 141.657 0.118 -163.168
6716.5 0.367 130.469 4.548 -85.006 0.088 142.614 0.117 -165.964
6766.25 0.365 129.286 4.541 -85.878 0.089 143.902 0.114 -172.299
6816 0.362 128.147 4.535 -86.749 0.089 145.191 0.113 -178.747
6865.75 0.36 127.262 4.464 -87.551 0.089 146.594 0.113 178.166
6915.5 0.358 126.391 4.394 -88.354 0.089 147.996 0.114 175.261
6965.25 0.354 125.538 4.381 -88.99 0.089 148.76 0.111 171.973
7015 0.351 124.69 4.369 -89.631 0.088 149.519 0.109 168.629
7064.75 0.346 123.748 4.334 -90.563 0.089 150.057 0.106 165.675
7114.5 0.342 122.792 4.299 -91.503 0.09 150.587 0.104 162.72
7164.25 0.339 121.424 4.266 -91.835 0.09 151.78 0.098 161.41
7214 0.336 119.984 4.233 -92.174 0.09 152.966 0.093 159.788
7263.75 0.33 118.607 4.201 -92.796 0.09 153.354 0.087 156.654
7313.5 0.324 117.17 4.168 -93.431 0.09 153.729 0.083 153.115
7363.25 0.315 115.53 4.106 -94.141 0.091 154.839 0.075 152.19
7413 0.306 113.818 4.045 -94.862 0.091 155.938 0.067 150.344
7462.75 0.296 113.013 4.024 -95.504 0.091 156.601 0.061 145.723
7512.5 0.287 112.168 4.003 -96.151 0.092 157.259 0.056 139.674
7562.25 0.281 111.083 3.962 -96.958 0.092 158.182 0.047 136.68
7612 0.274 109.906 3.921 -97.77 0.093 159.1 0.039 131.235
7661.75 0.269 107.977 3.901 -98.211 0.093 159.739 0.028 122.638
7711.5 0.262 105.896 3.881 -98.66 0.094 160.37 0.02 103.712
7761.25 0.253 103.379 3.861 -99.429 0.094 161.276 0.015 72.763
7811 0.244 100.667 3.84 -100.207 0.094 162.173 0.017 37.287
7860.75 0.232 97.396 3.782 -100.468 0.095 162.787 0.027 2.694
7910.5 0.221 93.868 3.722 -100.742 0.096 163.388 0.042 -11.009
7960.25 0.211 91.186 3.695 -101.649 0.096 164.266 0.052 -16.58
8010 0.201 88.312 3.667 -102.558 0.096 165.142 0.063 -20.077
8059.75 0.192 85.619 3.617 -103.164 0.096 165.456 0.077 -23.014
8109.5 0.184 82.751 3.566 -103.768 0.096 165.772 0.091 -24.97
8159.25 0.181 78.363 3.552 -104.526 0.096 166.574 0.105 -28.111
8209 0.178 73.777 3.536 -105.286 0.097 167.374 0.12 -30.621
8258.75 0.175 68.258 3.499 -106.207 0.096 167.608 0.134 -32.73
8308.5 0.172 62.525 3.46 -107.126 0.096 167.844 0.147 -34.519
8358.25 0.169 55.539 3.435 -107.332 0.097 168.023 0.165 -36.248
8408 0.168 48.394 3.409 -107.537 0.098 168.203 0.183 -37.839
8457.75 0.166 42.466 3.355 -108.302 0.098 168.748 0.198 -39.815
8507.5 0.166 36.55 3.301 -109.06 0.098 169.3 0.212 -41.658
8557.25 0.165 30.642 3.271 -109.478 0.098 170.112 0.228 -42.24
8607 0.165 24.817 3.24 -109.887 0.098 170.933 0.243 -42.817
8656.75 0.17 21.07 3.184 -110.772 0.098 171.658 0.257 -44.672
8706.5 0.176 17.542 3.127 -111.648 0.098 172.392 0.27 -46.474
8756.25 0.184 13.437 3.099 -111.852 0.098 173.043 0.283 -47.541
8806 0.193 9.553 3.07 -112.051 0.097 173.699 0.295 -48.607
8855.75 0.205 5.128 3.019 -112.551 0.096 173.949 0.309 -50.076
8905.5 0.218 0.92 2.967 -113.049 0.095 174.201 0.322 -51.544
8955.25 0.226 -3.797 2.922 -113.299 0.095 174.741 0.336 -53.215
9005 0.235 -8.407 2.878 -113.548 0.095 175.282 0.349 -54.906
9054.75 0.239 -11.96 2.845 -114.082 0.095 175.798 0.36 -55.571
9104.5 0.244 -15.478 2.812 -114.617 0.094 176.313 0.37 -56.269
9154.25 0.249 -17.518 2.773 -114.903 0.094 177.127 0.383 -57.846
9204 0.255 -19.567 2.733 -115.195 0.094 177.935 0.396 -59.463
9253.75 0.264 -19.98 2.709 -115.244 0.094 178.726 0.402 -60.55
9303.5 0.273 -20.428 2.685 -115.301 0.094 179.509 0.407 -61.677
9353.25 0.289 -22.18 2.647 -115.486 0.093 -179.711 0.415 -62.88
9403 0.305 -23.967 2.61 -115.686 0.093 -178.946 0.423 -64.125
9452.75 0.317 -26.786 2.555 -115.906 0.093 -178.181 0.432 -65.612
9502.5 0.329 -29.649 2.501 -116.146 0.093 -177.436 0.441 -67.139
9552.25 0.328 -32.447 2.498 -116.4 0.093 -176.59 0.445 -68.427
9602 0.328 -35.328 2.495 -116.672 0.092 -175.762 0.45 -69.758
9651.75 0.325 -36.26 2.436 -117.486 0.091 -174.941 0.46 -70.858
9701.5 0.322 -37.258 2.377 -118.319 0.09 -174.139 0.47 -71.99
9751.25 0.329 -36.708 2.414 -117.556 0.09 -174.116 0.47 -73.11
9801 0.337 -36.202 2.452 -116.809 0.09 -174.109 0.471 -74.266
9850.75 0.36 -36.36 2.384 -117.423 0.09 -173.438 0.475 -75.517
9900.5 0.384 -36.57 2.317 -118.058 0.09 -172.788 0.48 -76.788
9950.25 0.398 -39.831 2.325 -115.918 0.092 -172.548 0.48 -78.005
10000 0.413 -43.133 2.332 -113.805 0.093 -172.335 0.48 -79.253
