!Hittite Microwave Corporation								
!12 Elizabeth Drive								
!Chelmsford, MA 01824								
!Tel: 978-250-3343								
!Fax: 978-250-3373								
!Device: HMC348LP3, DC-2.5 GHz GaAs MMIC SPDT Non-Reflective CATV Switch in Leadless LP3 SMT Package							
!Misc: Room Temp Vdd=+5V, RF2 on.								
!
# MHZ S MA R 50

30 0.062 -14.686 38.44e-6 18.386 0.932 -0.103
          111.5e-6 46.694 0.211 -5.635 87.34e-6 -7.793
          0.932 -0.083 50.77e-6 6.56 0.063 -14.372
59.85 0.057 -20.106 91.67e-6 60.813 0.937 -1.298
          124.9e-6 48.893 0.205 -6.33 74.57e-6 46.109
          0.936 -1.318 57.13e-6 63.81 0.057 -19.846
89.7 0.058 -26.971 174.6e-6 61.511 0.934 -1.972
          172.6e-6 75.048 0.206 -8.093 46.35e-6 40.724
          0.935 -1.992 53.5e-6 66.761 0.059 -26.964
119.55 0.061 -33.967 184.9e-6 77.923 0.934 -2.577
          242.3e-6 77.151 0.207 -10.05 81.04e-6 96.776
          0.935 -2.529 64.96e-6 61.06 0.062 -33.439
149.4 0.065 -40.225 269e-6 79.254 0.934 -3.166
          274.6e-6 79.627 0.209 -12.077 70.56e-6 66.038
          0.935 -3.164 45.92e-6 56.844 0.066 -39.457
179.25 0.069 -46.033 342.3e-6 75.959 0.933 -3.762
          321.6e-6 77.534 0.21 -14.34 130.7e-6 88.67
          0.933 -3.734 150.9e-6 76.125 0.07 -45.013
209.1 0.073 -51.556 386.2e-6 82.797 0.933 -4.345
          439.7e-6 82.582 0.212 -16.312 157.4e-6 68.792
          0.933 -4.371 125.7e-6 78.919 0.074 -50.333
238.95 0.078 -56.41 452.8e-6 80.666 0.931 -4.996
          439.5e-6 85.121 0.213 -18.453 178.5e-6 89.595
          0.932 -4.989 154.1e-6 86.126 0.079 -55.168
268.8 0.083 -60.82 505.1e-6 81.679 0.929 -5.55
          510.3e-6 84.45 0.216 -20.631 194.6e-6 90.75
          0.929 -5.549 180.1e-6 78.873 0.085 -59.231
298.65 0.088 -64.887 595.1e-6 82.068 0.927 -6.06
          566.7e-6 84.97 0.219 -22.693 229.8e-6 89.118
          0.928 -6.096 236.6e-6 90.541 0.091 -62.865
328.5 0.093 -68.355 637.8e-6 84.635 0.93 -6.585
          643.3e-6 81.1 0.221 -24.802 281.7e-6 97.637
          0.93 -6.687 224.6e-6 95.672 0.097 -65.774
358.35 0.098 -71.42 681.2e-6 81.048 0.928 -7.299
          626.8e-6 80.072 0.224 -26.493 294.9e-6 86.506
          0.929 -7.321 240.6e-6 92.528 0.102 -68.619
388.2 0.103 -74.68 730e-6 83.744 0.925 -7.823
          667.3e-6 81.457 0.227 -28.537 266.4e-6 90.882
          0.925 -7.877 292e-6 89.113 0.108 -71.444
418.05 0.108 -77.701 754.6e-6 81.511 0.923 -8.267
          777e-6 82.012 0.23 -30.547 302.9e-6 85.167
          0.923 -8.318 340e-6 87.032 0.114 -74.059
447.9 0.114 -80.569 815.7e-6 83.885 0.924 -8.778
          856.7e-6 81.085 0.234 -32.462 288.5e-6 85.704
          0.924 -8.811 328.2e-6 93.087 0.12 -76.472
477.75 0.119 -83.274 875e-6 84.237 0.924 -9.45
          884.5e-6 85.001 0.237 -34.24 336.3e-6 95.494
          0.925 -9.463 350.2e-6 98.879 0.127 -78.722
507.6 0.124 -85.466 902.4e-6 80.491 0.92 -9.965
          934e-6 82.595 0.241 -35.849 319.6e-6 95.947
          0.922 -10.008 376.9e-6 93.137 0.131 -80.738
537.45 0.128 -87.978 974.8e-6 82.979 0.919 -10.386
          1.034e-3 81.658 0.244 -37.588 387.2e-6 88.505
          0.92 -10.444 361e-6 95.5 0.137 -82.409
567.3 0.132 -90.337 1.06e-3 81.791 0.918 -10.862
          1.039e-3 82.813 0.248 -39.165 392.7e-6 92.833
          0.92 -10.979 377.4e-6 95.483 0.142 -84.35
597.15 0.137 -92.614 1.071e-3 80.588 0.919 -11.456
          1.053e-3 82.743 0.253 -40.792 408.1e-6 98.264
          0.919 -11.538 434.6e-6 101.289 0.148 -86.106
627 0.141 -94.548 1.151e-3 80.629 0.917 -12.044
          1.129e-3 81.761 0.255 -42.248 431.9e-6 97.903
          0.917 -12.106 461.1e-6 102.382 0.152 -87.939
656.85 0.145 -96.574 1.133e-3 81.157 0.915 -12.437
          1.162e-3 81.738 0.26 -43.832 474.7e-6 98.375
          0.916 -12.544 496.2e-6 107.575 0.157 -89.571
686.7 0.148 -98.691 1.17e-3 80.802 0.914 -12.839
          1.216e-3 82.117 0.264 -45.233 489.9e-6 98.517
          0.915 -12.982 493.2e-6 102.275 0.161 -90.879
716.55 0.152 -100.64 1.222e-3 82.033 0.913 -13.295
          1.228e-3 82.221 0.268 -46.654 501e-6 104.156
          0.916 -13.46 507.1e-6 103.768 0.165 -92.395
746.4 0.155 -102.352 1.281e-3 82.555 0.915 -13.866
          1.289e-3 81.087 0.271 -47.942 519.1e-6 100.607
          0.916 -14.066 518.5e-6 110.281 0.169 -94.029
776.25 0.158 -104.225 1.322e-3 79.993 0.913 -14.541
          1.321e-3 80.593 0.275 -49.324 570.9e-6 107.232
          0.914 -14.714 543.2e-6 111.448 0.173 -95.561
806.1 0.161 -105.816 1.367e-3 80.571 0.908 -14.944
          1.354e-3 81.382 0.28 -50.565 552.9e-6 108.253
          0.909 -15.038 535.7e-6 108.131 0.176 -96.771
835.95 0.162 -107.425 1.401e-3 80.235 0.909 -15.171
          1.432e-3 80.751 0.283 -51.739 599.5e-6 109.641
          0.91 -15.248 561.8e-6 108.964 0.179 -97.985
865.8 0.165 -109.215 1.476e-3 80.448 0.917 -15.655
          1.429e-3 79.128 0.287 -52.866 634.4e-6 109.281
          0.915 -15.849 580.3e-6 111.656 0.182 -99.346
895.65 0.167 -110.941 1.508e-3 80.076 0.915 -16.566
          1.495e-3 79.855 0.291 -53.997 622.8e-6 110.189
          0.914 -16.672 624.5e-6 112.563 0.184 -100.695
925.5 0.168 -112.345 1.524e-3 78.834 0.907 -17.158
          1.51e-3 78.94 0.295 -55.142 619.1e-6 113.858
          0.908 -17.208 632.1e-6 112.539 0.186 -101.73
955.35 0.169 -113.463 1.517e-3 79.141 0.904 -17.177
          1.508e-3 79.823 0.298 -56.185 664.1e-6 114.803
          0.905 -17.316 640e-6 115.905 0.188 -102.924
985.2 0.17 -115.316 1.544e-3 80.829 0.911 -17.446
          1.561e-3 80.484 0.302 -57.202 677.6e-6 114.899
          0.91 -17.653 669.9e-6 119.929 0.19 -103.959
1015.05 0.171 -117.008 1.612e-3 80.707 0.915 -18.33
          1.608e-3 79.295 0.306 -58.267 706.6e-6 117.384
          0.915 -18.311 710.8e-6 120.132 0.192 -105.311
1044.9 0.17 -118.265 1.66e-3 79.925 0.911 -19.084
          1.643e-3 79.354 0.309 -59.212 728.1e-6 119.955
          0.911 -19.095 721.1e-6 121.459 0.192 -106.654
1074.75 0.17 -119.482 1.647e-3 78.543 0.905 -19.416
          1.67e-3 78.779 0.313 -60.155 719.8e-6 122.582
          0.907 -19.59 726.2e-6 122.174 0.193 -107.554
1104.6 0.17 -121.01 1.666e-3 78.558 0.904 -19.659
          1.657e-3 78.569 0.316 -61.054 749.5e-6 125.093
          0.905 -19.885 788.3e-6 123.133 0.193 -108.366
1134.45 0.17 -122.24 1.706e-3 79.58 0.908 -20.04
          1.666e-3 78.479 0.32 -61.955 805.2e-6 127.815
          0.909 -20.164 795.3e-6 125.052 0.194 -109.678
1164.3 0.169 -123.833 1.723e-3 79.21 0.912 -20.61
          1.703e-3 78.254 0.323 -62.799 846.8e-6 130.303
          0.913 -20.725 858.2e-6 127.498 0.194 -110.807
1194.15 0.168 -125.312 1.73e-3 78.885 0.913 -21.352
          1.732e-3 78.103 0.327 -63.635 885.1e-6 131.199
          0.914 -21.58 882.2e-6 131.799 0.193 -112.009
1224 0.165 -126.67 1.726e-3 78.313 0.91 -22.14
          1.734e-3 77.697 0.329 -64.465 923.4e-6 132.214
          0.908 -22.301 913.9e-6 133.716 0.191 -113.035
1253.85 0.164 -127.744 1.719e-3 78.996 0.904 -22.448
          1.733e-3 77.465 0.333 -65.231 959.1e-6 133.918
          0.903 -22.569 955.9e-6 132.424 0.19 -113.762
1283.7 0.163 -128.87 1.709e-3 78.966 0.906 -22.404
          1.747e-3 78.262 0.335 -66.019 971.7e-6 134.217
          0.905 -22.601 950.1e-6 133.032 0.19 -114.637
1313.55 0.162 -130.248 1.754e-3 78.828 0.915 -22.965
          1.75e-3 78.625 0.339 -66.843 1.013e-3 135.649
          0.914 -23.195 992.3e-6 136.669 0.189 -116.067
1343.4 0.158 -132.234 1.787e-3 77.492 0.916 -24.144
          1.754e-3 78.088 0.34 -67.589 1.076e-3 138.085
          0.913 -24.269 1.083e-3 139.413 0.186 -117.289
1373.25 0.155 -133.24 1.765e-3 76.477 0.907 -24.806
          1.763e-3 77.869 0.344 -68.246 1.119e-3 138.325
          0.904 -24.874 1.108e-3 138.328 0.183 -117.862
1403.1 0.152 -133.859 1.72e-3 75.938 0.903 -24.76
          1.754e-3 78.185 0.346 -69.031 1.159e-3 139.802
          0.901 -24.909 1.136e-3 139.122 0.181 -118.835
1432.95 0.15 -135.289 1.714e-3 77.004 0.911 -24.994
          1.762e-3 78.461 0.348 -69.75 1.198e-3 141.965
          0.908 -25.2 1.186e-3 141.241 0.179 -120.108
1462.8 0.147 -137.347 1.768e-3 78.117 0.915 -25.877
          1.74e-3 77.773 0.35 -70.446 1.27e-3 142.583
          0.911 -26.031 1.255e-3 143.351 0.175 -121.215
1492.65 0.142 -138.296 1.771e-3 77.831 0.912 -26.666
          1.7e-3 77.92 0.352 -71.159 1.318e-3 142.957
          0.908 -26.72 1.348e-3 143.545 0.171 -122.416
1522.5 0.139 -139.275 1.725e-3 78.139 0.91 -27.054
          1.707e-3 77.988 0.354 -71.746 1.373e-3 143.893
          0.904 -27.029 1.41e-3 143.217 0.168 -123.213
1552.35 0.135 -140.513 1.746e-3 78.175 0.909 -27.517
          1.706e-3 77.78 0.356 -72.385 1.447e-3 145.744
          0.908 -27.496 1.455e-3 145.537 0.164 -124.03
1582.2 0.131 -141.98 1.731e-3 77.564 0.908 -28.02
          1.681e-3 78.245 0.358 -73.14 1.492e-3 146.709
          0.909 -28.116 1.509e-3 145.815 0.16 -125.396
1612.05 0.127 -143.411 1.678e-3 77.227 0.91 -28.309
          1.664e-3 78.371 0.359 -73.741 1.555e-3 147.476
          0.909 -28.527 1.57e-3 146.271 0.156 -126.496
1641.9 0.123 -144.841 1.692e-3 78.472 0.917 -29
          1.642e-3 78.144 0.361 -74.31 1.628e-3 148.846
          0.914 -29.028 1.618e-3 148.418 0.151 -127.974
1671.75 0.118 -146.758 1.678e-3 78.52 0.914 -30.064
          1.617e-3 77.078 0.361 -74.97 1.698e-3 148.928
          0.912 -29.831 1.702e-3 149.699 0.144 -129.291
1701.6 0.113 -147.487 1.614e-3 77.048 0.904 -30.464
          1.587e-3 77.106 0.363 -75.606 1.751e-3 149.124
          0.906 -30.402 1.79e-3 150.759 0.139 -129.983
1731.45 0.109 -148.303 1.554e-3 78.786 0.905 -30.361
          1.549e-3 78.286 0.365 -76.303 1.812e-3 150.547
          0.906 -30.619 1.807e-3 151.867 0.134 -131.081
1761.3 0.105 -150.774 1.542e-3 80.578 0.918 -30.921
          1.535e-3 78.921 0.365 -76.985 1.896e-3 152.338
          0.913 -31.23 1.878e-3 153.463 0.129 -133.232
1791.15 0.098 -153.331 1.556e-3 79.668 0.918 -32.254
          1.503e-3 78.222 0.365 -77.474 1.979e-3 153.076
          0.91 -32.183 2.003e-3 153.848 0.121 -134.798
1821 0.092 -153.571 1.482e-3 79.598 0.908 -32.95
          1.465e-3 78.084 0.366 -78.175 2.061e-3 153.2
          0.903 -32.606 2.092e-3 153.241 0.114 -136.06
1850.85 0.088 -154.844 1.375e-3 79.558 0.906 -32.868
          1.447e-3 80.149 0.366 -78.698 2.144e-3 154.791
          0.906 -32.625 2.18e-3 153.984 0.109 -137.539
1880.7 0.084 -157.993 1.363e-3 81.757 0.914 -33.345
          1.364e-3 81.098 0.367 -79.154 2.258e-3 155.164
          0.916 -33.183 2.296e-3 155.82 0.103 -139.612
1910.55 0.077 -160.974 1.309e-3 82.527 0.916 -34.324
          1.279e-3 80.572 0.367 -79.811 2.38e-3 155.485
          0.916 -34.189 2.425e-3 156.517 0.095 -142.412
1940.4 0.071 -162.766 1.247e-3 81.425 0.91 -35.017
          1.217e-3 82.854 0.366 -80.45 2.439e-3 156.133
          0.908 -34.978 2.531e-3 155.542 0.087 -144.141
1970.25 0.066 -165.218 1.186e-3 82.417 0.909 -35.336
          1.172e-3 84.024 0.366 -81.247 2.562e-3 156.655
          0.908 -35.409 2.595e-3 156.505 0.08 -146.799
2000.1 0.061 -168.592 1.14e-3 83.31 0.91 -35.884
          1.141e-3 83.295 0.366 -81.823 2.686e-3 157.296
          0.912 -35.918 2.702e-3 156.615 0.073 -150.032
2029.95 0.055 -171.122 1.047e-3 83.855 0.909 -36.466
          1.081e-3 85.543 0.365 -82.367 2.781e-3 157.474
          0.909 -36.503 2.803e-3 156.803 0.065 -153.377
2059.8 0.051 -176.086 953.4e-6 88.94 0.912 -36.984
          970.9e-6 86.617 0.364 -83.018 2.923e-3 157.737
          0.909 -36.975 2.89e-3 157.826 0.058 -158.377
2089.65 0.045 177.104 898.8e-6 90.933 0.916 -37.885
          853.8e-6 90.241 0.362 -83.635 3.031e-3 157.37
          0.914 -37.705 3.039e-3 158.824 0.05 -165.703
2119.5 0.038 170.314 808.5e-6 92.654 0.91 -38.91
          784.8e-6 95.042 0.362 -84.37 3.144e-3 157.297
          0.913 -38.739 3.239e-3 157.666 0.042 -174.085
2149.35 0.034 164.503 724.2e-6 94.269 0.901 -39.211
          702.8e-6 96.824 0.361 -84.881 3.228e-3 157.684
          0.903 -39.126 3.299e-3 155.396 0.034 179.163
2179.2 0.032 158.648 665.5e-6 102.225 0.904 -39.106
          668e-6 103.329 0.359 -85.569 3.397e-3 159.095
          0.901 -39.147 3.279e-3 157.549 0.031 166.446
2209.05 0.031 144.385 627.7e-6 111.074 0.916 -39.825
          579.4e-6 113.626 0.358 -86.421 3.516e-3 159.196
          0.913 -39.739 3.387e-3 160.099 0.031 145.466
2238.9 0.029 126.885 561.3e-6 122.35 0.914 -41.196
          564e-6 122.604 0.356 -87.115 3.633e-3 158.528
          0.917 -41.13 3.707e-3 159.586 0.031 121.512
2268.75 0.027 111.336 498e-6 133.206 0.902 -41.866
          505.6e-6 132.673 0.354 -87.858 3.72e-3 158.308
          0.904 -42.1 3.839e-3 156.477 0.033 102.647
2298.6 0.027 101.574 471.8e-6 146.133 0.9 -41.917
          491.7e-6 145.12 0.352 -88.492 3.847e-3 159.672
          0.893 -42.083 3.834e-3 156.795 0.037 90.8
2328.45 0.031 93.782 526.1e-6 164.127 0.907 -42.395
          501.1e-6 160.042 0.349 -89.368 4.021e-3 160.328
          0.9 -42.066 3.875e-3 159.841 0.045 83.885
2358.3 0.037 83.3 581e-6 175.626 0.909 -43.316
          533.2e-6 178.79 0.346 -90.054 4.178e-3 158.913
          0.91 -42.903 4.116e-3 161.366 0.056 76.44
2388.15 0.041 73.117 649.6e-6 -171.02 0.904 -44.169
          661e-6 -170.117 0.344 -90.602 4.312e-3 158.478
          0.909 -43.89 4.372e-3 159.978 0.066 69.345
2418 0.046 67.998 796.1e-6 -161.314 0.902 -44.726
          773.9e-6 -162.823 0.341 -91.555 4.487e-3 158.977
          0.906 -44.755 4.577e-3 158.76 0.075 64.702
2447.85 0.051 61.3 891.6e-6 -155.778 0.901 -45.355
          900.3e-6 -156.691 0.338 -92.342 4.611e-3 158.94
          0.899 -45.571 4.643e-3 157.847 0.085 60.48
2477.7 0.056 57.299 1.029e-3 -153.014 0.896 -45.79
          1.043e-3 -151.504 0.335 -93.238 4.781e-3 158.859
          0.893 -46.015 4.585e-3 157.087 0.094 57.352
2507.55 0.061 55.858 1.179e-3 -148.188 0.897 -46.245
          1.239e-3 -148.187 0.332 -94.081 4.953e-3 159.251
          0.894 -45.944 4.681e-3 159.823 0.103 55.491
2537.4 0.069 53.973 1.435e-3 -142.723 0.901 -46.91
          1.462e-3 -143.729 0.328 -95.121 5.169e-3 159.577
          0.904 -46.524 5.052e-3 163.054 0.115 54.511
2567.25 0.076 50.506 1.699e-3 -142.803 0.899 -47.823
          1.669e-3 -144.685 0.323 -96.014 5.325e-3 159.174
          0.906 -48.175 5.536e-3 160.505 0.128 51.324
2597.1 0.081 46.483 1.831e-3 -144.294 0.892 -48.535
          1.814e-3 -143.448 0.32 -97.143 5.447e-3 158.974
          0.891 -49.184 5.533e-3 155.773 0.137 48.568
2626.95 0.084 44.864 1.929e-3 -143.041 0.888 -48.976
          2.02e-3 -141.162 0.316 -97.761 5.628e-3 158.896
          0.878 -48.73 5.305e-3 157.048 0.145 46.847
2656.8 0.09 45.917 2.184e-3 -138.081 0.891 -49.506
          2.278e-3 -139.479 0.311 -98.747 5.86e-3 159.516
          0.888 -48.459 5.574e-3 162.272 0.155 46.355
2686.65 0.099 43.798 2.579e-3 -138.203 0.891 -50.29
          2.537e-3 -139.591 0.306 -99.887 5.978e-3 158.523
          0.902 -49.901 6.166e-3 162.123 0.169 45.097
2716.5 0.106 40.999 2.805e-3 -141.092 0.886 -50.906
          2.774e-3 -140.127 0.303 -101.432 6.138e-3 158.509
          0.894 -51.354 6.401e-3 158.232 0.179 43.054
2746.35 0.109 39.92 2.907e-3 -140.356 0.883 -51.511
          3.029e-3 -139.367 0.298 -102.397 6.323e-3 158.909
          0.88 -51.78 6.307e-3 157.588 0.188 41.289
2776.2 0.115 39.308 3.181e-3 -138.207 0.882 -52.193
          3.282e-3 -138.459 0.293 -103.804 6.577e-3 158.058
          0.876 -51.841 6.386e-3 159.631 0.197 40.337
2806.05 0.121 38.773 3.481e-3 -137.983 0.88 -52.755
          3.581e-3 -139.576 0.287 -105.081 6.721e-3 158.266
          0.881 -52.617 6.738e-3 159.67 0.209 39.14
2835.9 0.127 37.788 3.708e-3 -137.771 0.876 -53.339
          3.898e-3 -138.98 0.282 -106.385 6.969e-3 157.747
          0.879 -53.214 6.932e-3 159.097 0.219 37.872
2865.75 0.133 37.158 4.163e-3 -137.408 0.874 -53.964
          4.16e-3 -139.381 0.277 -107.708 7.152e-3 157.839
          0.88 -53.602 7.214e-3 159.308 0.229 36.996
2895.6 0.14 36.581 4.548e-3 -140.207 0.872 -54.583
          4.401e-3 -140.081 0.271 -108.929 7.347e-3 157.593
          0.88 -54.608 7.578e-3 158.966 0.239 35.79
2925.45 0.146 35.126 4.637e-3 -141.774 0.874 -55.294
          4.697e-3 -140.461 0.265 -110.619 7.575e-3 157.652
          0.872 -55.671 7.621e-3 156.612 0.25 34.571
2955.3 0.15 34.767 4.879e-3 -138.697 0.869 -56.137
          4.985e-3 -140.211 0.261 -112.537 7.78e-3 157.214
          0.86 -55.679 7.487e-3 157.073 0.257 33.32
2985.15 0.154 34.893 5.376e-3 -136.822 0.857 -56.472
          5.394e-3 -139.959 0.256 -114.273 7.926e-3 157.442
          0.868 -55.53 7.805e-3 160.607 0.265 32.687
3015 0.163 34.963 5.991e-3 -140.348 0.861 -56.657
          5.814e-3 -140.402 0.25 -116.268 8.18e-3 158.05
          0.878 -56.854 8.512e-3 160.028 0.276 32.044
3044.85 0.168 33.738 6.175e-3 -143.49 0.865 -57.277
          6.132e-3 -140.921 0.243 -117.837 8.583e-3 157.914
          0.864 -58.177 8.689e-3 155.97 0.286 30.743
3074.7 0.172 32.925 6.187e-3 -141.151 0.86 -58.585
          6.493e-3 -141.066 0.237 -120.022 8.727e-3 157.057
          0.851 -58.225 8.454e-3 156.693 0.292 29.468
3104.55 0.176 33.391 6.814e-3 -138.446 0.851 -59.172
          6.944e-3 -140.786 0.232 -122.168 8.841e-3 156.517
          0.857 -57.96 8.787e-3 159.747 0.301 28.842
3134.4 0.183 33.095 7.574e-3 -140.988 0.847 -59.24
          7.471e-3 -141.78 0.226 -124.88 9.096e-3 157.035
          0.863 -59.129 9.376e-3 158.538 0.31 28.13
3164.25 0.189 32.434 7.883e-3 -143.11 0.853 -59.851
          7.856e-3 -143.062 0.22 -127.112 9.47e-3 157.157
          0.856 -60.226 9.538e-3 156.629 0.319 27.069
3194.1 0.194 32.528 8.096e-3 -142.338 0.85 -60.748
          8.245e-3 -142.478 0.215 -129.827 9.687e-3 156.766
          0.847 -60.22 9.543e-3 157.793 0.326 26.32
3223.95 0.198 32.53 8.668e-3 -142.054 0.841 -61.244
          8.775e-3 -143.084 0.209 -132.419 9.871e-3 156.452
          0.853 -60.515 0.01 159.056 0.333 25.585
3253.8 0.205 31.981 9.282e-3 -143.609 0.842 -61.63
          9.329e-3 -144.593 0.205 -135.413 0.01 156.391
          0.856 -61.771 0.011 157.371 0.342 24.761
3283.65 0.209 31.748 9.64e-3 -144.564 0.84 -62.333
          9.695e-3 -145.643 0.199 -138.533 0.01 156.479
          0.844 -62.535 0.011 155.826 0.348 23.691
3313.5 0.213 31.888 0.01 -144.716 0.832 -62.808
          0.01 -145.434 0.194 -142.205 0.011 156.295
          0.84 -62.622 0.011 157.214 0.352 22.999
3343.35 0.221 32.075 0.011 -146.093 0.831 -63.052
          0.011 -146.208 0.19 -145.415 0.011 156.634
          0.845 -63.062 0.011 157.994 0.36 22.483
3373.2 0.226 31.687 0.011 -147.483 0.837 -63.704
          0.011 -147.216 0.187 -149.171 0.011 156.264
          0.841 -64.191 0.012 156.312 0.368 21.669
3403.05 0.231 31.272 0.012 -147.348 0.832 -64.852
          0.012 -147.902 0.184 -153.047 0.012 155.68
          0.833 -64.612 0.012 155.706 0.372 20.661
3432.9 0.235 31.728 0.012 -147.241 0.821 -65.228
          0.012 -148.66 0.181 -157.277 0.012 155.126
          0.836 -64.739 0.012 156.925 0.377 20.111
3462.75 0.241 31.83 0.013 -149.592 0.819 -64.992
          0.013 -149.808 0.179 -161.254 0.012 156.141
          0.839 -65.821 0.013 156.432 0.382 19.534
3492.6 0.248 31.564 0.014 -151.76 0.831 -65.75
          0.014 -150.613 0.177 -165.803 0.013 155.959
          0.83 -66.661 0.013 154.579 0.389 18.781
3522.45 0.251 31.446 0.014 -150.921 0.825 -67.135
          0.014 -151.225 0.176 -170.066 0.013 154.936
          0.821 -66.74 0.013 155.298 0.392 17.872
3552.3 0.256 31.762 0.015 -150.473 0.811 -67.555
          0.015 -151.584 0.177 -174.489 0.013 155.122
          0.828 -66.871 0.013 157.071 0.395 17.384
3582.15 0.263 31.697 0.016 -152.392 0.808 -67.3
          0.015 -153.114 0.177 -179.116 0.013 155.976
