!Hittite Microwave Corporation								
!20 Alpha Rd								
!Chelmsford, MA 01824								
!Tel: 978-250-3343								
!Fax: 978-250-3373
!Device: HMC376LP3, 700 - 1000MHz GaAs PHEMT LNA in 3x3mm SMT QFN package
!Misc: Data taken on a part mounted on evaluation PCB 112580-1, Bias: +5VDC,Rbias=10 Ohms
# MHZ S MA R 50

50 1.051 -8.739 0.229 14.527 702e-6 -155.548 1 -7.96
79.75 1.096 -19.16 0.713 -8.669 1.596e-3 177.193 1 -12.988
109.5 1.031 -31.359 1.382 -37.57 2.629e-3 163.957 0.996 -18.037
139.25 0.899 -39.459 1.961 -61.45 3.724e-3 156.268 0.99 -23.17
169 0.801 -43.406 2.433 -76.792 4.882e-3 157.046 0.984 -28.436
198.75 0.731 -46.794 2.954 -88.787 6.554e-3 157.763 0.975 -34.006
228.5 0.677 -49.733 3.47 -99.437 8.755e-3 157.761 0.962 -39.871
258.25 0.633 -52.695 3.988 -109.069 0.011 157.205 0.945 -46.06
288 0.594 -55.93 4.514 -118.212 0.015 155.825 0.921 -52.659
317.75 0.555 -59.459 5.041 -127.113 0.019 153.278 0.891 -59.608
347.5 0.514 -63.201 5.56 -135.971 0.023 150.058 0.852 -66.947
377.25 0.47 -67.05 6.052 -144.883 0.028 145.818 0.803 -74.716
407 0.423 -70.73 6.51 -153.885 0.034 141.037 0.745 -82.839
436.75 0.371 -73.858 6.888 -162.985 0.04 135.807 0.675 -91.157
466.5 0.318 -75.873 7.179 -171.987 0.046 130.079 0.596 -99.606
496.25 0.266 -76.033 7.371 179.14 0.052 124.227 0.511 -108.056
526 0.218 -73.183 7.46 170.607 0.058 118.377 0.424 -116.359
555.75 0.18 -66.401 7.46 162.405 0.064 112.655 0.337 -124.434
585.5 0.156 -55.56 7.38 154.666 0.069 107.208 0.252 -132.333
615.25 0.149 -42.519 7.242 147.456 0.074 102.001 0.174 -140.109
645 0.158 -30.874 7.06 140.771 0.078 97.179 0.101 -148.646
674.75 0.175 -22.756 6.852 134.579 0.082 92.745 0.041 174.861
704.5 0.195 -17.868 6.63 128.837 0.085 88.647 0.024 48.091
734.25 0.216 -15.379 6.402 123.521 0.088 84.849 0.074 24.365
764 0.235 -14.418 6.189 118.583 0.092 81.292 0.12 17.602
793.75 0.253 -14.543 5.966 113.978 0.095 78.013 0.16 12.359
823.5 0.268 -15.385 5.75 109.651 0.097 74.975 0.196 7.681
853.25 0.283 -16.581 5.545 105.597 0.1 72.117 0.228 3.424
883 0.296 -17.882 5.352 101.799 0.103 69.437 0.256 -0.574
912.75 0.308 -19.207 5.169 98.239 0.105 66.969 0.28 -4.246
942.5 0.318 -20.638 4.999 94.824 0.108 64.523 0.301 -7.654
972.25 0.326 -22.128 4.84 91.603 0.11 62.254 0.321 -10.932
1002 0.333 -23.73 4.687 88.521 0.113 59.99 0.338 -14.048
1031.75 0.34 -25.32 4.543 85.544 0.115 57.836 0.354 -17.067
1061.5 0.346 -26.993 4.41 82.635 0.118 55.837 0.367 -20.012
1091.25 0.352 -28.58 4.284 79.832 0.121 53.834 0.38 -22.886
1121 0.357 -30.09 4.165 77.136 0.123 51.93 0.391 -25.574
1150.75 0.36 -31.573 4.055 74.556 0.126 50.008 0.401 -28.252
1180.5 0.364 -33.144 3.957 72.028 0.129 48.13 0.411 -30.803
1210.25 0.367 -34.771 3.855 69.536 0.131 46.348 0.419 -33.289
1240 0.369 -36.391 3.76 67.099 0.134 44.613 0.427 -35.795
1269.75 0.372 -37.852 3.67 64.757 0.136 42.866 0.434 -38.261
1299.5 0.374 -39.256 3.586 62.505 0.139 41.136 0.439 -40.662
1329.25 0.376 -40.673 3.507 60.203 0.142 39.519 0.444 -43.029
1359 0.377 -42.017 3.432 57.976 0.144 37.868 0.449 -45.309
1388.75 0.377 -43.528 3.358 55.803 0.147 36.159 0.454 -47.548
1418.5 0.378 -45.025 3.288 53.675 0.15 34.489 0.458 -49.808
1448.25 0.379 -46.445 3.222 51.533 0.153 32.917 0.461 -52.06
1478 0.379 -47.877 3.158 49.485 0.155 31.307 0.464 -54.271
1507.75 0.38 -49.197 3.098 47.425 0.158 29.737 0.467 -56.428
1537.5 0.379 -50.495 3.042 45.371 0.161 28.188 0.469 -58.611
1567.25 0.379 -51.797 2.988 43.333 0.164 26.59 0.471 -60.755
1597 0.378 -53.134 2.936 41.264 0.167 24.988 0.473 -62.88
1626.75 0.377 -54.498 2.886 39.277 0.17 23.418 0.475 -64.973
1656.5 0.376 -55.857 2.837 37.306 0.173 21.855 0.476 -67.085
1686.25 0.376 -57.135 2.797 35.321 0.176 20.301 0.477 -69.173
1716 0.375 -58.395 2.753 33.376 0.179 18.769 0.478 -71.226
1745.75 0.373 -59.708 2.71 31.446 0.182 17.196 0.479 -73.247
1775.5 0.371 -61.04 2.67 29.532 0.185 15.599 0.479 -75.301
1805.25 0.37 -62.387 2.631 27.642 0.188 14.076 0.48 -77.321
1835 0.368 -63.738 2.592 25.725 0.191 12.534 0.48 -79.389
1864.75 0.366 -65.017 2.554 23.8 0.194 10.968 0.48 -81.443
1894.5 0.363 -66.287 2.519 21.883 0.197 9.432 0.479 -83.452
1924.25 0.361 -67.655 2.484 20.011 0.2 7.888 0.479 -85.419
1954 0.359 -69.055 2.451 18.161 0.203 6.323 0.478 -87.416
1983.75 0.356 -70.451 2.42 16.248 0.206 4.777 0.478 -89.346
2013.5 0.354 -71.832 2.389 14.37 0.209 3.204 0.478 -91.346
2043.25 0.352 -73.188 2.358 12.497 0.212 1.635 0.477 -93.376
2073 0.349 -74.523 2.328 10.62 0.215 0.076 0.477 -95.368
2102.75 0.346 -75.913 2.3 8.752 0.218 -1.492 0.476 -97.361
2132.5 0.343 -77.327 2.273 6.898 0.221 -3.085 0.475 -99.349
2162.25 0.341 -78.808 2.247 5.031 0.224 -4.663 0.474 -101.344
2192 0.338 -80.259 2.221 3.15 0.228 -6.227 0.473 -103.332
2221.75 0.337 -81.598 2.198 1.289 0.231 -7.817 0.473 -105.303
2251.5 0.334 -82.944 2.172 -0.548 0.234 -9.425 0.471 -107.305
2281.25 0.331 -84.303 2.148 -2.392 0.237 -11.039 0.47 -109.282
2311 0.329 -85.75 2.125 -4.271 0.241 -12.636 0.469 -111.225
2340.75 0.326 -87.243 2.102 -6.13 0.244 -14.247 0.467 -113.196
2370.5 0.324 -88.706 2.08 -7.979 0.247 -15.839 0.466 -115.184
2400.25 0.321 -90.109 2.057 -9.829 0.25 -17.48 0.464 -117.19
2430 0.319 -91.453 2.036 -11.682 0.253 -19.088 0.463 -119.09
2459.75 0.316 -92.869 2.014 -13.529 0.256 -20.701 0.461 -121.047
2489.5 0.313 -94.334 1.994 -15.406 0.259 -22.329 0.459 -123.006
2519.25 0.31 -95.842 1.973 -17.25 0.262 -23.955 0.458 -124.914
2549 0.307 -97.359 1.954 -19.103 0.266 -25.599 0.456 -126.829
2578.75 0.304 -98.813 1.936 -20.941 0.269 -27.236 0.455 -128.722
2608.5 0.302 -100.226 1.917 -22.794 0.272 -28.893 0.454 -130.673
2638.25 0.298 -101.595 1.899 -24.663 0.275 -30.545 0.452 -132.638
2668 0.295 -103.032 1.881 -26.572 0.278 -32.205 0.451 -134.558
2697.75 0.291 -104.592 1.863 -28.487 0.281 -33.867 0.449 -136.468
2727.5 0.287 -106.21 1.845 -30.361 0.284 -35.528 0.448 -138.331
2757.25 0.284 -107.792 1.828 -32.224 0.288 -37.242 0.446 -140.247
2787 0.281 -109.328 1.811 -34.125 0.291 -38.961 0.445 -142.193
2816.75 0.278 -110.838 1.794 -36.051 0.294 -40.657 0.443 -144.064
2846.5 0.275 -112.392 1.781 -37.933 0.297 -42.37 0.442 -145.947
2876.25 0.27 -114.034 1.765 -39.846 0.3 -44.088 0.441 -147.754
2906 0.266 -115.785 1.749 -41.765 0.304 -45.835 0.439 -149.582
2935.75 0.263 -117.627 1.733 -43.678 0.307 -47.61 0.438 -151.404
2965.5 0.26 -119.449 1.718 -45.61 0.31 -49.366 0.437 -153.245
2995.25 0.257 -121.226 1.702 -47.531 0.313 -51.113 0.435 -155.018
3025 0.253 -123.013 1.686 -49.458 0.316 -52.876 0.434 -156.806
3054.75 0.249 -124.941 1.67 -51.42 0.318 -54.652 0.433 -158.586
3084.5 0.245 -127.041 1.654 -53.393 0.321 -56.443 0.432 -160.32
3114.25 0.241 -129.211 1.639 -55.353 0.324 -58.237 0.431 -162.029
3144 0.238 -131.366 1.624 -57.29 0.327 -60.032 0.43 -163.719
3173.75 0.235 -133.508 1.609 -59.248 0.33 -61.842 0.429 -165.459
3203.5 0.232 -135.631 1.595 -61.229 0.332 -63.656 0.429 -167.16
3233.25 0.229 -137.812 1.581 -63.222 0.335 -65.497 0.428 -168.835
3263 0.225 -140.141 1.567 -65.206 0.338 -67.363 0.427 -170.455
3292.75 0.221 -142.649 1.552 -67.195 0.34 -69.216 0.427 -172.042
3322.5 0.219 -145.238 1.538 -69.19 0.343 -71.071 0.427 -173.654
3352.25 0.216 -147.825 1.523 -71.188 0.345 -72.937 0.427 -175.279
3382 0.214 -150.426 1.509 -73.211 0.348 -74.815 0.427 -176.862
3411.75 0.211 -152.987 1.495 -75.247 0.35 -76.712 0.427 -178.438
3441.5 0.208 -155.695 1.481 -77.287 0.353 -78.631 0.427 -179.983
3471.25 0.205 -158.585 1.467 -79.318 0.355 -80.537 0.427 178.481
3501 0.203 -161.549 1.452 -81.352 0.357 -82.451 0.427 176.949
3530.75 0.201 -164.531 1.441 -83.397 0.36 -84.391 0.429 175.454
3560.5 0.199 -167.483 1.427 -85.458 0.362 -86.339 0.43 173.986
3590.25 0.197 -170.497 1.414 -87.544 0.365 -88.301 0.431 172.517
3620 0.195 -173.635 1.399 -89.625 0.367 -90.287 0.432 171.053
3649.75 0.192 -176.88 1.386 -91.71 0.369 -92.279 0.433 169.611
3679.5 0.191 179.663 1.372 -93.838 0.37 -94.28 0.434 168.167
3709.25 0.189 176.031 1.358 -95.966 0.372 -96.287 0.436 166.739
3739 0.188 172.406 1.343 -98.088 0.374 -98.309 0.438 165.354
3768.75 0.187 168.889 1.329 -100.237 0.375 -100.373 0.44 163.946
3798.5 0.186 165.365 1.315 -102.387 0.377 -102.425 0.442 162.522
3828.25 0.185 161.629 1.301 -104.526 0.378 -104.483 0.445 161.104
3858 0.184 157.703 1.287 -106.686 0.38 -106.565 0.447 159.721
3887.75 0.184 153.621 1.273 -108.862 0.381 -108.631 0.45 158.357
3917.5 0.185 149.255 1.258 -111.038 0.382 -110.703 0.454 156.854
3947.25 0.187 144.773 1.243 -113.243 0.383 -112.773 0.458 155.308
3977 0.188 140.553 1.229 -115.458 0.384 -114.895 0.462 153.897
4006.75 0.189 136.412 1.214 -117.67 0.384 -117.088 0.466 152.519
4036.5 0.19 132.104 1.199 -119.906 0.385 -119.255 0.47 151.112
4066.25 0.192 127.785 1.184 -122.183 0.385 -121.427 0.474 149.714
4096 0.194 123.509 1.17 -124.485 0.386 -123.642 0.479 148.341
4125.75 0.196 119.323 1.155 -126.787 0.386 -125.863 0.484 146.963
4155.5 0.199 115.192 1.139 -129.095 0.386 -128.132 0.489 145.554
4185.25 0.201 111.025 1.124 -131.403 0.386 -130.416 0.495 144.164
4215 0.205 106.71 1.111 -133.744 0.387 -132.677 0.502 142.734
4244.75 0.209 102.245 1.096 -136.122 0.386 -134.963 0.508 141.293
4274.5 0.213 97.85 1.08 -138.509 0.386 -137.264 0.515 139.838
4304.25 0.218 93.514 1.064 -140.91 0.385 -139.573 0.521 138.314
4334 0.223 89.527 1.048 -143.35 0.384 -141.924 0.529 136.872
4363.75 0.229 85.314 1.031 -145.762 0.383 -144.278 0.536 135.285
4393.5 0.233 81.39 1.014 -148.206 0.382 -146.684 0.543 133.793
4423.25 0.239 77.162 0.997 -150.625 0.38 -149.03 0.551 132.144
4453 0.245 72.944 0.98 -153.097 0.378 -151.461 0.559 130.489
4482.75 0.251 68.91 0.963 -155.605 0.376 -153.953 0.567 128.892
4512.5 0.258 64.775 0.945 -158.115 0.374 -156.401 0.576 127.148
4542.25 0.265 61.008 0.927 -160.621 0.372 -158.868 0.585 125.475
4572 0.272 57.232 0.91 -163.078 0.369 -161.326 0.593 123.654
4601.75 0.28 53.487 0.892 -165.647 0.366 -163.829 0.603 121.824
4631.5 0.287 49.659 0.874 -168.229 0.363 -166.346 0.612 120.089
4661.25 0.295 45.812 0.855 -170.736 0.36 -168.831 0.622 118.245
4691 0.303 42.139 0.836 -173.339 0.356 -171.388 0.631 116.399
4720.75 0.311 38.496 0.817 -175.909 0.352 -173.919 0.64 114.433
4750.5 0.319 34.945 0.798 -178.514 0.348 -176.502 0.65 112.493
4780.25 0.327 31.378 0.779 178.881 0.344 -179 0.66 110.512
4810 0.334 27.791 0.76 176.267 0.339 178.394 0.669 108.521
4839.75 0.343 24.188 0.74 173.695 0.335 175.772 0.679 106.458
4869.5 0.353 20.671 0.722 171.075 0.33 173.115 0.69 104.313
4899.25 0.362 17.2 0.702 168.436 0.325 170.52 0.7 102.248
4929 0.371 13.966 0.682 165.775 0.32 167.901 0.709 100.054
4958.75 0.378 10.633 0.662 163.122 0.314 165.303 0.718 97.938
4988.5 0.386 7.246 0.643 160.476 0.308 162.667 0.728 95.761
5018.25 0.394 3.711 0.622 157.795 0.302 160.028 0.736 93.584
5048 0.403 0.22 0.602 155.166 0.296 157.397 0.746 91.352
5077.75 0.411 -3.2 0.582 152.497 0.29 154.775 0.755 89.133
5107.5 0.421 -6.386 0.562 149.848 0.283 152.131 0.765 86.831
5137.25 0.429 -9.6 0.542 147.214 0.276 149.495 0.773 84.534
5167 0.438 -12.708 0.523 144.6 0.269 146.876 0.781 82.226
5196.75 0.446 -15.957 0.503 141.956 0.262 144.241 0.789 79.907
5226.5 0.454 -19.2 0.484 139.308 0.255 141.582 0.798 77.558
5256.25 0.462 -22.423 0.464 136.683 0.248 139.03 0.805 75.252
5286 0.471 -25.468 0.445 134.09 0.24 136.437 0.813 72.877
5315.75 0.479 -28.488 0.426 131.509 0.233 133.868 0.819 70.506
5345.5 0.486 -31.418 0.408 128.883 0.226 131.28 0.827 68.153
5375.25 0.494 -34.479 0.39 126.234 0.218 128.711 0.833 65.766
5405 0.501 -37.388 0.372 123.743 0.211 126.114 0.841 63.39
5434.75 0.509 -40.355 0.355 121.233 0.203 123.618 0.846 61.021
5464.5 0.516 -43.189 0.337 118.769 0.195 121.092 0.852 58.657
5494.25 0.525 -45.977 0.321 116.251 0.188 118.651 0.859 56.282
5524 0.531 -48.638 0.304 113.727 0.181 116.19 0.865 53.913
5553.75 0.537 -51.399 0.288 111.261 0.173 113.732 0.869 51.539
5583.5 0.543 -54.21 0.273 108.795 0.166 111.248 0.873 49.181
5613.25 0.549 -56.871 0.257 106.417 0.158 108.854 0.878 46.865
5643 0.555 -59.615 0.242 104.016 0.151 106.544 0.881 44.511
5672.75 0.561 -62.079 0.228 101.669 0.144 104.118 0.886 42.193
5702.5 0.566 -64.612 0.214 99.329 0.137 101.804 0.889 39.855
5732.25 0.57 -67.052 0.2 97.014 0.13 99.468 0.893 37.548
5762 0.575 -69.612 0.187 94.675 0.123 97.211 0.895 35.296
5791.75 0.579 -72.085 0.174 92.38 0.116 94.929 0.899 33.037
5821.5 0.584 -74.611 0.162 90.125 0.109 92.779 0.901 30.823
5851.25 0.588 -76.94 0.15 87.921 0.103 90.529 0.904 28.573
5881 0.592 -79.266 0.139 85.736 0.097 88.406 0.905 26.364
5910.75 0.595 -81.556 0.128 83.539 0.09 86.228 0.908 24.213
5940.5 0.598 -83.932 0.117 81.294 0.084 84.083 0.909 22.018
5970.25 0.601 -86.326 0.107 79.019 0.078 81.975 0.91 19.83
6000 0.605 -88.651 0.097 76.821 0.073 79.949 0.912 17.756
