!Hittite Microwave Corporation								
!12 Elizabeth Drive								
!Chelmsford, MA 01824								
!Tel: 978-250-3343								
!Fax: 978-250-3373							
!Device: HMC318MS8G, 5-6 GHz LNA with AGC in 8-lead Grounded Base Surface Mount Plastic Package								
!Misc: Room Temp Vdd = +3V Idd = 5.7 mA. Vctl = 3.0 V , DEEMBEDDED TO THE PINS OF THE DEVICE								
!
# MHZ S MA R 50

4000 0.691 -120.42 0.336 -119.308 0.035 130.969 0.624 44.864
4030 0.685 -120.792 0.345 -121.49 0.036 129.48 0.626 43.961
4060 0.678 -121.274 0.378 -126.752 0.033 130.518 0.628 43.192
4090 0.673 -121.654 0.34 -129.087 0.037 131.369 0.627 42.454
4120 0.666 -122.03 0.339 -130.891 0.037 128.669 0.627 41.701
4150 0.658 -122.397 0.375 -132.163 0.034 122.417 0.628 40.932
4180 0.653 -123.056 0.346 -136.79 0.039 124.63 0.627 40.327
4210 0.648 -123.512 0.343 -139.308 0.04 125.102 0.626 39.691
4240 0.643 -123.764 0.364 -139.716 0.038 123.834 0.626 39.02
4270 0.633 -124.073 0.35 -143.822 0.04 121.115 0.624 38.431
4300 0.626 -124.704 0.349 -146.933 0.041 119.317 0.622 37.85
4330 0.62 -125.67 0.363 -149.051 0.041 118.439 0.619 37.274
4360 0.617 -125.882 0.345 -151.272 0.044 116.985 0.616 36.753
4390 0.611 -126.262 0.347 -153.592 0.044 116.441 0.613 36.223
4420 0.602 -126.808 0.37 -156.016 0.042 116.804 0.608 35.682
4450 0.597 -127.791 0.347 -158.756 0.044 113.004 0.604 35.203
4480 0.592 -128.425 0.345 -160.982 0.045 110.615 0.599 34.775
4510 0.588 -128.703 0.363 -162.691 0.047 109.639 0.593 34.4
4540 0.579 -129.541 0.349 -165.55 0.047 110.147 0.588 33.809
4570 0.573 -130.517 0.347 -168.216 0.047 109.004 0.582 33.387
4600 0.571 -131.644 0.356 -170.689 0.048 106.211 0.575 33.134
4630 0.565 -131.995 0.347 -171.726 0.048 101.807 0.566 32.664
4660 0.558 -132.737 0.349 -174.506 0.049 101.394 0.559 32.277
4690 0.549 -133.878 0.362 -179.033 0.052 104.967 0.552 31.969
4720 0.547 -135.143 0.34 -178.832 0.051 99.981 0.54 31.697
4750 0.543 -136.185 0.34 179.522 0.05 96.695 0.53 31.33
4780 0.535 -136.985 0.364 176.031 0.05 95.111 0.52 30.871
4810 0.53 -138.625 0.335 174.315 0.055 94.222 0.509 31.032
4840 0.526 -140.082 0.331 173.432 0.055 92.089 0.497 31.151
4870 0.521 -141.347 0.353 173.383 0.051 88.713 0.484 31.231
4900 0.513 -143.193 0.339 169.628 0.052 89.991 0.476 31.482
4930 0.508 -145.045 0.335 168.411 0.053 87.248 0.466 31.903
4960 0.506 -146.903 0.34 169.734 0.054 80.484 0.455 32.501
4990 0.496 -148.631 0.355 167.574 0.053 85.897 0.45 32.774
5020 0.487 -150.876 0.364 165.251 0.053 87.251 0.446 32.983
5050 0.479 -153.669 0.367 162.762 0.054 84.542 0.443 33.121
5080 0.475 -155.028 0.385 161.471 0.055 83.137 0.435 32.206
5110 0.466 -156.815 0.396 157.682 0.058 82.002 0.426 31.33
5140 0.454 -159.045 0.4 151.393 0.062 81.133 0.416 30.491
5170 0.453 -161.721 0.397 150.849 0.064 78.755 0.401 30.244
5200 0.45 -163.801 0.401 148.006 0.064 76.229 0.385 29.813
5230 0.445 -165.264 0.413 142.869 0.061 73.559 0.37 29.188
5260 0.438 -168.609 0.402 140.664 0.068 70.134 0.354 29.175
5290 0.437 -171.587 0.399 137.909 0.07 67.089 0.337 29.227
5320 0.441 -174.156 0.403 134.607 0.068 64.427 0.318 29.376
5350 0.434 -176.454 0.401 131.958 0.069 63.332 0.302 29.708
5380 0.429 -179.495 0.398 128.782 0.071 60.079 0.286 30.311
5410 0.428 176.698 0.395 125.074 0.072 54.664 0.268 31.209
5440 0.432 173.902 0.395 123.278 0.072 51.848 0.25 32.48
5470 0.432 170.814 0.394 120.129 0.073 50.142 0.233 34.031
5500 0.428 167.414 0.392 115.63 0.075 49.55 0.217 35.878
5530 0.433 163.483 0.386 113.968 0.073 43.762 0.201 38.593
5560 0.436 159.949 0.384 111.133 0.072 39.64 0.186 41.949
5590 0.439 156.823 0.384 107.13 0.074 37.19 0.172 45.975
5620 0.441 152.905 0.377 104.547 0.076 34.287 0.161 50.965
5650 0.444 149.039 0.372 101.62 0.076 31.333 0.152 57.111
5680 0.45 145.248 0.37 98.35 0.073 28.33 0.143 64.228
5710 0.454 141.199 0.364 95.163 0.072 24.73 0.139 71.531
5740 0.461 137.238 0.359 91.982 0.074 20.388 0.139 78.639
5770 0.472 133.38 0.354 88.794 0.076 15.294 0.142 86.083
5800 0.475 129.916 0.348 85.878 0.074 14.818 0.148 93.604
5830 0.481 125.94 0.342 82.741 0.073 12.055 0.156 99.932
5860 0.49 121.473 0.337 79.386 0.072 7.006 0.166 104.9
5890 0.502 118.097 0.327 76.216 0.071 2.362 0.182 109.278
5920 0.51 114.523 0.32 73.171 0.071 -0.736 0.196 113.12
5950 0.515 110.75 0.316 70.26 0.073 -2.28 0.21 116.256
5980 0.528 106.803 0.306 66.61 0.07 -6.923 0.227 117.65
6010 0.538 103.338 0.297 63.421 0.068 -10.395 0.245 119.222
6040 0.547 100.338 0.289 60.692 0.067 -12.698 0.264 121.038
6070 0.554 96.29 0.282 57.493 0.068 -17.61 0.279 121.483
6100 0.564 92.579 0.274 54.167 0.068 -21.433 0.296 121.819
6130 0.577 89.196 0.265 50.713 0.067 -24.167 0.316 122.05
6160 0.583 86.071 0.255 48.122 0.066 -26.492 0.331 122.246
6190 0.59 82.656 0.247 44.995 0.065 -30.392 0.348 122.046
6220 0.599 78.96 0.242 41.336 0.064 -35.864 0.366 121.436
6250 0.608 75.958 0.229 38.605 0.064 -38.849 0.384 121.276
6280 0.616 72.895 0.22 35.715 0.064 -41.558 0.4 120.822
6310 0.622 69.772 0.215 32.668 0.063 -43.992 0.416 120.074
6340 0.627 66.61 0.203 29.708 0.061 -48.659 0.433 119.226
6370 0.632 63.52 0.194 26.772 0.06 -52.958 0.449 118.47
6400 0.636 60.498 0.187 23.857 0.061 -56.893 0.464 117.813
6430 0.642 57.552 0.178 21.099 0.061 -59.298 0.479 116.907
6460 0.646 54.682 0.17 18.12 0.06 -62.313 0.493 116.069
6490 0.648 51.885 0.163 14.92 0.058 -65.94 0.507 115.302
6520 0.65 48.989 0.154 12.727 0.058 -69.673 0.52 114.179
6550 0.653 46.177 0.146 9.893 0.058 -73.437 0.533 113.039
6580 0.656 43.446 0.141 6.415 0.058 -77.235 0.546 111.883
6610 0.657 40.829 0.132 4.084 0.057 -79.799 0.559 110.833
6640 0.658 38.111 0.125 1.348 0.056 -83.039 0.57 109.709
6670 0.659 35.29 0.12 -1.794 0.056 -86.954 0.581 108.511
6700 0.661 32.876 0.112 -4.16 0.055 -90.433 0.592 107.388
6730 0.66 30.352 0.106 -6.92 0.055 -93.507 0.603 106.257
6760 0.658 27.72 0.101 -10.078 0.055 -96.178 0.614 105.117
6790 0.659 24.952 0.095 -12.665 0.054 -99.732 0.623 103.842
6820 0.66 22.456 0.089 -15.588 0.053 -103.008 0.633 102.685
6850 0.661 20.229 0.084 -18.845 0.053 -106.005 0.645 101.648
6880 0.659 17.768 0.079 -21.516 0.053 -109.029 0.651 100.465
6910 0.658 15.203 0.074 -24.468 0.053 -111.968 0.659 99.156
6940 0.658 12.531 0.07 -27.703 0.052 -114.823 0.667 97.723
6970 0.659 10.226 0.066 -30.885 0.052 -117.985 0.677 96.7
7000 0.659 7.827 0.062 -34.177 0.051 -120.827 0.684 95.595
