!Hittite Microwave Corporation								
!12 Elizabeth Drive								
!Chelmsford, MA 01824								
!Tel: 978-250-3343								
!Fax: 978-250-3373								
!Device: HMC300LM1, 25.5-33.5 GHz SMT Medium Power GaAs MMIC Amplifier in Leadless Chip Carrier Package								
!Misc: Vdd=+6V, Room								
!
# MHZ S MA R 50

0 0.896 -166.72 0.011 178.91 573.9e-6 82.503 0.627 -159.227
200 0.894 -169.076 0.011 175.521 424.4e-6 77.208 0.633 -161.361
400 0.893 -171.43 0.011 172.135 275e-6 71.915 0.639 -163.493
600 0.894 -173.782 0.011 168.751 126e-6 66.624 0.646 -165.622
800 0.892 -176.133 0.011 165.369 23.57e-6 -118.664 0.651 -167.748
1000 0.891 -178.487 0.011 161.986 173.2e-6 -123.954 0.657 -169.876
1200 0.89 179.156 0.011 158.602 323e-6 -129.245 0.662 -172.006
1400 0.888 176.796 0.011 155.216 473.1e-6 -134.537 0.668 -174.137
1600 0.887 174.431 0.011 151.828 623.4e-6 -139.832 0.673 -176.272
1800 0.885 172.012 0.01 148.399 774.1e-6 -145.167 0.678 -178.464
2000 0.884 169.728 0.01 145.078 925.6e-6 -150.396 0.683 179.496
2200 0.882 167.324 0.01 141.663 1.077e-3 -155.717 0.689 177.326
2400 0.881 164.914 0.01 138.246 1.23e-3 -161.041 0.694 175.152
2600 0.881 162.493 0.01 134.823 1.386e-3 -166.371 0.7 172.969
2800 0.879 160.063 0.01 131.392 1.54e-3 -171.708 0.705 170.779
3000 0.878 157.62 9.968e-3 127.952 1.694e-3 -177.054 0.71 168.578
3200 0.877 155.206 9.897e-3 124.583 1.852e-3 177.669 0.716 166.404
3400 0.874 152.791 9.819e-3 121.126 2.008e-3 172.306 0.72 164.256
3600 0.873 150.307 9.741e-3 117.657 2.166e-3 166.93 0.725 162.02
3800 0.871 147.81 9.665e-3 114.18 2.325e-3 161.547 0.73 159.774
4000 0.869 145.298 9.588e-3 110.693 2.484e-3 156.153 0.735 157.516
4200 0.867 142.769 9.512e-3 107.193 2.644e-3 150.746 0.74 155.242
4400 0.865 140.227 9.436e-3 103.683 2.806e-3 145.329 0.745 152.957
4600 0.864 137.667 9.36e-3 100.159 2.968e-3 139.899 0.75 150.656
4800 0.863 135.151 9.314e-3 96.681 3.142e-3 134.514 0.756 148.424
5000 0.862 132.554 9.237e-3 93.13 3.307e-3 129.056 0.761 146.091
5200 0.86 129.94 9.16e-3 89.566 3.472e-3 123.586 0.766 143.742
5400 0.858 127.308 9.082e-3 85.987 3.639e-3 118.1 0.771 141.375
5600 0.856 124.661 9.003e-3 82.396 3.806e-3 112.603 0.776 138.994
5800 0.854 121.998 8.923e-3 78.793 3.974e-3 107.093 0.781 136.598
6000 0.852 119.318 8.842e-3 75.176 4.142e-3 101.569 0.787 134.186
6200 0.851 116.623 8.759e-3 71.545 4.311e-3 96.032 0.792 131.758
6400 0.85 113.913 8.689e-3 67.916 4.487e-3 90.496 0.798 129.327
6600 0.847 111.186 8.603e-3 64.255 4.656e-3 84.929 0.802 126.885
6800 0.845 108.44 8.516e-3 60.582 4.825e-3 79.348 0.807 124.405
7000 0.845 105.681 8.445e-3 56.896 5.005e-3 73.756 0.814 121.911
7200 0.843 102.91 8.354e-3 53.198 5.174e-3 68.151 0.82 119.402
7400 0.842 100.129 8.261e-3 49.489 5.343e-3 62.535 0.825 116.879
7600 0.84 97.337 8.165e-3 45.769 5.51e-3 56.909 0.831 114.343
7800 0.839 94.537 8.068e-3 42.04 5.677e-3 51.273 0.837 111.795
8000 0.837 91.73 7.968e-3 38.301 5.843e-3 45.628 0.842 109.236
8200 0.836 88.916 7.867e-3 34.555 6.007e-3 39.975 0.848 106.666
8400 0.834 86.099 7.762e-3 30.801 6.17e-3 34.315 0.854 104.086
8600 0.833 83.28 7.656e-3 27.043 6.331e-3 28.65 0.86 101.5
8800 0.832 80.458 7.547e-3 23.278 6.49e-3 22.978 0.866 98.905
9000 0.831 77.637 7.436e-3 19.509 6.647e-3 17.302 0.872 96.303
9200 0.831 74.731 7.348e-3 15.675 6.825e-3 11.561 0.879 93.643
9400 0.83 71.911 7.232e-3 11.895 6.977e-3 5.875 0.885 91.026
9600 0.829 69.096 7.114e-3 8.116 7.126e-3 0.189 0.891 88.407
9800 0.828 66.29 6.994e-3 4.339 7.272e-3 -5.494 0.897 85.79
10000 0.827 63.492 6.872e-3 0.563 7.414e-3 -11.177 0.904 83.171
10200 0.827 60.638 6.826e-3 -2.859 7.478e-3 -16.579 0.904 80.162
10400 0.827 57.709 6.885e-3 -4.743 7.326e-3 -21.323 0.894 75.564
10600 0.825 54.804 6.855e-3 -6.736 7.27e-3 -23.176 0.899 72.193
10800 0.826 51.822 7.288e-3 -9.216 7.184e-3 -27.259 0.886 68.236
11000 0.825 48.868 7.189e-3 -11.667 7.136e-3 -30.537 0.885 64.145
11200 0.825 46.064 7.628e-3 -19.254 6.981e-3 -34.744 0.884 60.825
11400 0.825 43.123 8.029e-3 -21.644 6.816e-3 -39.06 0.871 56.318
11600 0.824 40.345 8.144e-3 -21.889 6.701e-3 -43.959 0.873 52.936
11800 0.824 37.373 8.01e-3 -25.194 6.602e-3 -48.384 0.856 49.008
12000 0.822 34.513 7.969e-3 -30.429 6.314e-3 -56.879 0.85 45.201
12200 0.822 31.65 7.5e-3 -34.058 5.461e-3 -66.854 0.835 42.35
12400 0.821 28.755 7.394e-3 -31.689 4.435e-3 -67.009 0.827 39.365
12600 0.821 26.097 7.905e-3 -29.435 3.756e-3 -62.235 0.833 36.638
12800 0.82 23.425 8.811e-3 -31.506 3.669e-3 -56.879 0.827 33.024
13000 0.819 20.727 9.57e-3 -34.744 3.584e-3 -53.464 0.828 29.659
13200 0.82 18.069 0.01 -39.519 3.551e-3 -55.092 0.822 26.232
13400 0.818 15.304 0.011 -44.403 3.36e-3 -54.476 0.815 22.857
13600 0.819 12.702 0.012 -49.556 3.423e-3 -50.896 0.809 19.602
13800 0.815 9.885 0.013 -54.937 3.239e-3 -54.197 0.803 16.408
14000 0.814 7.286 0.014 -60.784 2.976e-3 -55.424 0.796 13.421
14200 0.812 4.511 0.015 -67.445 2.822e-3 -55.465 0.789 10.169
14400 0.811 1.949 0.016 -73.355 2.725e-3 -53.172 0.783 7.226
14600 0.809 -0.569 0.018 -79.652 2.53e-3 -49.649 0.774 4.161
14800 0.805 -3.209 0.019 -86.233 2.49e-3 -44.773 0.767 1.145
15000 0.805 -5.765 0.021 -92.579 2.411e-3 -42.709 0.76 -1.568
15200 0.801 -8.329 0.023 -99.43 2.483e-3 -38.767 0.752 -4.669
15400 0.801 -10.818 0.025 -105.563 2.482e-3 -35.703 0.743 -7.224
15600 0.796 -13.333 0.028 -112.788 2.665e-3 -32.505 0.733 -10.347
15800 0.794 -15.846 0.031 -119.218 2.761e-3 -32.908 0.725 -13.015
16000 0.791 -18.311 0.034 -126.127 3.014e-3 -29.997 0.713 -15.722
16200 0.787 -20.82 0.038 -132.842 3.108e-3 -31.572 0.704 -18.642
16400 0.782 -23.399 0.041 -139.597 3.329e-3 -32.514 0.692 -21.062
16600 0.778 -26.041 0.047 -146.337 3.843e-3 -38.667 0.681 -24.188
16800 0.775 -28.746 0.053 -152.281 4.103e-3 -49.671 0.674 -26.57
17000 0.769 -31.38 0.06 -159.296 3.773e-3 -73.153 0.66 -29.431
17200 0.761 -33.703 0.069 -166.191 2.486e-3 -106.191 0.65 -32.162
17400 0.754 -36.129 0.077 -174.201 1.155e-3 93.879 0.63 -34.54
17600 0.748 -38.349 0.086 178.998 2.249e-3 12.805 0.619 -36.95
17800 0.745 -40.711 0.095 172.152 3.142e-3 9.732 0.609 -38.818
18000 0.739 -43.252 0.109 165.225 3.981e-3 -1.865 0.594 -41.398
18200 0.734 -45.971 0.121 158.614 4.612e-3 -7.762 0.584 -43.658
18400 0.726 -48.741 0.137 152.25 5.163e-3 -15.76 0.565 -45.968
18600 0.719 -51.371 0.154 145.868 5.704e-3 -26.409 0.552 -48.639
18800 0.713 -54.15 0.175 139.736 5.562e-3 -33.867 0.537 -50.78
19000 0.703 -56.784 0.201 133.56 5.62e-3 -38.78 0.52 -53.589
19200 0.693 -59.944 0.229 126.416 5.803e-3 -43.751 0.509 -55.706
19400 0.681 -62.872 0.265 119.793 6.184e-3 -50.187 0.491 -57.957
19600 0.67 -66.191 0.303 112.101 6.073e-3 -60.289 0.478 -60.041
19800 0.656 -69.498 0.349 105.161 5.598e-3 -71.429 0.456 -61.415
20000 0.644 -72.921 0.402 96.975 4.876e-3 -73.262 0.435 -63.599
20200 0.63 -76.539 0.457 89.578 4.43e-3 -72.452 0.413 -64.894
20400 0.612 -80.201 0.529 82.03 4.523e-3 -69.6 0.386 -67.482
20600 0.594 -84.437 0.607 73.981 4.521e-3 -71.743 0.366 -69.535
20800 0.57 -88.438 0.705 66.874 4.841e-3 -72.026 0.339 -71.491
21000 0.545 -93.884 0.822 57.886 5.56e-3 -74.288 0.322 -73.928
21200 0.516 -99.085 0.952 49.361 6.421e-3 -88.279 0.298 -74.255
21400 0.486 -104.251 1.112 40.595 5.974e-3 -111.095 0.276 -74.33
21600 0.459 -110.377 1.302 31.081 3.827e-3 -121.652 0.262 -73.922
21800 0.425 -117.455 1.524 21.111 3.178e-3 -107.335 0.234 -73.345
22000 0.386 -125.935 1.788 10.601 4.119e-3 -102.899 0.212 -72.685
22200 0.334 -135.228 2.07 -0.734 4.629e-3 -112.867 0.184 -67.663
22400 0.287 -145.953 2.408 -11.961 4.471e-3 -133.408 0.165 -64.195
22600 0.241 -159.653 2.78 -23.458 3.335e-3 -153.018 0.149 -59.131
22800 0.202 -179.528 3.249 -35.959 3.021e-3 -157.533 0.135 -53.359
23000 0.171 155.25 3.743 -48.692 3.013e-3 -178.212 0.128 -47.581
23200 0.167 126.083 4.321 -62.05 2.104e-3 146.36 0.117 -40.455
23400 0.188 97.366 4.945 -76.058 1.885e-3 114.605 0.104 -34.376
23600 0.235 75.192 5.654 -90.85 1.422e-3 61.673 0.094 -19.913
23800 0.285 57.379 6.371 -106.428 1.418e-3 51.932 0.095 -3.623
24000 0.345 41.909 7.063 -122.826 2.11e-3 4.837 0.115 10.622
24200 0.394 28.59 7.68 -139.374 2.354e-3 -15.937 0.156 17.522
24400 0.442 16.606 8.186 -156.294 2.353e-3 -42.154 0.196 17.416
24600 0.471 6.579 8.629 -172.709 1.9e-3 -41.252 0.24 16.634
24800 0.492 -2.257 9.002 170.153 1.706e-3 -47.077 0.287 15.914
25000 0.504 -9.939 9.12 153.448 1.862e-3 -56.232 0.333 11.802
25200 0.493 -16.259 9.164 136.732 1.931e-3 -56.991 0.367 8.367
25400 0.485 -21.416 8.882 120.517 1.985e-3 -71.026 0.389 3.897
25600 0.461 -25.316 8.678 106.024 1.54e-3 -92.156 0.406 0.196
25800 0.461 -28.743 8.288 91.725 1.08e-3 -59.625 0.42 -4.029
26000 0.449 -31.362 7.888 78.696 1.439e-3 -42.081 0.438 -9.103
26200 0.451 -32.44 7.515 66.835 882.9e-6 -54.435 0.453 -13.059
26400 0.446 -36.372 7.238 54.781 2.291e-3 -33.209 0.459 -17.767
26600 0.424 -37.53 6.988 43.846 2.751e-3 -61.078 0.46 -20.14
26800 0.42 -37.553 6.728 31.005 2.443e-3 -91.735 0.459 -21.665
27000 0.422 -38.484 6.288 22.007 1.629e-3 -91.943 0.452 -22.524
27200 0.42 -40.071 6.079 12.532 1.526e-3 -91.231 0.446 -22.769
27400 0.421 -41.716 5.889 3.575 1.279e-3 -102.395 0.442 -24.075
27600 0.415 -41.422 5.745 -4.775 732.2e-6 -78.855 0.434 -24.304
27800 0.423 -42.059 5.765 -13.833 530.2e-6 -48.746 0.431 -25.604
28000 0.413 -41.982 5.603 -23.387 2.002e-3 -46.547 0.427 -25.473
28200 0.415 -43.72 5.716 -32.15 1.623e-3 -67.51 0.429 -25.176
28400 0.416 -44.214 5.602 -42.662 1.372e-3 -76.088 0.436 -25.554
28600 0.413 -45.247 5.513 -51.086 1.39e-3 -67.746 0.432 -25.677
28800 0.418 -46.289 5.535 -60.945 1.609e-3 -102.728 0.432 -26.207
29000 0.421 -46.865 5.338 -70.224 1.188e-3 -150.474 0.434 -27.185
29200 0.422 -47.828 5.351 -77.772 443e-6 -154.322 0.434 -29.13
29400 0.431 -48.705 5.29 -86.528 589.7e-6 -148.842 0.439 -31.173
29600 0.428 -50.826 5.296 -94.259 707.8e-6 -164.719 0.442 -32.242
29800 0.429 -52.515 5.359 -102.931 936.7e-6 136.929 0.451 -33.032
30000 0.422 -55.554 5.406 -111.773 1.764e-3 71.843 0.448 -34.508
30200 0.41 -57.357 5.491 -119.812 1.846e-3 35.204 0.439 -34.705
30400 0.403 -57.194 5.629 -130.075 2.07e-3 15.035 0.428 -35.136
30600 0.399 -58.607 5.585 -138.035 2.343e-3 1.559 0.422 -35.52
30800 0.393 -59.671 5.729 -146.654 3.465e-3 -25.287 0.413 -36.599
31000 0.396 -61.618 5.796 -154.733 3.335e-3 -79.653 0.411 -38.51
31200 0.377 -65.981 6.075 -163.018 1.952e-3 -145.321 0.411 -40.647
31400 0.352 -68.64 6.409 -172.044 642.6e-6 178.892 0.399 -41.134
31600 0.32 -70.081 6.727 177.272 1.018e-3 141.182 0.399 -40.537
31800 0.309 -70.193 7.038 167.39 456.5e-6 61.186 0.411 -38.025
32000 0.301 -71.933 7.392 156.35 356.3e-6 -83.073 0.412 -39.12
32200 0.279 -75.416 7.573 145.705 1.874e-3 119.845 0.414 -39.319
32400 0.258 -80.094 8.089 134.235 1.288e-3 94.808 0.416 -39.199
32600 0.224 -89.488 8.497 122.439 1.737e-3 130.979 0.415 -41.402
32800 0.173 -100.938 9.092 109.798 3.347e-3 92.548 0.417 -38.413
33000 0.114 -107.918 9.555 95.101 4.161e-3 81.818 0.43 -38.601
33200 0.053 -135.601 9.868 80.094 4.981e-3 73.504 0.445 -38.1
33400 0.021 101.369 10.26 65.529 6.564e-3 58.459 0.458 -38.06
33600 0.1 78.545 10.234 47.208 7.106e-3 35.578 0.456 -42.417
33800 0.189 66.636 10.089 31.765 6.734e-3 26.395 0.432 -45.185
34000 0.281 53.551 9.745 14.179 7.777e-3 12.779 0.405 -51.389
34200 0.367 45.529 9.256 -1.73 6.795e-3 0.687 0.37 -54.46
34400 0.446 36.277 8.74 -17.692 7.036e-3 -5.289 0.326 -58.346
34600 0.522 28.832 8.184 -33.863 7.32e-3 -18.693 0.287 -59.695
34800 0.592 21.532 7.38 -49.141 6.913e-3 -35.544 0.253 -53.701
35000 0.663 14.045 6.706 -64.596 5.777e-3 -51.759 0.225 -45.92
35200 0.708 6.482 5.819 -79.659 4.644e-3 -70.739 0.222 -34.444
35400 0.743 0.285 5.212 -92.961 3.124e-3 -66.921 0.212 -23.75
35600 0.767 -5.049 4.549 -106.443 2.967e-3 -54.936 0.222 -15.128
35800 0.788 -9.693 3.988 -118.618 3.671e-3 -53.488 0.239 -8.971
36000 0.803 -14 3.437 -130.258 2.415e-3 -63.558 0.256 -5.29
36200 0.814 -17.875 3.009 -141.396 2.017e-3 -36.443 0.286 -4.263
36400 0.82 -21.706 2.568 -151.117 4.52e-3 -34.197 0.314 -1.748
36600 0.833 -24.677 2.303 -161.603 4.419e-3 -72.543 0.342 -2.14
36800 0.836 -28.082 1.986 -171.46 3.281e-3 -87.754 0.381 -1.713
37000 0.846 -31.517 1.759 179.273 4.258e-3 -91.157 0.404 -2.286
37200 0.848 -34.412 1.527 170.349 4.609e-3 -134.427 0.434 -4.528
37400 0.851 -37.19 1.327 161.816 4.332e-3 170.526 0.459 -6.212
37600 0.851 -38.876 1.164 154.603 4.063e-3 116.413 0.48 -9.116
37800 0.856 -41.098 1.032 146.458 4.823e-3 73.562 0.509 -10.696
38000 0.864 -43.322 0.923 139.49 4.139e-3 41.133 0.538 -11.196
38200 0.866 -45.399 0.841 131.163 4.932e-3 23.483 0.567 -11.343
38400 0.869 -48.301 0.746 122.586 4.82e-3 -25.584 0.594 -11.402
38600 0.871 -50.437 0.662 114.194 3.885e-3 -73.323 0.608 -11.782
38800 0.874 -53.118 0.586 106.555 2.252e-3 -106.085 0.613 -13.204
39000 0.878 -55.442 0.509 98.895 1.554e-3 -101.035 0.62 -15.616
39200 0.881 -57.644 0.449 93.298 2.86e-3 -108.532 0.625 -18.922
39400 0.877 -60.041 0.399 87.418 5.04e-3 -176.682 0.642 -23.294
39600 0.884 -62.245 0.365 82.222 3.952e-3 132.065 0.663 -25.082
39800 0.882 -64.349 0.333 74.886 2.72e-3 132.102 0.693 -28.795
40000 0.894 -66.575 0.297 69.567 4.268e-3 158.137 0.74 -28.199
