!Hittite Microwave Corporation								
!20 Alpha Road								
!Chelmsford, MA 01824								
!Tel: 978-250-3343								
!Fax: 978-250-3373								
!Device: HMC374, 0.2-3 GHz, GaAs PHEMT MMIC High IP3 LNA in SOT26 package															
!Misc: +5V, Room							
!
# MHZ S MA R 50

50 0.88 -11.48 1.483 -116.046 0.017 76.849 0.811 165.292
110 0.831 -20.699 2.846 -128.794 0.032 69.481 0.772 142.135
170 0.782 -29.872 4.043 -142.202 0.047 57.852 0.719 119.78
230 0.731 -37.237 4.835 -155.649 0.056 48.42 0.637 100.456
290 0.689 -43.195 5.295 -166.641 0.063 41.686 0.566 83.583
350 0.655 -48.943 5.555 -176.692 0.068 36.268 0.508 68.475
410 0.63 -54.09 5.725 174.582 0.072 31.678 0.462 54.54
470 0.609 -59.244 5.824 166.693 0.074 29.303 0.428 41.509
530 0.592 -64.204 5.868 160.108 0.077 25.957 0.402 29.002
590 0.575 -69.133 5.794 153.019 0.079 25.213 0.383 17.643
650 0.563 -73.921 5.888 146.647 0.08 21.456 0.369 6.842
710 0.55 -78.662 5.744 141.672 0.085 21.284 0.359 -3.531
770 0.539 -83.51 5.723 134.966 0.084 18.671 0.354 -12.985
830 0.528 -88.129 5.669 130.513 0.089 17.504 0.351 -21.995
890 0.517 -92.789 5.556 124.73 0.088 16.353 0.35 -30.416
950 0.506 -97.338 5.51 120.27 0.092 14.04 0.351 -38.474
1010 0.495 -101.822 5.325 115.249 0.093 13.99 0.351 -45.465
1070 0.484 -106.183 5.301 110.05 0.094 11.897 0.355 -52.475
1130 0.474 -110.651 5.223 106.14 0.097 10.376 0.356 -59.219
1190 0.461 -115.106 5.006 101.557 0.099 10.578 0.358 -65.09
1250 0.45 -119.221 5.074 96.605 0.099 8.029 0.361 -71.185
1310 0.436 -123.018 4.889 94.195 0.103 7.471 0.362 -76.295
1370 0.428 -127.346 4.77 88.482 0.103 6.588 0.366 -81.844
1430 0.417 -131.657 4.721 85.025 0.107 5.227 0.369 -86.726
1490 0.403 -135.623 4.597 81.267 0.109 5.424 0.371 -91.933
1550 0.392 -139.647 4.435 76.876 0.108 3.622 0.372 -96.609
1610 0.382 -143.947 4.469 72.515 0.115 1.544 0.375 -101.36
1670 0.368 -148.11 4.283 69.31 0.116 2.984 0.375 -105.928
1730 0.355 -152.109 4.396 65.07 0.118 -1.815 0.375 -110.81
1790 0.34 -156.174 4.064 63.902 0.123 0.111 0.373 -114.896
1850 0.33 -160.194 4.127 55.458 0.117 -3.919 0.375 -119.63
1910 0.319 -164.108 4.084 57.026 0.128 -5.005 0.375 -123.816
1970 0.307 -168.906 3.775 49.428 0.123 -4.522 0.372 -128.707
2030 0.294 -173.633 3.938 46.959 0.129 -8.445 0.37 -133.354
2090 0.279 -178.048 3.701 43.892 0.13 -7.664 0.366 -138.05
2150 0.268 177.368 3.721 39.539 0.132 -11.121 0.362 -142.613
2210 0.255 172.806 3.624 36.577 0.136 -11.302 0.359 -146.981
2270 0.244 167.83 3.562 33.723 0.136 -12.681 0.357 -151.846
2330 0.233 162.502 3.492 29.297 0.139 -14.605 0.352 -156.951
2390 0.22 157.159 3.371 27.387 0.142 -16.652 0.347 -161.412
2450 0.208 152.078 3.293 21.502 0.142 -17.355 0.344 -166.578
2510 0.2 146.709 3.318 21.009 0.145 -19.891 0.341 -171.716
2570 0.19 139.833 3.069 16.869 0.15 -19.938 0.337 -177.041
2630 0.183 134.002 3.165 11.434 0.147 -22.537 0.333 177.44
2690 0.172 127.618 3.146 11.811 0.157 -24.793 0.327 172.131
2750 0.166 120.004 2.893 5.709 0.153 -25.258 0.324 166.351
2810 0.163 112.977 3.098 2.325 0.158 -29.424 0.324 160.226
2870 0.153 105.003 2.758 1.491 0.158 -28.552 0.318 154.151
2930 0.152 97.138 2.864 -5.171 0.159 -32.66 0.314 147.727
2990 0.145 89.462 2.668 -4.48 0.164 -32.589 0.311 142.332
3050 0.144 81.372 2.689 -11.93 0.161 -35.16 0.311 135.953
3110 0.139 74.123 2.63 -10.585 0.166 -36.983 0.307 130.187
3170 0.142 66.495 2.513 -17.338 0.164 -38.984 0.308 124.274
3230 0.14 59.798 2.547 -20.038 0.168 -40.353 0.31 118.328
3290 0.14 52.341 2.475 -21.476 0.167 -41.697 0.309 112.172
3350 0.14 44.753 2.281 -24.694 0.169 -43.639 0.309 106.792
3410 0.143 38.593 2.315 -31.274 0.168 -45.377 0.313 100.664
3470 0.141 32.395 2.256 -29.878 0.17 -47.323 0.314 95.381
3530 0.145 26.115 2.104 -35.527 0.17 -48.241 0.315 89.741
3590 0.144 20.604 2.137 -37.424 0.172 -50.076 0.32 85.139
3650 0.145 14.754 2.012 -40.628 0.173 -51.311 0.323 79.536
3710 0.145 9.946 2.067 -43.075 0.172 -53.117 0.326 75.051
3770 0.144 4.759 1.872 -43.862 0.175 -54.443 0.328 70.773
3830 0.144 -0.336 1.868 -50.06 0.173 -55.367 0.334 65.958
3890 0.142 -4.469 1.821 -49.698 0.176 -57.391 0.334 61.746
3950 0.14 -8.796 1.708 -53.901 0.176 -58.038 0.337 58.348
4010 0.139 -12.76 1.714 -55.838 0.176 -60.271 0.343 54.247
4070 0.135 -16.439 1.659 -56.769 0.178 -60.542 0.346 50.743
4130 0.132 -20.701 1.606 -59.807 0.176 -61.759 0.347 47.417
4190 0.129 -23.437 1.595 -61.477 0.18 -63.066 0.354 44.555
4250 0.124 -27.073 1.533 -62.432 0.18 -63.978 0.356 41.017
4310 0.121 -30.473 1.468 -65.919 0.183 -65.555 0.359 38.188
4370 0.116 -33.677 1.44 -68.679 0.185 -66.278 0.363 35.489
4430 0.111 -36.607 1.426 -70.745 0.185 -67.516 0.369 32.212
4490 0.106 -40.466 1.405 -71.478 0.188 -69.711 0.37 29.7
4550 0.102 -42.223 1.349 -73.958 0.192 -70.091 0.375 27.539
4610 0.097 -45.448 1.367 -75.59 0.193 -71.922 0.38 24.665
4670 0.091 -46.948 1.321 -75.434 0.197 -73.002 0.381 22.316
4730 0.086 -51.594 1.26 -78.713 0.197 -74.775 0.386 20.149
4790 0.081 -53.491 1.279 -81.997 0.204 -76.263 0.392 17.314
4850 0.077 -56.793 1.263 -83.008 0.206 -76.979 0.394 14.95
4910 0.071 -58.243 1.215 -85.998 0.208 -78.476 0.396 12.926
4970 0.066 -61.114 1.256 -88.031 0.212 -80.671 0.404 10.411
5030 0.059 -62.807 1.233 -88.923 0.216 -81.294 0.407 7.9
5090 0.054 -66.547 1.182 -89.079 0.219 -83.753 0.41 6.09
5150 0.047 -67.56 1.141 -94.254 0.226 -83.632 0.416 3.952
5210 0.043 -71.536 1.198 -94.939 0.223 -86.313 0.419 1.218
5270 0.035 -72.929 1.107 -97.197 0.235 -87.788 0.423 -0.768
5330 0.029 -75.844 1.152 -101.363 0.233 -89.112 0.428 -2.911
5390 0.021 -78.896 1.112 -102.945 0.241 -91.429 0.433 -5.557
5450 0.016 -77.117 1.171 -104.601 0.243 -92.47 0.435 -7.758
5510 8.366e-3 -80.325 1.045 -104.029 0.248 -94.909 0.442 -9.603
5570 2.546e-3 -72.808 1.086 -110.619 0.253 -96.562 0.444 -12.577
5630 4.767e-3 63.316 1.098 -108.803 0.258 -98.672 0.449 -14.998
5690 0.012 72.022 1.035 -113.686 0.263 -100.672 0.454 -16.755
5750 0.02 75.117 1.076 -117.1 0.268 -102.698 0.461 -19.761
5810 0.027 71.332 1.07 -118.827 0.274 -104.81 0.462 -22.185
5870 0.034 69.041 1.038 -120.871 0.28 -106.987 0.468 -24.523
5930 0.043 65.37 1.033 -124.849 0.286 -109.186 0.476 -27.182
5990 0.05 61.24 1.016 -125.402 0.293 -111.571 0.479 -30.27
6050 0.059 55.834 0.974 -130.932 0.299 -114.005 0.485 -32.555
