!Hittite Microwave Corporation								
!12 Elizabeth Drive								
!Chelmsford, MA 01824								
!Tel: 978-250-3343								
!Fax: 978-250-3373								
!Device: HMC441, 6-18 GHz GaAs PHEMT MMIc Medium Power Amplifier								
!Misc: Vdd1 = Vdd2 = +5V, Vgg1 = vgg2 = Open, Room								
!
# MHZ S MA R 50

30 1.005 0.419 6.442e-3 -149.134 1.517e-3 123.231 0.931 8.807
129.85 1.004 -1.847 5.581e-3 176.119 1.404e-3 95.348 0.932 4.454
229.7 1.002 -4.113 4.72e-3 141.372 1.291e-3 67.464 0.934 0.101
329.55 1.001 -6.378 3.858e-3 106.627 1.178e-3 39.582 0.936 -4.25
429.4 1 -8.642 2.997e-3 71.883 1.065e-3 11.702 0.937 -8.6
529.25 0.999 -10.903 2.136e-3 37.143 951.6e-6 -16.175 0.939 -12.944
629.1 0.999 -13.163 1.278e-3 2.404 840.2e-6 -44.051 0.943 -17.285
728.95 0.998 -15.421 417.1e-6 -32.33 726.9e-6 -71.921 0.945 -21.62
828.8 0.997 -17.676 442.2e-6 112.941 613.7e-6 -99.787 0.946 -25.947
928.65 0.996 -19.928 1.3e-3 78.217 500.7e-6 -127.647 0.948 -30.266
1028.5 0.995 -22.177 2.155e-3 43.5 387.9e-6 -155.501 0.95 -34.576
1128.35 0.993 -24.422 3.009e-3 8.789 275.3e-6 176.652 0.952 -38.876
1228.2 0.992 -26.701 0.01 -12.989 497.9e-6 150.494 0.943 -42.634
1328.05 0.99 -29.042 0.029 -13.904 1.26e-3 127.055 0.916 -45.533
1427.9 0.988 -31.415 0.046 -31.798 1.827e-3 95.037 0.88 -47.686
1527.75 0.985 -33.823 0.062 -68.107 2.184e-3 53.714 0.833 -49.036
1627.6 0.982 -36.282 0.062 -94.727 2.019e-3 22.442 0.828 -50.333
1727.45 0.979 -38.774 0.051 -114.236 1.475e-3 -1.455 0.853 -51.588
1827.3 0.976 -41.373 0.043 -122.228 1.19e-3 -16.641 0.867 -54.269
1927.15 0.972 -43.924 0.036 -124.567 1.034e-3 -27.531 0.875 -57.561
2027 0.969 -46.685 0.032 -120.097 885e-6 -32.676 0.874 -60.958
2126.85 0.967 -49.413 0.028 -113.531 739.8e-6 -36.043 0.871 -64.319
2226.7 0.962 -52.286 0.028 -99.199 713.7e-6 -39.839 0.864 -67.636
2326.55 0.957 -55.124 0.029 -83.648 706.6e-6 -43.659 0.856 -70.913
2426.4 0.952 -58.23 0.036 -68.181 646.5e-6 -51.521 0.846 -74.154
2526.25 0.949 -61.362 0.045 -53.246 589.8e-6 -59.483 0.837 -77.38
2626.1 0.942 -64.66 0.066 -46.222 595.2e-6 -66.79 0.821 -80.524
2725.95 0.935 -68.027 0.088 -40.215 558.3e-6 -79.347 0.806 -83.632
2825.8 0.928 -71.595 0.122 -39.492 305.1e-6 -119.452 0.791 -86.589
2925.65 0.921 -75.266 0.162 -39.64 154.2e-6 -153.553 0.776 -89.565
3025.5 0.912 -79.188 0.217 -42.306 300e-6 -170.281 0.76 -92.653
3125.35 0.902 -83.236 0.286 -45.888 457.9e-6 155.09 0.742 -95.899
3225.2 0.889 -87.509 0.378 -51.145 637.8e-6 87.8 0.721 -99.442
3325.05 0.876 -91.981 0.472 -56.484 856e-6 45.538 0.702 -102.396
3424.9 0.861 -96.649 0.567 -61.867 1.118e-3 33.774 0.684 -104.537
3524.75 0.844 -101.639 0.689 -66.942 1.466e-3 25.254 0.666 -107.348
3624.6 0.828 -106.82 0.831 -71.698 1.883e-3 19.467 0.649 -110.604
3724.45 0.805 -112.353 1.028 -79.782 2.746e-3 -2.74 0.61 -114.389
3824.3 0.779 -118.018 1.256 -89.661 3.857e-3 -33.934 0.56 -118.367
3924.15 0.753 -123.556 1.412 -98.881 3.998e-3 -63.202 0.527 -119.191
4024 0.726 -129.148 1.545 -107.935 3.805e-3 -91.863 0.5 -119.017
4123.85 0.703 -135.544 1.693 -114.091 3.021e-3 -108.857 0.487 -119.357
4223.7 0.68 -142.235 1.846 -119.768 2.124e-3 -123.7 0.476 -119.911
4323.55 0.654 -149.355 2.039 -125.702 1.619e-3 -146.8 0.463 -121.292
4423.4 0.627 -156.664 2.238 -131.734 1.144e-3 -171.103 0.449 -122.817
4523.25 0.599 -164.421 2.449 -138.079 820.4e-6 148.208 0.436 -124.21
4623.1 0.57 -172.269 2.66 -144.44 559.5e-6 107.582 0.422 -125.583
4722.95 0.542 179.308 2.871 -150.871 722.2e-6 67.396 0.409 -127.166
4822.8 0.516 170.888 3.086 -157.211 923.1e-6 33.238 0.396 -128.589
4922.65 0.491 162.085 3.288 -163.423 1.245e-3 19.269 0.381 -130.091
5022.5 0.468 153.272 3.489 -169.535 1.542e-3 5.098 0.366 -131.442
5122.35 0.448 144.195 3.689 -175.537 1.785e-3 -9.592 0.352 -132.944
5222.2 0.429 135.214 3.881 178.656 2.146e-3 -20.261 0.341 -134.483
5322.05 0.415 126.234 4.064 173.091 2.665e-3 -25.463 0.33 -136.426
5421.9 0.4 117.667 4.234 167.199 2.978e-3 -36.212 0.314 -138.105
5521.75 0.387 109.456 4.395 161.051 3.101e-3 -52.041 0.292 -139.547
5621.6 0.38 101.244 4.556 155.864 3.336e-3 -58.012 0.278 -141.347
5721.45 0.376 93.015 4.719 151.293 3.642e-3 -57.842 0.268 -143.057
5821.3 0.367 85.878 4.886 145.5 3.994e-3 -67.279 0.244 -145.548
5921.15 0.356 79.075 5.055 139.225 4.365e-3 -80.553 0.215 -147.809
6021 0.357 73.594 5.063 134.157 3.882e-3 -88.508 0.2 -145.39
6120.85 0.359 68.312 5.035 129.37 3.201e-3 -95.223 0.188 -141.525
6220.7 0.362 62.427 5.141 125.896 3.374e-3 -90.062 0.182 -143.556
6320.55 0.364 56.429 5.258 122.553 3.631e-3 -83.797 0.177 -145.867
6420.4 0.358 52.125 5.338 116.996 3.964e-3 -96.495 0.15 -143.834
6520.25 0.353 48.053 5.408 111.648 4.232e-3 -108.211 0.126 -141.167
6620.1 0.356 44.28 5.404 107.995 3.944e-3 -111.465 0.121 -137.22
6719.95 0.36 40.749 5.404 104.412 3.659e-3 -114.704 0.115 -133.843
6819.8 0.361 37.254 5.429 101.04 3.385e-3 -117.961 0.111 -130.621
6919.65 0.363 33.963 5.461 97.746 3.182e-3 -119.01 0.106 -128.367
7019.5 0.365 30.537 5.524 94.584 3.155e-3 -114.882 0.102 -126.875
7119.35 0.365 27.569 5.571 91.355 3.203e-3 -112.139 0.096 -125.533
7219.2 0.364 24.835 5.611 87.984 3.373e-3 -111.564 0.09 -123.071
7319.05 0.363 22.208 5.647 84.777 3.547e-3 -111.459 0.083 -120.569
7418.9 0.363 19.851 5.682 81.759 3.725e-3 -111.823 0.076 -118.425
7518.75 0.363 17.512 5.717 78.792 3.914e-3 -112.724 0.069 -114.9
7618.6 0.361 15.464 5.756 75.892 4.111e-3 -113.969 0.062 -110.633
7718.45 0.36 13.39 5.793 73.019 4.26e-3 -116.407 0.056 -102.937
7818.3 0.358 11.569 5.832 70.188 4.387e-3 -119.365 0.051 -93.84
7918.15 0.357 9.716 5.866 67.397 4.454e-3 -121.895 0.051 -83.041
8018 0.356 8.089 5.902 64.644 4.506e-3 -124.28 0.049 -73.558
8117.85 0.353 6.455 5.933 61.859 4.574e-3 -125.26 0.055 -66.053
8217.7 0.35 5.021 5.967 59.075 4.647e-3 -126.041 0.053 -53.973
8317.55 0.349 3.651 5.992 56.486 4.729e-3 -127.957 0.058 -47.327
8417.4 0.347 2.467 6.018 53.919 4.809e-3 -129.816 0.062 -40.764
8517.25 0.344 1.203 6.047 51.341 4.837e-3 -130.849 0.068 -35.365
8617.1 0.341 0.163 6.075 48.776 4.886e-3 -132.047 0.075 -30.485
8716.95 0.339 -0.776 6.089 46.171 5.024e-3 -134.148 0.082 -27.843
8816.8 0.336 -1.683 6.103 43.631 5.113e-3 -136.231 0.09 -25.747
8916.65 0.334 -2.475 6.118 41.277 5.068e-3 -138.26 0.096 -23.884
9016.5 0.332 -3.326 6.136 38.882 5.079e-3 -139.754 0.103 -22.284
9116.35 0.329 -4 6.169 36.448 5.201e-3 -140.291 0.11 -20.265
9216.2 0.327 -4.713 6.188 34.04 5.267e-3 -141.269 0.118 -19.019
9316.05 0.325 -5.17 6.201 31.695 5.278e-3 -142.726 0.125 -17.969
9415.9 0.323 -5.778 6.213 29.337 5.299e-3 -144.113 0.133 -17.319
9515.75 0.321 -6.228 6.23 27.003 5.333e-3 -145.412 0.14 -16.477
9615.6 0.319 -6.749 6.239 24.73 5.373e-3 -146.557 0.148 -16.074
9715.45 0.317 -7.074 6.248 22.519 5.42e-3 -147.59 0.154 -15.513
9815.3 0.315 -7.492 6.252 20.278 5.45e-3 -148.285 0.162 -15.25
9915.15 0.313 -7.738 6.258 18.056 5.478e-3 -148.842 0.168 -14.795
10015 0.312 -8.016 6.261 15.83 5.51e-3 -150.265 0.176 -14.599
10114.85 0.31 -8.127 6.266 13.625 5.545e-3 -151.819 0.182 -14.225
10214.7 0.31 -8.293 6.266 11.42 5.617e-3 -152.056 0.189 -14.15
10314.55 0.309 -8.309 6.267 9.241 5.687e-3 -152.281 0.196 -13.905
10414.4 0.309 -8.483 6.262 7.151 5.635e-3 -154.197 0.203 -13.849
10514.25 0.308 -8.505 6.26 5.079 5.594e-3 -155.819 0.209 -13.63
10614.1 0.308 -8.639 6.255 2.962 5.599e-3 -155.824 0.217 -13.638
10713.95 0.307 -8.621 6.251 0.879 5.606e-3 -156.039 0.223 -13.539
10813.8 0.307 -8.723 6.237 -1.182 5.608e-3 -157.007 0.23 -13.778
10913.65 0.307 -8.699 6.227 -3.209 5.621e-3 -158.03 0.236 -13.835
11013.5 0.308 -8.844 6.214 -5.227 5.646e-3 -159.224 0.243 -13.997
11113.35 0.307 -8.834 6.204 -7.204 5.679e-3 -159.805 0.249 -14.009
11213.2 0.308 -8.946 6.203 -9.179 5.727e-3 -159.642 0.255 -14.172
11313.05 0.309 -8.901 6.191 -11.152 5.711e-3 -159.93 0.261 -14.188
11412.9 0.31 -8.979 6.174 -13.166 5.644e-3 -160.662 0.267 -14.347
11512.75 0.31 -8.964 6.153 -15.084 5.633e-3 -161.546 0.273 -14.353
11612.6 0.311 -9.107 6.125 -16.976 5.651e-3 -162.55 0.279 -14.485
11712.45 0.312 -9.179 6.105 -18.84 5.597e-3 -163.091 0.284 -14.557
11812.3 0.314 -9.409 6.084 -20.726 5.51e-3 -163.489 0.289 -14.788
11912.15 0.315 -9.485 6.067 -22.564 5.504e-3 -164.627 0.294 -14.743
12012 0.317 -9.686 6.046 -24.419 5.512e-3 -165.951 0.299 -14.791
12111.85 0.318 -9.78 6.025 -26.27 5.399e-3 -165.053 0.304 -14.767
12211.7 0.319 -10.002 6 -28.144 5.276e-3 -163.998 0.309 -14.868
12311.55 0.32 -10.147 5.972 -29.935 5.361e-3 -163.682 0.314 -14.937
12411.4 0.321 -10.404 5.94 -31.75 5.427e-3 -163.523 0.32 -15.117
12511.25 0.323 -10.447 5.915 -33.545 5.382e-3 -164.377 0.324 -15.151
12611.1 0.325 -10.576 5.885 -35.346 5.332e-3 -164.903 0.329 -15.236
12710.95 0.327 -10.744 5.85 -37.066 5.277e-3 -164.101 0.334 -15.256
12810.8 0.329 -10.947 5.814 -38.812 5.228e-3 -163.386 0.339 -15.317
12910.65 0.33 -11.168 5.79 -40.545 5.2e-3 -162.795 0.344 -15.416
13010.5 0.331 -11.326 5.761 -42.278 5.258e-3 -161.98 0.349 -15.513
13110.35 0.334 -11.563 5.739 -43.999 5.454e-3 -160.821 0.355 -15.748
13210.2 0.335 -11.685 5.701 -45.692 5.586e-3 -160.768 0.359 -15.878
13310.05 0.338 -11.906 5.652 -47.391 5.657e-3 -161.841 0.364 -16.082
13409.9 0.339 -12.084 5.614 -49.039 5.71e-3 -162.35 0.368 -16.181
13509.75 0.342 -12.409 5.576 -50.688 5.744e-3 -162.517 0.372 -16.355
13609.6 0.344 -12.714 5.541 -52.318 5.717e-3 -163.332 0.375 -16.446
13709.45 0.347 -13.154 5.5 -53.971 5.658e-3 -164.459 0.378 -16.621
13809.3 0.349 -13.556 5.466 -55.501 5.551e-3 -164.395 0.381 -16.567
13909.15 0.351 -14.068 5.429 -57.025 5.426e-3 -164.048 0.385 -16.556
14009 0.352 -14.554 5.391 -58.596 5.396e-3 -164.095 0.389 -16.587
14108.85 0.354 -15.092 5.348 -60.195 5.372e-3 -164.212 0.393 -16.673
14208.7 0.354 -15.573 5.31 -61.702 5.434e-3 -162.46 0.395 -16.837
14308.55 0.355 -16.002 5.27 -63.218 5.5e-3 -160.857 0.398 -16.964
14408.4 0.355 -16.407 5.228 -64.761 5.61e-3 -160.981 0.4 -17.105
14508.25 0.356 -16.734 5.188 -66.274 5.706e-3 -161.302 0.401 -17.146
14608.1 0.357 -17.149 5.144 -67.721 5.72e-3 -162.575 0.404 -17.126
14707.95 0.357 -17.492 5.102 -69.178 5.725e-3 -163.672 0.406 -17.031
14807.8 0.357 -17.924 5.047 -70.726 5.687e-3 -164.38 0.408 -16.994
14907.65 0.357 -18.256 5.002 -72.219 5.644e-3 -164.699 0.41 -16.87
15007.5 0.359 -18.58 4.973 -73.669 5.591e-3 -164.425 0.413 -16.752
15107.35 0.36 -18.945 4.935 -75.006 5.567e-3 -164.973 0.416 -16.648
15207.2 0.361 -19.312 4.893 -76.244 5.584e-3 -166.459 0.418 -16.523
15307.05 0.362 -19.747 4.847 -77.569 5.545e-3 -166.493 0.421 -16.404
15406.9 0.363 -20.125 4.801 -78.946 5.47e-3 -165.426 0.423 -16.184
15506.75 0.363 -20.523 4.752 -80.284 5.454e-3 -165.845 0.425 -16.087
15606.6 0.363 -20.837 4.708 -81.577 5.476e-3 -166.975 0.427 -15.952
15706.45 0.364 -21.184 4.666 -82.877 5.408e-3 -167.235 0.429 -15.785
15806.3 0.366 -21.542 4.63 -84.159 5.317e-3 -167.208 0.432 -15.608
15906.15 0.366 -21.9 4.592 -85.424 5.146e-3 -167.99 0.434 -15.464
16006 0.367 -22.308 4.551 -86.691 4.961e-3 -168.905 0.437 -15.386
16105.85 0.367 -22.594 4.512 -88.006 4.854e-3 -169.238 0.438 -15.149
16205.7 0.368 -22.927 4.468 -89.33 4.739e-3 -169.627 0.441 -14.971
16305.55 0.369 -23.313 4.426 -90.497 4.512e-3 -171.1 0.443 -14.761
16405.4 0.369 -23.724 4.382 -91.693 4.266e-3 -172.08 0.445 -14.587
16505.25 0.37 -24.208 4.349 -92.955 3.933e-3 -170.272 0.448 -14.494
16605.1 0.369 -24.67 4.316 -94.197 3.637e-3 -167.935 0.45 -14.354
16704.95 0.369 -25.181 4.28 -95.401 3.444e-3 -164.035 0.453 -14.238
16804.8 0.368 -25.639 4.247 -96.593 3.26e-3 -160.132 0.455 -14.051
16904.65 0.368 -26.074 4.211 -97.801 3.082e-3 -156.258 0.457 -13.856
17004.5 0.367 -26.478 4.173 -98.97 2.99e-3 -150.895 0.459 -13.665
17104.35 0.366 -26.817 4.137 -100.109 3.008e-3 -143.699 0.461 -13.427
17204.2 0.366 -27.189 4.101 -101.249 3.018e-3 -136.14 0.463 -13.273
17304.05 0.365 -27.551 4.07 -102.369 3.027e-3 -128.253 0.465 -13.093
17403.9 0.365 -27.931 4.031 -103.481 3.182e-3 -122.707 0.466 -12.961
17503.75 0.364 -28.323 3.991 -104.57 3.424e-3 -118.462 0.467 -12.864
17603.6 0.363 -28.724 3.958 -105.768 3.742e-3 -111.743 0.468 -12.673
17703.45 0.362 -29.138 3.924 -107.017 4.084e-3 -104.152 0.469 -12.511
17803.3 0.359 -29.324 3.89 -108.066 4.784e-3 -100.483 0.468 -12.225
17903.15 0.356 -29.462 3.853 -109.088 5.551e-3 -97.605 0.468 -11.939
18003 0.353 -29.084 3.82 -110.01 6.907e-3 -98.568 0.467 -11.505
18102.85 0.35 -28.663 3.787 -110.928 8.293e-3 -100.003 0.466 -11.02
18202.7 0.354 -28.021 3.767 -111.963 9.167e-3 -107.854 0.469 -10.286
18302.55 0.357 -27.497 3.749 -113.015 9.926e-3 -115.597 0.471 -9.555
18402.4 0.361 -27.704 3.723 -114.251 9.834e-3 -122.661 0.475 -9.119
18502.25 0.365 -28.001 3.694 -115.491 9.683e-3 -128.725 0.48 -8.779
18602.1 0.367 -28.576 3.668 -116.706 9.363e-3 -131.259 0.483 -8.547
18701.95 0.368 -29.095 3.637 -117.853 9.024e-3 -133.19 0.487 -8.323
18801.8 0.369 -29.487 3.611 -118.829 8.674e-3 -133.815 0.49 -8.11
18901.65 0.369 -29.779 3.579 -119.842 8.549e-3 -134.203 0.492 -7.779
19001.5 0.37 -29.93 3.543 -120.915 8.748e-3 -134.273 0.494 -7.394
19101.35 0.372 -30.1 3.515 -122.011 8.866e-3 -135.719 0.497 -6.99
19201.2 0.374 -30.286 3.492 -123.139 8.899e-3 -138.476 0.5 -6.62
19301.05 0.376 -30.653 3.467 -124.251 8.763e-3 -140.147 0.504 -6.391
19400.9 0.378 -31.151 3.447 -125.342 8.533e-3 -141.117 0.507 -6.165
19500.75 0.378 -31.589 3.414 -126.473 8.319e-3 -141.468 0.51 -5.93
19600.6 0.379 -31.982 3.379 -127.605 8.12e-3 -141.55 0.514 -5.71
19700.45 0.378 -32.399 3.353 -128.785 8.023e-3 -141.344 0.516 -5.465
19800.3 0.378 -32.816 3.326 -129.984 7.943e-3 -141.076 0.517 -5.236
19900.15 0.378 -33.124 3.297 -130.96 7.818e-3 -140.643 0.52 -5.062
20000 0.378 -33.442 3.269 -131.913 7.689e-3 -140.193 0.522 -4.853
