!HMC454ST89
! Deembedded Sparameters , reference plane at pins of part
!Verified 6-16-2004
!Vdd=5V
# MHZ S MA R 50

300 0.754 179.515 14.056 112.01 0.026 22.397 0.603 -156.888
304.16 0.756 179.28 13.915 111.472 0.026 22.414 0.605 -157.443
308.32 0.757 179.047 13.778 110.956 0.026 22.434 0.608 -157.959
312.481 0.759 178.813 13.64 110.439 0.026 22.454 0.61 -158.476
316.641 0.76 178.695 13.504 109.964 0.026 22.515 0.612 -159.001
320.801 0.762 178.459 13.375 109.457 0.026 22.558 0.615 -159.526
324.961 0.763 178.226 13.248 108.953 0.026 22.607 0.617 -160.053
329.122 0.765 177.99 13.121 108.448 0.027 22.656 0.619 -160.58
333.282 0.766 177.754 12.995 107.95 0.027 22.686 0.621 -161.095
337.442 0.767 177.512 12.872 107.458 0.027 22.667 0.623 -161.591
341.602 0.768 177.27 12.75 106.968 0.027 22.648 0.625 -162.086
345.763 0.769 177.145 12.629 106.522 0.027 22.674 0.627 -162.588
349.923 0.771 176.916 12.511 106.062 0.027 22.658 0.628 -163.051
354.083 0.772 176.691 12.395 105.609 0.027 22.642 0.63 -163.509
358.243 0.773 176.465 12.278 105.154 0.027 22.624 0.632 -163.97
362.404 0.774 176.237 12.162 104.702 0.027 22.597 0.634 -164.422
366.564 0.775 176.008 12.049 104.257 0.027 22.552 0.635 -164.858
370.724 0.776 175.78 11.935 103.81 0.028 22.507 0.637 -165.296
374.884 0.777 175.664 11.823 103.407 0.028 22.504 0.638 -165.741
379.045 0.778 175.441 11.717 102.982 0.028 22.495 0.64 -166.187
383.205 0.779 175.222 11.612 102.565 0.028 22.497 0.641 -166.631
387.365 0.78 175 11.507 102.147 0.028 22.496 0.642 -167.076
391.525 0.781 174.783 11.405 101.729 0.028 22.506 0.644 -167.503
395.686 0.782 174.569 11.306 101.313 0.028 22.534 0.645 -167.894
399.846 0.783 174.354 11.207 100.898 0.028 22.564 0.646 -168.283
404.006 0.784 174.255 11.11 100.526 0.028 22.637 0.647 -168.68
408.166 0.785 174.028 11.013 100.139 0.028 22.674 0.648 -169.082
412.327 0.785 173.798 10.916 99.754 0.028 22.712 0.65 -169.486
416.487 0.786 173.567 10.819 99.368 0.028 22.748 0.651 -169.891
420.647 0.787 173.348 10.726 98.987 0.029 22.787 0.652 -170.276
424.807 0.788 173.14 10.638 98.607 0.029 22.822 0.653 -170.638
428.968 0.789 172.934 10.55 98.228 0.029 22.858 0.654 -171
433.128 0.79 172.837 10.465 97.89 0.029 22.936 0.655 -171.37
437.288 0.791 172.628 10.375 97.526 0.029 22.888 0.656 -171.755
441.448 0.791 172.416 10.285 97.161 0.029 22.83 0.657 -172.144
445.609 0.792 172.207 10.196 96.797 0.029 22.773 0.658 -172.534
449.769 0.793 171.999 10.11 96.441 0.029 22.753 0.659 -172.896
453.929 0.793 171.797 10.028 96.097 0.029 22.784 0.66 -173.224
458.089 0.794 171.706 9.95 95.8 0.029 22.861 0.66 -173.552
462.25 0.794 171.506 9.868 95.458 0.029 22.895 0.661 -173.878
466.41 0.795 171.302 9.788 95.117 0.029 22.92 0.662 -174.227
470.57 0.796 171.098 9.709 94.778 0.029 22.946 0.663 -174.575
474.73 0.796 170.896 9.629 94.44 0.029 22.973 0.664 -174.924
478.891 0.797 170.695 9.551 94.104 0.03 22.985 0.664 -175.261
483.051 0.798 170.493 9.477 93.769 0.03 22.977 0.665 -175.588
487.211 0.798 170.399 9.405 93.474 0.03 23.009 0.666 -175.922
491.371 0.799 170.198 9.33 93.139 0.03 23.001 0.667 -176.25
495.532 0.8 170 9.257 92.819 0.03 22.981 0.667 -176.56
499.692 0.8 169.804 9.184 92.502 0.03 22.962 0.668 -176.868
503.852 0.8 169.609 9.111 92.183 0.03 22.943 0.668 -177.178
508.012 0.801 169.414 9.04 91.865 0.03 22.935 0.669 -177.489
512.173 0.801 169.227 8.973 91.554 0.03 22.948 0.67 -177.796
516.333 0.802 169.148 8.908 91.286 0.03 23.003 0.67 -178.108
520.493 0.802 168.96 8.841 90.975 0.03 23.015 0.671 -178.413
524.653 0.803 168.773 8.774 90.677 0.03 23.004 0.671 -178.711
528.814 0.803 168.585 8.708 90.378 0.03 22.991 0.672 -179.011
532.974 0.804 168.396 8.641 90.08 0.031 22.98 0.673 -179.308
537.134 0.804 168.206 8.575 89.785 0.031 22.99 0.673 -179.594
541.294 0.805 168.009 8.511 89.487 0.031 23.015 0.674 -179.874
545.455 0.805 167.918 8.449 89.231 0.031 23.083 0.674 179.844
549.615 0.805 167.723 8.384 88.936 0.031 23.109 0.675 179.566
553.775 0.806 167.536 8.324 88.656 0.031 23.083 0.675 179.275
557.935 0.806 167.346 8.264 88.374 0.031 23.055 0.676 178.983
562.096 0.807 167.157 8.204 88.091 0.031 23.026 0.676 178.688
566.256 0.807 166.968 8.146 87.798 0.031 23.019 0.677 178.403
570.416 0.808 166.778 8.09 87.497 0.031 23.029 0.678 178.127
574.576 0.808 166.693 8.037 87.236 0.031 23.081 0.678 177.846
578.737 0.808 166.502 7.981 86.937 0.031 23.09 0.679 177.569
582.897 0.81 166.316 7.932 86.687 0.031 23.093 0.679 177.318
587.057 0.811 166.13 7.875 86.438 0.032 23.098 0.679 177.071
591.217 0.811 165.943 7.817 86.189 0.032 23.102 0.68 176.821
595.378 0.811 165.755 7.761 85.922 0.032 23.105 0.68 176.568
599.538 0.812 165.569 7.707 85.644 0.032 23.109 0.68 176.313
603.698 0.812 165.482 7.656 85.406 0.032 23.152 0.681 176.055
607.858 0.812 165.294 7.602 85.13 0.032 23.158 0.681 175.802
612.018 0.813 165.117 7.552 84.884 0.032 23.204 0.682 175.571
616.179 0.813 164.938 7.503 84.636 0.032 23.248 0.682 175.339
620.339 0.814 164.759 7.453 84.389 0.032 23.293 0.682 175.108
624.499 0.814 164.582 7.404 84.139 0.032 23.293 0.683 174.862
628.659 0.815 164.404 7.356 83.887 0.032 23.262 0.683 174.608
632.82 0.815 164.326 7.311 83.676 0.032 23.273 0.683 174.351
636.98 0.815 164.148 7.262 83.423 0.032 23.247 0.684 174.099
641.14 0.815 163.973 7.213 83.175 0.032 23.259 0.684 173.867
645.3 0.816 163.801 7.164 82.928 0.033 23.272 0.684 173.635
649.461 0.816 163.628 7.115 82.681 0.033 23.284 0.684 173.402
653.621 0.816 163.458 7.068 82.434 0.033 23.297 0.685 173.16
657.781 0.816 163.29 7.022 82.186 0.033 23.311 0.685 172.912
661.941 0.816 163.219 6.98 81.978 0.033 23.365 0.686 172.662
666.102 0.817 163.051 6.934 81.732 0.033 23.378 0.686 172.419
670.262 0.817 162.874 6.89 81.491 0.033 23.381 0.686 172.205
674.422 0.817 162.696 6.845 81.248 0.033 23.383 0.687 171.991
678.582 0.818 162.517 6.801 81.006 0.033 23.386 0.687 171.777
682.743 0.818 162.348 6.758 80.775 0.033 23.363 0.687 171.553
686.903 0.818 162.18 6.715 80.549 0.033 23.326 0.687 171.324
691.063 0.818 162.11 6.675 80.363 0.033 23.33 0.687 171.095
695.223 0.819 161.943 6.64 80.136 0.033 23.294 0.689 170.866
699.384 0.819 161.783 6.599 79.913 0.034 23.268 0.69 170.644
703.544 0.819 161.624 6.558 79.691 0.034 23.242 0.69 170.422
707.704 0.819 161.463 6.517 79.468 0.034 23.216 0.691 170.201
711.864 0.82 161.29 6.478 79.232 0.034 23.242 0.691 169.997
716.025 0.82 161.112 6.439 78.99 0.034 23.294 0.691 169.804
720.185 0.82 161.029 6.404 78.787 0.034 23.384 0.691 169.609
724.345 0.821 160.857 6.365 78.554 0.034 23.424 0.691 169.411
728.505 0.821 160.703 6.327 78.345 0.034 23.406 0.692 169.186
732.666 0.821 160.548 6.288 78.134 0.034 23.388 0.692 168.958
736.826 0.822 160.396 6.25 77.925 0.034 23.372 0.692 168.732
740.986 0.822 160.241 6.213 77.718 0.034 23.376 0.692 168.534
745.146 0.822 160.089 6.178 77.512 0.034 23.387 0.693 168.345
749.307 0.822 160.024 6.145 77.341 0.034 23.435 0.693 168.154
753.467 0.823 159.869 6.11 77.132 0.034 23.444 0.693 167.959
757.627 0.823 159.718 6.074 76.927 0.035 23.457 0.694 167.757
761.787 0.823 159.564 6.038 76.719 0.035 23.466 0.694 167.551
765.948 0.823 159.411 6.002 76.511 0.035 23.476 0.694 167.345
770.108 0.824 159.25 5.966 76.294 0.035 23.435 0.694 167.151
774.268 0.824 159.085 5.93 76.075 0.035 23.378 0.695 166.962
778.428 0.824 158.922 5.893 75.856 0.035 23.321 0.695 166.772
782.589 0.824 158.762 5.858 75.642 0.035 23.283 0.694 166.618
786.749 0.824 158.702 5.828 75.479 0.035 23.338 0.694 166.431
790.909 0.824 158.557 5.798 75.299 0.035 23.375 0.695 166.264
795.069 0.825 158.408 5.765 75.099 0.035 23.393 0.695 166.078
799.23 0.825 158.259 5.732 74.899 0.035 23.397 0.696 165.889
803.39 0.825 158.107 5.699 74.697 0.035 23.395 0.696 165.7
807.55 0.825 157.955 5.667 74.496 0.035 23.392 0.696 165.511
811.71 0.826 157.806 5.634 74.298 0.035 23.387 0.697 165.326
815.871 0.826 157.655 5.604 74.107 0.035 23.37 0.697 165.152
820.031 0.826 157.506 5.573 73.918 0.036 23.355 0.697 164.98
824.191 0.826 157.404 5.542 73.726 0.036 23.338 0.698 164.806
828.351 0.826 157.28 5.515 73.557 0.036 23.362 0.697 164.619
832.512 0.827 157.121 5.485 73.353 0.036 23.356 0.698 164.434
836.672 0.827 156.96 5.455 73.147 0.036 23.347 0.697 164.275
840.832 0.827 156.809 5.425 72.953 0.036 23.349 0.697 164.091
844.992 0.827 156.676 5.399 72.796 0.036 23.383 0.698 163.931
849.153 0.827 156.539 5.37 72.624 0.036 23.402 0.698 163.754
853.313 0.827 156.403 5.341 72.452 0.036 23.421 0.699 163.577
857.473 0.828 156.255 5.313 72.258 0.036 23.391 0.699 163.407
861.633 0.828 156.106 5.285 72.06 0.036 23.352 0.699 163.239
865.794 0.828 156.035 5.261 71.894 0.036 23.345 0.699 163.071
869.954 0.828 155.887 5.233 71.7 0.036 23.329 0.699 162.909
874.114 0.829 155.748 5.204 71.517 0.036 23.357 0.7 162.759
878.274 0.829 155.607 5.176 71.334 0.037 23.386 0.7 162.611
882.435 0.829 155.468 5.147 71.151 0.037 23.414 0.7 162.461
886.595 0.829 155.335 5.121 70.981 0.037 23.393 0.7 162.301
890.755 0.829 155.203 5.095 70.814 0.037 23.365 0.7 162.141
894.915 0.829 155.152 5.071 70.682 0.037 23.372 0.7 162.002
899.076 0.829 155.025 5.049 70.522 0.037 23.368 0.7 161.854
903.236 0.83 154.891 5.024 70.345 0.037 23.374 0.701 161.698
907.396 0.83 154.76 4.999 70.169 0.037 23.38 0.701 161.542
911.556 0.83 154.626 4.974 69.993 0.037 23.386 0.701 161.389
915.716 0.83 154.49 4.949 69.818 0.037 23.394 0.701 161.224
919.877 0.83 154.351 4.923 69.641 0.037 23.402 0.701 161.058
924.037 0.83 154.257 4.897 69.465 0.037 23.409 0.702 160.892
928.197 0.83 154.152 4.875 69.32 0.037 23.428 0.702 160.733
932.357 0.831 154.014 4.85 69.142 0.038 23.384 0.702 160.584
936.518 0.831 153.877 4.825 68.964 0.038 23.341 0.702 160.435
940.678 0.831 153.738 4.8 68.786 0.038 23.297 0.702 160.287
944.838 0.831 153.612 4.776 68.622 0.038 23.295 0.702 160.128
948.998 0.831 153.488 4.753 68.461 0.038 23.297 0.702 159.981
953.159 0.83 153.405 4.73 68.298 0.038 23.298 0.702 159.821
957.319 0.831 153.319 4.713 68.179 0.038 23.349 0.703 159.685
961.479 0.831 153.191 4.691 68.019 0.038 23.365 0.703 159.551
965.639 0.832 153.068 4.669 67.863 0.038 23.384 0.703 159.419
969.8 0.832 152.945 4.647 67.707 0.038 23.404 0.703 159.289
973.96 0.832 152.82 4.624 67.545 0.038 23.399 0.703 159.153
978.12 0.832 152.695 4.601 67.382 0.038 23.393 0.703 159.017
982.28 0.832 152.57 4.577 67.219 0.038 23.385 0.704 158.879
986.441 0.832 152.491 4.555 67.059 0.039 23.362 0.704 158.743
990.601 0.832 152.401 4.538 66.929 0.039 23.344 0.704 158.602
994.761 0.833 152.282 4.517 66.768 0.039 23.296 0.704 158.461
998.921 0.833 152.165 4.496 66.609 0.039 23.249 0.703 158.326
1003.082 0.833 152.035 4.476 66.45 0.039 23.252 0.703 158.181
1007.242 0.833 151.906 4.456 66.293 0.039 23.257 0.704 158.036
1011.402 0.834 151.775 4.436 66.135 0.039 23.262 0.704 157.893
1015.562 0.833 151.692 4.418 65.981 0.039 23.254 0.704 157.753
1019.723 0.833 151.564 4.398 65.821 0.039 23.225 0.705 157.61
1023.883 0.833 151.439 4.377 65.663 0.039 23.197 0.705 157.468
1028.043 0.834 151.313 4.356 65.506 0.039 23.17 0.705 157.327
1032.203 0.834 151.215 4.339 65.378 0.039 23.192 0.706 157.194
1036.364 0.834 151.088 4.319 65.221 0.039 23.185 0.705 157.06
1040.524 0.834 150.962 4.299 65.066 0.039 23.18 0.705 156.927
1044.684 0.833 150.881 4.279 64.91 0.04 23.161 0.705 156.789
1048.844 0.834 150.765 4.261 64.752 0.04 23.128 0.705 156.65
1053.005 0.834 150.651 4.242 64.595 0.04 23.097 0.706 156.51
1057.165 0.834 150.532 4.224 64.436 0.04 23.064 0.706 156.372
1061.325 0.834 150.408 4.204 64.286 0.04 23.061 0.706 156.264
1065.485 0.834 150.284 4.185 64.135 0.04 23.058 0.706 156.156
1069.646 0.835 150.157 4.165 63.985 0.04 23.055 0.706 156.05
1073.806 0.834 150.107 4.153 63.861 0.04 23.096 0.706 155.936
1077.966 0.834 149.993 4.135 63.711 0.04 23.122 0.706 155.817
1082.126 0.834 149.88 4.118 63.562 0.04 23.15 0.706 155.7
1086.287 0.835 149.765 4.1 63.412 0.04 23.17 0.707 155.581
1090.447 0.835 149.648 4.083 63.257 0.04 23.112 0.707 155.453
1094.607 0.835 149.529 4.066 63.101 0.04 23.054 0.707 155.326
1098.767 0.835 149.41 4.048 62.946 0.04 22.995 0.707 155.198
1102.928 0.836 149.293 4.031 62.801 0.041 22.981 0.707 155.074
1107.088 0.836 149.201 4.017 62.689 0.041 23.023 0.707 154.957
1111.248 0.836 149.12 4 62.55 0.041 23.039 0.708 154.836
1115.408 0.836 148.999 3.983 62.408 0.041 23.045 0.708 154.714
1119.569 0.836 148.88 3.966 62.255 0.041 22.986 0.708 154.597
1123.729 0.836 148.761 3.949 62.102 0.041 22.926 0.707 154.472
1127.889 0.836 148.64 3.933 61.947 0.041 22.865 0.707 154.353
1132.049 0.836 148.532 3.919 61.802 0.041 22.836 0.708 154.22
1136.21 0.837 148.447 3.905 61.691 0.041 22.853 0.708 154.083
1140.37 0.837 148.338 3.889 61.556 0.041 22.847 0.708 153.944
1144.53 0.837 148.228 3.872 61.421 0.041 22.842 0.708 153.811
1148.69 0.838 148.118 3.856 61.281 0.041 22.845 0.708 153.7
1152.851 0.839 148.042 3.845 61.143 0.042 22.851 0.709 153.591
1157.011 0.839 147.933 3.829 61.006 0.042 22.858 0.709 153.484
1161.171 0.839 147.821 3.813 60.862 0.042 22.852 0.709 153.379
1165.331 0.839 147.705 3.797 60.713 0.042 22.839 0.709 153.277
1169.492 0.84 147.613 3.788 60.588 0.042 22.849 0.711 153.177
1173.652 0.842 147.499 3.776 60.444 0.042 22.837 0.711 153.074
1177.812 0.842 147.388 3.761 60.319 0.042 22.82 0.711 152.968
1181.972 0.842 147.276 3.746 60.194 0.042 22.804 0.711 152.851
1186.133 0.842 147.165 3.73 60.068 0.042 22.787 0.711 152.745
1190.293 0.842 147.063 3.718 59.925 0.042 22.759 0.711 152.628
1194.453 0.842 146.955 3.704 59.784 0.042 22.736 0.711 152.518
1198.613 0.842 146.902 3.692 59.665 0.042 22.735 0.711 152.409
1202.773 0.842 146.793 3.677 59.525 0.043 22.71 0.712 152.298
1206.934 0.842 146.684 3.662 59.396 0.043 22.681 0.712 152.192
1211.094 0.842 146.575 3.647 59.267 0.043 22.653 0.712 152.087
1215.254 0.842 146.468 3.631 59.14 0.043 22.627 0.712 151.981
1219.414 0.842 146.361 3.617 59.004 0.043 22.65 0.712 151.883
1223.575 0.842 146.256 3.604 58.866 0.043 22.696 0.713 151.786
1227.735 0.843 146.148 3.591 58.726 0.043 22.741 0.713 151.688
1231.895 0.842 146.068 3.578 58.59 0.043 22.764 0.713 151.59
1236.055 0.842 145.956 3.564 58.467 0.043 22.709 0.713 151.487
1240.216 0.843 145.867 3.553 58.366 0.043 22.676 0.712 151.368
1244.376 0.843 145.755 3.54 58.245 0.043 22.623 0.712 151.267
1248.536 0.843 145.657 3.528 58.116 0.043 22.595 0.713 151.157
1252.696 0.843 145.556 3.515 58 0.044 22.59 0.713 151.057
1256.857 0.843 145.453 3.501 57.882 0.044 22.585 0.713 150.959
1261.017 0.842 145.377 3.487 57.759 0.044 22.577 0.713 150.86
1265.177 0.842 145.271 3.473 57.616 0.044 22.559 0.713 150.76
1269.337 0.842 145.166 3.46 57.473 0.044 22.541 0.714 150.661
1273.498 0.842 145.06 3.446 57.33 0.044 22.522 0.714 150.561
1277.658 0.842 144.96 3.433 57.206 0.044 22.502 0.714 150.455
1281.818 0.843 144.859 3.421 57.085 0.044 22.48 0.714 150.346
1285.978 0.843 144.777 3.411 56.983 0.044 22.476 0.714 150.24
1290.139 0.844 144.676 3.399 56.86 0.044 22.456 0.714 150.139
1294.299 0.843 144.6 3.386 56.733 0.044 22.445 0.714 150.062
1298.459 0.843 144.497 3.374 56.603 0.044 22.431 0.715 149.982
1302.619 0.843 144.395 3.361 56.473 0.044 22.418 0.714 149.878
1306.78 0.843 144.308 3.351 56.343 0.045 22.381 0.714 149.77
1310.94 0.843 144.217 3.339 56.227 0.045 22.353 0.715 149.669
1315.1 0.843 144.124 3.326 56.11 0.045 22.325 0.715 149.569
1319.26 0.843 144.032 3.314 55.993 0.045 22.303 0.715 149.473
1323.421 0.844 143.952 3.306 55.887 0.045 22.309 0.715 149.383
1327.581 0.843 143.877 3.295 55.764 0.045 22.298 0.715 149.292
1331.741 0.843 143.78 3.284 55.642 0.045 22.288 0.715 149.204
1335.901 0.843 143.686 3.272 55.52 0.045 22.267 0.716 149.114
1340.062 0.844 143.593 3.26 55.398 0.045 22.244 0.716 149.025
1344.222 0.844 143.496 3.249 55.273 0.045 22.218 0.715 148.907
1348.382 0.844 143.411 3.239 55.141 0.045 22.18 0.715 148.806
1352.542 0.844 143.314 3.228 55.025 0.045 22.15 0.715 148.724
1356.703 0.844 143.237 3.219 54.927 0.046 22.139 0.715 148.647
1360.863 0.845 143.14 3.208 54.811 0.046 22.109 0.716 148.564
1365.023 0.845 143.041 3.197 54.688 0.046 22.104 0.716 148.478
1369.183 0.844 142.962 3.186 54.565 0.046 22.106 0.716 148.396
1373.344 0.844 142.865 3.175 54.442 0.046 22.108 0.716 148.312
1377.504 0.844 142.766 3.164 54.32 0.046 22.097 0.716 148.227
1381.664 0.844 142.67 3.154 54.202 0.046 22.066 0.716 148.143
1385.824 0.845 142.588 3.146 54.099 0.046 22.051 0.715 148.029
1389.985 0.845 142.502 3.138 53.967 0.046 22.006 0.716 147.93
1394.145 0.845 142.403 3.128 53.843 0.046 21.982 0.716 147.847
1398.305 0.845 142.306 3.117 53.719 0.046 21.959 0.716 147.762
1402.465 0.845 142.207 3.106 53.593 0.046 21.936 0.716 147.677
1406.626 0.845 142.111 3.095 53.476 0.047 21.91 0.716 147.593
1410.786 0.845 142.02 3.085 53.375 0.047 21.882 0.716 147.512
1414.946 0.844 141.95 3.074 53.274 0.047 21.855 0.717 147.431
1419.106 0.845 141.873 3.066 53.187 0.047 21.842 0.717 147.353
1423.267 0.845 141.787 3.056 53.074 0.047 21.813 0.716 147.237
1427.427 0.845 141.713 3.048 52.944 0.047 21.769 0.717 147.141
1431.587 0.845 141.627 3.038 52.83 0.047 21.742 0.717 147.063
1435.747 0.845 141.537 3.028 52.712 0.047 21.726 0.717 146.989
1439.908 0.846 141.44 3.019 52.589 0.047 21.729 0.717 146.924
1444.068 0.846 141.34 3.009 52.465 0.047 21.73 0.717 146.859
1448.228 0.846 141.244 2.999 52.343 0.047 21.733 0.717 146.794
1452.388 0.846 141.152 2.99 52.227 0.047 21.68 0.717 146.715
1456.549 0.846 141.062 2.98 52.111 0.048 21.623 0.718 146.633
1460.709 0.846 140.999 2.973 52.008 0.048 21.577 0.717 146.516
1464.869 0.846 140.906 2.963 51.892 0.048 21.547 0.717 146.439
1469.029 0.846 140.81 2.954 51.777 0.048 21.55 0.717 146.367
1473.19 0.846 140.714 2.945 51.662 0.048 21.554 0.717 146.295
1477.35 0.846 140.621 2.936 51.55 0.048 21.56 0.717 146.226
1481.51 0.846 140.529 2.927 51.441 0.048 21.529 0.717 146.148
1485.67 0.846 140.438 2.917 51.332 0.048 21.497 0.717 146.071
1489.831 0.846 140.355 2.91 51.205 0.048 21.445 0.718 145.974
1493.991 0.846 140.27 2.9 51.106 0.048 21.417 0.718 145.896
1498.151 0.846 140.187 2.891 51.018 0.048 21.393 0.718 145.821
1502.311 0.846 140.128 2.885 50.94 0.048 21.379 0.717 145.706
1506.471 0.846 140.045 2.876 50.851 0.049 21.353 0.717 145.629
1510.632 0.846 139.944 2.867 50.721 0.049 21.323 0.717 145.563
1514.792 0.846 139.841 2.859 50.59 0.049 21.292 0.717 145.496
1518.952 0.846 139.738 2.85 50.46 0.049 21.262 0.718 145.432
1523.112 0.846 139.639 2.842 50.337 0.049 21.239 0.718 145.36
1527.273 0.846 139.544 2.833 50.225 0.049 21.227 0.718 145.287
1531.433 0.846 139.451 2.825 50.113 0.049 21.214 0.718 145.213
1535.593 0.847 139.357 2.817 49.999 0.049 21.2 0.718 145.139
1539.753 0.847 139.272 2.809 49.892 0.049 21.162 0.718 145.082
1543.914 0.847 139.184 2.8 49.781 0.049 21.119 0.717 144.976
1548.074 0.846 139.128 2.796 49.661 0.049 21.068 0.718 144.899
1552.234 0.847 139.045 2.788 49.56 0.049 21.034 0.718 144.836
1556.394 0.847 138.966 2.779 49.466 0.05 21.005 0.718 144.765
1560.555 0.847 138.885 2.771 49.371 0.05 20.975 0.718 144.695
1564.715 0.847 138.803 2.762 49.274 0.05 20.944 0.718 144.625
1568.875 0.847 138.728 2.754 49.183 0.05 20.922 0.718 144.558
1573.035 0.846 138.651 2.745 49.091 0.05 20.9 0.718 144.493
1577.196 0.846 138.577 2.737 48.999 0.05 20.878 0.719 144.426
1581.356 0.846 138.498 2.729 48.901 0.05 20.866 0.718 144.312
1585.516 0.846 138.427 2.722 48.776 0.05 20.839 0.718 144.221
1589.676 0.846 138.347 2.715 48.674 0.05 20.836 0.718 144.153
1593.837 0.846 138.286 2.709 48.583 0.05 20.842 0.718 144.092
1597.997 0.846 138.207 2.704 48.482 0.05 20.829 0.72 144.036
1602.157 0.846 138.127 2.697 48.382 0.051 20.817 0.72 143.981
1606.317 0.846 138.047 2.689 48.283 0.051 20.806 0.72 143.927
1610.478 0.846 137.961 2.682 48.172 0.051 20.785 0.72 143.866
