!Hittite Microwave Corporation								
!20 Alpha Road								
!Chelmsford, MA 01824								
!Tel: 978-250-3343								
!Fax: 978-250-3373								
!Device: HMC451, 5-20 GHz, Driver Amplifier Die																
!Misc: Vcc = 4.5V, data includes two K connectors, Room	
!
# MHZ S MA R 50

50 0.993 -3.731 1.329e-3 -140.895 307.1e-6 -128.978 0.994 -4.08
174.75 0.994 -12.136 184.8e-6 -118.017 296e-6 155.635 0.996 -12.411
299.5 0.995 -20.801 255.4e-6 -11.104 65.86e-6 38.807 0.994 -21.191
424.25 0.994 -29.525 4.221e-3 6.512 110.7e-6 18.147 0.996 -29.828
549 0.993 -38.308 346.8e-6 -43.175 105e-6 138.399 0.993 -38.932
673.75 0.991 -47.176 692.8e-6 -72.116 96.22e-6 155.495 0.993 -47.916
798.5 0.988 -56.207 1.305e-3 -67.542 99.21e-6 78.093 0.991 -57.303
923.25 0.983 -65.315 3.048e-3 -80.311 180.6e-6 90.174 0.984 -66.965
1048 0.98 -74.473 4.326e-3 -95.104 283.6e-6 68.343 0.97 -77.061
1172.75 0.974 -83.741 8.156e-3 -145.38 456.6e-6 8.228 0.944 -87.077
1297.5 0.966 -93.121 8.254e-3 -179.816 587.8e-6 -62.74 0.911 -96.09
1422.25 0.957 -102.672 4.453e-3 168.3 561.1e-6 -112.24 0.895 -104.778
1547 0.947 -112.301 5.068e-3 -139.806 524e-6 -158.974 0.883 -114.43
1671.75 0.936 -122.063 0.011 -138.561 594.6e-6 -166.424 0.862 -124.499
1796.5 0.925 -131.958 0.018 -145.632 561.3e-6 -162.067 0.834 -134.617
1921.25 0.912 -141.883 0.025 -166.126 679.6e-6 -166.665 0.799 -144.674
2046 0.897 -151.95 0.026 -176.569 697.5e-6 -173.985 0.765 -154.328
2170.75 0.881 -162.196 0.027 -178.361 875.2e-6 171.504 0.734 -163.854
2295.5 0.865 -172.469 0.026 -169.21 1.072e-3 166.589 0.707 -173.595
2420.25 0.85 177.113 0.032 -142.748 1.294e-3 156.05 0.682 176.176
2545 0.833 166.575 0.056 -126.44 1.526e-3 144.211 0.658 165.538
2669.75 0.815 155.863 0.122 -116.44 1.613e-3 130.629 0.635 154.29
2794.5 0.798 145.037 0.229 -130.079 2.053e-3 119.737 0.608 141.982
2919.25 0.781 134.276 0.353 -140.873 2.409e-3 115.331 0.58 128.625
3044 0.764 123.349 0.547 -150.139 2.373e-3 107.973 0.55 113.892
3168.75 0.746 112.17 0.925 -160.55 2.343e-3 95.432 0.518 97.358
3293.5 0.728 100.866 1.487 -179.744 2.477e-3 86.904 0.479 77.541
3418.25 0.708 89.441 2.233 166.653 2.785e-3 74.292 0.437 53.368
3543 0.689 77.921 3.581 141.801 2.875e-3 63.437 0.389 22.73
3667.75 0.669 66.173 4.966 116.77 2.693e-3 55.076 0.343 -16.849
3792.5 0.644 54.103 6.026 92.108 2.319e-3 41.111 0.32 -63.477
3917.25 0.618 41.98 7.525 68.939 2.089e-3 30.71 0.323 -108.738
4042 0.59 30.157 8.488 43.958 2.076e-3 25.031 0.336 -146.277
4166.75 0.561 18.241 9.006 23.453 1.862e-3 21.765 0.347 -175.403
4291.5 0.531 6.233 9.653 2.905 1.824e-3 19.783 0.35 162.038
4416.25 0.499 -5.61 10.194 -12.244 1.894e-3 19.102 0.347 143.344
4541 0.465 -17.262 10.141 -29.122 1.658e-3 14.742 0.341 127.938
4665.75 0.431 -28.733 10.51 -40.866 1.551e-3 11.65 0.332 114.358
4790.5 0.396 -39.988 10.966 -58.281 1.43e-3 7.737 0.322 102.209
4915.25 0.361 -50.735 11.155 -71.153 1.379e-3 2.803 0.311 90.872
5040 0.326 -61.091 11.994 -84.722 1.121e-3 -2.146 0.301 80.4
5164.75 0.292 -70.638 12.024 -95.959 998.8e-6 0.742 0.289 70.33
5289.5 0.26 -78.678 12.699 -108.21 864.3e-6 -5.44 0.279 61.019
5414.25 0.232 -85.7 12.668 -119.757 734.2e-6 1.362 0.267 51.947
5539 0.207 -91.664 13.419 -134.145 845.7e-6 3.453 0.255 43.422
5663.75 0.187 -96.152 12.942 -145.298 725.7e-6 8.585 0.242 34.553
5788.5 0.172 -98.964 13.416 -154.514 660.6e-6 15.869 0.231 26.089
5913.25 0.162 -101.103 13.545 -165.73 601e-6 28.191 0.221 18.28
6038 0.158 -103.165 13.353 -175.654 592.2e-6 34.531 0.208 10.239
6162.75 0.158 -105.522 13.432 174.415 665.2e-6 35.049 0.199 2.152
6287.5 0.16 -108.559 13.754 165.538 717e-6 44.29 0.19 -5.07
6412.25 0.164 -112.203 13.984 154.798 817.6e-6 42.714 0.181 -11.771
6537 0.171 -115.963 13.589 144.875 975.5e-6 42.08 0.166 -18.68
6661.75 0.179 -120.889 13.514 136.584 905.8e-6 44.499 0.158 -27.161
6786.5 0.186 -126.952 13.459 128.028 1.061e-3 53.529 0.15 -33.86
6911.25 0.193 -133.105 13.681 119.826 1.087e-3 39.654 0.14 -40.537
7036 0.2 -139.029 13.336 110.549 1.249e-3 39.07 0.129 -47.137
7160.75 0.206 -145.48 13.395 103.976 1.348e-3 41.412 0.122 -55.344
7285.5 0.212 -152.654 13.462 95.432 1.402e-3 41.728 0.118 -59.783
7410.25 0.217 -159.83 13.364 87.161 1.455e-3 43.876 0.107 -64.209
7535 0.22 -166.546 13.118 79.162 1.508e-3 40.87 0.098 -69.893
7659.75 0.223 -173.178 12.99 72.721 1.554e-3 35.189 0.091 -77.499
7784.5 0.228 -179.981 13.1 65.485 1.615e-3 32.03 0.09 -81.913
7909.25 0.23 172.481 12.892 58.153 1.636e-3 31.382 0.082 -84.828
8034 0.23 165.198 12.859 51.459 1.581e-3 31.285 0.076 -91.527
8158.75 0.23 158.605 12.822 44.834 1.814e-3 32.388 0.074 -98.187
8283.5 0.231 151.931 12.854 38.038 1.641e-3 26.119 0.072 -100.363
8408.25 0.23 144.493 12.788 31.127 1.888e-3 27.239 0.065 -101.399
8533 0.226 136.899 12.733 24.734 1.842e-3 24.904 0.057 -107.821
8657.75 0.223 130.326 12.727 18.308 1.844e-3 30.35 0.055 -114.735
8782.5 0.219 123.557 12.715 11.932 1.9e-3 25.726 0.054 -115.608
8907.25 0.215 116.627 12.715 5.503 1.878e-3 27.302 0.048 -116.243
9032 0.211 109.504 12.711 -0.797 1.963e-3 25.77 0.044 -118.743
9156.75 0.205 102.305 12.701 -6.974 2.076e-3 21.607 0.042 -122.431
9281.5 0.195 95.287 12.717 -13.264 2.115e-3 22.264 0.043 -117.457
9406.25 0.187 88.623 12.714 -19.347 2.217e-3 21.959 0.038 -111.448
9531 0.181 82.062 12.724 -25.455 2.366e-3 20.291 0.035 -110.436
9655.75 0.173 74.284 12.752 -31.651 2.3e-3 15.914 0.032 -111.482
9780.5 0.159 66.765 12.749 -37.635 2.508e-3 14.376 0.035 -111.991
9905.25 0.148 61.132 12.789 -43.63 2.601e-3 12.976 0.034 -109.64
10030 0.141 55.223 12.814 -49.679 2.519e-3 11.61 0.038 -112.025
10154.75 0.13 46.397 12.826 -55.663 2.703e-3 8.957 0.041 -112.64
10279.5 0.118 39.002 12.824 -61.598 2.815e-3 8.358 0.048 -114.025
10404.25 0.108 32.812 12.866 -67.381 2.795e-3 7.723 0.052 -109.81
10529 0.094 24.562 12.89 -73.448 2.886e-3 4.49 0.055 -113.328
10653.75 0.082 14.042 12.933 -79.172 3.016e-3 2.391 0.06 -113.438
10778.5 0.071 5.995 12.999 -85.238 3.052e-3 1.527 0.063 -116.888
10903.25 0.055 -5.265 12.987 -91.233 3.182e-3 -2.044 0.067 -119.929
11028 0.042 -22.611 12.984 -97.193 3.218e-3 -3.885 0.072 -128.228
11152.75 0.032 -37.267 13.002 -103.005 3.29e-3 -8.719 0.083 -131.019
11277.5 0.023 -52.293 13.035 -108.575 3.253e-3 -7.285 0.087 -133.428
11402.25 0.021 -85.452 13.033 -114.523 3.439e-3 -11.954 0.093 -137.983
11527 0.026 -123.527 13.063 -120.084 3.486e-3 -13.391 0.099 -143.307
11651.75 0.032 -151.378 13.106 -125.639 3.455e-3 -18.358 0.11 -146.167
11776.5 0.043 -166.753 13.21 -131.45 3.454e-3 -19.255 0.111 -149.154
11901.25 0.061 -178.454 13.363 -138.249 3.597e-3 -22.595 0.113 -155.37
12026 0.075 166.702 13.088 -144.401 3.646e-3 -26.278 0.122 -162.523
12150.75 0.084 150.42 13.172 -148.746 3.638e-3 -28.38 0.134 -166.295
12275.5 0.09 141.212 13.365 -154.926 3.698e-3 -29.476 0.136 -169.137
12400.25 0.096 137.528 13.227 -161.633 3.818e-3 -31.984 0.139 -175.385
12525 0.102 133.238 12.93 -167.079 4.041e-3 -32.325 0.148 177.849
12649.75 0.116 127.26 13.18 -171.355 3.891e-3 -37.794 0.159 175.082
12774.5 0.131 120.345 13.655 -178.451 3.986e-3 -37.933 0.158 171.41
12899.25 0.139 113.276 13.281 175.495 3.954e-3 -39.849 0.161 164.068
13024 0.144 107.384 12.975 170.444 3.798e-3 -46.738 0.171 156.378
13148.75 0.157 101.734 13.035 165.315 3.924e-3 -46.032 0.186 153.688
13273.5 0.169 94.555 13.431 158.831 3.961e-3 -46.898 0.186 150.617
13398.25 0.174 86.676 13.369 151.505 4.028e-3 -49.181 0.189 144.228
13523 0.178 81.4 13.023 147.503 3.977e-3 -52.52 0.197 138.512
13647.75 0.184 76.343 13.226 142.776 4.156e-3 -54.396 0.208 135.844
13772.5 0.192 69.877 13.275 135.957 4.13e-3 -56.892 0.202 131.87
13897.25 0.197 63.915 13.168 127.857 3.95e-3 -60.888 0.202 124.114
14022 0.199 58.613 12.56 124.55 3.922e-3 -64.459 0.214 117.342
14146.75 0.203 53.833 13.292 122.069 4.026e-3 -67.311 0.227 113.804
14271.5 0.21 48.414 13.207 112.761 3.853e-3 -68.419 0.223 110.406
14396.25 0.218 43.528 13.103 106.503 4.236e-3 -71.177 0.227 103.668
14521 0.223 38.609 12.941 101.357 4.278e-3 -71.092 0.234 98.686
14645.75 0.227 32.594 13.416 97.153 4.195e-3 -74.427 0.242 94.552
14770.5 0.231 26.417 13.263 87.794 3.889e-3 -75.245 0.235 91.118
14895.25 0.236 22.092 12.36 83.56 4.204e-3 -78.41 0.236 82.556
15020 0.239 17.69 12.569 78.046 4.036e-3 -81.609 0.247 77.547
15144.75 0.241 11.383 12.455 73.699 3.859e-3 -81.815 0.255 72.685
15269.5 0.241 5.454 12.957 66.609 3.624e-3 -82.907 0.255 69.333
15394.25 0.242 2.299 12.558 61.629 3.874e-3 -88.014 0.256 62.623
15519 0.248 -0.712 12.545 57.144 3.868e-3 -95.653 0.266 58.165
15643.75 0.255 -6.834 12.316 49.84 4.128e-3 -90.662 0.265 53.919
15768.5 0.257 -12.572 12.369 43.691 3.729e-3 -94.936 0.264 48.649
15893.25 0.257 -15.776 11.972 36.428 3.892e-3 -97.735 0.266 42.119
16018 0.263 -19.181 12.017 35.281 4.007e-3 -99.889 0.276 36.681
16142.75 0.271 -24.54 12.239 28.757 3.832e-3 -99.265 0.285 32.459
16267.5 0.273 -30.201 11.988 22.92 3.812e-3 -103.556 0.287 28.095
16392.25 0.268 -33.929 12.04 16.844 3.872e-3 -102.847 0.292 22.86
16517 0.273 -36.67 12.108 10.998 3.77e-3 -107.095 0.297 19.11
16641.75 0.285 -40.513 12.289 5.156 3.81e-3 -109.659 0.298 14.303
16766.5 0.29 -45.872 11.742 -1.675 3.824e-3 -112.748 0.3 9.868
16891.25 0.289 -50.634 11.828 -6.976 3.71e-3 -114.176 0.302 4.233
17016 0.293 -53.253 11.552 -14.415 3.871e-3 -114.446 0.308 -0.355
17140.75 0.306 -56.483 11.524 -18.071 3.811e-3 -120.765 0.312 -6.095
17265.5 0.314 -62.233 11.424 -24.197 3.562e-3 -123.094 0.32 -10.355
17390.25 0.314 -67.382 11.197 -30.025 3.833e-3 -123.455 0.326 -15.363
17515 0.318 -69.582 11.119 -36.702 3.396e-3 -126.059 0.332 -19
17639.75 0.329 -72.76 10.974 -41.67 3.468e-3 -128.277 0.333 -24.918
17764.5 0.34 -78.08 11.12 -47.806 3.703e-3 -128.997 0.345 -28.701
17889.25 0.347 -82.191 10.685 -53.441 3.229e-3 -132.362 0.343 -34.078
18014 0.356 -84.959 10.614 -59.101 3.532e-3 -137.337 0.357 -38.76
18138.75 0.366 -89.587 10.45 -65.103 3.509e-3 -134.855 0.356 -44.53
18263.5 0.377 -94.283 10.39 -70.997 3.361e-3 -141.944 0.38 -49.191
18388.25 0.392 -97.823 10.264 -76.916 3.339e-3 -143.457 0.383 -52.374
18513 0.401 -102.581 10.024 -82.696 3.537e-3 -145.063 0.394 -57.2
18637.75 0.399 -107.677 9.856 -88.951 3.29e-3 -148.931 0.396 -61.304
18762.5 0.412 -110.799 9.701 -94.598 3.221e-3 -151.156 0.409 -66.711
18887.25 0.436 -114.264 9.541 -100.229 3.426e-3 -154.965 0.416 -70.227
19012 0.438 -119.561 9.392 -106.161 3.168e-3 -155.088 0.417 -76.01
19136.75 0.438 -123.329 9.188 -112.446 3.101e-3 -156.442 0.432 -81.588
19261.5 0.463 -126.84 8.92 -117.916 3.045e-3 -162.588 0.45 -86.136
19386.25 0.479 -131.665 8.755 -123.078 3.091e-3 -157.689 0.462 -90.214
19511 0.483 -135.823 8.554 -128.607 2.962e-3 -165.682 0.473 -94.338
19635.75 0.499 -140.146 8.369 -135.354 3.009e-3 -169.076 0.481 -99.274
19760.5 0.512 -145.353 8.23 -139.482 2.982e-3 -173.955 0.5 -103.009
19885.25 0.515 -149.384 8.303 -145.288 3.097e-3 -171.504 0.498 -106.895
20010 0.525 -153.165 8.035 -151.642 2.667e-3 -176.01 0.508 -112.226
20134.75 0.54 -158.03 7.7 -158.371 2.792e-3 176.703 0.515 -117.168
20259.5 0.539 -163.011 7.532 -165.262 2.807e-3 176.703 0.533 -122.225
20384.25 0.543 -166.087 7.453 -169.515 2.868e-3 176.149 0.539 -125.594
20509 0.562 -169.478 7.347 -175.416 2.855e-3 176.827 0.548 -131.135
20633.75 0.572 -174.369 7.032 179.589 2.423e-3 172.487 0.562 -135.396
20758.5 0.568 -179.002 6.653 173.343 2.397e-3 171.338 0.573 -139.556
20883.25 0.578 177.5 6.73 166.146 2.538e-3 164.797 0.576 -143.391
21008 0.595 173.506 6.67 158.375 2.23e-3 169.508 0.578 -149.112
21132.75 0.598 168.67 6.117 151.299 2.166e-3 164.894 0.594 -153.774
21257.5 0.594 164.107 5.596 149.897 2.098e-3 161.418 0.605 -158.319
21382.25 0.602 160.238 5.344 140.784 2.488e-3 167.725 0.612 -162.392
21507 0.609 156.158 4.972 137.172 2.059e-3 159.885 0.626 -167.845
21631.75 0.603 151.921 4.712 134.673 1.93e-3 151.779 0.646 -171.726
21756.5 0.601 148.086 4.629 136.623 2.053e-3 141.649 0.656 -174.811
21881.25 0.612 144.612 4.724 128.876 2.184e-3 153.976 0.659 -177.678
22006 0.614 140.512 4.407 121.345 1.788e-3 145.317 0.663 177.332
22130.75 0.608 136.64 4.77 119.458 2.114e-3 145.502 0.677 174.297
22255.5 0.614 133.223 4.535 112.044 2.147e-3 144.132 0.677 170.271
22380.25 0.622 129.065 4.428 108.092 1.999e-3 160.188 0.68 166.656
22505 0.618 124.38 3.861 98.084 1.937e-3 143.502 0.68 161.121
22629.75 0.617 120.667 3.871 99.085 1.781e-3 139.151 0.705 157.841
22754.5 0.617 117.411 3.974 93.532 1.906e-3 140.334 0.703 154.73
22879.25 0.613 113.155 3.804 90.776 1.659e-3 142.542 0.707 150.517
23004 0.608 108.767 3.689 81.046 1.629e-3 139.217 0.707 146.274
23128.75 0.61 105.339 3.399 78.736 1.888e-3 132.766 0.721 142.058
23253.5 0.607 102.014 3.788 72.605 1.832e-3 131.96 0.721 139.523
23378.25 0.601 98.652 3.313 63.893 1.613e-3 126.841 0.716 134.686
23503 0.605 94.991 2.966 63.241 1.791e-3 128.134 0.727 129.864
23627.75 0.607 90.67 2.811 58.397 1.883e-3 122.365 0.742 126.557
23752.5 0.598 86.811 3.075 54.127 1.892e-3 126.045 0.745 123.611
23877.25 0.593 83.776 2.915 44.343 1.621e-3 135.478 0.737 120.028
24002 0.601 79.643 2.587 46.738 1.748e-3 128.959 0.737 115.107
24126.75 0.595 75.05 2.533 41.55 1.661e-3 127.346 0.752 111.968
24251.5 0.586 71.816 2.419 36.089 1.609e-3 116.624 0.741 108.375
24376.25 0.585 68.657 2.398 29.229 1.926e-3 107.613 0.744 103.899
24501 0.584 64.65 2.17 28.495 1.986e-3 127.447 0.737 98.867
24625.75 0.577 60.488 2.335 30.78 1.664e-3 129.719 0.767 95.262
24750.5 0.576 56.897 2.16 21.175 1.546e-3 111.961 0.758 93.158
24875.25 0.572 53.044 2.234 14.312 1.854e-3 118.054 0.76 88.905
25000 0.559 49.641 2.019 6.455 1.577e-3 111.471 0.75 85.362
