!Hittite Microwave Corporation								
!12 Elizabeth Drive								
!Chelmsford, MA 01824								
!Tel: 978-250-3343								
!Fax: 978-250-3373								
!Device: HMC436MS8G, 4.9-5.9 GHz GaAs MMIC DPDT Diversity Switch in 8-lead Grounded Base surface Mount Plastic Package								
!Misc:  Port 1 = ANT1, Port 2 = ANT2, Port 3 = Tx, Port 4 = Rx, Vctl=+3V, State 3 selected, Room							
!
# MHZ S MA R 50

4000 0.776 -3.769 0.282 -1.957 0.287 2.822 0.111 -63.002
          0.299 -6.912 0.272 77.175 0.773 54.017 0.323 2.361
          0.304 -2.082 0.785 53.128 0.273 74.821 0.319 -3.558
          0.107 -66.621 0.299 2.387 0.296 -3.582 0.77 -5.567
4015 0.776 -4.417 0.285 -2.643 0.29 2.274 0.107 -66.882
          0.284 -8.386 0.268 76.771 0.789 53.458 0.316 -1.315
          0.288 -3.423 0.791 52.255 0.27 74.504 0.313 -7.347
          0.1 -68.292 0.298 1.475 0.294 -4.66 0.771 -6.113
4030 0.777 -5.007 0.286 -3.764 0.291 1.229 0.101 -69.402
          0.269 -8.092 0.265 76.365 0.797 52.451 0.299 -3.661
          0.273 -2.941 0.788 51.538 0.267 74.135 0.296 -9.96
          0.094 -68.23 0.294 0.706 0.291 -5.596 0.772 -6.79
4045 0.778 -5.595 0.283 -5.016 0.288 0.103 0.093 -69.842
          0.259 -6.537 0.262 75.902 0.797 51.396 0.279 -3.94
          0.263 -1.261 0.782 51.183 0.264 73.725 0.276 -10.416
          0.09 -66.803 0.289 0.374 0.286 -6.121 0.773 -7.453
4060 0.779 -6.228 0.278 -6.001 0.282 -0.7 0.087 -68.131
          0.255 -4.605 0.259 75.345 0.787 50.673 0.263 -2.044
          0.26 0.766 0.776 51.22 0.261 73.201 0.259 -8.643
          0.088 -64.908 0.284 0.352 0.28 -6.23 0.773 -8.102
4075 0.78 -6.905 0.27 -6.379 0.274 -0.88 0.083 -64.887
          0.257 -3.159 0.256 74.729 0.774 50.55 0.255 1.417
          0.262 2.318 0.772 51.539 0.259 72.564 0.251 -5.336
          0.088 -63.535 0.281 0.487 0.277 -6.078 0.774 -8.761
4090 0.781 -7.532 0.263 -6.009 0.267 -0.33 0.084 -61.447
          0.261 -2.645 0.252 74.211 0.764 51.092 0.258 5.021
          0.265 2.865 0.773 51.939 0.255 72.046 0.254 -1.801
          0.089 -63.323 0.278 0.999 0.274 -5.869 0.775 -9.355
4105 0.783 -8.194 0.259 -5.078 0.263 0.784 0.087 -60.061
          0.262 -3.323 0.249 73.519 0.762 52.107 0.271 6.725
          0.267 2.348 0.778 52.13 0.252 71.525 0.267 -0.249
          0.088 -63.93 0.278 0.971 0.273 -5.959 0.777 -10.028
4120 0.783 -8.835 0.259 -4.248 0.263 1.734 0.09 -60.723
          0.259 -3.813 0.246 72.893 0.769 52.992 0.285 6.194
          0.264 2.076 0.781 52.039 0.249 71.07 0.28 -0.902
          0.087 -64.571 0.276 0.797 0.272 -6.231 0.777 -10.63
4135 0.785 -9.481 0.26 -3.876 0.265 2.195 0.092 -63.039
          0.255 -3.533 0.243 72.266 0.781 53.423 0.295 3.984
          0.26 2.518 0.781 51.926 0.246 70.539 0.289 -3.213
          0.084 -64.46 0.274 0.611 0.269 -6.574 0.778 -11.258
4150 0.787 -10.116 0.261 -4.095 0.267 2.113 0.092 -66.112
          0.252 -2.473 0.24 71.631 0.793 53.314 0.295 1.072
          0.257 3.719 0.779 51.965 0.243 69.967 0.29 -6.268
          0.083 -63.531 0.271 0.589 0.265 -6.757 0.779 -11.907
4165 0.788 -10.739 0.262 -4.794 0.268 1.599 0.088 -68.795
          0.254 -1.102 0.237 70.961 0.802 52.778 0.286 -1.389
          0.259 5.258 0.777 52.266 0.24 69.385 0.281 -8.945
          0.082 -62.3 0.267 0.859 0.262 -6.618 0.781 -12.565
4180 0.791 -11.42 0.26 -5.606 0.266 0.825 0.083 -69.946
          0.261 -0.27 0.234 70.118 0.804 52.091 0.272 -2.318
          0.267 6.198 0.776 52.902 0.238 68.638 0.266 -10.062
          0.084 -61.737 0.265 1.394 0.259 -6.266 0.784 -13.299
4195 0.791 -11.997 0.255 -6.198 0.262 0.389 0.079 -68.903
          0.272 -1.108 0.23 69.451 0.8 51.713 0.261 -1.09
          0.278 5.374 0.784 53.572 0.234 67.931 0.255 -8.897
          0.086 -62.582 0.265 1.861 0.26 -5.905 0.783 -13.799
4210 0.793 -12.56 0.25 -6.286 0.257 0.398 0.077 -67.225
          0.278 -3.821 0.227 68.731 0.794 51.775 0.257 0.822
          0.286 2.762 0.796 53.921 0.232 67.147 0.251 -7.103
          0.088 -65.565 0.267 1.971 0.261 -5.828 0.784 -14.431
4225 0.795 -13.128 0.247 -6.058 0.253 0.737 0.076 -66.08
          0.277 -7.394 0.224 67.908 0.792 52.105 0.26 2.199
          0.285 -0.696 0.81 53.675 0.229 66.353 0.253 -5.853
          0.086 -69.29 0.268 1.592 0.262 -6.434 0.786 -15.083
4240 0.797 -13.687 0.245 -5.695 0.252 1.199 0.077 -66.056
          0.266 -10.604 0.221 67.106 0.794 52.535 0.265 2.423
          0.273 -3.777 0.821 52.952 0.225 65.596 0.258 -5.754
          0.082 -72.661 0.268 0.833 0.262 -7.448 0.787 -15.708
4255 0.798 -14.226 0.244 -5.427 0.251 1.539 0.078 -67.236
          0.247 -12.245 0.218 66.398 0.801 52.866 0.27 1.405
          0.254 -5.247 0.824 52.039 0.222 64.891 0.263 -6.894
          0.075 -74.548 0.266 -0.078 0.259 -8.456 0.788 -16.307
4270 0.799 -14.766 0.244 -5.596 0.251 1.536 0.077 -69.274
          0.229 -11.343 0.215 65.579 0.809 52.824 0.27 -0.487
          0.235 -4.145 0.819 51.166 0.219 64.212 0.262 -8.887
          0.068 -73.463 0.261 -0.909 0.254 -9.454 0.789 -16.906
4285 0.801 -15.293 0.243 -6.145 0.25 1.045 0.073 -70.868
          0.218 -7.978 0.212 64.792 0.815 52.41 0.261 -1.94
          0.225 -0.762 0.807 50.952 0.216 63.47 0.254 -10.575
          0.065 -70.525 0.255 -1.119 0.248 -9.795 0.791 -17.627
4300 0.802 -15.85 0.241 -6.67 0.248 0.654 0.07 -71.289
          0.218 -4.648 0.209 63.886 0.815 51.991 0.252 -2.141
          0.225 2.763 0.799 51.167 0.213 62.742 0.244 -10.952
          0.064 -67.224 0.25 -0.752 0.242 -9.644 0.792 -18.265
4315 0.803 -16.396 0.237 -7.051 0.244 0.457 0.067 -70.643
          0.225 -2.448 0.206 62.957 0.813 51.743 0.244 -1.286
          0.232 5.107 0.794 51.844 0.21 62.086 0.237 -10.269
          0.065 -65.181 0.247 -0.136 0.239 -9.187 0.794 -18.901
4330 0.805 -16.942 0.234 -7.183 0.241 0.507 0.065 -69.465
          0.234 -1.994 0.202 62.056 0.81 51.751 0.241 0.012
          0.242 5.646 0.796 52.598 0.207 61.383 0.233 -9.142
          0.067 -64.889 0.245 0.452 0.237 -8.694 0.795 -19.53
4345 0.806 -17.508 0.231 -7.064 0.238 0.785 0.064 -68.544
          0.242 -3.352 0.199 61.17 0.809 51.99 0.242 0.961
          0.25 4.405 0.805 53.024 0.204 60.531 0.234 -8.339
          0.069 -66.205 0.245 0.802 0.236 -8.44 0.797 -20.145
4360 0.807 -18.078 0.229 -6.868 0.236 1.184 0.064 -68.745
          0.244 -5.95 0.196 60.195 0.812 52.287 0.245 0.843
          0.253 2.016 0.815 53.096 0.202 59.653 0.237 -8.56
          0.068 -68.843 0.245 0.796 0.237 -8.613 0.798 -20.816
4375 0.81 -18.699 0.227 -7.044 0.236 1.177 0.063 -70.165
          0.237 -8.147 0.193 59.181 0.818 52.214 0.244 -0.38
          0.246 0.13 0.822 52.732 0.199 58.995 0.235 -9.946
          0.066 -71.047 0.244 0.326 0.236 -9.193 0.8 -21.494
4390 0.811 -19.279 0.226 -7.472 0.235 0.858 0.061 -71.298
          0.228 -8.966 0.19 58.087 0.822 51.949 0.238 -1.387
          0.237 -0.624 0.825 52.262 0.196 58.099 0.229 -11.15
          0.062 -71.944 0.242 -0.097 0.233 -9.804 0.801 -22.096
4405 0.813 -19.932 0.223 -7.988 0.232 0.429 0.058 -71.347
          0.221 -8.595 0.187 56.932 0.822 51.551 0.228 -1.262
          0.229 -0.159 0.824 51.951 0.194 57.216 0.22 -11.259
          0.06 -71.454 0.239 -0.426 0.23 -10.33 0.803 -22.755
4420 0.815 -20.605 0.219 -8.346 0.228 0.153 0.055 -69.944
          0.216 -7.667 0.184 55.708 0.817 51.252 0.22 0.323
          0.225 0.878 0.822 51.901 0.191 56.275 0.212 -9.879
          0.058 -70.466 0.236 -0.549 0.227 -10.675 0.805 -23.438
4435 0.816 -21.212 0.214 -8.337 0.223 0.269 0.053 -67.311
          0.215 -6.941 0.182 54.436 0.809 51.298 0.217 3.093
          0.225 1.685 0.821 52.047 0.189 55.196 0.208 -7.266
          0.057 -69.997 0.233 -0.426 0.224 -10.818 0.807 -24.076
4450 0.819 -21.797 0.21 -7.92 0.218 0.899 0.054 -64.425
          0.216 -6.985 0.179 53.191 0.802 51.799 0.221 6.146
          0.225 1.877 0.823 52.147 0.186 54.179 0.212 -4.46
          0.057 -70.37 0.231 -0.235 0.222 -10.865 0.808 -24.711
4465 0.82 -22.386 0.207 -7.049 0.216 1.834 0.056 -63.485
          0.214 -7.889 0.176 51.847 0.803 52.668 0.233 7.413
          0.224 1.045 0.827 52.099 0.183 52.867 0.223 -3.285
          0.055 -71.493 0.23 -0.469 0.22 -11.163 0.809 -25.306
4480 0.822 -22.974 0.207 -6.345 0.216 2.744 0.059 -64.698
          0.208 -8.382 0.174 50.464 0.811 53.475 0.248 6.504
          0.218 0.769 0.828 51.911 0.18 51.703 0.237 -4.394
          0.053 -72.004 0.227 -0.678 0.217 -11.556 0.811 -25.942
4495 0.823 -23.519 0.208 -6.107 0.217 3.24 0.061 -67.94
          0.202 -7.808 0.171 49.097 0.824 53.917 0.259 3.403
          0.211 1.487 0.826 51.693 0.177 50.498 0.248 -7.637
          0.05 -71.461 0.223 -0.804 0.214 -11.939 0.813 -26.6
4510 0.825 -24.041 0.21 -6.395 0.219 3.163 0.06 -72.623
          0.198 -6.172 0.169 47.753 0.84 53.824 0.262 -1.198
          0.207 3.265 0.823 51.63 0.175 49.271 0.25 -12.384
          0.049 -69.829 0.219 -0.761 0.21 -12.125 0.815 -27.223
4525 0.827 -24.562 0.21 -7.148 0.22 2.546 0.057 -77.565
          0.198 -4.014 0.167 46.383 0.854 53.201 0.253 -6.034
          0.208 5.647 0.819 51.888 0.172 48.084 0.241 -17.467
          0.048 -67.567 0.216 -0.469 0.206 -12.007 0.816 -27.797
4540 0.829 -25.045 0.209 -8.32 0.219 1.574 0.052 -80.878
          0.204 -2.298 0.165 44.872 0.862 52.258 0.233 -9.389
          0.214 7.483 0.817 52.512 0.17 46.862 0.222 -21.125
          0.049 -65.722 0.213 0.102 0.202 -11.737 0.818 -28.419
4555 0.83 -25.531 0.205 -9.325 0.216 0.705 0.046 -80.952
          0.215 -2.895 0.163 43.463 0.859 51.334 0.212 -9.267
          0.226 7.082 0.823 53.079 0.168 45.739 0.202 -21.31
          0.051 -66.497 0.212 0.597 0.201 -11.336 0.819 -28.976
4570 0.832 -25.997 0.2 -9.92 0.211 0.25 0.043 -78.779
          0.224 -5.515 0.161 41.968 0.851 50.739 0.197 -7.053
          0.236 4.476 0.834 53.407 0.166 44.561 0.187 -19.401
          0.052 -69.097 0.212 0.909 0.2 -11.21 0.821 -29.583
4585 0.833 -26.452 0.195 -10.139 0.206 0.166 0.04 -75.877
          0.226 -9.809 0.159 40.528 0.843 50.515 0.189 -4.095
          0.238 0.326 0.848 53.249 0.165 43.429 0.179 -16.747
          0.052 -73.438 0.212 0.864 0.2 -11.507 0.823 -30.134
4600 0.834 -26.891 0.191 -10.076 0.202 0.374 0.039 -73.352
          0.218 -14.473 0.158 39.103 0.837 50.587 0.187 -1.425
          0.229 -4.119 0.858 52.651 0.163 42.229 0.176 -14.34
          0.049 -78.136 0.211 0.442 0.199 -12.225 0.824 -30.684
4615 0.836 -27.331 0.188 -9.886 0.199 0.726 0.039 -71.762
          0.2 -17.767 0.156 37.619 0.833 50.801 0.187 0.386
          0.211 -7.209 0.862 51.781 0.161 40.918 0.176 -12.738
          0.045 -81.327 0.209 -0.241 0.197 -13.219 0.827 -31.278
4630 0.837 -27.84 0.185 -9.77 0.196 0.972 0.038 -70.979
          0.179 -18.042 0.154 36.103 0.832 50.968 0.187 1.358
          0.189 -7.088 0.86 50.765 0.16 39.795 0.175 -11.979
          0.039 -81.485 0.205 -0.954 0.194 -14.215 0.828 -31.788
4645 0.84 -28.356 0.182 -9.789 0.193 1.147 0.037 -69.956
          0.165 -14.295 0.153 34.787 0.83 51.019 0.185 2.519
          0.175 -3.214 0.847 50.434 0.158 38.635 0.173 -11.128
          0.036 -77.458 0.2 -1.212 0.188 -14.783 0.829 -32.322
4660 0.841 -28.909 0.179 -9.692 0.19 1.444 0.036 -68.306
          0.161 -9.762 0.152 33.204 0.826 51.16 0.183 4.168
          0.17 1.57 0.836 50.493 0.157 37.395 0.171 -9.556
          0.034 -73.049 0.196 -1.07 0.183 -14.893 0.83 -32.893
4675 0.842 -29.438 0.176 -9.376 0.187 1.959 0.036 -66.597
          0.164 -6.123 0.151 31.653 0.822 51.516 0.185 6.19
          0.174 5.418 0.828 50.995 0.155 36.123 0.173 -7.72
          0.034 -69.655 0.192 -0.568 0.179 -14.594 0.833 -33.465
4690 0.843 -29.941 0.174 -8.873 0.184 2.715 0.037 -65.171
          0.17 -4.329 0.149 30.091 0.82 52.103 0.191 7.946
          0.181 7.398 0.827 51.683 0.154 34.899 0.178 -6.228
          0.035 -68.019 0.189 0.091 0.176 -14.14 0.835 -34.011
4705 0.844 -30.444 0.172 -8.303 0.182 3.598 0.038 -64.644
          0.178 -4.62 0.148 28.433 0.823 52.834 0.201 8.566
          0.189 7.326 0.832 52.225 0.152 33.676 0.186 -5.812
          0.037 -68.332 0.187 0.634 0.174 -13.823 0.836 -34.529
4720 0.846 -30.961 0.172 -7.815 0.182 4.317 0.04 -66.381
          0.182 -6.545 0.147 26.805 0.832 53.514 0.213 7.261
          0.194 5.601 0.84 52.463 0.151 32.112 0.197 -7.284
          0.037 -70.335 0.186 0.836 0.172 -13.794 0.838 -35.067
4735 0.848 -31.464 0.173 -7.895 0.183 4.573 0.04 -70.672
          0.179 -8.736 0.146 25.017 0.847 53.717 0.221 3.261
          0.191 3.649 0.846 52.25 0.149 30.662 0.204 -11.484
          0.036 -72.718 0.184 0.712 0.17 -14.105 0.84 -35.587
4750 0.85 -32.005 0.173 -8.456 0.184 4.33 0.039 -76.19
          0.174 -9.884 0.144 23.243 0.861 53.449 0.22 -2.001
          0.186 2.765 0.848 52.095 0.147 29.243 0.203 -17.049
          0.033 -73.527 0.182 0.678 0.168 -14.433 0.842 -36.122
4765 0.851 -32.528 0.172 -9.446 0.183 3.665 0.036 -81.273
          0.168 -9.89 0.143 21.561 0.872 52.773 0.207 -6.768
          0.18 3.039 0.849 51.921 0.145 27.891 0.191 -22.086
          0.032 -73.171 0.18 0.693 0.165 -14.716 0.843 -36.66
4780 0.854 -33.026 0.169 -10.577 0.181 2.857 0.032 -83.912
          0.165 -9.1 0.142 19.933 0.876 51.856 0.187 -9.264
          0.177 4.122 0.848 51.883 0.143 26.579 0.172 -24.878
          0.03 -72.408 0.177 0.821 0.162 -14.875 0.845 -37.192
4795 0.855 -33.502 0.165 -11.488 0.177 2.237 0.028 -82.918
          0.165 -8.254 0.141 18.326 0.872 50.959 0.167 -8.364
          0.177 5.283 0.847 52.086 0.142 25.267 0.153 -24.388
          0.03 -71.92 0.174 1.12 0.159 -14.849 0.846 -37.71
4810 0.857 -33.941 0.16 -11.905 0.172 2.014 0.026 -79.087
          0.167 -8.435 0.141 16.818 0.862 50.411 0.154 -4.277
          0.18 5.453 0.849 52.312 0.141 23.935 0.141 -20.78
          0.03 -71.889 0.172 1.517 0.157 -14.631 0.848 -38.201
4825 0.859 -34.309 0.156 -11.728 0.168 2.452 0.025 -74.286
          0.168 -10.242 0.14 15.227 0.851 50.541 0.152 0.416
          0.181 4.03 0.856 52.341 0.14 22.539 0.138 -16.456
          0.03 -73.55 0.17 1.715 0.155 -14.849 0.851 -38.771
4840 0.861 -34.7 0.152 -11.298 0.165 3.252 0.025 -71.672
          0.165 -12.358 0.14 13.669 0.845 51.026 0.155 3.48
          0.178 2.098 0.86 52.164 0.139 21.157 0.141 -13.678
          0.029 -75.802 0.168 1.802 0.153 -15.013 0.853 -39.302
4855 0.863 -35.091 0.15 -10.878 0.163 3.948 0.025 -71.16
          0.158 -13.858 0.139 12.047 0.845 51.503 0.16 4.484
          0.172 0.818 0.863 51.846 0.138 19.791 0.145 -12.925
          0.027 -77.329 0.166 1.833 0.151 -15.311 0.855 -39.8
4870 0.865 -35.467 0.148 -10.625 0.161 4.421 0.025 -72.215
          0.15 -14.156 0.139 10.436 0.85 51.803 0.164 3.823
          0.164 0.804 0.863 51.545 0.137 18.411 0.148 -13.882
          0.025 -77.557 0.163 1.814 0.148 -15.711 0.857 -40.276
4885 0.866 -35.829 0.147 -10.646 0.16 4.662 0.025 -74.178
          0.144 -13.174 0.139 8.926 0.857 51.861 0.163 2.348
          0.157 2.084 0.86 51.404 0.137 17.043 0.147 -15.749
          0.024 -76.591 0.16 1.873 0.144 -16.061 0.859 -40.745
4900 0.868 -36.202 0.145 -11.073 0.158 4.519 0.023 -76.612
          0.141 -11.511 0.138 7.461 0.861 51.632 0.158 0.998
          0.154 4.054 0.858 51.443 0.136 15.851 0.142 -17.545
          0.023 -75.155 0.157 2.424 0.141 -16.183 0.861 -41.225
4915 0.869 -36.579 0.142 -11.415 0.156 4.489 0.022 -75.867
          0.142 -10.811 0.138 6.129 0.86 51.304 0.15 1.585
          0.156 5.256 0.858 51.731 0.135 14.833 0.135 -17.4
          0.022 -74.222 0.154 2.872 0.139 -16.124 0.861 -41.738
4930 0.87 -36.931 0.139 -11.497 0.153 4.658 0.02 -74.231
          0.144 -11.476 0.137 4.829 0.856 51.184 0.145 3.445
          0.157 4.811 0.86 51.887 0.135 13.738 0.13 -15.994
          0.022 -75.367 0.153 3.209 0.136 -16.085 0.862 -42.157
4945 0.871 -37.294 0.136 -11.318 0.15 5.075 0.02 -72.739
          0.143 -13.193 0.137 3.549 0.852 51.321 0.144 5.605
          0.156 3.333 0.866 51.79 0.135 12.67 0.128 -14.257
          0.021 -77.31 0.151 3.463 0.134 -16.229 0.865 -42.614
4960 0.873 -37.68 0.134 -11.071 0.147 5.625 0.02 -71.821
          0.138 -15.157 0.136 2.252 0.852 51.629 0.146 7.169
          0.151 1.681 0.87 51.501 0.134 11.522 0.129 -13.094
          0.02 -79.425 0.149 3.611 0.132 -16.521 0.867 -43.107
4975 0.874 -38.089 0.132 -10.947 0.145 6.169 0.019 -71.866
          0.129 -16.195 0.136 0.933 0.854 51.96 0.149 7.547
          0.142 1.008 0.87 51.142 0.134 10.295 0.132 -13.118
          0.018 -80.697 0.146 3.648 0.129 -16.905 0.868 -43.589
4990 0.876 -38.525 0.13 -10.931 0.144 6.686 0.019 -73.767
          0.12 -14.885 0.135 -0.382 0.859 52.184 0.151 6.691
          0.133 2.8 0.865 50.783 0.133 9.36 0.133 -14.375
          0.017 -78.666 0.143 3.655 0.126 -17.505 0.87 -44.059
5005 0.877 -38.976 0.129 -11.275 0.142 6.853 0.018 -75.089
          0.116 -11.31 0.134 -1.583 0.865 52.099 0.15 5.056
          0.128 6.946 0.857 50.816 0.132 8.182 0.131 -16.573
          0.015 -74.357 0.14 3.993 0.123 -17.631 0.871 -44.535
5020 0.879 -39.412 0.127 -11.604 0.14 6.919 0.017 -76.868
          0.116 -7.786 0.134 -2.794 0.868 51.875 0.145 4.055
          0.129 10.71 0.852 51.197 0.131 7.13 0.126 -18.085
          0.015 -71.013 0.137 4.67 0.119 -17.595 0.873 -45.022
5035 0.88 -39.85 0.124 -11.934 0.138 7.093 0.016 -77.224
          0.12 -5.619 0.134 -4.009 0.869 51.674 0.14 4.134
          0.134 13.279 0.852 51.7 0.13 6.008 0.121 -18.528
          0.015 -69.314 0.134 5.573 0.116 -17.198 0.874 -45.502
5050 0.881 -40.295 0.122 -12.17 0.136 7.392 0.016 -76.795
          0.126 -5.498 0.133 -5.294 0.868 51.597 0.136 5.099
          0.141 14 0.857 52.222 0.129 4.786 0.117 -18.056
          0.016 -69.275 0.132 6.495 0.114 -16.692 0.877 -46.006
5065 0.883 -40.741 0.119 -12.24 0.133 7.774 0.015 -76.863
          0.132 -7.593 0.133 -6.647 0.868 51.675 0.135 6.303
          0.148 12.501 0.865 52.622 0.128 3.536 0.115 -17.335
          0.016 -71.062 0.131 7.224 0.112 -16.4 0.878 -46.528
5080 0.885 -41.195 0.117 -12.247 0.131 8.276 0.014 -77.427
          0.135 -11.661 0.132 -7.92 0.869 51.839 0.136 6.835
          0.152 8.804 0.876 52.569 0.126 2.342 0.115 -17.517
          0.016 -75.835 0.13 7.626 0.11 -16.341 0.88 -46.93
5095 0.886 -41.595 0.115 -12.374 0.129 8.699 0.014 -78.511
          0.13 -16.494 0.131 -9.386 0.874 51.917 0.136 5.548
          0.147 4.591 0.882 52.155 0.125 1.191 0.115 -19.221
          0.015 -81.436 0.129 7.842 0.109 -16.861 0.881 -47.392
5110 0.888 -41.982 0.113 -12.826 0.128 8.874 0.013 -81.498
          0.12 -19.636 0.13 -10.642 0.88 51.758 0.133 3.507
          0.136 1.987 0.885 51.551 0.124 -0.03 0.112 -21.871
          0.013 -85.316 0.127 7.757 0.107 -17.545 0.883 -47.851
5125 0.89 -42.362 0.11 -13.304 0.125 9.001 0.012 -84.569
          0.109 -20.1 0.129 -11.903 0.883 51.405 0.125 1.938
          0.124 2.089 0.883 51.035 0.122 -1.151 0.105 -24.066
          0.012 -85.872 0.124 7.873 0.105 -18.084 0.884 -48.318
5140 0.891 -42.716 0.108 -13.776 0.123 9.099 0.01 -85.807
          0.101 -18.28 0.128 -13.031 0.884 50.958 0.116 2.046
          0.116 4.474 0.878 50.791 0.121 -2.112 0.097 -24.616
          0.01 -83.893 0.121 8.221 0.101 -18.429 0.886 -48.791
5155 0.893 -43.042 0.104 -14.214 0.12 9.24 9.348e-3 -84.293
          0.097 -15.466 0.127 -13.94 0.88 50.559 0.107 4.548
          0.111 7.888 0.873 50.86 0.12 -2.955 0.089 -22.883
          9.636e-3 -80.976 0.118 8.695 0.098 -18.63 0.887 -49.271
5170 0.895 -43.392 0.101 -14.324 0.117 9.788 8.523e-3 -81.283
          0.097 -13.354 0.126 -14.908 0.873 50.377 0.102 9.211
          0.111 10.931 0.871 51.077 0.119 -3.731 0.084 -19.136
          8.894e-3 -78.07 0.116 9.392 0.095 -18.669 0.889 -49.771
5185 0.896 -43.698 0.098 -13.845 0.114 10.64 8.207e-3 -78.854
