!Hittite Microwave Corporation								
!12 Elizabeth Drive								
!Chelmsford, MA 01824								
!Tel: 978-250-3343								
!Fax: 978-250-3373								
!Device: HMC491LP3, 3.4-3.8 GHz, GaAs MMIC Low Noise Amplifier with Bypass Mode in leadless SMT package																	
!Misc: Bypass Mode, Room
!
# MHZ S MA R 50

50 0.998 -2.292 0.02 100.155 0.02 102.335 0.965 -4.233
100 0.998 -4.329 0.044 94.93 0.044 94.72 0.962 -6.761
150 0.996 -6.484 0.066 91.245 0.067 90.955 0.96 -9.299
200 0.995 -8.465 0.089 87.95 0.088 88.26 0.96 -12.036
250 0.992 -10.614 0.111 85.899 0.11 86.439 0.955 -14.412
300 0.987 -12.814 0.134 84.088 0.132 84.448 0.947 -17.232
350 0.983 -14.927 0.155 82.876 0.153 82.556 0.945 -20.056
400 0.978 -17.162 0.177 81.023 0.172 80.453 0.937 -22.265
450 0.975 -19.331 0.198 79.542 0.19 79.922 0.928 -25.105
500 0.97 -21.375 0.218 78.165 0.212 78.885 0.924 -27.715
550 0.963 -23.394 0.239 76.558 0.232 77.108 0.909 -30.448
600 0.956 -25.317 0.259 75.232 0.254 75.622 0.904 -33.344
650 0.949 -27.48 0.281 73.958 0.268 73.828 0.894 -35.692
700 0.94 -29.52 0.299 72.299 0.284 72.859 0.881 -38.935
750 0.931 -31.511 0.318 71.259 0.304 73.669 0.881 -41.451
800 0.923 -33.441 0.339 69.307 0.328 72.597 0.866 -43.864
850 0.914 -35.415 0.354 68.217 0.349 69.727 0.861 -47.1
900 0.903 -37.45 0.375 67.042 0.358 68.402 0.862 -49.009
950 0.893 -39.425 0.386 65.055 0.37 70.325 0.846 -51.103
1000 0.882 -41.307 0.399 64.492 0.402 70.872 0.843 -53.784
1050 0.872 -43.153 0.418 62.931 0.442 67.941 0.833 -55.85
1100 0.861 -45.009 0.426 61.818 0.462 64.108 0.825 -58.049
1150 0.849 -46.921 0.442 61.584 0.462 61.734 0.821 -59.676
1200 0.839 -48.753 0.451 59.909 0.466 62.899 0.803 -61.728
1250 0.825 -50.792 0.461 59.787 0.496 61.987 0.795 -63.51
1300 0.818 -52.726 0.477 58.414 0.53 59.844 0.782 -65.123
1350 0.804 -54.082 0.48 57.915 0.543 56.615 0.768 -67.403
1400 0.792 -55.826 0.499 58.25 0.53 54.24 0.761 -68.929
1450 0.78 -57.591 0.512 56.655 0.525 53.315 0.74 -70.765
1500 0.768 -59.471 0.52 56.881 0.531 54.941 0.726 -73.045
1550 0.757 -61.163 0.54 56 0.55 56.07 0.714 -74.725
1600 0.745 -62.769 0.545 54.663 0.588 53.523 0.693 -76.822
1650 0.732 -64.615 0.559 55.141 0.589 50.461 0.685 -78.995
1700 0.718 -66.449 0.577 53.995 0.576 48.675 0.67 -80.751
1750 0.705 -68.227 0.581 53.421 0.568 50.411 0.66 -82.923
1800 0.692 -69.859 0.598 52.808 0.576 51.368 0.647 -84.45
1850 0.68 -71.548 0.605 51.603 0.613 50.793 0.634 -86.855
1900 0.666 -73.248 0.616 51.864 0.621 48.504 0.633 -88.56
1950 0.649 -75.024 0.634 50.251 0.606 47.121 0.616 -89.743
2000 0.636 -76.976 0.634 49.597 0.592 49.267 0.606 -91.675
2050 0.622 -78.881 0.652 49.129 0.623 50.149 0.598 -92.603
2100 0.608 -80.704 0.656 47.874 0.671 49.184 0.578 -94.268
2150 0.591 -82.46 0.666 48.285 0.67 45.525 0.571 -95.857
2200 0.574 -84.252 0.69 47.052 0.64 44.422 0.553 -97.124
2250 0.558 -86.466 0.689 46.023 0.634 46.643 0.547 -98.294
2300 0.543 -88.584 0.707 45.719 0.672 48.549 0.537 -98.788
2350 0.527 -90.856 0.708 44.024 0.708 47.744 0.516 -99.907
2400 0.51 -92.862 0.711 44.341 0.719 44.011 0.501 -101.628
2450 0.491 -95.051 0.731 43.242 0.717 42.402 0.489 -102.485
2500 0.472 -97.416 0.731 42.122 0.722 41.932 0.477 -103.526
2550 0.453 -100.091 0.74 41.331 0.722 42.191 0.467 -104.324
2600 0.436 -102.809 0.744 39.722 0.727 41.232 0.448 -104.445
2650 0.417 -105.389 0.743 39.427 0.74 40.197 0.432 -105.873
2700 0.398 -108.301 0.757 38.54 0.755 39.16 0.418 -107.546
2750 0.375 -111.157 0.757 37.539 0.761 37.959 0.412 -108.433
2800 0.352 -114.323 0.759 36.558 0.736 36.918 0.401 -108.909
2850 0.331 -118.072 0.761 35.861 0.748 36.691 0.381 -109.392
2900 0.308 -121.538 0.761 35.413 0.759 36.433 0.368 -110.81
2950 0.284 -124.838 0.76 34.92 0.756 35.25 0.362 -112.049
3000 0.259 -127.787 0.758 34.412 0.749 34.762 0.34 -112.02
3050 0.235 -130.814 0.761 33.732 0.746 34.472 0.331 -111.611
3100 0.214 -133.767 0.764 33.65 0.759 34.66 0.315 -111.401
3150 0.197 -136.245 0.766 33.419 0.759 34.289 0.301 -111.687
3200 0.18 -139.29 0.774 32.449 0.767 33.779 0.295 -110.542
3250 0.166 -143.536 0.777 31.917 0.775 33.197 0.287 -109.049
3300 0.154 -149.307 0.784 31.038 0.787 32.348 0.286 -108.827
3350 0.144 -155.188 0.783 30.231 0.793 31.351 0.281 -106.559
3400 0.135 -162.459 0.784 29.666 0.784 30.296 0.278 -105.297
3450 0.128 -170.668 0.788 28.657 0.788 29.887 0.277 -105.178
3500 0.12 179.891 0.787 28.373 0.793 29.063 0.275 -105.835
3550 0.118 169.612 0.789 27.137 0.796 28.127 0.276 -103.602
3600 0.12 158.997 0.784 26.27 0.792 26.85 0.276 -102.974
3650 0.125 149.429 0.781 25.999 0.785 26.269 0.279 -103.244
3700 0.13 139.937 0.777 24.912 0.786 25.562 0.278 -103.251
3750 0.139 130.972 0.77 24.554 0.789 24.624 0.28 -104.874
3800 0.152 123.224 0.773 23.641 0.779 23.641 0.29 -105.006
3850 0.164 116.11 0.763 22.742 0.761 23.062 0.287 -104.168
3900 0.177 110.395 0.756 23.062 0.763 23.372 0.284 -106.052
3950 0.189 105.424 0.757 22.009 0.771 22.589 0.283 -107.83
4000 0.203 100.545 0.74 22.058 0.759 20.838 0.28 -110.571
4050 0.217 96.139 0.749 21.82 0.737 20.66 0.287 -112.362
4100 0.23 92.529 0.737 20.916 0.728 21.346 0.284 -112.482
4150 0.239 89.216 0.73 21.88 0.746 22.32 0.279 -115.523
4200 0.251 86.935 0.735 20.884 0.745 21.054 0.276 -117.973
4250 0.26 84.447 0.724 21.237 0.736 19.787 0.276 -122.061
4300 0.271 83.078 0.74 20.995 0.733 19.915 0.29 -123.742
4350 0.28 82.049 0.73 19.997 0.737 19.787 0.294 -123.156
4400 0.29 81.25 0.731 20.335 0.741 19.925 0.303 -123.566
4450 0.302 80.405 0.734 19.065 0.739 18.185 0.309 -123.858
4500 0.315 79.951 0.73 19.255 0.736 17.865 0.312 -126.848
4550 0.329 79.412 0.741 18.304 0.739 17.304 0.331 -129.335
4600 0.344 78.98 0.731 17.468 0.733 16.418 0.346 -129.019
4650 0.358 78.581 0.732 17.578 0.728 15.528 0.359 -130.35
4700 0.373 77.978 0.732 16.439 0.727 14.659 0.365 -131.506
4750 0.388 77.166 0.727 16.292 0.722 14.672 0.373 -133.195
4800 0.404 76.382 0.729 15.035 0.716 13.235 0.39 -136.066
4850 0.42 75.505 0.722 14.413 0.691 12.293 0.402 -136.011
4900 0.436 74.934 0.716 13.989 0.705 13.189 0.392 -138.154
4950 0.451 74.162 0.713 12.876 0.708 12.086 0.407 -141.994
5000 0.467 73.225 0.709 12.096 0.691 10.156 0.408 -143.694
5050 0.483 72.423 0.703 10.94 0.671 9.15 0.412 -147.678
5100 0.497 71.647 0.7 10.462 0.652 9.322 0.426 -149.632
5150 0.512 71.064 0.691 9.429 0.662 10.639 0.416 -152.3
5200 0.527 70.289 0.678 8.635 0.652 9.625 0.425 -157.831
5250 0.542 69.471 0.676 8.052 0.645 7.832 0.438 -161.117
5300 0.556 68.729 0.662 6.713 0.631 7.753 0.449 -165.224
5350 0.57 67.954 0.65 6.352 0.616 8.352 0.476 -168.053
5400 0.584 67.355 0.638 5.293 0.617 7.873 0.485 -169.579
5450 0.598 66.578 0.619 5.155 0.604 5.725 0.493 -173.392
5500 0.61 66.02 0.62 5.218 0.594 6.188 0.507 -176.068
5550 0.622 65.283 0.602 3.782 0.582 6.892 0.527 -178.978
5600 0.636 64.513 0.595 4.009 0.582 7.379 0.547 179.109
5650 0.649 63.846 0.584 2.95 0.589 5.48 0.554 177.305
5700 0.661 63.164 0.568 3.098 0.573 2.508 0.569 175.358
5750 0.671 62.559 0.568 3.133 0.54 3.113 0.571 173.068
5800 0.681 61.902 0.554 2.044 0.525 4.434 0.581 170.572
5850 0.691 61.224 0.544 2.445 0.537 5.395 0.6 168.468
5900 0.702 60.59 0.539 1.559 0.546 4.329 0.604 167.014
5950 0.713 59.727 0.521 1.634 0.529 1.504 0.606 164.73
6000 0.722 59.096 0.521 1.532 0.498 1.252 0.612 163.118
6050 0.73 58.522 0.504 0.974 0.483 2.264 0.613 160.339
6100 0.737 58.083 0.497 1.623 0.486 2.843 0.626 157.541
6150 0.746 57.327 0.489 0.449 0.484 1.939 0.633 156.132
6200 0.753 56.654 0.473 0.652 0.467 0.962 0.639 153.149
6250 0.761 56.091 0.471 0.841 0.456 1.091 0.654 150.984
6300 0.767 55.576 0.456 0.104 0.446 1.354 0.661 148.858
6350 0.774 54.878 0.447 0.876 0.438 1.736 0.677 146.647
6400 0.78 54.322 0.441 0.39 0.432 1.84 0.683 145.482
6450 0.787 53.692 0.427 0.786 0.421 1.546 0.69 142.519
6500 0.793 53.177 0.423 0.886 0.407 0.816 0.717 140.818
6550 0.799 52.593 0.411 0.578 0.397 2.048 0.725 140.112
6600 0.803 52.07 0.403 1.08 0.392 2.89 0.74 138.165
6650 0.809 51.37 0.396 0.888 0.388 2.328 0.762 137.406
6700 0.814 50.583 0.388 1.095 0.381 1.655 0.773 136.85
6750 0.819 49.943 0.38 1.222 0.369 2.282 0.779 135.744
6800 0.824 49.444 0.373 1.522 0.363 3.552 0.785 134.738
6850 0.828 48.886 0.365 1.49 0.357 3.85 0.802 133.773
6900 0.829 48.042 0.357 1.615 0.347 3.165 0.819 133.898
6950 0.831 47.323 0.35 1.919 0.343 3.289 0.82 133.93
7000 0.832 46.639 0.343 2.271 0.339 3.971 0.81 133.226
7050 0.835 46.292 0.334 2.944 0.34 4.324 0.811 132.377
7100 0.836 45.752 0.33 3.109 0.331 4.279 0.801 131.318
7150 0.837 45.124 0.322 4.009 0.319 5.079 0.815 129.922
7200 0.838 44.45 0.318 3.963 0.316 5.933 0.825 130.593
7250 0.839 43.957 0.31 4.318 0.321 5.478 0.806 129.503
7300 0.841 43.384 0.306 5.103 0.315 5.513 0.805 127.561
7350 0.842 42.916 0.301 5.773 0.303 5.463 0.814 127.17
7400 0.843 42.223 0.296 6.021 0.295 7.641 0.81 126.431
7450 0.844 41.474 0.292 6.681 0.298 8.181 0.806 125.946
7500 0.846 40.774 0.286 7.368 0.305 6.068 0.792 124.683
7550 0.845 40.251 0.282 8.662 0.297 5.872 0.798 122.199
7600 0.844 39.62 0.276 9.789 0.285 7.029 0.805 120.692
7650 0.845 38.832 0.276 10.674 0.278 10.214 0.821 120.164
7700 0.845 38.015 0.273 10.393 0.281 10.893 0.83 119.876
7750 0.846 37.35 0.266 10.627 0.283 9.117 0.836 119.215
7800 0.848 36.754 0.264 12.085 0.272 8.505 0.837 118.561
7850 0.847 36.093 0.26 12.477 0.26 10.307 0.84 117.992
7900 0.844 35.194 0.259 13.388 0.258 12.208 0.858 117.866
7950 0.846 34.41 0.256 13.71 0.262 14.16 0.861 118.238
8000 0.846 33.699 0.25 14.178 0.271 13.268 0.862 117.438
8050 0.847 33 0.25 15.498 0.261 13.338 0.875 118.366
8100 0.845 32.065 0.245 15.179 0.252 12.999 0.846 118.488
8150 0.844 30.891 0.248 16.565 0.256 13.485 0.852 117.2
8200 0.844 29.714 0.244 15.523 0.256 15.303 0.859 117.924
8250 0.845 28.804 0.239 16.247 0.263 13.367 0.846 117.968
8300 0.846 28.002 0.244 17.052 0.252 9.952 0.849 117.283
8350 0.841 27.371 0.235 16.092 0.23 9.282 0.835 117.76
8400 0.841 26.319 0.24 17.489 0.215 12.879 0.816 116.473
8450 0.839 24.997 0.238 16.691 0.212 19.291 0.831 116.58
8500 0.839 23.757 0.231 17.13 0.233 19.83 0.799 116.991
8550 0.842 22.823 0.236 17.23 0.229 15.56 0.789 114.372
8600 0.838 21.722 0.23 17.358 0.213 14.098 0.798 113.367
8650 0.837 20.476 0.232 17.288 0.202 20.368 0.788 113.21
8700 0.837 18.888 0.227 17.054 0.221 23.084 0.797 111.966
8750 0.838 17.281 0.225 17.46 0.245 18.04 0.797 112.348
8800 0.837 15.888 0.221 15.96 0.22 12.5 0.782 111.281
8850 0.836 14.731 0.211 17.355 0.196 15.085 0.788 109.692
8900 0.836 13.656 0.218 17.591 0.186 19.431 0.803 109.158
8950 0.837 11.981 0.214 16.103 0.209 20.153 0.804 109.392
9000 0.835 10.378 0.207 16.665 0.212 15.705 0.805 109.697
9050 0.835 8.782 0.203 16.102 0.182 10.392 0.796 109.546
9100 0.835 7.283 0.199 17.06 0.167 18.48 0.79 109.217
9150 0.834 5.801 0.195 17.173 0.18 25.493 0.785 108.133
9200 0.835 4.246 0.195 18.009 0.198 23.189 0.794 108.156
9250 0.835 2.399 0.189 17.055 0.187 16.545 0.784 108.227
9300 0.837 0.757 0.185 17.941 0.17 12.691 0.786 108.214
9350 0.835 -0.577 0.178 17.413 0.155 17.713 0.767 109.073
9400 0.835 -2.194 0.175 18.391 0.162 24.201 0.749 107.638
9450 0.833 -3.883 0.173 18.842 0.164 22.852 0.752 107.049
9500 0.835 -5.737 0.166 18.477 0.16 21.117 0.726 106.708
9550 0.836 -7.678 0.165 19.857 0.165 24.697 0.72 105.224
9600 0.836 -9.747 0.162 19.556 0.162 25.656 0.711 104.658
9650 0.837 -11.234 0.157 20.446 0.16 24.816 0.703 102.94
9700 0.841 -12.987 0.16 20.707 0.156 24.427 0.713 101.938
9750 0.841 -14.612 0.152 21.822 0.162 26.302 0.703 102.431
9800 0.842 -16.651 0.152 23.494 0.148 24.934 0.689 101.204
9850 0.842 -18.766 0.143 22.604 0.143 26.444 0.686 101.49
9900 0.845 -20.428 0.14 25.177 0.143 30.517 0.66 100.282
9950 0.845 -21.924 0.141 25.842 0.153 33.392 0.66 98.629
10000 0.847 -23.476 0.131 26.694 0.161 32.634 0.668 99.014
10050 0.847 -25.244 0.131 27.566 0.139 22.466 0.646 99.418
