!Hittite Microwave Corporation								
!20 Alpha Road								
!Chelmsford, MA 01824								
!Tel: 978-250-3343								
!Fax: 978-250-3373								
!Device: HMC499LC4, 21-32 GHz, GaAS PHEMT MMIC Medium Power Amplifier in Leadless SMT Package
!Misc: Vdd1,2,3 = 5 V, Idd = 200 mA, data includes two Southwest (K) connectors, Room							
!
# MHZ S MA R 50

50 0.999 -3.404 774e-6 86.43 869.9e-6 -35.181 0.998 -3.397
249.75 1.001 -15.14 126.1e-6 119.865 28.05e-6 -53.795 1 -16.482
449.5 1.003 -27.365 585.9e-6 -71.24 84.33e-6 137.26 1.004 -29.87
649.25 1.004 -39.421 66.67e-6 -30.601 49.7e-6 103.949 1.003 -43.032
849 1.002 -51.523 158.2e-6 -95.862 57.35e-6 4.387 1 -56.248
1048.75 0.999 -63.534 300e-6 -175.296 120.8e-6 61.98 0.992 -69.388
1248.5 0.996 -75.398 441.1e-6 133.695 115.1e-6 23.982 0.985 -82.35
1448.25 0.991 -87.13 393.2e-6 57.414 111e-6 1.826 0.979 -94.977
1648 0.983 -98.68 315.8e-6 27.946 143.4e-6 7.825 0.972 -107.562
1847.75 0.977 -110.32 362.5e-6 -4.524 177.4e-6 25.578 0.964 -120.345
2047.5 0.969 -121.865 268.7e-6 -11.895 151.5e-6 3.28 0.954 -132.97
2247.25 0.963 -133.349 240.7e-6 -7.218 134.9e-6 -26.879 0.948 -145.424
2447 0.956 -144.664 259.2e-6 -27.395 196.2e-6 -9.036 0.939 -157.987
2646.75 0.95 -156.302 263.5e-6 -26.803 210.3e-6 -18.415 0.93 -171.017
2846.5 0.943 -168.028 255e-6 -59.07 185.1e-6 -45.74 0.924 176.035
3046.25 0.938 -179.857 368.3e-6 -62.04 142.8e-6 -66.306 0.92 163.218
3246 0.936 168.41 1.557e-3 -130.879 156.4e-6 -39.669 0.918 150.137
3445.75 0.933 156.465 259.5e-6 -85.578 175.5e-6 -49.572 0.914 136.566
3645.5 0.932 144.109 277.7e-6 -94.055 166.7e-6 -75.045 0.916 122.934
3845.25 0.933 131.686 176e-6 -108.476 216.1e-6 -97.474 0.92 109.514
4045 0.936 119.276 270.9e-6 -118.436 236.9e-6 -91.136 0.923 95.83
4244.75 0.94 106.962 283.5e-6 -136.287 220.1e-6 -118.325 0.924 82.015
4444.5 0.945 94.249 349.2e-6 -163.293 195.4e-6 -142.575 0.927 68.37
4644.25 0.952 81.726 141.9e-6 -176.657 310e-6 -153.083 0.933 54.958
4844 0.958 69.38 351e-6 158.012 366.1e-6 -162.729 0.933 41.497
5043.75 0.963 57.283 399.2e-6 133.601 334e-6 160.677 0.931 28.363
5243.5 0.966 45.257 354.3e-6 114.141 476.4e-6 129.683 0.929 15.474
5443.25 0.97 33.222 403e-6 121.313 372.4e-6 134.114 0.929 2.9
5643 0.973 21.745 512.9e-6 64.534 547.7e-6 116.071 0.924 -9.939
5842.75 0.972 10.166 1.96e-3 -58.45 641.1e-6 99.122 0.914 -22.436
6042.5 0.973 -1.078 710.6e-6 44.654 711.2e-6 78.4 0.906 -34.636
6242.25 0.971 -12.409 699.9e-6 27.053 585.3e-6 67.071 0.899 -46.876
6442 0.971 -23.412 1.045e-3 11.991 761.6e-6 60.391 0.886 -59.388
6641.75 0.967 -34.303 974.4e-6 -6.461 895.2e-6 38.58 0.87 -71.822
6841.5 0.963 -45.377 1.121e-3 -21.611 1.18e-3 28.169 0.859 -84.151
7041.25 0.958 -56.406 1.099e-3 -42.329 1.041e-3 13.122 0.847 -96.913
7241 0.954 -67.639 1.64e-3 -57.198 1.198e-3 2.672 0.829 -110.009
7440.75 0.95 -78.683 1.578e-3 -83.645 1.394e-3 -13.071 0.809 -123.233
7640.5 0.943 -90.422 1.675e-3 -103.383 1.351e-3 -21.442 0.797 -136.568
7840.25 0.938 -102.266 1.836e-3 -130.048 1.335e-3 -31.005 0.787 -150.304
8040 0.934 -114.373 2.084e-3 -148.147 1.506e-3 -47.078 0.77 -164.236
8239.75 0.933 -126.325 2.764e-3 168.272 1.742e-3 -55.047 0.751 -177.56
8439.5 0.929 -138.418 2.163e-3 152.409 1.846e-3 -64.955 0.737 168.64
8639.25 0.925 -151.029 2.315e-3 123.768 1.816e-3 -77.528 0.723 154.413
8839 0.923 -163.589 2.357e-3 105.363 1.952e-3 -88.95 0.704 140.098
9038.75 0.922 -176.289 2.591e-3 64.842 2.025e-3 -101.718 0.687 126.429
9238.5 0.917 171.006 2.854e-3 65.49 2.032e-3 -108.594 0.674 112.632
9438.25 0.917 158.219 1.784e-3 69.906 2.02e-3 -122.159 0.662 98.206
9638 0.917 145.588 2.399e-3 11.655 2.199e-3 -137.906 0.642 84.418
9837.75 0.916 133.19 2.311e-3 -8.519 2.131e-3 -145.826 0.626 71.229
10037.5 0.918 120.955 2.477e-3 -20.699 2.147e-3 -156.963 0.615 57.935
10237.25 0.916 108.897 2.69e-3 -38.737 1.986e-3 -168.367 0.597 43.853
10437 0.917 96.775 2.784e-3 -50.893 2.083e-3 -175.877 0.573 30.488
10636.75 0.917 85.201 3.029e-3 -64.857 1.921e-3 172.564 0.555 17.217
10836.5 0.917 73.17 3.029e-3 -80.494 2.036e-3 171.475 0.544 3.263
11036.25 0.918 61.468 3.03e-3 -94.282 1.902e-3 150.027 0.525 -11.122
11236 0.918 49.3 3.156e-3 -107.243 1.834e-3 153.059 0.505 -24.278
11435.75 0.922 37.644 3.218e-3 -118.435 1.903e-3 136.41 0.49 -37.095
11635.5 0.922 25.951 3.398e-3 -132.191 2.017e-3 143.867 0.48 -51.335
11835.25 0.922 13.876 3.346e-3 -150.235 2.135e-3 114.664 0.46 -64.773
12035 0.926 1.651 3.269e-3 -154.605 2.121e-3 117.805 0.445 -76.965
12234.75 0.928 -10.58 3.198e-3 -173.976 1.929e-3 98.504 0.434 -89.428
12434.5 0.931 -22.622 3.06e-3 171.806 2.396e-3 101.202 0.416 -102.884
12634.25 0.929 -34.965 2.912e-3 150.049 2.568e-3 73.966 0.4 -114.309
12834 0.93 -47.293 1.993e-3 123.957 2.96e-3 54.677 0.392 -126.093
13033.75 0.931 -59.745 390e-6 -137.885 2.191e-3 16.519 0.383 -138.008
13233.5 0.933 -71.975 2.415e-3 -161.658 1.257e-3 -28.225 0.362 -150.872
13433.25 0.93 -84.165 3.183e-3 160.479 65.34e-6 76.243 0.345 -164.254
13633 0.931 -96.363 2.987e-3 164.735 881.4e-6 72.917 0.303 -177.061
13832.75 0.925 -108.199 4.545e-3 125.109 1.151e-3 39.02 0.269 171.947
14032.5 0.921 -120.481 1.213e-3 107.567 1.006e-3 42.826 0.236 164.616
14232.25 0.918 -132.341 1.033e-3 101.291 953.7e-6 -6.819 0.218 153.675
14432 0.912 -144.598 491.5e-6 132.718 567.8e-6 -11.828 0.201 143.784
14631.75 0.91 -156.35 820e-6 165.335 40.2e-6 -24.42 0.176 131.62
14831.5 0.9 -168.561 1.337e-3 140.363 651.3e-6 118.904 0.171 117.787
15031.25 0.896 178.834 1.449e-3 99.919 1.46e-3 76.91 0.141 91.693
15231 0.89 166.161 1.685e-3 27.538 1.586e-3 47.947 0.106 64.185
15430.75 0.89 153.149 2.578e-3 -17.577 2.227e-3 32.162 0.062 42.368
15630.5 0.887 141.099 4.421e-3 -45.752 2.235e-3 4.074 0.055 15.678
15830.25 0.88 127.723 7.13e-3 -59.163 1.986e-3 -15.163 0.049 -14.66
16030 0.877 114.227 0.012 -72.297 1.899e-3 -32.557 0.055 -47.886
16229.75 0.873 99.903 0.019 -84.617 1.851e-3 -26.16 0.043 -58.605
16429.5 0.876 86.203 0.029 -97.346 2.313e-3 -47.743 0.049 -75.17
16629.25 0.868 72.356 0.043 -110.153 2.241e-3 -64.126 0.049 -85.224
16829 0.868 58.072 0.066 -123.765 2.255e-3 -71.715 0.04 -117.112
17028.75 0.861 44.392 0.1 -139.036 1.997e-3 -86.497 0.027 -107.857
17228.5 0.864 30.038 0.145 -156.682 2.119e-3 -93.02 0.014 -108.488
17428.25 0.864 16.952 0.203 -173.723 2e-3 -111.072 8.116e-3 -74.701
17628 0.86 2.579 0.281 171.515 1.949e-3 -112.745 0.035 18.978
17827.75 0.854 -11.019 0.418 156.954 2.003e-3 -117.225 0.064 3.314
18027.5 0.832 -25.26 0.635 137.777 2.168e-3 -128.646 0.1 -8.978
18227.25 0.82 -39.282 0.948 115.779 2.391e-3 -143.676 0.133 -13.954
18427 0.796 -52.833 1.372 92.069 2.316e-3 -149.498 0.19 -27.583
18626.75 0.78 -66.535 1.943 66.3 2.539e-3 -156.634 0.243 -42.223
18826.5 0.749 -78.768 2.671 38.589 2.724e-3 -172.135 0.286 -58.886
19026.25 0.709 -92.799 3.546 9.509 3.04e-3 175.349 0.339 -72.557
19226 0.671 -105.843 4.566 -20.896 2.936e-3 158.702 0.385 -90.872
19425.75 0.622 -120.702 5.527 -52.519 2.896e-3 146.294 0.422 -112.879
19625.5 0.593 -135.198 6.41 -84.398 3.063e-3 131.444 0.427 -136.152
19825.25 0.546 -149.643 6.793 -114.357 3.393e-3 115.674 0.429 -157.173
20025 0.524 -165.052 7.401 -142.096 3.163e-3 97.89 0.408 -177.425
20224.75 0.504 -179.368 7.623 -170.607 2.656e-3 77.752 0.37 159.047
20424.5 0.489 163.73 7.823 163.81 2.381e-3 61.089 0.318 136.153
20624.25 0.465 148.573 7.859 138.795 2.205e-3 52.086 0.284 115.535
20824 0.425 130.539 7.827 113.868 1.628e-3 37.102 0.268 97.813
21023.75 0.394 114.364 7.189 91.519 1.576e-3 23.997 0.251 73.682
21223.5 0.35 96.738 7.172 73.713 1.212e-3 29.953 0.244 51.084
21423.25 0.327 81.627 7.42 53.922 1.039e-3 13.942 0.235 34.687
21623 0.287 69.011 7.725 32.842 983.4e-6 8.582 0.25 21.561
21822.75 0.254 58.117 7.676 11.103 700.5e-6 -19.119 0.248 2.708
22022.5 0.196 53.474 7.802 -8.565 367e-6 10.921 0.251 -18.306
22222.25 0.15 49.335 7.688 -26.818 575.9e-6 60.529 0.247 -30.053
22422 0.133 58.294 7.83 -43.937 822.5e-6 44.646 0.265 -42.858
22621.75 0.137 68.25 7.694 -66.24 999.7e-6 26.863 0.276 -56.221
22821.5 0.177 72.405 7.719 -84.884 1.035e-3 21.551 0.269 -72.577
23021.25 0.21 72.295 7.574 -104.109 1.072e-3 14.777 0.278 -80.026
23221 0.238 62.352 7.469 -119.588 1.104e-3 9.861 0.283 -90.334
23420.75 0.272 52.001 7.186 -141.954 1.054e-3 -6.09 0.298 -104.491
23620.5 0.297 40.091 6.945 -159.129 972.9e-6 -7.24 0.283 -116.771
23820.25 0.318 28.43 7.274 -174.912 907.9e-6 0.085 0.296 -124.659
24020 0.316 14.142 7.073 168.552 1.04e-3 13.262 0.303 -130.767
24219.75 0.319 -4.435 6.885 148.02 1.117e-3 -7.71 0.293 -145.412
24419.5 0.326 -20.957 6.633 129.884 1.547e-3 -14.374 0.282 -154.675
24619.25 0.326 -39.795 7.065 116.331 1.958e-3 -12.304 0.288 -162.743
24819 0.324 -59.608 6.77 95.421 2.288e-3 -23.064 0.313 -170.254
25018.75 0.332 -82.467 6.373 79.801 2.758e-3 -28.451 0.281 177.701
25218.5 0.361 -102.094 6.337 62.208 3.057e-3 -50.627 0.261 167.278
25418.25 0.368 -120.523 6.44 47.046 3.841e-3 -67.215 0.269 159.147
25618 0.369 -139.735 6.433 31.41 4.198e-3 -98.258 0.291 142.429
25817.75 0.377 -155.795 6.286 16.886 2.886e-3 -124.76 0.261 129.239
26017.5 0.434 -173.032 6.613 -1.26 1.418e-3 -122.472 0.226 120.202
26217.25 0.474 172.029 6.63 -19.411 1.601e-3 -95.354 0.236 112.501
26417 0.491 156.811 6.683 -35.905 2.328e-3 -107.152 0.229 93.892
26616.75 0.504 142.402 6.459 -53.501 2.838e-3 -122.927 0.213 76.882
26816.5 0.503 126.614 6.47 -69.72 3.259e-3 -131.102 0.205 65.174
27016.25 0.504 112.049 6.538 -87.857 3.42e-3 -137.768 0.235 52.776
27216 0.492 97.577 6.459 -104.682 3.932e-3 -150.832 0.235 34.266
27415.75 0.484 83.244 6.28 -121.136 4.355e-3 -173.049 0.218 11.951
27615.5 0.456 68.841 6.294 -136.964 4.105e-3 169.624 0.227 -2.398
27815.25 0.42 50.074 6.415 -154.734 3.692e-3 154.711 0.284 -12.939
28015 0.397 28.667 6.361 -172.454 3.747e-3 148.376 0.306 -26.062
28214.75 0.396 8.465 6.305 170.008 3.993e-3 136.684 0.288 -39.596
28414.5 0.385 -9.425 6.209 152.664 3.96e-3 122.879 0.286 -50.28
28614.25 0.361 -30.619 6.112 135.047 3.175e-3 103.085 0.343 -61.074
28814 0.356 -54.092 6.036 118.118 2.671e-3 91.285 0.365 -72.886
29013.75 0.379 -73.439 5.965 99.876 2.236e-3 89.656 0.345 -83.886
29213.5 0.401 -89.364 5.757 82.116 2.219e-3 81.695 0.345 -91.987
29413.25 0.409 -106.466 5.553 65.222 2.1e-3 76.827 0.39 -106.103
29613 0.416 -125.035 5.3 49.415 2.198e-3 79.21 0.407 -117.271
29812.75 0.446 -140.507 5.234 32.597 2.656e-3 64.054 0.379 -125.695
30012.5 0.465 -151.202 5.118 14.551 3.038e-3 42.982 0.398 -133.754
30212.25 0.481 -163.332 4.897 -1.594 3.544e-3 16.037 0.429 -148.727
30412 0.489 -175.617 4.882 -15.507 3.241e-3 -7.917 0.436 -164.076
30611.75 0.492 170.229 5.059 -33.543 3.391e-3 -14.427 0.392 -174.623
30811.5 0.491 157.961 4.75 -53.911 3.638e-3 -46.072 0.403 172.549
31011.25 0.479 142.098 4.252 -67.472 3.985e-3 -83.315 0.444 157.056
31211 0.485 125.996 4.981 -80.075 3.86e-3 -114.245 0.43 139.06
31410.75 0.46 109.63 5.622 -108.543 3.627e-3 -126.963 0.386 127.807
31610.5 0.414 90.019 4.69 -132.758 4.099e-3 -154.532 0.386 110.665
31810.25 0.346 62.875 4.034 -147.182 3.678e-3 -161.505 0.457 89.666
32010 0.336 30.477 4.096 -166.406 3.336e-3 -165.227 0.431 69.167
32209.75 0.312 6.739 3.98 168.312 4.587e-3 -171.422 0.392 57.362
32409.5 0.273 -19.929 3.531 150.112 6.695e-3 175.41 0.391 43.507
32609.25 0.255 -52.318 3.061 134.191 7.257e-3 160.996 0.463 21.096
32809 0.316 -81.325 2.598 120.033 8.259e-3 147.152 0.45 1.587
33008.75 0.357 -94.95 2.649 101.643 0.01 142.191 0.404 -12.89
33208.5 0.368 -110.547 2.476 82.848 0.013 125.845 0.412 -25.731
33408.25 0.391 -126.851 2.223 69.575 0.016 104.415 0.458 -47.112
33608 0.432 -143.592 1.956 55.586 0.018 83.796 0.437 -67.76
33807.75 0.479 -153.486 1.811 36.474 0.016 61.418 0.357 -84.439
34007.5 0.504 -162.942 1.674 20.122 0.015 56.278 0.407 -93.384
34207.25 0.552 -176.36 1.775 8.12 0.014 50.693 0.496 -115.544
34407 0.599 169.496 1.738 -12.416 0.018 48.994 0.464 -138.591
34606.75 0.634 153.715 1.442 -35.103 0.022 38.361 0.383 -153.581
34806.5 0.642 139.414 1.283 -52.442 0.024 21.81 0.426 -163.631
35006.25 0.632 122.527 1.257 -72.721 0.026 8.931 0.495 175.135
35206 0.622 107.333 1.107 -92.808 0.026 -0.851 0.48 153.7
35405.75 0.583 91.777 0.87 -107.404 0.031 -5.678 0.421 138.569
35605.5 0.55 76.021 0.76 -119.266 0.039 -18.807 0.464 129.367
35805.25 0.509 59.545 0.693 -137.538 0.048 -39.062 0.504 110.197
36005 0.496 43.691 0.612 -147.534 0.049 -68.109 0.463 89.816
36204.75 0.473 28.691 0.596 -160.787 0.038 -85.216 0.405 80.132
36404.5 0.473 6.037 0.55 -178.498 0.028 -89.171 0.472 73.057
36604.25 0.477 -14.491 0.521 162.05 0.029 -77.189 0.51 54.739
36804 0.488 -36.184 0.472 143.185 0.038 -74.077 0.45 27.634
37003.75 0.473 -56.715 0.422 120.299 0.054 -80.27 0.378 9.112
37203.5 0.461 -78.285 0.317 96.71 0.076 -100.115 0.451 1.817
37403.25 0.504 -92.916 0.223 78.971 0.09 -123.171 0.472 -11.862
37603 0.504 -104.832 0.146 70.377 0.101 -144.007 0.376 -31.847
37802.75 0.487 -118.653 0.109 72.43 0.107 -168.477 0.348 -54.682
38002.5 0.467 -135.293 0.1 69.792 0.101 168.422 0.468 -72.766
38202.25 0.499 -148.407 0.081 59.252 0.088 154.231 0.546 -89.796
38402 0.518 -152 0.047 63.375 0.087 149.305 0.483 -107.311
38601.75 0.51 -151.525 0.049 96.969 0.099 138.345 0.445 -120.934
38801.5 0.546 -154.123 0.087 97.444 0.112 117.938 0.512 -133.465
39001.25 0.608 -165.854 0.109 77.253 0.107 95.414 0.589 -149.353
39201 0.69 -178.41 0.104 60.501 0.094 79.531 0.582 -167.339
39400.75 0.666 168.172 0.081 50.778 0.086 61.478 0.545 -177.535
39600.5 0.71 162.746 0.093 39.651 0.084 64.948 0.534 176.695
39800.25 0.69 153.073 0.109 33.043 0.097 51.18 0.563 163.149
40000 0.664 141.05 0.108 19.436 0.089 40.189 0.56 145.122
