!Hittite Microwave Corporation								
!12 Elizabeth Drive								
!Chelmsford, MA 01824								
!Tel: 978-250-3343								
!Fax: 978-250-3373								
!Device: HMC499, 21-32 GHz, GaAS PHEMT MMIC Medium Power Amplifier
!Misc: Vdd = 5 V, data includes two (K) connectors, Room							
!
# MHZ S MA R 50

18000 0.861 -25.52 0.565 135.9 3.572e-3 -117.271 0.273 49.017
18200 0.84 -36.356 0.818 118.538 3.591e-3 -118.856 0.296 38.111
18400 0.818 -47.479 1.156 100.098 3.868e-3 -126.332 0.323 26.733
18600 0.792 -58.823 1.612 79.806 4.113e-3 -132.625 0.354 13.545
18800 0.768 -70.266 2.217 57.663 4.311e-3 -136.48 0.38 0.083
19000 0.745 -81.565 2.963 33.857 4.578e-3 -141.803 0.407 -15.556
19200 0.72 -92.71 3.836 8.344 4.598e-3 -151.958 0.425 -33.323
19400 0.691 -104.227 4.745 -18.04 4.95e-3 -160.219 0.441 -51.797
19600 0.659 -115.878 5.591 -45.503 4.933e-3 -168.693 0.442 -71.285
19800 0.623 -127.754 6.244 -72.074 4.569e-3 -178.73 0.417 -90.695
20000 0.585 -139.813 6.578 -97.137 4.481e-3 175.604 0.385 -110.886
20200 0.545 -152.171 6.682 -121.475 4.141e-3 164.464 0.35 -131.162
20400 0.505 -164.92 6.725 -143.899 3.891e-3 158.931 0.317 -148.398
20600 0.472 -177.628 6.698 -164.593 3.731e-3 152.768 0.285 -165.657
20800 0.439 169.948 6.822 175.036 3.478e-3 152.494 0.249 178.316
21000 0.407 157.278 7.026 157.54 3.136e-3 144.927 0.234 161.159
21200 0.374 144.79 6.799 141.922 2.97e-3 139.501 0.213 144.837
21400 0.34 132.268 6.423 122.797 3.154e-3 136.563 0.203 133.955
21600 0.304 119.712 6.597 104.757 2.666e-3 138.657 0.187 118.004
21800 0.27 107.01 6.868 89.522 2.583e-3 134.412 0.173 105.237
22000 0.239 94.91 6.696 75.19 2.45e-3 123.131 0.179 88.561
22200 0.207 83.596 6.442 60.005 2.419e-3 131.512 0.174 77.84
22400 0.181 74.17 6.296 44.221 2.299e-3 120.691 0.185 68.228
22600 0.156 67.536 6.355 30.011 2.034e-3 122.356 0.172 57.053
22800 0.134 64.526 6.366 15.488 1.952e-3 124.358 0.18 48.522
23000 0.117 65.726 6.275 2.537 2.207e-3 122.434 0.181 35.447
23200 0.112 70.122 6.212 -9.695 2.116e-3 125.205 0.185 30.54
23400 0.118 75.312 6.266 -24.015 2.269e-3 119.6 0.19 20.011
23600 0.136 76.999 6.327 -38.934 2.318e-3 114.137 0.185 13.807
23800 0.161 74.496 6.192 -50.747 2.063e-3 109.304 0.202 4.195
24000 0.191 68.782 6.229 -62.913 2.133e-3 110.9 0.202 -2.092
24200 0.225 61.386 6.286 -76.151 2.172e-3 104.992 0.216 -6.932
24400 0.261 53.088 6.499 -90.424 2.052e-3 103.056 0.211 -12.948
24600 0.295 43.962 6.476 -104.615 2.302e-3 96.292 0.213 -18.115
24800 0.331 34.702 6.302 -115.294 2.333e-3 94.149 0.218 -26.795
25000 0.365 24.808 6.25 -128.467 2.382e-3 89.744 0.222 -31.72
25200 0.395 15.074 6.253 -143.93 2.267e-3 89.71 0.23 -38.08
25400 0.424 5.355 6.269 -156.71 2.383e-3 81.922 0.229 -43.402
25600 0.45 -4.773 6.178 -167.419 2.32e-3 80.27 0.24 -49.363
25800 0.473 -14.454 6.187 179.411 2.249e-3 64.894 0.238 -56.848
26000 0.494 -24.372 6.178 167.233 2.228e-3 64.189 0.249 -61.872
26200 0.511 -33.663 5.911 154.417 2.761e-3 59.421 0.252 -68.855
26400 0.528 -43.124 5.793 141.316 2.422e-3 58.373 0.256 -74.262
26600 0.541 -52.507 6 130.814 2.281e-3 52.451 0.263 -82.562
26800 0.549 -61.342 5.975 120.048 2.105e-3 45.952 0.265 -88.543
27000 0.559 -70.712 5.9 107.572 2.418e-3 41.775 0.276 -96.655
27200 0.565 -79.681 5.786 95.211 2.229e-3 22.916 0.273 -104.005
27400 0.567 -88.572 5.819 83.046 2.553e-3 23.976 0.283 -111.517
27600 0.567 -97.508 5.854 71.027 2.739e-3 23.154 0.285 -120.781
27800 0.57 -106.095 5.826 59.651 2.881e-3 16.232 0.291 -127.002
28000 0.566 -115.121 5.796 47.588 2.171e-3 13.872 0.297 -135.677
28200 0.561 -123.778 5.79 35.812 2.381e-3 -4.166 0.293 -142.827
28400 0.556 -132.756 5.761 24.086 2.558e-3 -10.054 0.295 -152.104
28600 0.544 -141.683 5.787 12.785 2.839e-3 -13.249 0.288 -160.835
28800 0.538 -151.148 5.848 1.892 3.077e-3 -17.476 0.292 -169.594
29000 0.528 -160.57 5.874 -10.517 3.063e-3 -32.673 0.287 -179.584
29200 0.516 -170.31 5.928 -23.29 3.401e-3 -37.539 0.284 171.17
29400 0.504 179.693 6.145 -35.114 3.688e-3 -49.243 0.279 160.376
29600 0.485 169.592 6.274 -47.668 3.579e-3 -55.143 0.27 151.014
29800 0.466 158.447 6.477 -60.49 3.619e-3 -66.649 0.264 140.056
30000 0.444 147.083 6.541 -73.919 4.316e-3 -76.045 0.25 128.081
30200 0.42 135.163 6.491 -88.879 4.376e-3 -85.072 0.248 115.038
30400 0.392 121.928 6.43 -104.101 4.958e-3 -92.721 0.239 100.559
30600 0.368 107.53 6.492 -119.322 5.402e-3 -102.115 0.236 89.499
30800 0.342 92.104 6.515 -133.704 5.512e-3 -115.291 0.236 74.765
31000 0.313 74.945 6.56 -146.559 5.719e-3 -121.506 0.227 63.243
31200 0.29 56.203 6.201 -158.818 5.726e-3 -134.33 0.234 48.002
31400 0.273 35.43 5.873 -173.735 6.215e-3 -141.032 0.228 33.666
31600 0.261 12.372 5.874 167.898 6.892e-3 -148.884 0.242 22.58
31800 0.267 -11.832 5.821 151.926 7.129e-3 -159.892 0.249 6.81
32000 0.286 -35.86 5.806 140.468 7.232e-3 -175.845 0.264 -3.305
32200 0.313 -59.413 6.015 127.579 7.206e-3 179.285 0.282 -16.545
32400 0.363 -79.822 5.579 110.041 7.364e-3 158.464 0.295 -27.157
32600 0.411 -99.244 4.971 92.523 7.012e-3 155.254 0.325 -40.235
32800 0.464 -116.808 4.735 72.758 8.029e-3 142.688 0.34 -52.93
33000 0.522 -133.877 4.749 57.769 6.658e-3 126.689 0.375 -64.523
33200 0.569 -150.274 4.383 41.539 7.391e-3 125.024 0.397 -78.355
33400 0.62 -165.445 3.711 21.945 6.928e-3 105.622 0.426 -89.12
33600 0.663 179.562 3.353 8.361 6.149e-3 102.241 0.46 -103.312
33800 0.697 165.661 3.01 -2.257 6.297e-3 94.726 0.48 -114.046
34000 0.728 152.2 2.451 -23.252 6.106e-3 80.654 0.519 -127.155
34200 0.753 139.261 1.947 -36.789 5.983e-3 81.965 0.525 -139.271
34400 0.771 127.375 1.911 -46.544 3.394e-3 67.214 0.561 -150.419
34600 0.785 115.718 1.769 -59.176 3.911e-3 61.794 0.565 -163.498
34800 0.795 104.363 1.552 -71.107 4.037e-3 57.504 0.592 -172.553
35000 0.806 93.699 1.274 -83.094 2.838e-3 45.406 0.599 173.85
35200 0.819 83.071 1.079 -91.456 3.599e-3 49.44 0.608 165.935
35400 0.833 73.238 0.967 -105.14 2.906e-3 40.707 0.628 153.552
35600 0.848 63.166 0.902 -119.69 2.385e-3 40.852 0.618 145.981
35800 0.86 53.309 0.764 -129.695 2.437e-3 15.443 0.654 135.682
36000 0.87 43.781 0.68 -139.715 1.776e-3 48.509 0.634 126.034
36200 0.876 34.019 0.593 -151.879 1.591e-3 12.092 0.673 117.208
36400 0.876 24.784 0.5 -161.451 2.902e-3 38.826 0.668 105.89
36600 0.881 15.353 0.423 -169.245 1.557e-3 62.747 0.695 98.26
36800 0.879 6.036 0.356 -179.015 1.773e-3 31.641 0.7 86.863
37000 0.877 -2.549 0.32 170.163 2.062e-3 61.005 0.701 78.528
37200 0.882 -11.953 0.288 162.195 775.4e-6 -39.05 0.721 68.14
37400 0.886 -19.609 0.249 153.995 2.013e-3 20.515 0.714 58.805
37600 0.89 -28.399 0.22 143.803 906.9e-6 -0.412 0.733 49.037
37800 0.896 -36.755 0.198 136.081 447.7e-6 20.428 0.729 39.012
38000 0.915 -44.656 0.172 127.413 705.4e-6 -11.962 0.743 30.664
