!Hittite Microwave Corporation								
!12 Elizabeth Drive								
!Chelmsford, MA 01824								
!Tel: 978-250-3343								
!Fax: 978-250-3373								
!Device: HMC462, 2-20 GHz, GaAs PHEMT MMIC Low Noise Amlifier Die  															
!Misc: Vdd=5V, Data includes (two) K connectors, Room
!
# MHZ S MA R 50

50 0.968 -8.931 0.137 -114.707 341.9e-6 158.993 0.992 -15.039
449.5 0.684 -59.208 1.569 -58.071 872e-6 -51.735 0.706 -144.18
849 0.454 -87.344 4.707 -128.783 1.683e-3 -146.193 0.358 88.171
1248.5 0.343 -105.962 5.749 -173.14 1.79e-3 171.66 0.273 15.691
1648 0.284 -122.608 6.056 155.907 1.929e-3 148.157 0.25 -23.654
2047.5 0.25 -139.374 6.241 131.321 2.21e-3 127.711 0.245 -51.171
2447 0.229 -156.366 6.222 108.72 2.597e-3 107.886 0.245 -74.771
2846.5 0.212 -173.656 6.299 87.806 2.918e-3 91.745 0.249 -96.716
3246 0.198 168.709 6.079 68.832 3.435e-3 73.199 0.252 -117.869
3645.5 0.184 151.295 6.089 51.08 3.993e-3 57.021 0.255 -138.608
4045 0.169 134.939 6.104 33.586 4.38e-3 40.354 0.255 -159.159
4444.5 0.15 118.849 6.057 16.29 4.995e-3 26.242 0.255 -178.701
4844 0.133 102.657 6.279 -2.133 5.539e-3 9.25 0.252 161.74
5243.5 0.12 88.758 6.496 -20.074 5.995e-3 -4.584 0.247 142.954
5643 0.108 79.387 6.283 -37.023 6.486e-3 -19.334 0.239 124.714
6042.5 0.096 72.776 6.219 -54.956 7.077e-3 -34.442 0.229 107.262
6442 0.09 66.724 6.178 -69.221 7.743e-3 -47.335 0.216 90.078
6841.5 0.089 62.699 5.957 -87.137 8.727e-3 -62.007 0.201 73.637
7241 0.091 57.35 5.995 -102.655 9.675e-3 -76.635 0.183 58.188
7640.5 0.091 48.562 5.907 -119.935 0.011 -91.455 0.162 44.104
8040 0.095 34.634 5.966 -136.297 0.012 -107.347 0.141 32.351
8439.5 0.102 20.484 5.943 -152.831 0.013 -123.071 0.119 22.788
8839 0.107 6.498 5.925 -169.105 0.014 -139.375 0.101 17.608
9238.5 0.105 -6.401 5.901 174.362 0.015 -154.558 0.088 18.541
9638 0.102 -20.611 5.902 158.074 0.016 -171.329 0.086 21.358
10037.5 0.094 -31.013 5.897 141.63 0.017 172.831 0.095 22.704
10437 0.075 -41.181 5.9 125.024 0.018 155.946 0.111 18.277
10836.5 0.053 -55.045 5.928 108.408 0.019 139.707 0.127 9.869
11236 0.034 -80.333 5.942 92.405 0.021 122.962 0.143 -0.351
11635.5 0.019 -100.4 5.841 74.767 0.022 106.95 0.157 -12.089
12035 3.332e-3 172.063 5.816 59.096 0.023 90.544 0.173 -24.879
12434.5 0.016 69.657 5.838 43.233 0.024 74.333 0.184 -38.404
12834 0.023 40.959 5.691 27.147 0.025 58.301 0.196 -52.146
13233.5 0.032 -1.435 5.599 10.933 0.026 42.378 0.207 -67.642
13633 0.052 -20.641 5.672 -6.498 0.027 27.582 0.216 -83.625
14032.5 0.067 -31.03 5.606 -23.423 0.028 11.11 0.223 -101.458
14432 0.071 -41.661 5.819 -39.028 0.029 -4.318 0.227 -120.302
14831.5 0.072 -55.861 5.624 -56.917 0.031 -20.691 0.224 -141.219
15231 0.07 -66.528 5.76 -72.443 0.032 -37.233 0.215 -162.944
15630.5 0.063 -67.023 5.71 -90.038 0.033 -53.256 0.204 172.134
16030 0.052 -57.122 5.888 -105.799 0.034 -69.089 0.189 143.295
16429.5 0.049 -51.443 5.76 -123.298 0.036 -85.631 0.169 111.35
16829 0.063 -57.232 5.803 -140.364 0.037 -102.603 0.157 74.498
17228.5 0.092 -62.064 5.647 -158.677 0.038 -119.167 0.157 31.824
17628 0.119 -69.019 5.602 -175.355 0.038 -135.581 0.176 -12.383
18027.5 0.132 -86.249 5.516 166.387 0.039 -151.731 0.208 -51.222
18427 0.151 -108.623 5.425 149.096 0.039 -167.962 0.255 -84.183
18826.5 0.178 -130.933 5.269 132.112 0.04 175.366 0.306 -114.353
19226 0.196 -150.331 5.144 115.767 0.041 159.405 0.348 -142.145
19625.5 0.207 -171.163 5.124 100.703 0.042 143.479 0.381 -168.466
20025 0.221 169.315 5.08 83.33 0.043 128.894 0.403 166.455
20424.5 0.228 155.698 5.322 69.434 0.045 109.192 0.417 139.374
20824 0.21 149.403 5.517 47.676 0.045 94.563 0.396 111.039
21223.5 0.181 144.341 5.312 31.87 0.047 77.14 0.358 81.68
21623 0.16 145.68 5.248 12.349 0.049 58.849 0.311 46.431
22022.5 0.165 147.061 5.126 -5.713 0.051 39.714 0.248 -2.546
22422 0.213 140.55 5.514 -24.694 0.05 18.816 0.226 -69.091
22821.5 0.278 125.342 5.273 -46.818 0.048 0.515 0.306 -130.35
23221 0.351 106.51 4.703 -74.159 0.045 -23.249 0.444 -175.579
23620.5 0.403 89.957 4.401 -87.434 0.04 -35.552 0.568 147.912
24020 0.439 75.652 3.809 -104.536 0.039 -47.777 0.646 117.759
24419.5 0.457 61.024 3.254 -114.876 0.036 -59.802 0.68 91.927
24819 0.472 45.967 3.762 -132.903 0.04 -70.996 0.677 67.904
25218.5 0.464 32.559 3.232 -148.017 0.039 -92.268 0.622 46.871
25618 0.441 18.008 3.587 -157.062 0.041 -102.009 0.545 28.938
26017.5 0.402 5.92 3.553 -178.679 0.044 -117.824 0.456 16.802
26417 0.369 -0.786 3.533 165.794 0.044 -136.47 0.389 10.162
26816.5 0.355 -0.158 3.362 144.969 0.043 -156.288 0.362 8.619
27216 0.363 -1.848 3.343 126.893 0.042 -172.448 0.386 6.101
27615.5 0.407 -9.024 3.161 108.242 0.041 169.464 0.422 -0.346
28015 0.45 -20.046 2.923 88.939 0.039 152.581 0.455 -9.406
28414.5 0.484 -32.116 2.66 71.294 0.037 137.27 0.477 -19.692
28814 0.496 -46.205 2.468 56.689 0.036 122.979 0.486 -30.64
29213.5 0.536 -63.348 2.372 39.38 0.035 106.544 0.48 -41.009
29613 0.556 -76.572 2.372 21.455 0.034 90.535 0.474 -50.719
30012.5 0.552 -85.614 2.345 5.556 0.034 76.166 0.464 -60.492
