!Hittite Microwave Corporation								
!20 Alpha Road								
!Chelmsford, MA 01824								
!Tel: 978-250-3343								
!Fax: 978-250-3373								
!Device: HMC486LP5, 7-9 GHz, GaAS PHEMT MMIC 2 Watt Power Amplifier in Leadless 5x5 mm SMT Package
!Misc: Vdd1,2,3,4,5 = +7 V, Idd = 1300 mA, Room							
!
# MHZ S MA R 50

1000 0.994 -61.458 4.492e-3 8.81 31.87e-6 32.152 1.019 -35.469
1095 0.992 -66.363 0.017 -44.335 24.3e-6 48.47 1.005 -38.559
1190 0.992 -71.832 0.042 -108.404 22.58e-6 12.225 1.006 -41.836
1285 0.99 -76.723 0.069 -168.748 65.71e-6 -71.284 1.003 -45.049
1380 0.987 -81.315 0.076 141.081 62.33e-6 -117.882 1 -47.934
1475 0.984 -85.477 0.076 98.1 34.37e-6 -115.204 0.995 -50.78
1570 0.976 -90.001 0.071 63.228 171.5e-6 -126.123 0.996 -53.753
1665 0.966 -94.439 0.064 41.917 120.4e-6 -167.111 0.995 -56.789
1760 0.954 -99.285 0.053 21.529 153e-6 -138.348 0.993 -59.665
1855 0.943 -103.879 0.058 2.838 147.8e-6 -168.224 0.994 -62.67
1950 0.928 -109.647 0.055 4.521 126e-6 -166.898 0.994 -65.693
2045 0.919 -114.385 0.046 -11.149 202.1e-6 -147.92 0.991 -68.6
2140 0.909 -120.077 0.05 -20.771 207.1e-6 174.635 0.989 -71.779
2235 0.903 -125.053 0.048 -26.729 232.5e-6 -159.63 0.987 -75.141
2330 0.897 -130.408 0.046 -31.566 269.3e-6 -179.426 0.986 -78.232
2425 0.895 -134.945 0.046 -39.643 211.7e-6 179.53 0.981 -81.291
2520 0.888 -139.89 0.051 -43.601 303.3e-6 -164.174 0.983 -84.4
2615 0.883 -144.67 0.048 -38.049 366.1e-6 -176.65 0.981 -87.779
2710 0.868 -149.28 0.04 -46.837 314.6e-6 -152.222 0.979 -90.81
2805 0.857 -154.031 0.044 -55.685 332.7e-6 169.84 0.98 -94.365
2900 0.837 -159.33 0.041 -38.589 416.4e-6 -173.145 0.981 -97.728
2995 0.818 -164.483 0.032 -36.7 404.7e-6 -169.323 0.977 -100.778
3090 0.797 -170.058 0.04 -3.799 488.6e-6 177.648 0.977 -104.147
3185 0.777 -175.966 0.051 20.138 443.5e-6 -173.584 0.98 -107.589
3280 0.759 178.327 0.089 32.388 565.6e-6 -178.46 0.978 -111.069
3375 0.741 172.859 0.148 29.483 550.5e-6 174.183 0.974 -114.703
3470 0.73 168.37 0.306 17.501 565.2e-6 176.386 0.973 -118.426
3565 0.718 164.096 0.535 13.479 668.4e-6 173.393 0.969 -122.178
3660 0.724 161.393 0.75 -12.021 602.9e-6 -177.254 0.966 -125.593
3755 0.746 157.292 1.332 -37.759 792.3e-6 171.108 0.967 -129.91
3850 0.765 151.683 1.366 -53.422 888.3e-6 169.576 0.961 -134.282
3945 0.758 144.824 1.327 -82.081 835e-6 167.87 0.956 -138.689
4040 0.741 138.447 1.612 -94.875 1.038e-3 161.319 0.949 -143.45
4135 0.707 132.076 1.688 -109.474 996.7e-6 165.203 0.941 -148.297
4230 0.679 125.727 1.814 -112.273 1.012e-3 158.446 0.93 -153.227
4325 0.646 119.146 2.032 -124.378 1.025e-3 154.072 0.918 -158.486
4420 0.621 112.826 2.447 -136.448 1.124e-3 154.962 0.905 -164.819
4515 0.596 106.667 2.487 -145.968 1.126e-3 148.722 0.884 -171.349
4610 0.581 100.548 3.056 -160.721 1.062e-3 140.429 0.858 -178.205
4705 0.563 95.132 3.476 -174.385 1.13e-3 148.745 0.831 174.53
4800 0.55 90.993 4.214 178.095 1.13e-3 140.445 0.8 166.893
4895 0.539 87.097 4.769 171.686 1.061e-3 133.1 0.767 159.091
4990 0.529 84.18 5.525 157.356 947.6e-6 132.652 0.733 150.788
5085 0.51 82.026 6.45 148.208 1.109e-3 138.95 0.693 141.94
5180 0.495 81.315 7.402 128.126 937.8e-6 140.363 0.647 133.703
5275 0.481 79.982 9.215 110.183 1.114e-3 134.941 0.602 125.903
5370 0.457 80.224 10.013 97.222 1.042e-3 140.311 0.553 119.53
5465 0.449 81.225 11.589 76.311 1.005e-3 137.94 0.512 114.152
5560 0.437 80.377 13.291 63.935 1.157e-3 137.141 0.474 109.766
5655 0.433 80.666 12.974 48.2 1.261e-3 140.491 0.445 107.339
5750 0.426 80.407 14.022 28.058 1.298e-3 135.317 0.424 105.381
5845 0.432 79.838 14.256 11.041 1.314e-3 134.286 0.414 104.723
5940 0.43 77.967 15.082 -5.525 1.556e-3 134.466 0.415 104.174
6035 0.432 77.755 14.616 -20.52 1.46e-3 131.563 0.421 102.887
6130 0.438 77.467 14.522 -39.006 1.524e-3 129.392 0.431 100.688
6225 0.444 76.036 14.543 -49.202 1.668e-3 121.708 0.434 98.218
6320 0.443 77.109 13.065 -63.59 1.624e-3 124.414 0.435 96.597
6415 0.452 77.044 12.822 -81.55 1.569e-3 116.822 0.437 94.561
6510 0.448 78.125 13.576 -90.019 1.77e-3 111.897 0.432 93.757
6605 0.451 78.694 12.156 -100.475 1.648e-3 114.572 0.441 93.477
6700 0.445 80.408 12.378 -114.503 1.747e-3 108.06 0.445 91.421
6795 0.44 81.084 11.92 -122.764 1.586e-3 104.967 0.446 90.105
6890 0.425 81.992 11.652 -134.452 1.752e-3 102.852 0.443 88.465
6985 0.409 83.127 11.113 -144.792 1.628e-3 98.645 0.444 87.684
7080 0.396 83.595 11.999 -160.734 1.705e-3 96.059 0.445 85.41
7175 0.365 84.139 12.118 -163.788 1.792e-3 95.943 0.442 84.25
7270 0.348 84.332 11.287 -174.658 1.741e-3 92.614 0.449 81.218
7365 0.319 84.349 12.044 173.519 1.702e-3 90.734 0.441 76.455
7460 0.3 84.171 11.912 165.283 1.733e-3 86.854 0.43 72.404
7555 0.269 84.121 11.693 156.462 1.715e-3 87.182 0.422 68.025
7650 0.246 83.406 12.264 141.161 1.837e-3 86.171 0.416 61.977
7745 0.22 85.272 13.204 132.917 1.718e-3 82.107 0.407 55.135
7840 0.199 84.847 13.216 123.67 1.821e-3 79.75 0.408 47.229
7935 0.174 88.628 13.681 112.241 1.798e-3 74.731 0.411 36.946
8030 0.157 91.235 13.673 98.941 1.821e-3 75.571 0.411 25.471
8125 0.138 97.725 14.687 89.154 1.877e-3 70.504 0.416 14.578
8220 0.123 103.65 14.404 77.42 1.729e-3 69.68 0.44 3.86
8315 0.114 114.139 14.985 60.617 1.887e-3 68.047 0.475 -8.401
8410 0.111 123.997 16.003 49.649 1.735e-3 63.875 0.51 -19.218
8505 0.107 133.027 16.452 36.523 1.744e-3 62.136 0.56 -29.425
8600 0.109 140.595 16.287 22.895 1.766e-3 58.693 0.614 -39.75
8695 0.111 143.575 16.739 6.403 1.708e-3 56.812 0.657 -49.739
8790 0.106 144.675 17.227 -6.456 1.758e-3 55.588 0.695 -57.152
8885 0.105 144.228 16.639 -23.236 1.745e-3 57.014 0.74 -64.463
8980 0.104 132.687 16.92 -40.141 1.603e-3 52.939 0.775 -71.521
9075 0.096 119.169 16.451 -56.655 1.784e-3 48.347 0.803 -77.825
9170 0.107 102.602 16.136 -72.792 1.7e-3 42.698 0.813 -83.831
9265 0.125 78.863 14.918 -88.77 1.552e-3 42.895 0.819 -89.106
9360 0.161 68.531 14.018 -106.283 1.632e-3 39.972 0.808 -94.735
9455 0.211 55.875 13.102 -121.706 1.487e-3 36.207 0.791 -97.457
9550 0.251 51.337 11.801 -137.649 1.639e-3 33.461 0.781 -101.519
9645 0.315 44.647 10.689 -153.371 1.482e-3 27.162 0.76 -105.093
9740 0.357 40.366 9.618 -168.574 1.422e-3 27.253 0.742 -108.507
9835 0.42 38.022 8.499 176.744 1.514e-3 25.759 0.711 -112.46
9930 0.467 32.387 7.612 161.502 1.352e-3 24.719 0.681 -115.827
10025 0.505 30.389 6.806 147.87 1.227e-3 24.757 0.647 -119.74
10120 0.565 26.549 5.891 133.661 1.27e-3 16.248 0.611 -122.524
10215 0.596 22.484 5.226 120.746 1.274e-3 23.223 0.587 -126.447
10310 0.64 19.633 4.441 107.835 1.353e-3 13.178 0.547 -132.149
10405 0.679 16.371 3.765 94.126 1.226e-3 10.999 0.506 -136.843
10500 0.725 13.775 3.286 81.59 1.22e-3 7.486 0.464 -142.763
10595 0.757 10.598 2.778 69.112 1.113e-3 7.572 0.417 -147.574
10690 0.797 9.546 2.408 56.876 993.9e-6 0.933 0.383 -153.613
10785 0.843 7.448 2.031 47.965 1.07e-3 -4.765 0.347 -159.976
10880 0.859 5.263 1.695 35.121 1.035e-3 -4.359 0.33 -167.43
10975 0.892 5.631 1.48 25.872 766.3e-6 -4.338 0.304 -178.605
11070 0.926 4.332 1.202 15.966 978.2e-6 -21.114 0.278 171.929
11165 0.927 2.923 1.027 5.374 892.8e-6 -15.916 0.264 163.592
11260 0.938 3.463 0.869 -3.799 811.8e-6 -7.769 0.263 155.434
11355 0.971 1.992 0.746 -11.654 718.3e-6 -24.884 0.268 147.114
11450 0.942 1.015 0.617 -19.33 747.8e-6 -31.08 0.281 140.572
11545 0.957 1.176 0.527 -27.959 872.1e-6 -20.599 0.299 132.888
11640 0.969 -0.989 0.454 -36.937 549e-6 -29.997 0.315 125.985
11735 0.949 -1.872 0.395 -41.523 684.2e-6 -41.601 0.318 119.969
11830 0.965 -1.731 0.323 -51.675 676.2e-6 -43.421 0.33 119.48
11925 0.977 -4.012 0.303 -59.515 572.2e-6 -43.632 0.362 115.439
12020 0.961 -5.07 0.244 -61.361 606.6e-6 -45.875 0.373 112.17
12115 0.98 -5.167 0.213 -71.413 537.2e-6 -60.4 0.397 110.252
12210 0.99 -7.692 0.181 -78.875 671.9e-6 -55.87 0.415 106.563
12305 0.978 -8.299 0.169 -86.399 517.2e-6 -71.605 0.424 103.708
12400 0.989 -9.166 0.137 -89.896 503.6e-6 -71.883 0.425 103.899
12495 0.996 -10.544 0.124 -104.101 572.7e-6 -54.996 0.456 103.859
12590 0.979 -12.399 0.11 -103.487 641.7e-6 -57.807 0.474 100.47
12685 0.978 -12.469 0.093 -110.34 704.1e-6 -72.571 0.485 99.035
12780 0.982 -14.969 0.075 -116.481 850e-6 -79.582 0.494 98.032
12875 0.964 -16.693 0.074 -127.396 803e-6 -75.514 0.511 96.059
12970 0.959 -19.128 0.067 -120.852 976.8e-6 -84.829 0.5 95.451
13065 0.952 -21.252 0.054 -141.555 852.9e-6 -90.29 0.527 97.881
13160 0.962 -24.977 0.056 -140.714 1.092e-3 -95.553 0.549 93.528
13255 0.934 -28.785 0.049 -146.367 1.248e-3 -96.36 0.548 92.042
13350 0.949 -31.473 0.043 -155.758 942.4e-6 -101.008 0.555 90.401
13445 0.95 -36.902 0.036 -169.585 1.597e-3 -106.195 0.562 89.84
13540 0.943 -41.27 0.038 -164.426 1.51e-3 -112.016 0.569 87.5
13635 0.949 -45.191 0.032 -177.621 1.43e-3 -110.351 0.568 88.087
13730 0.959 -49.969 0.026 176.538 1.507e-3 -118.732 0.605 85.983
13825 0.963 -55.318 0.026 172.855 1.847e-3 -132.865 0.606 81.827
13920 0.952 -60.182 0.023 167.48 1.932e-3 -126.28 0.601 79.976
14015 0.964 -64.201 0.017 154.299 1.671e-3 -139.193 0.611 78.939
14110 0.976 -70.793 0.02 145.373 2.175e-3 -145.793 0.625 75.598
14205 0.954 -77.051 0.017 143.918 2.697e-3 -135.811 0.624 74.044
14300 0.961 -81.42 0.014 132.984 2.105e-3 -150.352 0.645 71.435
14395 0.972 -88.882 0.012 128.029 2.291e-3 -160.388 0.651 66.912
14490 0.956 -95.684 0.011 119.959 2.824e-3 -157.088 0.65 62.701
14585 0.958 -100.316 8.587e-3 119.395 2.595e-3 -162.572 0.637 59.796
14680 0.972 -105.985 7.166e-3 104.331 2.423e-3 -170.004 0.651 56.652
14775 0.975 -111.704 7.761e-3 101.822 3.023e-3 -175.617 0.652 50.426
14870 0.973 -115.955 5.984e-3 104.043 2.688e-3 -172.8 0.65 46.318
14965 0.985 -118.85 4.854e-3 97.429 2.93e-3 179.841 0.663 39.774
15060 1.005 -122.803 4.521e-3 93.572 2.606e-3 168.641 0.659 31.503
15155 0.996 -125.992 3.842e-3 93.54 3.408e-3 174.112 0.643 24.385
15250 1.008 -126.178 2.853e-3 90.303 2.477e-3 171.102 0.649 18.304
15345 1.023 -130.139 2.557e-3 81.905 2.573e-3 146.975 0.664 9.573
15440 1.01 -131.187 2.313e-3 90.248 2.716e-3 166.805 0.677 1.142
15535 1.024 -132.29 2.102e-3 95.264 2.195e-3 152.355 0.694 -8.618
15630 1.022 -133.818 1.531e-3 108.194 2.673e-3 157.1 0.709 -17.241
15725 1.025 -134.615 1.536e-3 100.248 2.213e-3 145.077 0.728 -26.707
15820 1.019 -135.393 1.767e-3 117.809 2.389e-3 146.286 0.726 -33.797
15915 1.024 -135.012 1.265e-3 118.659 1.785e-3 147.215 0.763 -39.067
16010 1.029 -135.636 1.34e-3 124.1 2.235e-3 132.487 0.794 -47.251
16105 1.025 -134.856 1.104e-3 127.993 2.125e-3 149.56 0.814 -52.818
16200 1.039 -134.065 1.365e-3 136.028 1.643e-3 135.317 0.845 -59.038
16295 1.038 -133.948 1.293e-3 134.493 2.018e-3 141.723 0.852 -63.883
16390 1.043 -131.705 1.084e-3 132.14 1.793e-3 145.45 0.871 -67.109
16485 1.056 -131.183 1.435e-3 143.732 1.836e-3 133.712 0.884 -69.857
16580 1.053 -129.604 1.226e-3 132.739 1.725e-3 144.579 0.91 -70.957
16675 1.065 -127.788 1.489e-3 137.312 1.63e-3 151.362 0.934 -74.3
16770 1.062 -126.832 1.448e-3 147.897 1.778e-3 150.057 0.937 -75.948
16865 1.064 -124.781 1.323e-3 140.304 1.767e-3 151.434 0.949 -77.428
16960 1.062 -123.531 1.576e-3 147.839 1.864e-3 146.859 0.944 -77.952
17055 1.06 -121.857 976.6e-6 146.92 1.778e-3 154.53 0.961 -77.718
17150 1.06 -121.039 1.744e-3 141.408 2.09e-3 148.478 0.968 -78.398
17245 1.045 -119.514 1.77e-3 154.369 2.008e-3 151.079 0.98 -78.012
17340 1.057 -118.237 1.988e-3 142.378 1.906e-3 151.618 0.984 -79.316
17435 1.041 -119.136 2.112e-3 151.991 2.099e-3 142.461 0.973 -79.097
17530 1.041 -117.386 1.88e-3 134.371 2.11e-3 153.621 0.974 -78.427
17625 1.039 -118.279 2.254e-3 147.928 2.097e-3 147.728 0.978 -77.284
17720 1.033 -119.145 1.944e-3 142.368 2.267e-3 147.508 0.987 -77.612
17815 1.028 -119.779 2.109e-3 144.323 2.132e-3 151.053 0.988 -77.699
17910 1.023 -121.775 2.147e-3 142.614 2.405e-3 145.514 0.983 -78.513
18005 1.016 -123.624 2.189e-3 145.181 2.327e-3 152.141 0.972 -78.804
18100 1.002 -126.69 2.51e-3 143.542 2.79e-3 141.052 0.961 -79.294
18195 0.99 -129.689 2.55e-3 147.293 2.717e-3 146.809 0.962 -78.303
18290 0.968 -134.167 2.603e-3 138.468 2.639e-3 138.26 0.965 -81.043
18385 0.956 -140.601 2.755e-3 136.371 3.045e-3 142.542 0.948 -83.496
18480 0.905 -146.169 3.025e-3 134.608 3.049e-3 136.265 0.933 -86.581
18575 0.93 -153.897 2.646e-3 138.697 3.278e-3 135.317 0.906 -90.332
18670 0.866 -164.948 3.176e-3 120.199 3.15e-3 130.539 0.882 -94.749
18765 0.883 -172.747 3.554e-3 132.202 3.584e-3 125.534 0.856 -99.362
18860 0.857 174.246 2.822e-3 116.567 3.65e-3 122.737 0.851 -106.191
18955 0.867 166.426 3.984e-3 99.819 3.387e-3 113.975 0.832 -116.695
19050 0.901 153.788 3.707e-3 116.791 3.456e-3 107.395 0.801 -127.497
19145 0.869 148.242 4.088e-3 97.77 3.271e-3 104.934 0.77 -138.503
19240 0.957 140.442 1.916e-3 98.858 3.134e-3 103.682 0.772 -150.027
19335 0.914 133.598 2.591e-3 126.076 2.854e-3 105.316 0.762 -162.326
19430 0.979 131.297 2.164e-3 69.648 2.764e-3 102.994 0.791 -169.534
19525 0.963 126.912 3.027e-3 108.525 3.353e-3 102.812 0.828 177.188
19620 1.005 124.633 3.055e-3 123.875 2.519e-3 94.257 0.848 168.814
19715 0.992 123.049 4.161e-3 61.322 2.71e-3 96.39 0.866 159.704
19810 1.024 122.296 5.814e-3 145.375 2.562e-3 93.299 0.864 156.848
19905 1.025 121.468 3.126e-3 67.023 2.502e-3 91.785 0.911 151.396
20000 1.032 121.493 2.616e-3 80.646 2.412e-3 94.981 0.923 149.287
