!Hittite Microwave Corporation								
!20 Alpha Road								
!Chelmsford, MA 01824								
!Tel: 978-250-3343								
!Fax: 978-250-3373								
!Device: HMC451LC3, 5-20 GHz, GaAs PHEMT MMIC Driver Amplifier in leadless "Pb free" RoHS compliant SMT package															
!Misc: +5V, Room							
!
# MHZ S MA R 50

50 1 -3.011 1.517e-3 120.276 773.7e-6 -30.71 1.003 -2.587
179.75 1.003 -9.419 46.84e-6 51.056 129e-6 118.569 1.005 -9.462
309.5 1.005 -16.047 292.2e-6 64.021 98.34e-6 104.793 1.006 -16.488
439.25 1.004 -22.749 280.7e-6 -8.069 123e-6 79.352 1.005 -23.532
569 1.006 -29.638 725.9e-6 -19.108 179.1e-6 82.568 1.001 -30.61
698.75 1.002 -36.46 2.606e-3 -20.86 332.3e-6 53.496 0.998 -37.792
828.5 0.999 -43.238 4.414e-3 -48.048 333e-6 24.654 0.987 -45.562
958.25 0.995 -50.248 0.012 -95.052 457.6e-6 5.03 0.956 -53.793
1088 0.99 -57.163 0.02 -129.942 697.3e-6 -21.443 0.896 -60.594
1217.75 0.984 -64.355 0.028 -161.736 1.049e-3 -55.513 0.854 -64.568
1347.5 0.975 -71.313 0.027 172.423 1.238e-3 -82.363 0.854 -68.714
1477.25 0.965 -78.372 0.032 157.496 1.443e-3 -106.262 0.859 -74.287
1607 0.957 -85.565 0.033 147.343 1.552e-3 -115.523 0.862 -80.713
1736.75 0.946 -92.748 0.032 137.65 1.711e-3 -131.47 0.858 -87.41
1866.5 0.936 -100.207 0.035 123.974 1.895e-3 -144.572 0.851 -94.564
1996.25 0.925 -107.808 0.04 110.21 2.348e-3 -158.886 0.84 -102.16
2126 0.913 -115.154 0.036 122.15 2.868e-3 -153.928 0.822 -109.59
2255.75 0.899 -122.848 0.038 93.361 2.884e-3 -164.554 0.804 -117.526
2385.5 0.888 -130.395 0.04 72.474 3.409e-3 -172.933 0.783 -125.397
2515.25 0.873 -138.469 0.036 41.642 3.61e-3 -172.158 0.762 -133.823
2645 0.856 -146.687 0.049 -5.758 3.659e-3 177.992 0.735 -142.918
2774.75 0.84 -154.581 0.096 -37.551 4.665e-3 167.763 0.706 -152.271
2904.5 0.824 -162.74 0.177 -54.757 5.235e-3 169.633 0.675 -162.345
3034.25 0.807 -170.709 0.293 -68.102 4.798e-3 162.524 0.641 -172.792
3164 0.79 -179.029 0.46 -88.009 5.585e-3 151.79 0.608 175.365
3293.75 0.771 172.34 0.769 -103.089 5.857e-3 148.87 0.567 161.641
3423.5 0.75 163.946 1.216 -119.489 5.884e-3 141.3 0.517 145.295
3553.25 0.729 155.393 1.925 -140.25 5.997e-3 134.839 0.448 124.723
3683 0.703 146.658 2.942 -162.095 6.16e-3 125.108 0.353 99.078
3812.75 0.678 138.188 4.154 176.014 5.354e-3 125.405 0.248 64.845
3942.5 0.647 129.205 5.15 154.178 4.368e-3 117.801 0.166 11.97
4072.25 0.61 120.879 6.001 130.807 5.076e-3 118.157 0.164 -54.041
4202 0.576 112.506 6.835 110.143 4.317e-3 124.041 0.211 -95.842
4331.75 0.539 104.527 7.279 91.344 4.452e-3 120.993 0.261 -120.784
4461.5 0.507 96.461 7.374 75.291 4.49e-3 127.987 0.29 -138.961
4591.25 0.466 87.832 8.078 60.146 4.437e-3 118.68 0.31 -151.216
4721 0.429 80.118 7.78 47.633 4.685e-3 119.646 0.325 -162.463
4850.75 0.39 71.239 8.54 33.288 4.212e-3 118.171 0.326 -170.886
4980.5 0.345 64.146 8.738 24.212 4.382e-3 116.422 0.332 -177.794
5110.25 0.31 57.139 8.54 11.72 3.94e-3 123.145 0.33 174.866
5240 0.273 49.942 9.418 1.318 3.767e-3 120.072 0.325 169.358
5369.75 0.239 43.841 9.421 -7.334 3.678e-3 119.746 0.321 164.015
5499.5 0.21 38.482 9.657 -16.116 3.434e-3 122.365 0.313 158.862
5629.25 0.184 34.398 9.79 -27.088 3.387e-3 128.449 0.304 154.121
5759 0.167 32.289 10.23 -36.536 3.36e-3 133.473 0.293 149.54
5888.75 0.158 29.018 10.564 -43.948 3.485e-3 137.667 0.282 144.436
6018.5 0.149 25.893 10.634 -53.964 3.567e-3 143.033 0.266 139.894
6148.25 0.146 22.777 10.978 -60.891 3.74e-3 139.933 0.248 136.028
6278 0.144 19.388 10.651 -67.544 3.947e-3 143.372 0.232 132.869
6407.75 0.15 17.581 10.619 -78.265 3.947e-3 144.835 0.218 128.248
6537.5 0.158 11.873 11.003 -85.156 4.057e-3 144.906 0.195 124.834
6667.25 0.162 7.379 10.864 -92.548 4.031e-3 145.366 0.181 121.958
6797 0.176 1.936 10.884 -98.753 4.054e-3 147.112 0.162 117.255
6926.75 0.178 -3.866 10.565 -105.198 4.188e-3 147.632 0.145 116.72
7056.5 0.187 -6.652 10.505 -112.387 4.228e-3 148.465 0.135 112.493
7186.25 0.198 -12.754 10.316 -118.399 4.258e-3 151.79 0.115 109.289
7316 0.205 -17.501 10.454 -125.168 4.208e-3 153.038 0.104 108.137
7445.75 0.213 -23.176 10.331 -129.177 4.33e-3 151.444 0.089 106.929
7575.5 0.212 -27.642 10.066 -135.245 4.252e-3 154.041 0.084 107.949
7705.25 0.222 -31.058 9.972 -139.801 4.406e-3 155.651 0.075 103.922
7835 0.223 -36.728 9.758 -145.336 4.447e-3 157.447 0.068 107.173
7964.75 0.229 -39.523 9.875 -149.646 4.504e-3 159.735 0.063 101.64
8094.5 0.235 -46.8 9.65 -153.895 4.702e-3 160.642 0.051 107.55
8224.25 0.222 -51.557 9.675 -158.303 4.581e-3 160.375 0.057 111.839
8354 0.224 -54.441 9.49 -162.307 4.621e-3 163.539 0.053 109.14
8483.75 0.222 -60.669 9.498 -167.208 4.74e-3 165.271 0.051 115.185
8613.5 0.216 -64.335 9.473 -170.715 4.874e-3 164.048 0.055 117.523
8743.25 0.219 -69.745 9.415 -174.941 4.727e-3 166.662 0.053 119.712
8873 0.211 -76.994 9.414 -178.37 5.018e-3 169.526 0.06 128.687
9002.75 0.196 -82.146 9.352 177.433 4.984e-3 171.328 0.069 125.204
9132.5 0.192 -87.583 9.371 173.771 4.934e-3 172.305 0.072 127.528
9262.25 0.191 -93.752 9.323 169.91 5.238e-3 174.009 0.079 127.164
9392 0.19 -101.661 9.354 166.515 5.258e-3 174.955 0.084 133.478
9521.75 0.18 -110.257 9.35 162.714 5.179e-3 176.654 0.101 132.347
9651.5 0.173 -116.997 9.347 159.354 5.186e-3 179.282 0.102 132.139
9781.25 0.172 -125.565 9.346 155.473 5.48e-3 179.797 0.12 134.959
9911 0.173 -131.25 9.393 152.7 5.475e-3 -177.685 0.123 130.643
10040.75 0.186 -139.735 9.385 148.889 5.6e-3 -174.872 0.132 137.35
10170.5 0.18 -151.31 9.479 145.638 6.037e-3 -172.84 0.153 134.322
10300.25 0.18 -155.847 9.37 141.743 5.926e-3 -173.83 0.158 134.312
10430 0.191 -163.524 9.552 138.677 6.213e-3 -171.532 0.174 134.319
10559.75 0.194 -168.584 9.336 135.302 6.497e-3 -171.27 0.179 132.684
10689.5 0.207 -174.681 9.541 131.342 6.736e-3 -170.437 0.189 134.806
10819.25 0.205 178.186 9.473 129.578 6.782e-3 -167.514 0.201 132.751
10949 0.211 175.681 9.429 124.639 6.983e-3 -167.518 0.209 133.745
11078.75 0.222 169.054 9.653 122.061 7.148e-3 -168.324 0.225 130.906
11208.5 0.218 166.192 9.638 119.371 7.258e-3 -166.251 0.218 129.696
11338.25 0.233 162.674 9.75 116.04 7.697e-3 -165.281 0.234 131.777
11468 0.226 156.079 9.791 114.003 7.972e-3 -164.867 0.236 127.532
11597.75 0.232 155.794 9.62 110.79 8.022e-3 -162.987 0.241 130.061
11727.5 0.24 149.325 9.757 107.097 7.996e-3 -162.655 0.256 125.313
11857.25 0.229 146.122 9.954 102.504 8.303e-3 -163.342 0.245 123.421
11987 0.235 142.811 10.297 101.25 8.689e-3 -161.143 0.253 122.615
12116.75 0.229 138.353 10.006 98.618 8.678e-3 -160.037 0.249 120.547
12246.5 0.233 134.558 10.197 92.896 9.373e-3 -162.926 0.26 118.713
12376.25 0.223 129.044 10.033 91.721 9.315e-3 -159.083 0.254 113.406
12506 0.222 126.213 10.224 83.136 9.53e-3 -161.366 0.255 111.332
12635.75 0.217 119.137 10.88 84.417 9.998e-3 -158.315 0.253 105.357
12765.5 0.205 115.888 10.391 80.754 9.644e-3 -161.626 0.24 104.295
12895.25 0.216 110.319 10.885 77.787 0.01 -158.666 0.258 100.745
13025 0.206 101.074 9.883 74.782 9.878e-3 -157.547 0.257 93.782
13154.75 0.201 95.684 10.897 66.731 0.011 -158.849 0.26 87.007
13284.5 0.201 89.701 10.572 68.84 0.011 -152.704 0.259 81.357
13414.25 0.201 81.643 10.954 61.317 0.011 -157.376 0.262 75.048
13544 0.205 75.424 11.198 63.806 0.012 -155.139 0.267 70.502
13673.75 0.214 67.184 9.916 56.782 0.011 -156.703 0.285 65.469
13803.5 0.216 58.153 11.136 51.772 0.012 -155.448 0.301 55.734
13933.25 0.22 53.821 10.518 49.611 0.012 -154.496 0.302 50.239
14063 0.237 47.008 11.408 42.68 0.013 -154.795 0.319 44.569
14192.75 0.245 41.483 11.444 44.869 0.013 -152.986 0.326 40.86
14322.5 0.258 35.361 10.782 37.026 0.013 -157.124 0.355 36.718
14452.25 0.261 29.847 11.439 36.417 0.014 -155.298 0.372 30.979
14582 0.272 26.7 10.578 28.287 0.014 -155.158 0.394 27.07
14711.75 0.279 22.617 11.7 23.328 0.015 -154.041 0.404 21.47
14841.5 0.294 22.672 11.355 24.113 0.014 -153.098 0.411 21.197
14971.25 0.314 16.903 11.133 16.974 0.015 -155.837 0.444 17.282
15101 0.307 13.136 10.745 18.13 0.015 -155.181 0.449 13.713
15230.75 0.311 9.472 9.92 7.242 0.015 -162.648 0.467 10.458
15360.5 0.303 6.096 10.877 7.98 0.016 -158.981 0.459 6.376
15490.25 0.298 7.208 9.739 2.853 0.014 -158.772 0.451 8.151
15620 0.292 4.728 10.576 -2.139 0.015 -159.144 0.469 6.378
15749.75 0.297 6.797 9.789 1.942 0.015 -151.46 0.488 6.19
15879.5 0.3 0.307 9.715 -11.081 0.016 -157.21 0.496 0.694
16009.25 0.268 -3.429 9.914 -9.329 0.017 -159.559 0.461 -1.716
16139 0.25 -2.619 9.497 -16.388 0.017 -163.99 0.454 -0.068
16268.75 0.218 -3.876 9.75 -14.179 0.016 -165.994 0.441 -0.264
16398.5 0.198 4.883 8.889 -18.768 0.014 -167.177 0.449 2.374
16528.25 0.198 6.925 10.174 -20.707 0.014 -163.214 0.459 -0.233
16658 0.199 11.02 8.587 -21.258 0.013 -156.562 0.455 -1.29
16787.75 0.201 11.284 9.844 -31.085 0.014 -157.032 0.445 -2.585
16917.5 0.21 9.523 9.203 -24.455 0.013 -151.573 0.454 -1.145
17047.25 0.191 4.543 8.684 -38.104 0.014 -151.118 0.451 -5.431
17177 0.175 3.715 9.85 -33.575 0.015 -146.433 0.434 -7.658
17306.75 0.172 3.057 8.693 -41.515 0.015 -147.629 0.432 -9.612
17436.5 0.165 -2.622 9.879 -44.326 0.016 -143.32 0.393 -13.122
17566.25 0.157 -9.855 8.69 -45.759 0.016 -145.945 0.395 -10.826
17696 0.128 -16.56 9.473 -54.551 0.017 -147.654 0.382 -16.035
17825.75 0.121 -24.97 8.923 -51.69 0.017 -144.127 0.381 -18.59
17955.5 0.09 -27.605 9.027 -61.469 0.018 -147.753 0.347 -23.709
18085.25 0.113 -25.173 9.164 -58.676 0.018 -145.132 0.339 -21.595
18215 0.115 -49.872 8.559 -65.665 0.018 -146.877 0.34 -28.551
18344.75 0.09 -57.494 8.963 -68.364 0.019 -147.165 0.304 -29.822
18474.5 0.12 -66.125 8.475 -72.262 0.018 -147.213 0.334 -34.258
18604.25 0.097 -77.74 8.641 -76.505 0.019 -148.189 0.282 -42.978
18734 0.135 -65.286 8.414 -78.897 0.018 -147.609 0.299 -39.74
18863.75 0.147 -86.388 8.275 -83.491 0.019 -148.184 0.296 -50.395
18993.5 0.157 -86.355 8.23 -87.147 0.018 -146.641 0.304 -49.238
19123.25 0.182 -96.95 8.187 -89.673 0.018 -145.699 0.32 -61.45
19253 0.164 -90.966 7.82 -93.995 0.018 -143.865 0.286 -62.825
19382.75 0.229 -90.669 8.038 -98.289 0.019 -143.58 0.33 -67.045
19512.5 0.222 -100.69 7.538 -100.819 0.019 -143.269 0.299 -74.516
19642.25 0.243 -97.551 7.787 -106.557 0.02 -142.074 0.337 -71.678
19772 0.251 -105.16 7.335 -107.391 0.019 -141.918 0.345 -83.207
19901.75 0.239 -98.462 7.33 -113.319 0.021 -144.009 0.328 -81.756
20031.5 0.287 -97.888 7.188 -115.282 0.02 -141.411 0.36 -84.546
20161.25 0.297 -101.202 6.89 -120.681 0.02 -146.692 0.363 -86.499
20291 0.305 -102.457 7.151 -123.626 0.021 -140.367 0.382 -88.041
20420.75 0.301 -103.349 6.514 -125.973 0.02 -140.293 0.382 -92.798
20550.5 0.308 -99.901 6.669 -129.88 0.022 -140.189 0.39 -93
20680.25 0.324 -101.573 6.34 -132.528 0.021 -138.416 0.394 -95.55
20810 0.328 -102.018 6.079 -136.203 0.022 -140.524 0.401 -93.884
20939.75 0.333 -103.808 6.069 -139.268 0.022 -137.399 0.428 -96.967
21069.5 0.317 -103.931 5.999 -142.787 0.022 -139.371 0.418 -100.139
21199.25 0.315 -99.658 5.946 -143.173 0.024 -134.57 0.415 -98.961
21329 0.343 -99.682 5.78 -150.43 0.023 -138.641 0.438 -100.619
21458.75 0.333 -103.289 5.939 -152.873 0.025 -137.187 0.437 -102.674
21588.5 0.327 -102.351 5.285 -153.509 0.023 -139.048 0.449 -103.177
21718.25 0.339 -105.003 5.547 -164.942 0.025 -142.46 0.479 -107.262
21848 0.312 -103.293 5.543 -159.109 0.024 -134.671 0.444 -111.129
21977.75 0.34 -102.571 4.962 -166.925 0.024 -139.709 0.467 -110.008
22107.5 0.331 -109.442 5.45 -170.422 0.026 -133.679 0.485 -115.678
22237.25 0.318 -110.651 4.636 -169.869 0.023 -136.036 0.475 -117.608
22367 0.314 -114.441 4.898 -179.308 0.026 -137.569 0.498 -120.965
22496.75 0.306 -112.867 4.498 -177.585 0.025 -135.553 0.488 -124.496
22626.5 0.327 -118.601 4.506 172.683 0.025 -138.809 0.512 -127.941
22756.25 0.299 -122.057 4.572 178.666 0.025 -130.878 0.49 -131.429
22886 0.323 -127.2 3.811 167.765 0.025 -132.782 0.54 -133.554
23015.75 0.296 -134.558 4.371 170.201 0.027 -129.149 0.532 -141.161
23145.5 0.29 -132.171 3.737 166.936 0.025 -132.059 0.536 -141.525
23275.25 0.323 -141.979 3.993 152.89 0.028 -132.39 0.576 -146.499
23405 0.304 -145.553 3.678 163.137 0.027 -122.357 0.547 -148.782
23534.75 0.332 -150.933 3.639 150.251 0.028 -129.725 0.602 -152.071
23664.5 0.306 -156.367 3.514 160.219 0.029 -122.047 0.597 -156.671
23794.25 0.334 -159.778 3.045 144.709 0.029 -125.169 0.644 -158.954
23924 0.334 -162.227 3.7 147.102 0.033 -124.402 0.635 -162.009
24053.75 0.364 -164.285 2.785 146.574 0.032 -126.458 0.669 -161.536
24183.5 0.385 -172.075 3.532 136.1 0.036 -128.62 0.707 -165.933
24313.25 0.384 -172.752 2.803 145.329 0.032 -124.886 0.703 -167.461
24443 0.422 -175.242 2.659 129.524 0.035 -132.762 0.75 -169.631
24572.75 0.434 -177.695 2.739 131.897 0.035 -127.206 0.741 -172.642
24702.5 0.451 179.21 2.272 122.709 0.032 -136.799 0.755 -173.178
24832.25 0.457 177.438 2.819 128.502 0.035 -131.59 0.759 -173.435
24962 0.469 175.237 2.004 125.862 0.029 -132.668 0.795 -174.257
25091.75 0.457 174.665 2.34 115.374 0.033 -132.959 0.781 -176.941
25221.5 0.475 176.675 2.039 126.409 0.028 -122.52 0.785 -175.051
25351.25 0.49 172.478 1.775 105.908 0.032 -129.929 0.81 -178.179
25481 0.47 173.923 2.17 120.638 0.033 -118.657 0.771 -176.36
25610.75 0.488 173.528 1.495 115.043 0.029 -127.834 0.823 -177.153
25740.5 0.466 173.453 1.892 111.708 0.036 -127.854 0.784 179.384
25870.25 0.471 174.557 1.442 117.65 0.028 -116.684 0.792 179.7
26000 0.469 171.631 1.638 98.72 0.031 -121.965 0.763 176.536
