# MHZ S MA R 50

10 0.107 179.984 10.811 179.259 0.073 0.429 0.044 168.007
59.95 0.108 173.275 10.823 174.64 0.073 -1.23 0.042 178.003
109.9 0.106 167.25 10.761 170.132 0.073 -2.258 0.043 177.483
159.85 0.105 160.965 10.698 165.736 0.073 -3.264 0.042 175.694
209.8 0.103 154.748 10.635 161.33 0.073 -4.25 0.041 174.48
259.75 0.101 150.175 10.553 157.174 0.073 -5.046 0.043 171.02
309.7 0.099 141.826 10.495 152.596 0.074 -6.294 0.036 172.208
359.65 0.096 135.414 10.398 148.296 0.074 -7.274 0.035 174.31
409.6 0.095 128.101 10.301 144.04 0.074 -8.32 0.031 173.722
459.55 0.092 120.934 10.217 139.785 0.075 -9.385 0.028 174.618
509.5 0.09 113.636 10.104 135.603 0.075 -10.497 0.025 179.441
559.45 0.087 105.555 10.003 131.444 0.075 -11.596 0.022 -174.346
609.4 0.085 97.504 9.888 127.375 0.076 -12.745 0.02 -163.956
659.35 0.084 88.638 9.775 123.319 0.076 -13.891 0.019 -153.459
709.3 0.083 80.496 9.652 119.225 0.077 -15.075 0.02 -142.319
759.25 0.082 71.013 9.521 115.351 0.077 -16.269 0.02 -129.803
809.2 0.082 62.034 9.408 111.297 0.078 -17.513 0.024 -117.983
859.15 0.083 52.393 9.285 107.342 0.078 -18.758 0.028 -110.942
909.1 0.084 42.563 9.15 103.467 0.079 -20.063 0.033 -108.067
959.05 0.086 34.278 9.028 99.499 0.08 -21.321 0.037 -103.778
1009 0.089 24.882 8.898 95.691 0.08 -22.649 0.044 -102.647
1058.95 0.093 17.219 8.781 91.854 0.081 -24.006 0.049 -101.139
1108.9 0.097 9.359 8.65 88.105 0.081 -25.375 0.055 -103.443
1158.85 0.102 1.306 8.54 84.366 0.082 -26.734 0.061 -103.059
1208.8 0.108 -5.435 8.409 80.621 0.083 -28.089 0.067 -104.372
1258.75 0.112 -12.942 8.291 77.052 0.083 -29.538 0.074 -104.656
1308.7 0.118 -18.665 8.164 73.376 0.084 -30.984 0.079 -107.994
1358.65 0.124 -24.966 8.054 69.832 0.085 -32.438 0.086 -109.875
1408.6 0.129 -30.856 7.942 66.265 0.085 -33.835 0.093 -111.151
1458.55 0.135 -36.315 7.829 62.691 0.086 -35.329 0.099 -113.143
1508.5 0.14 -41.322 7.727 59.23 0.086 -36.8 0.106 -115.578
1558.45 0.146 -45.909 7.618 55.693 0.087 -38.397 0.112 -118.158
1608.4 0.151 -50.782 7.5 52.282 0.088 -39.828 0.118 -120.474
1658.35 0.157 -55.084 7.396 48.825 0.088 -41.355 0.124 -122.849
1708.3 0.163 -59.323 7.299 45.403 0.089 -42.827 0.131 -125.031
1758.25 0.168 -63.379 7.193 42.114 0.09 -44.526 0.138 -127.687
1808.2 0.173 -67.037 7.088 38.703 0.09 -45.987 0.142 -130.412
1858.15 0.178 -70.84 6.991 35.379 0.091 -47.591 0.149 -132.994
1908.1 0.183 -74.511 6.879 32.075 0.092 -49.115 0.155 -135.202
1958.05 0.188 -77.983 6.781 28.769 0.092 -50.721 0.161 -137.785
2008 0.193 -81.236 6.695 25.507 0.093 -52.383 0.166 -140.541
2057.95 0.198 -84.56 6.593 22.26 0.094 -53.91 0.171 -143.165
2107.9 0.202 -87.819 6.499 19.031 0.094 -55.539 0.177 -145.684
2157.85 0.207 -91.039 6.398 15.813 0.095 -57.137 0.182 -148.313
2207.8 0.212 -94.174 6.305 12.63 0.096 -58.78 0.187 -150.931
2257.75 0.216 -97.243 6.217 9.444 0.096 -60.466 0.192 -153.627
2307.7 0.221 -100.274 6.132 6.314 0.097 -62.086 0.197 -156.286
2357.65 0.225 -103.332 6.041 3.174 0.098 -63.726 0.202 -158.764
2407.6 0.23 -106.314 5.957 0.062 0.099 -65.378 0.206 -161.26
2457.55 0.233 -109.239 5.873 -3.022 0.099 -67.092 0.211 -164.013
2507.5 0.237 -112.212 5.789 -6.118 0.1 -68.798 0.215 -166.676
2557.45 0.241 -115.083 5.711 -9.193 0.101 -70.473 0.22 -169.171
2607.4 0.245 -117.894 5.642 -12.231 0.101 -72.161 0.224 -171.796
2657.35 0.249 -120.714 5.56 -15.27 0.102 -73.87 0.228 -174.414
2707.3 0.253 -123.475 5.486 -18.283 0.103 -75.613 0.232 -176.916
2757.25 0.256 -126.234 5.412 -21.293 0.103 -77.343 0.235 -179.539
2807.2 0.259 -129.028 5.338 -24.314 0.104 -79.124 0.239 177.727
2857.15 0.262 -131.907 5.276 -27.295 0.105 -80.865 0.243 175.177
2907.1 0.266 -134.497 5.21 -30.3 0.106 -82.69 0.246 172.655
2957.05 0.269 -137.156 5.146 -33.249 0.107 -84.389 0.249 169.855
3007 0.271 -139.763 5.082 -36.244 0.107 -86.224 0.253 167.233
3056.95 0.274 -142.403 5.013 -39.189 0.108 -88.049 0.256 164.776
3106.9 0.276 -144.922 4.957 -42.173 0.109 -89.773 0.259 162.157
3156.85 0.279 -147.564 4.901 -45.069 0.11 -91.679 0.262 159.322
3206.8 0.282 -150.202 4.846 -48.04 0.111 -93.49 0.266 156.807
3256.75 0.284 -152.872 4.793 -50.957 0.111 -95.397 0.268 154.254
3306.7 0.286 -155.541 4.741 -53.848 0.112 -97.218 0.27 151.388
3356.65 0.288 -158.193 4.684 -56.826 0.113 -99.126 0.273 148.688
3406.6 0.29 -160.811 4.634 -59.679 0.114 -100.949 0.276 146.146
3456.55 0.291 -163.34 4.59 -62.613 0.115 -102.853 0.277 143.361
3506.5 0.292 -165.857 4.543 -65.533 0.116 -104.833 0.279 140.436
3556.45 0.293 -168.416 4.499 -68.429 0.117 -106.669 0.282 137.646
3606.4 0.293 -171.014 4.449 -71.328 0.117 -108.638 0.283 134.92
3656.35 0.294 -173.561 4.405 -74.24 0.118 -110.61 0.284 131.948
3706.3 0.295 -176.083 4.363 -77.167 0.119 -112.517 0.287 129.058
3756.25 0.295 -178.642 4.328 -80.027 0.12 -114.537 0.287 126.295
3806.2 0.294 178.748 4.289 -82.992 0.121 -116.482 0.288 123.214
3856.15 0.295 176.089 4.25 -85.886 0.122 -118.476 0.29 120.242
3906.1 0.294 173.49 4.209 -88.775 0.123 -120.475 0.29 117.19
3956.05 0.293 170.935 4.17 -91.727 0.124 -122.537 0.29 114.074
4006 0.292 168.226 4.137 -94.629 0.124 -124.549 0.29 110.808
4055.95 0.29 165.47 4.099 -97.546 0.125 -126.596 0.291 107.647
4105.9 0.289 162.689 4.068 -100.49 0.126 -128.65 0.291 104.413
4155.85 0.287 159.906 4.042 -103.427 0.127 -130.697 0.291 101.063
4205.8 0.285 157.051 4.007 -106.372 0.129 -132.842 0.292 97.851
4255.75 0.283 154.1 3.979 -109.346 0.129 -134.946 0.291 94.452
4305.7 0.28 151.081 3.947 -112.328 0.131 -137.068 0.29 90.912
4355.65 0.277 148.002 3.917 -115.262 0.132 -139.202 0.29 87.453
4405.6 0.274 144.919 3.891 -118.399 0.133 -141.449 0.289 83.938
4455.55 0.27 141.758 3.862 -121.279 0.134 -143.609 0.288 80.247
4505.5 0.266 138.448 3.835 -124.347 0.135 -145.837 0.287 76.465
4555.45 0.262 135 3.807 -127.447 0.136 -148.167 0.287 72.751
4605.4 0.258 131.698 3.792 -130.448 0.137 -150.318 0.286 69.069
4655.35 0.254 128.212 3.752 -133.536 0.138 -152.716 0.285 65.216
4705.3 0.249 124.586 3.734 -136.642 0.139 -155.022 0.285 61.435
4755.25 0.245 120.842 3.707 -139.839 0.14 -157.269 0.283 57.605
4805.2 0.241 116.944 3.677 -142.825 0.141 -159.805 0.283 53.607
4855.15 0.237 113.082 3.651 -146.156 0.142 -162.096 0.282 49.652
4905.1 0.232 109.167 3.625 -149.255 0.143 -164.615 0.281 45.798
4955.05 0.228 104.988 3.598 -152.425 0.144 -167.045 0.281 41.757
5005 0.225 100.611 3.564 -155.725 0.145 -169.585 0.281 37.758
5054.95 0.222 96.265 3.542 -158.881 0.146 -171.981 0.282 34.09
5104.9 0.22 91.876 3.507 -162.155 0.146 -174.555 0.282 30.292
5154.85 0.218 87.341 3.476 -165.38 0.147 -177.1 0.283 26.478
5204.8 0.217 82.706 3.453 -168.707 0.148 -179.577 0.284 22.911
5254.75 0.217 78.13 3.409 -171.909 0.149 177.741 0.285 19.409
5304.7 0.218 73.51 3.386 -175.244 0.149 175.206 0.286 15.941
5354.65 0.219 68.917 3.356 -178.554 0.15 172.576 0.289 12.625
5404.6 0.221 64.291 3.32 178.218 0.151 169.938 0.291 9.572
5454.55 0.224 59.687 3.283 174.854 0.151 167.364 0.293 6.499
5504.5 0.227 55.15 3.25 171.613 0.152 164.683 0.296 3.564
5554.45 0.232 50.901 3.213 168.27 0.152 162.01 0.298 0.839
5604.4 0.237 46.653 3.176 164.991 0.152 159.331 0.301 -1.862
5654.35 0.244 42.451 3.142 161.698 0.152 156.698 0.305 -4.362
5704.3 0.251 38.447 3.101 158.376 0.153 153.986 0.308 -6.664
5754.25 0.26 34.602 3.063 155.083 0.153 151.303 0.312 -8.911
5804.2 0.268 30.951 3.027 151.788 0.153 148.628 0.317 -11.189
5854.15 0.277 27.314 2.986 148.474 0.153 145.844 0.321 -13.299
5904.1 0.287 23.83 2.952 145.145 0.153 143.135 0.326 -15.218
5954.05 0.298 20.518 2.909 141.859 0.153 140.439 0.332 -17.19
6004 0.309 17.306 2.867 138.573 0.153 137.743 0.338 -19.047
6053.95 0.321 14.197 2.831 135.193 0.152 134.943 0.344 -20.771
6103.9 0.333 11.241 2.787 132.007 0.152 132.297 0.35 -22.58
6153.85 0.347 8.403 2.745 128.631 0.152 129.571 0.358 -24.279
6203.8 0.36 5.595 2.706 125.347 0.151 126.837 0.366 -25.924
6253.75 0.373 2.823 2.663 122.092 0.151 124.202 0.373 -27.683
6303.7 0.387 0.129 2.617 118.815 0.151 121.355 0.381 -29.489
6353.65 0.401 -2.527 2.577 115.56 0.15 118.71 0.389 -31.2
6403.6 0.416 -5.06 2.535 112.378 0.15 116.028 0.398 -32.866
6453.55 0.43 -7.643 2.493 109.124 0.149 113.284 0.406 -34.695
6503.5 0.445 -10.139 2.45 105.886 0.149 110.666 0.415 -36.425
6553.45 0.459 -12.641 2.409 102.754 0.148 107.934 0.424 -38.255
6603.4 0.473 -15.077 2.364 99.603 0.147 105.303 0.433 -40.053
6653.35 0.487 -17.572 2.319 96.359 0.146 102.639 0.441 -41.976
6703.3 0.502 -20.044 2.282 93.312 0.146 100.022 0.45 -43.81
6753.25 0.516 -22.551 2.239 90.13 0.145 97.38 0.459 -45.789
6803.2 0.53 -24.966 2.203 86.984 0.144 94.734 0.468 -47.715
6853.15 0.545 -27.437 2.163 83.929 0.144 92.139 0.477 -49.693
6903.1 0.558 -29.882 2.125 80.807 0.143 89.497 0.484 -51.664
6953.05 0.572 -32.289 2.089 77.748 0.142 86.918 0.493 -53.665
7003 0.584 -34.791 2.052 74.693 0.142 84.283 0.501 -55.735
7052.95 0.597 -37.26 2.015 71.625 0.141 81.745 0.509 -57.761
7102.9 0.609 -39.738 1.982 68.561 0.141 79.031 0.516 -59.821
7152.85 0.621 -42.233 1.947 65.509 0.14 76.459 0.523 -61.916
7202.8 0.632 -44.706 1.912 62.473 0.14 73.863 0.53 -63.988
7252.75 0.643 -47.178 1.882 59.456 0.139 71.166 0.537 -66.103
7302.7 0.654 -49.772 1.849 56.48 0.139 68.67 0.545 -68.356
7352.65 0.665 -52.344 1.818 53.339 0.138 65.809 0.551 -70.488
7402.6 0.674 -54.944 1.791 50.342 0.138 63.252 0.558 -72.646
7452.55 0.684 -57.52 1.76 47.415 0.137 60.575 0.564 -74.897
7502.5 0.693 -60.116 1.732 44.118 0.137 57.828 0.57 -77.117
7552.45 0.702 -62.784 1.705 41.125 0.137 55.055 0.576 -79.284
7602.4 0.71 -65.504 1.676 38.077 0.136 52.137 0.581 -81.537
7652.35 0.718 -68.244 1.649 34.747 0.136 49.517 0.587 -83.883
7702.3 0.727 -71.006 1.627 31.744 0.136 46.584 0.594 -86.109
7752.25 0.735 -73.805 1.6 28.532 0.136 43.702 0.599 -88.416
7802.2 0.743 -76.684 1.574 25.189 0.135 40.739 0.605 -90.808
7852.15 0.75 -79.572 1.55 21.97 0.134 37.83 0.611 -93.147
7902.1 0.758 -82.5 1.524 18.772 0.134 34.942 0.616 -95.433
7952.05 0.765 -85.473 1.496 15.295 0.133 31.785 0.622 -97.881
8002 0.774 -88.49 1.474 11.926 0.133 28.706 0.629 -100.291
8051.95 0.781 -91.557 1.446 8.664 0.132 25.654 0.635 -102.661
8101.9 0.788 -94.659 1.416 5.128 0.131 22.468 0.641 -105.084
8151.85 0.796 -97.796 1.391 1.667 0.131 19.387 0.648 -107.612
8201.8 0.803 -100.948 1.362 -1.671 0.129 16.049 0.655 -110
8251.75 0.81 -104.135 1.331 -5.258 0.128 12.982 0.662 -112.372
8301.7 0.818 -107.382 1.304 -8.758 0.127 9.652 0.668 -114.921
8351.65 0.825 -110.629 1.272 -12.17 0.126 6.51 0.677 -117.379
8401.6 0.834 -113.911 1.241 -15.752 0.124 3.358 0.684 -119.736
8451.55 0.841 -117.196 1.212 -19.256 0.123 0.014 0.691 -122.219
8501.5 0.849 -120.504 1.18 -22.751 0.121 -3.181 0.699 -124.787
8551.45 0.856 -123.848 1.148 -26.355 0.119 -6.495 0.707 -127.256
8601.4 0.864 -127.133 1.116 -29.844 0.118 -9.614 0.716 -129.678
8651.35 0.872 -130.407 1.083 -33.335 0.115 -12.915 0.724 -132.196
8701.3 0.881 -133.677 1.05 -36.898 0.114 -16.128 0.735 -134.646
8751.25 0.889 -136.908 1.019 -40.323 0.111 -19.203 0.744 -136.976
8801.2 0.897 -140.053 0.985 -43.703 0.109 -22.423 0.752 -139.312
8851.15 0.903 -143.189 0.951 -47.153 0.107 -25.433 0.762 -141.723
8901.1 0.911 -146.293 0.919 -50.523 0.105 -28.603 0.771 -144.026
8951.05 0.916 -149.301 0.885 -53.695 0.102 -31.425 0.78 -146.307
9001 0.923 -152.321 0.853 -57.079 0.1 -34.439 0.789 -148.64
9050.95 0.929 -155.245 0.821 -60.229 0.097 -37.399 0.798 -150.863
9100.9 0.936 -158.087 0.787 -63.326 0.095 -40.126 0.806 -153.013
9150.85 0.943 -160.858 0.758 -66.528 0.093 -43.108 0.815 -155.21
9200.8 0.949 -163.558 0.728 -69.582 0.09 -45.802 0.825 -157.344
9250.75 0.953 -166.104 0.696 -72.408 0.088 -48.488 0.832 -159.255
9300.7 0.957 -168.581 0.668 -75.291 0.086 -51.061 0.839 -161.257
9350.65 0.961 -171.041 0.641 -78.116 0.083 -53.486 0.847 -163.265
9400.6 0.966 -173.39 0.612 -80.751 0.081 -56.081 0.854 -165.113
9450.55 0.969 -175.594 0.586 -83.378 0.079 -58.328 0.859 -166.823
9500.5 0.973 -177.76 0.563 -85.987 0.076 -60.767 0.866 -168.673
9550.45 0.977 -179.829 0.538 -88.407 0.074 -63.007 0.873 -170.345
9600.4 0.98 178.196 0.514 -90.772 0.072 -65.052 0.878 -171.939
9650.35 0.982 176.271 0.494 -93.12 0.07 -67.3 0.884 -173.583
9700.3 0.984 174.509 0.472 -95.273 0.068 -69.193 0.888 -175.059
9750.25 0.987 172.792 0.452 -97.414 0.066 -71.214 0.892 -176.52
9800.2 0.988 171.165 0.434 -99.603 0.065 -73.103 0.896 -177.911
9850.15 0.988 169.595 0.415 -101.562 0.063 -74.862 0.899 -179.297
9900.1 0.992 168.105 0.399 -103.463 0.061 -76.653 0.904 179.453
9950.05 0.993 166.723 0.384 -105.432 0.06 -78.302 0.907 178.227
10000 0.993 165.412 0.369 -107.197 0.058 -79.917 0.91 177.003
