!Hittite Microwave Corporation								
!20 Alpha Road								
!Chelmsford, MA 01824								
!Tel: 978-250-3343								
!Fax: 978-250-3373								
!Device: HMC464LP5, 2-20 GHz, GaAs PHEMT MMIC Power Amplifier in 5x5 mm SMT package  															
!Misc: Vdd = 8V, Vgg2 = 3V, Idd = 290 mA, Room
!
# MHZ S MA R 50

50 0.989 -8.974 5.706 -174.994 612.2e-6 108.304 0.829 -33.376
251.007 0.837 -39.779 4.839 175.447 823.4e-6 73.314 0.219 -76.782
452.013 0.654 -60.387 5.07 172.641 1.224e-3 60.859 0.09 -114.038
653.02 0.519 -74.465 5.209 164.691 1.339e-3 48.331 0.146 -140.501
854.027 0.427 -84.289 5.255 160.42 1.456e-3 44.709 0.163 -140.406
1055.034 0.363 -91.05 5.307 154.616 1.625e-3 46.142 0.163 -126.384
1256.04 0.317 -95.456 5.344 149.498 1.688e-3 50.048 0.134 -99.284
1457.047 0.282 -97.99 5.45 144.604 1.839e-3 54.185 0.135 -67.479
1658.054 0.25 -99.812 5.591 138.856 1.92e-3 57.001 0.104 -39.296
1859.06 0.218 -100.698 5.693 131.625 2.159e-3 60.907 0.105 -14
2060.067 0.188 -101.975 5.792 125.005 2.509e-3 57.922 0.071 29.855
2261.074 0.163 -104.831 5.718 117.029 2.776e-3 56.393 0.066 46.305
2462.081 0.141 -110.441 5.454 109.776 2.92e-3 54.942 0.054 115.416
2663.087 0.125 -116.429 5.211 106.202 3.169e-3 55.856 0.035 100.293
2864.094 0.119 -122.012 5.12 103.859 3.404e-3 54.902 0.039 -178.976
3065.101 0.11 -125.661 5.31 100.382 3.72e-3 57.881 0.032 -140.397
3266.107 0.093 -128.719 5.503 94.471 4.264e-3 56.601 0.066 -126.756
3467.114 0.075 -137.16 5.569 88.119 4.695e-3 53.379 0.061 -122.722
3668.121 0.063 -155.779 5.568 82.572 5.05e-3 49.35 0.06 -126.873
3869.128 0.062 -176.378 5.637 76.217 5.466e-3 47.109 0.055 -144.996
4070.134 0.07 169.997 5.636 70.208 5.825e-3 43.609 0.033 172.98
4271.141 0.077 162.022 5.585 64.103 6.096e-3 41.252 0.057 150.16
4472.148 0.078 158.525 5.527 57.888 6.588e-3 38.768 0.105 121.827
4673.154 0.073 152.808 5.443 52.037 7.002e-3 35.78 0.127 124.465
4874.161 0.069 139.874 5.456 47.641 7.325e-3 32.338 0.182 122.67
5075.168 0.075 127.133 5.621 42.339 7.803e-3 28.921 0.175 121.874
5276.174 0.091 121.64 5.603 35.526 8.101e-3 24.43 0.199 125.425
5477.181 0.108 121.392 5.296 28.046 8.244e-3 21.136 0.176 112.313
5678.188 0.119 125.673 5.135 22.194 8.834e-3 19.863 0.19 116.275
5879.195 0.12 131.453 5.014 19.935 9.279e-3 18.188 0.209 101.219
6080.201 0.114 133.615 5.175 16.927 9.704e-3 14.033 0.2 104.691
6281.208 0.105 130.664 5.359 11.927 0.01 11.362 0.234 96.765
6482.215 0.099 125.973 5.304 3.59 0.011 8.814 0.189 97.284
6683.221 0.096 118.375 5.245 -1.634 0.011 3.559 0.208 90.1
6884.228 0.102 112.073 5.183 -5.617 0.012 1.124 0.165 75.44
7085.235 0.105 110.798 5.237 -10.688 0.012 -2.176 0.175 77.523
7286.242 0.1 113.618 5.266 -15.709 0.013 -5.397 0.15 59.864
7487.248 0.081 112.654 5.297 -22.279 0.014 -9.958 0.124 61.806
7688.255 0.063 101.659 5.288 -27.439 0.015 -13.431 0.131 30.314
7889.262 0.055 81.175 5.308 -32.776 0.015 -17.673 0.095 6.19
8090.268 0.068 60.194 5.316 -38.258 0.016 -21.865 0.119 5.164
8291.275 0.087 51.334 5.321 -43.506 0.016 -26.137 0.126 -9.469
8492.282 0.106 55.019 5.324 -49.276 0.017 -30.017 0.136 -10.613
8693.289 0.113 57.015 5.34 -54.574 0.018 -34.243 0.146 -24.408
8894.295 0.118 55.719 5.372 -59.983 0.019 -38.052 0.124 -20.318
9095.302 0.117 49.599 5.426 -65.629 0.019 -42.457 0.161 -17.218
9296.309 0.125 39.379 5.452 -71.621 0.02 -47.01 0.148 -22.398
9497.315 0.143 29.307 5.47 -77.396 0.021 -51.42 0.138 -6.962
9698.322 0.173 27.197 5.502 -83.074 0.022 -56.124 0.133 -1.339
9899.329 0.188 30.374 5.552 -89.125 0.022 -60.684 0.14 10.292
10100.336 0.188 35.216 5.586 -95.322 0.023 -65.142 0.121 11.822
10301.342 0.173 36.845 5.584 -101.469 0.024 -69.738 0.129 40.695
10502.349 0.163 34.731 5.582 -108.482 0.025 -74.8 0.167 36.75
10703.356 0.154 31.846 5.548 -114.557 0.026 -79.444 0.173 49.185
10904.362 0.156 27.058 5.501 -120.519 0.026 -85.007 0.198 49.573
11105.369 0.166 24.782 5.466 -126.7 0.027 -90.562 0.213 55.786
11306.376 0.18 26.29 5.431 -132.67 0.028 -95.304 0.238 49.274
11507.383 0.184 30.541 5.446 -139.091 0.028 -99.627 0.226 47.648
11708.389 0.175 34.357 5.352 -145.733 0.029 -104.385 0.252 44.398
11909.396 0.15 33.69 5.212 -151.286 0.031 -109.19 0.246 38.164
12110.403 0.129 23.105 5.262 -156.108 0.031 -114.01 0.246 33.772
12311.409 0.127 7.55 5.351 -161.22 0.032 -119.876 0.224 24.499
12512.416 0.154 -6.152 5.448 -168.363 0.033 -125.84 0.213 18.405
12713.423 0.189 -7.793 5.346 -174.917 0.033 -131.228 0.227 5.449
12914.43 0.214 -4.863 5.157 178.555 0.033 -135.887 0.235 -4.035
13115.436 0.231 -0.342 5.047 172.899 0.033 -140.307 0.26 -13.843
13316.443 0.246 2.62 5.008 167.503 0.034 -143.341 0.274 -23.709
13517.45 0.25 3.788 5.099 161.266 0.036 -148.415 0.296 -29.888
13718.456 0.26 0.163 4.885 157.318 0.037 -154.166 0.325 -38.372
13919.463 0.286 -3.116 4.82 152.276 0.038 -159.557 0.346 -41.717
14120.47 0.318 -5.744 5.1 146.712 0.038 -164.224 0.358 -44.949
14321.477 0.341 -5.446 5.291 140.428 0.039 -169.766 0.352 -50.266
14522.483 0.351 -5.207 5.512 132.985 0.041 -173.934 0.339 -56.308
14723.49 0.334 -3.215 5.284 125.53 0.043 -177.991 0.309 -65.393
14924.497 0.284 -2.983 5.107 119.762 0.044 174.487 0.287 -75.236
15125.503 0.225 -8.576 5.266 114.378 0.044 166.559 0.256 -83.778
15326.51 0.182 -21.81 5.447 106.281 0.045 161.464 0.218 -93.048
15527.517 0.161 -35.415 5.478 98.646 0.046 155.878 0.188 -108.811
15728.523 0.153 -44.168 5.373 91.078 0.046 148.298 0.168 -129.683
15929.53 0.157 -46.817 5.339 83.808 0.046 142.544 0.166 -146.287
16130.537 0.172 -44.169 5.358 76.472 0.047 137.828 0.127 -142.137
16331.544 0.167 -36.805 5.336 69.031 0.049 131.284 0.069 -148.135
16532.55 0.165 -41.253 5.296 61.564 0.049 124.208 0.039 155.407
16733.557 0.199 -50.144 5.18 53.676 0.049 117.545 0.021 104.682
16934.564 0.256 -53.803 5.018 45.923 0.049 110.266 0.039 1.244
17135.57 0.314 -56.772 4.852 38.241 0.048 102.833 0.125 -27.351
17336.577 0.38 -59.855 4.679 30.975 0.047 96.971 0.21 -32.046
17537.584 0.45 -60.033 4.532 23.825 0.046 91.564 0.284 -30.167
17738.591 0.5 -58.133 4.37 16.953 0.046 85.73 0.316 -34.318
17939.597 0.522 -57.505 4.212 10.861 0.046 80.558 0.336 -42.306
18140.604 0.537 -58.475 4.108 5.399 0.046 75.716 0.342 -54.331
18341.611 0.554 -59.161 4.027 -0.453 0.047 70.367 0.354 -61.294
18542.617 0.554 -59.786 3.92 -6.116 0.047 65.388 0.387 -65.95
18743.624 0.551 -60.973 3.872 -11.474 0.047 60.116 0.377 -68.975
18944.631 0.546 -61.489 3.929 -17.193 0.049 54.871 0.329 -76.439
19145.638 0.513 -59.68 3.996 -24.79 0.051 48.216 0.244 -88.394
19346.644 0.447 -56.339 4.007 -32.811 0.053 40.172 0.198 -96.532
19547.651 0.356 -53.203 3.995 -40.616 0.054 31.888 0.158 -113.174
19748.658 0.266 -49.179 4.004 -48.735 0.054 24.111 0.091 -124.059
19949.664 0.165 -46.074 4.051 -58.52 0.055 15.813 0.047 -154.17
20150.671 0.094 -68.297 3.968 -68.788 0.056 7.213 0.015 17.675
20351.678 0.167 -98.963 3.809 -78.773 0.057 -1.164 0.042 74.793
20552.685 0.243 -80.452 3.641 -86.404 0.056 -8.57 0.045 84.727
20753.691 0.195 -79.514 3.517 -94.478 0.056 -15.921 0.048 -47.254
20954.698 0.214 -104.553 3.399 -103.234 0.055 -24.411 0.114 -50.807
21155.705 0.313 -118.726 3.233 -113.561 0.053 -34.172 0.145 -71.11
21356.711 0.417 -121.447 3.046 -122.747 0.051 -41.036 0.163 -85.191
21557.718 0.476 -122.494 2.856 -130.789 0.052 -48.709 0.222 -84.891
21758.725 0.53 -123.42 2.671 -138.438 0.049 -57.593 0.297 -90.891
21959.732 0.564 -124.415 2.44 -145.069 0.046 -68.118 0.347 -99.039
22160.738 0.604 -124.312 2.336 -150.278 0.041 -74.818 0.379 -101.216
22361.745 0.62 -121.866 2.259 -158.403 0.037 -76.322 0.33 -100.179
22562.752 0.622 -120.914 2.013 -167.012 0.035 -77.897 0.341 -107.122
22763.758 0.6 -120.85 1.807 -169.959 0.036 -83.777 0.379 -119.459
22964.765 0.595 -123.112 1.74 -171.719 0.036 -87.918 0.385 -124.282
23165.772 0.587 -124.952 1.746 -177.649 0.035 -92.055 0.376 -125.634
23366.779 0.594 -127.013 1.707 173.029 0.033 -98.148 0.367 -121.207
23567.785 0.603 -128.032 1.551 166.224 0.033 -104.189 0.406 -132.853
23768.792 0.615 -129.431 1.456 163.347 0.034 -107.276 0.411 -145.032
23969.799 0.597 -127.839 1.41 160.701 0.033 -113.364 0.417 -143.8
24170.805 0.577 -129.216 1.424 154.618 0.034 -120.926 0.46 -138.213
24371.812 0.558 -132.97 1.437 145.873 0.032 -131.54 0.519 -140.256
24572.819 0.564 -136.251 1.353 136.185 0.03 -136.267 0.479 -145.973
24773.826 0.57 -137.653 1.24 130.786 0.027 -141.89 0.456 -142.462
24974.832 0.594 -140.276 1.116 124.563 0.027 -145.68 0.494 -135.093
25175.839 0.608 -139.588 1.081 123.776 0.026 -147.79 0.545 -143.752
25376.846 0.613 -138 1.096 118.14 0.026 -153.183 0.496 -148.978
25577.852 0.58 -138.328 1.099 111.206 0.025 -159.955 0.509 -132.187
25778.859 0.558 -143.983 1.043 104.132 0.025 -161.721 0.547 -127.684
25979.866 0.555 -146.91 0.964 96.57 0.025 -166.891 0.487 -132.734
26180.872 0.567 -151.403 0.945 91.641 0.026 -178.434 0.363 -142.655
26381.879 0.535 -156.051 0.959 86.09 0.026 174.509 0.37 -137.126
26582.886 0.524 -165.249 0.978 77.648 0.026 171.397 0.434 -139.23
26783.893 0.514 -173.998 0.9 67.251 0.025 161.49 0.262 -164.306
26984.899 0.529 173.31 0.834 57.575 0.025 154.988 0.199 171.272
27185.906 0.505 166.416 0.773 49.738 0.024 146.111 0.239 152.823
27386.913 0.543 155.92 0.714 40.229 0.023 138.041 0.345 136.775
27587.919 0.57 146.064 0.63 27.957 0.021 127.028 0.578 128.283
27788.926 0.647 139.413 0.572 23.128 0.019 122.969 0.487 130.389
27989.933 0.689 137.799 0.514 17.289 0.018 120.059 0.508 130.067
28190.94 0.736 135.768 0.443 12.532 0.016 117.349 0.598 125.483
28391.946 0.759 135.113 0.387 8.976 0.014 117.281 0.679 127.616
28592.953 0.816 137.082 0.334 6.978 0.012 118.39 0.778 127.691
28793.96 0.847 141.232 0.319 2.222 0.012 118.363 0.74 137.612
28994.966 0.885 144.856 0.29 -2.016 0.011 117.669 0.777 143.944
29195.973 0.904 150.504 0.261 -5.097 0.011 121.184 0.791 142.694
29396.98 0.927 156.746 0.231 -6.558 0.011 121.525 0.808 150.734
29597.987 0.906 164.721 0.219 -5.247 0.011 122.565 0.772 150.261
29798.993 0.907 170.207 0.197 -2.146 9.257e-3 123.273 0.874 164.215
30000 0.887 177.028 0.205 0.194 9.737e-3 127.095 0.927 170.415
