# MHZ S MA R 50

50 0.213 177.884 9.795 177.124 0.068 -1.937 0.074 -160.35
99.75 0.208 172.369 9.854 174.438 0.071 1.543 0.088 174.602
149.5 0.21 168.869 9.795 171.905 0.073 -0.022 0.079 179.267
199.25 0.204 165.254 9.764 169.205 0.071 1.492 0.081 177.04
249 0.2 161.445 9.735 166.488 0.07 2.033 0.079 -175.882
298.75 0.195 157.635 9.672 164.022 0.07 2.866 0.078 -175.551
348.5 0.191 154.203 9.632 161.518 0.07 2.121 0.078 -171.849
398.25 0.187 151.017 9.579 158.88 0.07 3.064 0.073 -167.824
448 0.181 147.533 9.528 156.282 0.07 3.862 0.074 -168.073
497.75 0.176 143.996 9.476 153.889 0.07 4.427 0.082 -164.504
547.5 0.172 140.196 9.44 151.377 0.071 5.304 0.066 -162.99
597.25 0.166 136.938 9.364 148.802 0.071 5.784 0.079 -161.7
647 0.16 133.407 9.277 146.349 0.071 5.703 0.075 -154.218
696.75 0.154 129.663 9.219 144.081 0.07 6.383 0.081 -154.689
746.5 0.149 125.822 9.174 141.478 0.071 7.405 0.08 -149.088
796.25 0.143 122.129 9.059 138.935 0.072 7.758 0.081 -147.833
846 0.137 118.164 9.003 136.784 0.072 8.235 0.085 -144.922
895.75 0.132 113.86 8.961 134.258 0.073 8.901 0.084 -145.269
945.5 0.126 109.827 8.848 131.742 0.072 8.977 0.093 -142.582
995.25 0.12 105.289 8.747 129.554 0.073 10.222 0.091 -139.924
1045 0.114 100.364 8.69 127.309 0.074 10.205 0.099 -140.771
1094.75 0.109 95.835 8.606 124.768 0.074 10.576 0.098 -135.972
1144.5 0.103 90.611 8.491 122.464 0.074 11.44 0.104 -139.86
1194.25 0.098 84.904 8.404 120.34 0.075 11.754 0.109 -134.312
1244 0.093 79.332 8.334 118.044 0.075 12.051 0.11 -138.086
1293.75 0.089 73.449 8.255 115.633 0.076 12.709 0.122 -136.545
1343.5 0.084 66.637 8.127 113.305 0.077 13.237 0.117 -135.394
1393.25 0.081 59.399 8.03 111.332 0.077 13.593 0.128 -137.911
1443 0.078 52.085 7.977 109.128 0.078 13.716 0.129 -135.443
1492.75 0.076 45.028 7.864 106.566 0.078 14.295 0.137 -138.824
1542.5 0.073 36.887 7.701 104.63 0.079 14.798 0.14 -136.223
1592.25 0.072 27.674 7.662 103.004 0.08 15.073 0.141 -139.377
1642 0.073 20.282 7.604 100.244 0.081 15.556 0.149 -137.296
1691.75 0.072 12.455 7.39 98.043 0.082 15.608 0.149 -139.715
1741.5 0.073 3.211 7.316 96.719 0.082 15.888 0.16 -140.747
1791.25 0.076 -4.351 7.323 94.41 0.084 16.063 0.16 -141.382
1841 0.079 -10.526 7.18 91.662 0.084 16.74 0.169 -142.416
1890.75 0.079 -17.381 6.98 90.223 0.085 17.332 0.17 -144.453
1940.5 0.084 -25.179 7.003 88.925 0.086 16.484 0.175 -144.657
1990.25 0.088 -30.751 6.946 85.549 0.086 17.438 0.178 -145.313
2040 0.091 -36.195 6.665 83.683 0.088 17.428 0.186 -150.463
2089.75 0.095 -41.852 6.625 83.164 0.087 16.762 0.184 -149.228
2139.5 0.099 -46.627 6.66 80.579 0.089 18.106 0.19 -151.871
2189.25 0.103 -51.274 6.447 77.868 0.091 18.173 0.195 -152.312
2239 0.107 -55.689 6.283 77.082 0.09 17.188 0.195 -155.192
2288.75 0.11 -60.193 6.324 75.707 0.091 18.138 0.202 -156.909
2338.5 0.115 -64.521 6.267 72.762 0.094 18.875 0.199 -157.834
2388.25 0.119 -67.879 6.053 70.963 0.094 17.9 0.208 -160.936
2438 0.122 -71.106 5.985 70.484 0.093 18.375 0.208 -161.881
2487.75 0.124 -74.568 6.031 68.224 0.095 19.387 0.206 -166.121
2537.5 0.129 -78.077 5.88 65.474 0.099 18.436 0.218 -166.146
2587.25 0.132 -80.671 5.699 64.541 0.098 17.82 0.209 -168.104
2637 0.134 -84.265 5.702 63.971 0.096 20.729 0.214 -173.068
2686.75 0.14 -86.339 5.746 61.084 0.104 19.658 0.213 -171.787
2736.5 0.141 -89.27 5.493 58.374 0.1 17.075 0.208 -174.774
2786.25 0.146 -92.416 5.387 59.218 0.1 20.723 0.217 -177.835
2836 0.148 -93.921 5.582 57.014 0.107 19.592 0.214 -177.219
2885.75 0.149 -97.363 5.368 52.839 0.104 17.926 0.214 177.372
2935.5 0.154 -99.771 5.136 53.342 0.106 20.057 0.222 176.955
2985.25 0.155 -102.271 5.314 52.857 0.108 19.261 0.21 174.727
3035 0.158 -104.45 5.29 48.222 0.11 19.471 0.225 170.841
3084.75 0.159 -106.557 4.953 46.905 0.111 18.533 0.217 172.454
3134.5 0.161 -109.603 4.996 48.446 0.109 18.456 0.217 165.015
3184.25 0.163 -110.687 5.163 44.364 0.115 19.944 0.222 166.387
3234 0.162 -113.401 4.811 41.024 0.116 18.014 0.213 162.125
3283.75 0.165 -115.503 4.697 43.122 0.114 18.185 0.225 159.365
3333.5 0.163 -117.577 4.96 40.813 0.115 19.394 0.215 157.898
3383.25 0.166 -119.434 4.735 35.488 0.121 18.737 0.219 153.985
3433 0.163 -120.869 4.426 37.178 0.12 16.548 0.22 152.069
3482.75 0.163 -123.573 4.688 37.436 0.119 18.98 0.216 147.209
3532.5 0.164 -124.434 4.662 31.51 0.125 18.663 0.221 146.287
3582.25 0.162 -126.794 4.282 31.015 0.127 17.07 0.214 142.088
3632 0.161 -127.619 4.41 33.37 0.126 15.444 0.221 137.68
3681.75 0.157 -129.012 4.567 27.969 0.125 19.004 0.216 136.904
3731.5 0.158 -131.81 4.133 25.433 0.137 17.116 0.215 128.495
3781.25 0.151 -130.935 4.16 28.761 0.132 13.014 0.223 128.783
3831 0.148 -133.706 4.413 24.507 0.128 17.545 0.21 124.094
3880.75 0.149 -134.45 4.064 20.412 0.143 16.678 0.222 117.179
3930.5 0.138 -134.651 3.95 23.568 0.139 13.044 0.215 116.651
3980.25 0.138 -135.875 4.231 21.474 0.134 14.361 0.215 109.067
4030 0.132 -134.666 4.034 15.931 0.141 15.713 0.223 105.954
4079.75 0.125 -136.869 3.797 17.949 0.147 13.21 0.217 102.303
4129.5 0.122 -134.904 4.052 17.632 0.143 11.679 0.221 96.3
4179.25 0.114 -134.377 3.985 11.649 0.142 13.174 0.228 91.696
4229 0.111 -134.324 3.67 12.205 0.151 12.513 0.235 86.935
4278.75 0.102 -130.273 3.851 13.343 0.152 10.108 0.232 81.443
4328.5 0.1 -129.926 3.912 8.164 0.149 9.773 0.242 76.114
4378.25 0.096 -125.914 3.606 6.413 0.153 10.854 0.245 71.764
4428 0.088 -122.012 3.674 8.307 0.157 9.474 0.246 65.52
4477.75 0.089 -117.694 3.81 3.886 0.157 6.975 0.259 61.66
4527.5 0.085 -112.364 3.526 0.68 0.155 7.801 0.257 56.619
4577.25 0.082 -107.694 3.445 2.884 0.16 7.953 0.27 50.361
4627 0.085 -100.731 3.631 0.765 0.162 5.765 0.273 47.244
4676.75 0.085 -94.918 3.521 -4.302 0.161 4.758 0.284 42.067
4726.5 0.085 -89.375 3.32 -3.428 0.161 5.155 0.296 37.771
4776.25 0.092 -84.584 3.459 -3.604 0.164 4.478 0.306 33.622
4826 0.1 -79.223 3.47 -8.733 0.169 2.844 0.315 29.028
4875.75 0.101 -75.362 3.213 -10.938 0.165 1.108 0.324 24.731
4925.5 0.11 -71.102 3.192 -9.149 0.164 2.223 0.336 20.89
4975.25 0.119 -67.139 3.353 -11.999 0.171 1.691 0.35 18.427
5025 0.125 -66.159 3.172 -17.792 0.17 -1.626 0.356 12.968
5074.75 0.135 -62.003 2.94 -15.982 0.167 -1.414 0.375 11.31
5124.5 0.144 -60.509 3.096 -15.386 0.168 -0.801 0.38 6.941
5174.25 0.157 -60.058 3.14 -22.478 0.175 -1.882 0.406 3.841
5224 0.161 -56.869 2.747 -24.432 0.17 -5.587 0.398 2.512
5273.75 0.175 -56.525 2.759 -19.054 0.167 -3.773 0.427 -2.592
5323.5 0.189 -56.23 3.054 -24.776 0.173 -4.227 0.442 -3.281
5373.25 0.194 -54.681 2.645 -31.74 0.174 -6.727 0.443 -7.369
5423 0.208 -54.163 2.437 -25.287 0.173 -7.345 0.468 -9.113
5472.75 0.222 -54.864 2.779 -24.842 0.163 -7.809 0.475 -12.643
5522.5 0.232 -54.218 2.677 -36.532 0.178 -5.265 0.5 -14.453
5572.25 0.237 -53.108 2.193 -32.834 0.178 -11.323 0.49 -16.019
5622 0.258 -54.336 2.451 -25.272 0.16 -10.604 0.525 -20.254
5671.75 0.263 -53.846 2.693 -37.24 0.171 -7.441 0.527 -19.936
5721.5 0.27 -53.98 2.104 -40.93 0.179 -11.392 0.53 -24.268
5771.25 0.289 -53.771 2.126 -29.078 0.169 -13.728 0.563 -25.123
5821 0.292 -55.107 2.57 -35.769 0.159 -11.251 0.554 -26.975
5870.75 0.309 -54.995 2.098 -47.494 0.178 -8.783 0.582 -30.039
5920.5 0.318 -53.884 1.858 -35.017 0.173 -16.681 0.598 -30.314
5970.25 0.328 -56.611 2.328 -34.035 0.161 -14.904 0.593 -33.303
6020 0.339 -54.898 2.205 -50.267 0.166 -9.437 0.614 -33.994
6069.75 0.343 -55.862 1.698 -43.366 0.175 -14.373 0.62 -35.246
6119.5 0.361 -57.027 2.015 -34.338 0.166 -19.553 0.634 -38.356
6169.25 0.359 -56.44 2.227 -48.632 0.155 -12.728 0.634 -38.231
6219 0.37 -58.03 1.658 -50.633 0.179 -11.615 0.639 -41.967
6268.75 0.384 -57.644 1.765 -37.966 0.169 -21.504 0.673 -42.079
6318.5 0.381 -58.586 2.084 -45.919 0.155 -14.558 0.645 -42.993
6368.25 0.394 -59.226 1.714 -54.72 0.174 -13.913 0.678 -45.957
6418 0.403 -59.41 1.58 -44.335 0.167 -19.286 0.681 -44.882
6467.75 0.404 -60.267 1.875 -43.997 0.167 -15.528 0.67 -48.21
6517.5 0.41 -60.434 1.806 -55.845 0.159 -18.305 0.699 -48.137
6567.25 0.42 -61.33 1.507 -51.059 0.165 -16.224 0.682 -49.994
6617 0.42 -61.79 1.687 -45.486 0.179 -17.252 0.703 -51.839
6666.75 0.424 -62.332 1.772 -54.399 0.158 -19.837 0.697 -51.464
6716.5 0.431 -63.157 1.516 -55.47 0.163 -15.876 0.707 -54.38
6766.25 0.434 -63.995 1.561 -49.959 0.177 -17.075 0.72 -54.473
6816 0.439 -64.192 1.681 -54.261 0.167 -20.813 0.71 -55.658
6865.75 0.44 -64.791 1.538 -58.961 0.163 -19.054 0.72 -57.466
6915.5 0.445 -66.023 1.466 -55.033 0.173 -15.913 0.724 -57.949
6965.25 0.447 -66.062 1.553 -55.736 0.175 -20.473 0.721 -59.249
7015 0.447 -67.118 1.525 -60.104 0.167 -21.932 0.731 -60.55
7064.75 0.452 -68.044 1.432 -60.139 0.173 -18.474 0.727 -61.015
7114.5 0.452 -68.604 1.441 -58.89 0.174 -17.398 0.735 -63.308
7164.25 0.452 -69.235 1.445 -61.397 0.179 -23.799 0.733 -62.95
7214 0.455 -70.279 1.398 -61.96 0.164 -22.772 0.727 -65.962
7263.75 0.453 -71.098 1.389 -62.953 0.179 -14.998 0.761 -65.816
7313.5 0.454 -71.72 1.344 -63.414 0.189 -26.823 0.714 -66.97
7363.25 0.454 -72.921 1.37 -63.683 0.164 -21.643 0.754 -69.953
7413 0.454 -73.853 1.336 -66.416 0.184 -19.049 0.739 -67.796
7462.75 0.454 -74.682 1.276 -65.614 0.183 -26.066 0.726 -72.455
7512.5 0.452 -75.997 1.302 -65.491 0.18 -22.661 0.754 -71.336
7562.25 0.452 -77.145 1.314 -67.897 0.183 -23.389 0.716 -72.859
7612 0.452 -78.264 1.248 -69.213 0.179 -24.1 0.75 -74.911
7661.75 0.447 -79.404 1.23 -67.693 0.192 -25.311 0.717 -75.194
7711.5 0.448 -80.868 1.28 -69.359 0.184 -26.632 0.732 -77.997
7761.25 0.447 -82.045 1.217 -72.506 0.182 -24.267 0.732 -77.406
7811 0.441 -83.607 1.183 -70.514 0.196 -26.614 0.727 -80.713
7860.75 0.442 -84.903 1.231 -71.029 0.194 -28.087 0.733 -81.124
7910.5 0.439 -86.441 1.208 -74.925 0.183 -28.709 0.719 -83.065
7960.25 0.436 -88.568 1.139 -73.847 0.2 -26.006 0.726 -84.874
8010 0.435 -89.895 1.182 -73.547 0.198 -30.502 0.726 -85.918
8059.75 0.432 -91.671 1.179 -77.404 0.188 -30.664 0.709 -87.278
8109.5 0.432 -93.698 1.12 -77.424 0.201 -30.716 0.721 -90.248
8159.25 0.429 -95.655 1.126 -76.259 0.198 -30.472 0.717 -89.976
8209 0.427 -97.522 1.156 -78.952 0.205 -32.715 0.697 -93.892
8258.75 0.426 -99.606 1.09 -81.329 0.191 -34.816 0.736 -93.486
8308.5 0.423 -102.149 1.08 -79.242 0.204 -31.042 0.676 -95.935
8358.25 0.425 -104.143 1.129 -81.35 0.213 -36.56 0.726 -99.903
8408 0.423 -106.227 1.073 -84.476 0.195 -37.375 0.688 -97.969
8457.75 0.42 -109.18 1.05 -82.849 0.206 -34.416 0.698 -105.157
8507.5 0.423 -111.487 1.086 -83.711 0.212 -38.521 0.714 -102.464
8557.25 0.422 -113.832 1.067 -87.223 0.206 -39.962 0.68 -108.087
8607 0.421 -116.901 1.023 -86.975 0.207 -38.568 0.725 -107.789
8656.75 0.425 -119.414 1.036 -87.176 0.208 -39.855 0.657 -110.543
8706.5 0.426 -121.802 1.045 -90 0.213 -42.543 0.718 -114.138
8756.25 0.429 -124.872 1.001 -91.48 0.208 -43.578 0.671 -113.163
8806 0.434 -127.635 1.001 -91.435 0.21 -43.145 0.698 -120.762
8855.75 0.437 -130.389 1.014 -93.095 0.214 -44.084 0.707 -118.154
8905.5 0.443 -133.119 0.98 -95.587 0.213 -46.664 0.677 -124.219
8955.25 0.446 -136.048 0.962 -95.711 0.208 -47.54 0.712 -124.621
9005 0.454 -138.951 0.963 -96.795 0.213 -46.939 0.675 -127.009
9054.75 0.463 -141.279 0.951 -99.21 0.214 -49.988 0.704 -130.154
9104.5 0.468 -144.172 0.928 -100.449 0.21 -51.031 0.686 -131.934
9154.25 0.479 -147.275 0.917 -101.343 0.212 -51.561 0.704 -135.324
9204 0.487 -149.329 0.907 -102.883 0.213 -53.021 0.702 -137.083
9253.75 0.494 -152.113 0.887 -104.596 0.211 -54.371 0.712 -139.392
9303.5 0.507 -154.511 0.867 -105.578 0.209 -55.723 0.697 -141.962
9353.25 0.516 -156.793 0.855 -107.142 0.209 -56.79 0.721 -145.415
9403 0.526 -159.166 0.842 -108.385 0.208 -57.792 0.708 -146.012
9452.75 0.536 -161.477 0.822 -110.005 0.208 -59.139 0.729 -150.976
9502.5 0.546 -163.79 0.809 -111.317 0.206 -60.917 0.723 -149.65
9552.25 0.561 -165.845 0.784 -112.532 0.2 -61.499 0.724 -157.06
9602 0.569 -167.844 0.772 -113.773 0.203 -62.703 0.766 -154.927
9651.75 0.581 -170.069 0.763 -115.006 0.201 -64.554 0.703 -160.409
9701.5 0.594 -171.849 0.739 -117.041 0.193 -65.942 0.791 -161.832
9751.25 0.602 -173.5 0.715 -117.117 0.197 -65.99 0.722 -160.839
9801 0.615 -175.47 0.704 -118.351 0.195 -67.448 0.775 -168.863
9850.75 0.627 -176.982 0.682 -120.871 0.188 -69.265 0.777 -164.067
9900.5 0.634 -178.723 0.647 -120.303 0.186 -68.801 0.738 -172.058
9950.25 0.648 179.749 0.65 -120.459 0.184 -70.5 0.799 -170.705
10000 0.657 178.501 0.641 -123.326 0.183 -70.783 0.752 -174.662
