!Hittite Microwave Corporation								
!12 Elizabeth Drive								
!Chelmsford, MA 01824								
!Tel: 978-250-3343								
!Fax: 978-250-3373							
!Device: HMC408LP3, 5.1-5.9 GHz GaAs InGap HBT MMIC Power Amplifier in Leadless LP3 SMT Package							
!Misc: Input reference is the input pin of the device, output reference is the last component on output line, Vs=Vpd=5V, Room							
!
# MHZ S MA R 50

1000 0.917 -107.1 0.287 -73.489 501.3e-6 131.756 0.939 154.314
1035 0.912 -110.24 0.278 -84.267 581e-6 108.512 0.938 150.922
1070 0.906 -113.393 0.265 -93.215 516.8e-6 107.296 0.936 147.665
1105 0.901 -116.546 0.253 -100.924 460.9e-6 104.225 0.935 144.437
1140 0.896 -119.695 0.24 -107.391 453.8e-6 92.923 0.935 141.216
1175 0.891 -122.709 0.224 -112.529 686.2e-6 87.356 0.934 138.059
1210 0.885 -125.748 0.215 -116.534 672.7e-6 92.23 0.932 134.966
1245 0.88 -128.799 0.21 -119.776 549.4e-6 102.51 0.931 131.916
1280 0.874 -131.822 0.204 -123.376 813.5e-6 100.569 0.931 128.852
1315 0.868 -134.811 0.198 -125.346 870.6e-6 103.721 0.929 125.83
1350 0.862 -137.818 0.194 -126.675 847.9e-6 103.956 0.928 122.849
1385 0.856 -140.896 0.195 -127.909 816.9e-6 93.607 0.928 119.924
1420 0.85 -143.819 0.193 -129.654 837.5e-6 96.273 0.927 116.939
1455 0.843 -146.759 0.195 -130.648 904.9e-6 95.341 0.926 113.984
1490 0.836 -149.745 0.2 -130.781 1.012e-3 87.864 0.925 111.07
1525 0.831 -152.805 0.204 -132.599 970.4e-6 68.194 0.924 108.131
1560 0.824 -155.822 0.21 -133.057 992.5e-6 59.878 0.923 105.185
1595 0.817 -158.85 0.217 -133.102 1.059e-3 61.425 0.922 102.225
1630 0.808 -162.032 0.226 -134.788 1.151e-3 74.927 0.92 99.229
1665 0.801 -165.057 0.237 -135.608 1.198e-3 72.997 0.919 96.395
1700 0.795 -168.043 0.249 -136.695 1.217e-3 70.717 0.919 93.569
1735 0.788 -171.043 0.265 -138.725 1.208e-3 75.863 0.918 90.672
1770 0.78 -174.236 0.281 -140.25 1.187e-3 77.771 0.917 87.802
1805 0.772 -177.373 0.297 -141.577 1.252e-3 76.523 0.916 84.895
1840 0.765 179.542 0.314 -142.885 1.39e-3 72.926 0.915 81.95
1875 0.758 176.312 0.331 -145.596 1.433e-3 73.946 0.914 79.006
1910 0.751 173.022 0.353 -147.826 1.496e-3 68.547 0.912 76.053
1945 0.744 169.724 0.377 -150.097 1.535e-3 61.462 0.911 73.083
1980 0.736 166.481 0.406 -153.248 1.47e-3 59.17 0.91 70.081
2015 0.728 163.013 0.431 -154.999 1.622e-3 57.322 0.908 67.113
2050 0.721 159.477 0.456 -157.118 1.797e-3 57.273 0.906 64.115
2085 0.714 155.909 0.483 -160.242 1.94e-3 59.78 0.905 61.061
2120 0.707 152.4 0.514 -164.016 1.85e-3 49.314 0.902 58.033
2155 0.699 148.78 0.552 -167.083 1.891e-3 45.748 0.901 54.995
2190 0.692 145.069 0.593 -169.807 2.011e-3 46.975 0.899 51.939
2225 0.685 141.356 0.631 -174.062 1.925e-3 41.764 0.897 48.821
2260 0.678 137.503 0.656 -177.101 1.944e-3 39.954 0.895 45.735
2295 0.671 133.559 0.686 -179.985 2.016e-3 38.588 0.893 42.645
2330 0.664 129.526 0.741 176.296 2.114e-3 34.91 0.89 39.511
2365 0.656 125.597 0.785 171.808 2.104e-3 29.697 0.888 36.306
2400 0.649 121.591 0.835 168.274 2.287e-3 29.393 0.885 33.115
2435 0.643 117.468 0.894 165.991 2.717e-3 35.125 0.882 29.952
2470 0.637 113.41 0.924 160.186 2.555e-3 25.124 0.877 26.642
2505 0.63 109.302 0.959 156.43 2.469e-3 19.644 0.871 23.506
2540 0.623 105.156 1.004 153.735 2.424e-3 17.77 0.864 20.505
2575 0.618 100.998 1.079 149.624 2.328e-3 18.652 0.864 17.597
2610 0.613 96.893 1.13 146.038 2.11e-3 21.429 0.864 14.434
2645 0.608 92.757 1.189 142.785 2.009e-3 22.768 0.864 11.171
2680 0.604 88.53 1.281 139.863 2.22e-3 20.037 0.862 7.876
2715 0.6 84.43 1.341 133.725 2.213e-3 17.111 0.859 4.531
2750 0.596 80.352 1.407 129.418 2.369e-3 12.575 0.857 1.193
2785 0.592 76.284 1.485 127.039 2.7e-3 6.859 0.854 -2.126
2820 0.588 72.237 1.581 120.374 2.8e-3 7.785 0.85 -5.377
2855 0.586 68.284 1.629 115.523 2.745e-3 7.951 0.848 -8.613
2890 0.583 64.354 1.678 111.716 2.667e-3 5.179 0.846 -11.86
2925 0.581 60.335 1.819 108.077 2.801e-3 -6.388 0.844 -15.166
2960 0.579 56.52 1.867 102.379 2.726e-3 -8.06 0.842 -18.529
2995 0.577 52.779 1.921 97.694 2.646e-3 -8.014 0.839 -21.904
3030 0.574 49.077 2.02 95.506 2.641e-3 -9.197 0.834 -25.273
3065 0.572 45.392 2.126 88.782 2.66e-3 -13.47 0.831 -28.584
3100 0.571 41.789 2.207 83.567 2.744e-3 -14.9 0.828 -31.907
3135 0.568 38.26 2.274 79.889 2.84e-3 -14.056 0.824 -35.234
3170 0.566 34.735 2.392 76.58 2.58e-3 -15.794 0.817 -38.489
3205 0.564 31.329 2.448 70.358 2.534e-3 -22.402 0.81 -41.496
3240 0.562 27.992 2.489 64.385 2.639e-3 -28.582 0.803 -44.259
3275 0.559 24.703 2.567 62.632 2.898e-3 -27.678 0.801 -46.656
3310 0.557 21.459 2.72 57.098 2.686e-3 -36.661 0.808 -49.542
3345 0.554 18.298 2.831 51.859 2.448e-3 -40.102 0.815 -52.735
3380 0.551 15.24 2.868 47.949 2.291e-3 -33.63 0.819 -56.223
3415 0.548 12.15 2.967 44.459 2.479e-3 -26.388 0.818 -59.682
3450 0.544 9.113 3.09 38.417 2.665e-3 -27.988 0.818 -63.064
3485 0.54 6.107 3.211 31.553 2.787e-3 -33.866 0.817 -66.378
3520 0.535 3.062 3.23 30.186 2.578e-3 -28.353 0.815 -69.623
3555 0.53 0.047 3.417 25.907 2.453e-3 -33.17 0.813 -72.859
3590 0.525 -2.922 3.583 20.449 2.362e-3 -39.041 0.812 -76.049
3625 0.519 -5.811 3.575 14.685 2.278e-3 -39.176 0.811 -79.144
3660 0.512 -8.743 3.697 11.958 2.348e-3 -37.119 0.808 -82.268
3695 0.504 -11.712 3.883 6.797 2.313e-3 -40.143 0.807 -85.391
3730 0.496 -14.716 4.109 -1.238 2.15e-3 -48.362 0.805 -88.505
3765 0.487 -17.669 4.004 -3.26 2.223e-3 -39.568 0.804 -91.533
3800 0.477 -20.663 4.157 -6.975 2.295e-3 -39.89 0.802 -94.593
3835 0.468 -23.689 4.409 -12.234 2.276e-3 -44.814 0.801 -97.653
3870 0.456 -26.743 4.444 -19.586 1.895e-3 -46.404 0.8 -100.644
3905 0.444 -29.974 4.461 -22.348 2.126e-3 -46.52 0.797 -103.662
3940 0.432 -33.18 4.626 -25.942 2.32e-3 -48.458 0.794 -106.685
3975 0.419 -36.251 5.061 -33.315 2.144e-3 -54.377 0.792 -109.705
4010 0.404 -39.64 4.851 -37.257 2.342e-3 -53.768 0.789 -112.613
4045 0.389 -43.241 4.963 -40.839 2.449e-3 -53.333 0.785 -115.51
4080 0.375 -47.006 5.374 -44.769 2.435e-3 -54.081 0.78 -118.381
4115 0.357 -50.586 5.349 -53.363 2.317e-3 -60.841 0.775 -121.046
4150 0.339 -54.681 5.316 -56.369 2.408e-3 -61.473 0.773 -123.651
4185 0.322 -58.947 5.452 -58.443 2.49e-3 -60.043 0.772 -126.259
4220 0.305 -62.948 6.113 -66.076 2.232e-3 -61.562 0.771 -128.971
4255 0.284 -67.535 5.828 -71.056 2.012e-3 -56.951 0.771 -131.794
4290 0.265 -72.641 5.798 -74.542 1.876e-3 -55.212 0.769 -134.665
4325 0.248 -78.33 6.442 -76.644 1.854e-3 -59.647 0.766 -137.57
4360 0.23 -83.728 6.44 -87.221 2.038e-3 -62.176 0.764 -140.45
4395 0.211 -90.354 6.381 -91.54 2.129e-3 -59.042 0.761 -143.327
4430 0.193 -98 6.422 -92.019 2.129e-3 -52.941 0.756 -146.206
4465 0.18 -105.735 7.311 -100.141 2.031e-3 -55.975 0.753 -149.111
4500 0.166 -114.894 7.063 -106.05 1.967e-3 -52.905 0.748 -152.036
4535 0.154 -125.322 6.79 -110.307 1.937e-3 -49.329 0.743 -154.992
4570 0.148 -137.213 7.56 -112.706 1.959e-3 -50.468 0.738 -158.003
4605 0.146 -148.894 7.745 -122.032 2.058e-3 -51.694 0.733 -160.896
4640 0.146 -160.878 7.733 -127.747 2.222e-3 -49.884 0.727 -163.704
4675 0.15 -173.135 7.61 -127.971 2.437e-3 -44.487 0.721 -166.442
4710 0.159 176.856 8.515 -135.872 2.084e-3 -45.212 0.713 -169.748
4745 0.17 167.169 8.414 -142.495 2.05e-3 -45.791 0.706 -172.909
4780 0.182 158.074 7.963 -147.795 2.251e-3 -46.798 0.699 -176.021
4815 0.199 150.691 8.87 -150.906 2.581e-3 -50.14 0.692 -179.34
4850 0.214 144.171 9.099 -158.517 2.785e-3 -46.83 0.683 177.193
4885 0.23 138.178 9.075 -165.077 2.958e-3 -44.081 0.673 173.73
4920 0.248 132.672 8.974 -166.78 3.147e-3 -46.565 0.66 170.365
4955 0.266 128.134 9.756 -173.875 3.047e-3 -43.657 0.647 166.652
4990 0.283 123.617 9.927 178.642 3.26e-3 -44.067 0.634 162.893
5025 0.3 119.11 9.482 171.588 3.792e-3 -48.061 0.619 159.106
5060 0.318 115.574 10.211 168.793 3.954e-3 -48.045 0.602 155.178
5095 0.334 112.016 10.583 161.95 4.065e-3 -51.689 0.584 151.045
5130 0.348 108.487 10.666 154.094 4.188e-3 -56.404 0.565 146.799
5165 0.364 105.091 10.419 150.217 4.45e-3 -58.039 0.545 142.56
5200 0.378 101.994 10.992 143.339 4.628e-3 -60.879 0.522 137.927
5235 0.391 98.903 11.281 135.991 4.892e-3 -63.992 0.499 133.101
5270 0.403 95.706 10.791 129.051 5.325e-3 -67.073 0.476 128.121
5305 0.414 93.127 11.308 124.695 5.078e-3 -69.477 0.448 122.752
5340 0.423 90.41 11.555 117.988 5.328e-3 -72.028 0.42 117.033
5375 0.43 87.562 11.519 109.651 5.961e-3 -74.926 0.392 110.988
5410 0.441 84.79 11.345 104.824 6.093e-3 -79.304 0.362 104.69
5445 0.447 82.366 11.606 98.106 6.276e-3 -80.536 0.331 97.453
5480 0.452 79.956 11.834 90.839 6.496e-3 -81.687 0.301 89.532
5515 0.456 77.176 11.451 84.337 6.756e-3 -86.329 0.272 80.865
5550 0.46 75.031 11.644 78.164 6.792e-3 -89.952 0.243 70.618
5585 0.462 72.842 11.714 71.443 6.952e-3 -93.144 0.216 58.81
5620 0.46 70.449 11.485 63.924 7.33e-3 -96.014 0.193 45.164
5655 0.462 68.096 11.461 58.109 7.175e-3 -101.442 0.177 29.012
5690 0.46 66.161 11.415 51.159 7.175e-3 -103.252 0.169 11.377
5725 0.457 64.425 11.323 43.715 7.296e-3 -103.714 0.169 -7.036
5760 0.454 62.173 11.08 37.908 7.465e-3 -110.561 0.178 -23.997
5795 0.451 60.49 11.016 30.967 7.58e-3 -114.128 0.194 -39.362
5830 0.448 58.978 10.887 23.923 7.71e-3 -116.456 0.215 -52.958
5865 0.442 57.405 10.485 17.52 7.909e-3 -118.601 0.238 -64.181
5900 0.44 55.558 10.394 11.26 7.832e-3 -123.598 0.26 -73.626
5935 0.436 54.101 10.181 4.474 7.698e-3 -125.349 0.283 -82.015
5970 0.433 53.072 9.799 -2.782 7.556e-3 -123.57 0.305 -89.417
6005 0.428 51.256 9.577 -7.654 7.765e-3 -129.96 0.325 -95.184
6040 0.427 49.771 9.419 -13.925 7.808e-3 -132.448 0.345 -100.476
6075 0.426 48.485 9.242 -20.682 7.771e-3 -132.873 0.366 -105.277
6110 0.421 47.224 8.841 -26.128 7.805e-3 -134.241 0.389 -109.268
6145 0.419 45.281 8.753 -31.793 7.825e-3 -138.542 0.412 -113.398
6180 0.418 43.502 8.629 -38.175 7.866e-3 -142.821 0.435 -117.562
6215 0.418 42.352 8.293 -45.707 7.95e-3 -145.658 0.46 -121.724
6250 0.414 40.27 8.09 -50.448 8.539e-3 -147.509 0.482 -125.66
6285 0.413 38.173 7.935 -56.536 8.531e-3 -150.774 0.503 -129.75
6320 0.415 36.157 7.787 -63.836 7.991e-3 -154.95 0.523 -133.957
6355 0.412 34.567 7.369 -69.184 7.987e-3 -154.781 0.542 -137.9
6390 0.409 32.172 7.201 -74.945 8.378e-3 -157.242 0.558 -141.74
6425 0.408 29.562 7.076 -81.15 8.646e-3 -160.475 0.574 -145.552
6460 0.41 27.51 6.722 -88.08 7.97e-3 -162.219 0.588 -149.427
6495 0.407 24.892 6.504 -93.156 8.047e-3 -165.163 0.601 -153.055
6530 0.406 22.049 6.321 -98.687 8.275e-3 -168.171 0.612 -156.692
6565 0.408 19.054 6.15 -105.433 8.492e-3 -170.91 0.624 -160.418
6600 0.408 16.665 5.859 -110.751 8.322e-3 -172.693 0.634 -163.934
6635 0.407 13.561 5.658 -116.373 8.285e-3 -175.115 0.643 -167.422
6670 0.407 9.994 5.513 -122.27 8.38e-3 -177.553 0.651 -170.898
6705 0.411 7.149 5.276 -128.297 8.618e-3 -176.961 0.659 -174.43
6740 0.411 3.984 5.089 -133.878 8.627e-3 -179.569 0.667 -177.84
6775 0.41 0.517 4.918 -139.465 8.608e-3 176.758 0.673 178.746
6810 0.413 -3.344 4.738 -145.478 8.733e-3 173.514 0.679 175.206
6845 0.415 -6.69 4.567 -151.21 8.571e-3 171.429 0.685 171.731
6880 0.417 -10.261 4.394 -156.973 8.446e-3 169.275 0.69 168.247
6915 0.42 -14.184 4.215 -162.816 8.429e-3 166.853 0.695 164.736
6950 0.425 -17.689 4.071 -168.378 8.779e-3 165.086 0.7 161.118
6985 0.429 -21.224 3.919 -174.305 8.735e-3 161.363 0.706 157.565
7020 0.432 -24.856 3.758 179.676 8.534e-3 156.997 0.71 153.999
7055 0.438 -28.811 3.592 174.283 8.758e-3 155.321 0.712 150.195
7090 0.444 -32.361 3.466 168.247 8.976e-3 152.724 0.715 146.381
7125 0.45 -35.904 3.33 162.055 9.068e-3 150.106 0.717 142.551
7160 0.455 -39.675 3.15 155.949 8.92e-3 147.999 0.719 138.699
7195 0.464 -42.956 3.022 150.375 8.835e-3 144.801 0.721 134.635
7230 0.471 -46.268 2.894 144.285 8.815e-3 142.158 0.722 130.595
7265 0.478 -49.651 2.759 137.714 8.852e-3 140.203 0.722 126.566
7300 0.488 -52.953 2.604 132.21 8.866e-3 138.601 0.722 122.146
7335 0.497 -56.021 2.487 126.282 8.915e-3 136.463 0.723 117.773
7370 0.505 -59.068 2.377 119.986 8.933e-3 133.662 0.724 113.398
7405 0.514 -62.458 2.22 113.23 8.785e-3 129.612 0.722 108.936
7440 0.526 -65.362 2.097 107.448 8.636e-3 125.292 0.721 104.132
7475 0.538 -68.12 1.984 101.325 8.601e-3 122.257 0.72 99.328
7510 0.547 -70.834 1.876 94.294 8.748e-3 121.376 0.719 94.657
7545 0.56 -73.755 1.721 88.56 8.554e-3 120.122 0.717 89.548
7580 0.572 -76.269 1.607 82.618 8.485e-3 118.308 0.716 84.398
7615 0.583 -78.542 1.523 76.372 8.53e-3 115.688 0.716 79.219
7650 0.593 -81.572 1.387 69.486 8.554e-3 110.524 0.715 73.975
7685 0.607 -84.092 1.281 64.132 8.702e-3 108.671 0.714 68.264
7720 0.62 -86.39 1.189 58.632 8.741e-3 106.674 0.713 62.389
7755 0.629 -88.686 1.103 50.988 8.346e-3 100.495 0.712 56.629
7790 0.643 -91.44 0.983 45.642 8.491e-3 98.082 0.708 50.634
7825 0.656 -93.851 0.89 40.413 8.575e-3 95.051 0.705 44.525
7860 0.669 -95.722 0.838 34.811 8.452e-3 90.402 0.703 38.326
7895 0.678 -97.955 0.733 28.206 7.923e-3 90.895 0.7 32.292
7930 0.689 -100.357 0.652 23.111 7.691e-3 87.768 0.696 26.067
7965 0.7 -102.841 0.588 18.557 7.577e-3 82.162 0.692 19.756
8000 0.71 -105.154 0.52 11.339 7.002e-3 76.968 0.688 13.688
