!Hittite Microwave Corporation								
!20 Alpha Road								
!Chelmsford, MA 01824								
!Tel: 978-250-3343								
!Fax: 978-250-3373								
!Device: HMC486, 7-9 GHz, GaAS PHEMT MMIC 2 Watt Power Amplifier Die
!Misc: Vdd1,2,3,4,5 = +7 V, Idd = 1300 mA, Room							
!
# MHZ S MA R 50

1000 0.985 -47.395 0.013 -14.621 366e-6 -82.262 0.99 -19.02
1095 0.982 -51.59 0.043 -84.367 383.7e-6 -79.473 0.994 -20.1
1190 0.98 -55.824 0.073 -165.415 564.3e-6 -79.468 0.997 -22.079
1285 0.975 -60.076 0.073 130.483 477e-6 -89.144 0.998 -23.761
1380 0.971 -64.215 0.061 86.494 618.4e-6 -87.504 1.001 -25.753
1475 0.965 -68.252 0.05 56.692 637.5e-6 -81.498 0.998 -27.449
1570 0.958 -72.119 0.043 38.494 709e-6 -87.447 0.998 -29.122
1665 0.953 -75.826 0.039 25.034 711.9e-6 -91.756 0.999 -30.85
1760 0.947 -79.724 0.037 14.853 602.6e-6 -110.328 0.999 -32.818
1855 0.942 -83.538 0.037 5.717 605.6e-6 -115.452 0.995 -34.893
1950 0.935 -87.205 0.037 -1.862 662.3e-6 -107.668 0.992 -36.581
2045 0.927 -90.699 0.039 -9.76 585.9e-6 -96.408 0.995 -38.195
2140 0.921 -94.155 0.04 -17.014 779.4e-6 -98.192 0.999 -40.235
2235 0.914 -97.597 0.043 -23.486 688.2e-6 -91.522 0.997 -41.987
2330 0.906 -101.023 0.04 -33.67 671.2e-6 -92.365 1 -43.868
2425 0.898 -104.315 0.042 -39.405 716.8e-6 -87.221 1.002 -45.895
2520 0.889 -107.649 0.042 -45.333 758e-6 -80.913 0.997 -47.861
2615 0.88 -110.858 0.04 -50.042 826.4e-6 -85.151 0.996 -49.964
2710 0.873 -113.962 0.037 -53.31 713e-6 -79.842 0.997 -51.901
2805 0.863 -117.023 0.033 -53.704 799.2e-6 -85.807 1 -53.891
2900 0.853 -120.158 0.029 -49.182 994.4e-6 -77.978 1.004 -55.895
2995 0.842 -123.137 0.025 -35.632 1.006e-3 -75.741 1.004 -58.172
3090 0.83 -126.148 0.025 -7.064 1.048e-3 -77.459 0.996 -60.14
3185 0.817 -128.913 0.036 20.945 937.8e-6 -76.197 0.993 -62.284
3280 0.802 -131.72 0.062 32.482 1.052e-3 -79.994 0.986 -64.887
3375 0.787 -134.332 0.103 35.607 1.09e-3 -76.822 0.979 -67.033
3470 0.771 -136.991 0.169 33.525 1.07e-3 -82.5 0.979 -69.006
3565 0.752 -139.293 0.271 28.215 1.075e-3 -75.226 0.983 -71.262
3660 0.733 -141.362 0.435 19.268 1.163e-3 -80.041 0.981 -73.513
3755 0.716 -142.745 0.693 5.686 1.067e-3 -76.077 0.98 -75.669
3850 0.71 -143.661 1.06 -13.847 1.143e-3 -74.24 0.98 -78.214
3945 0.722 -144.996 1.457 -38.274 1.063e-3 -69.944 0.974 -80.874
4040 0.735 -148.073 1.729 -63.559 1.006e-3 -70.166 0.967 -83.392
4135 0.733 -152.099 1.848 -84.57 1.221e-3 -74.35 0.962 -85.949
4230 0.717 -155.837 1.911 -100.832 1.146e-3 -84.052 0.956 -88.635
4325 0.696 -159.258 1.994 -113.686 1.402e-3 -84.476 0.954 -91.371
4420 0.672 -162.218 2.121 -124.573 1.227e-3 -81.443 0.951 -94.474
4515 0.648 -165.102 2.295 -134.266 1.011e-3 -84.226 0.938 -97.641
4610 0.622 -167.641 2.508 -143.355 996.8e-6 -90.385 0.926 -100.435
4705 0.596 -170.062 2.794 -152.575 934.9e-6 -88.335 0.918 -103.67
4800 0.57 -172.101 3.143 -161.646 921.9e-6 -83.436 0.905 -107.343
4895 0.543 -173.9 3.578 -170.968 818.6e-6 -73.888 0.884 -110.921
4990 0.517 -175.667 4.096 179.548 935.4e-6 -61.675 0.865 -114.232
5085 0.492 -177.296 4.717 170.157 960e-6 -68.933 0.848 -117.854
5180 0.464 -178.678 5.473 159.981 917.9e-6 -70.769 0.82 -121.971
5275 0.438 -179.395 6.393 149.144 957.5e-6 -66.046 0.792 -125.608
5370 0.411 -179.643 7.503 137.27 1.048e-3 -51.46 0.763 -129.461
5465 0.387 -179.091 8.814 124.717 942.7e-6 -58.666 0.728 -133.831
5560 0.366 -178.41 10.323 111.535 1.127e-3 -52.398 0.681 -138.148
5655 0.346 -177.209 12.051 97.328 1.07e-3 -57.627 0.623 -141.72
5750 0.331 -175.755 13.916 81.995 1.161e-3 -51.88 0.562 -144.59
5845 0.32 -173.828 15.795 65.481 1.169e-3 -54.563 0.506 -146.226
5940 0.312 -170.919 17.668 48.428 1.034e-3 -49.158 0.451 -146.303
6035 0.307 -168.966 19.272 30.806 938.7e-6 -53.317 0.403 -144.045
6130 0.307 -167.076 20.511 12.978 871.2e-6 -48.78 0.378 -140.134
6225 0.307 -166.063 21.302 -4.598 1.016e-3 -42.247 0.371 -136.837
6320 0.309 -165.465 21.646 -21.607 1.053e-3 -30.116 0.374 -134.367
6415 0.311 -164.663 21.706 -37.848 946.5e-6 -31.928 0.38 -133.124
6510 0.31 -163.812 21.556 -53.307 1.003e-3 -26.466 0.384 -133.778
6605 0.308 -163.319 21.085 -68.173 1.087e-3 -12.905 0.381 -134.767
6700 0.304 -163.183 20.608 -82.358 1.251e-3 -15.374 0.378 -134.845
6795 0.301 -163.129 20.127 -95.892 1.423e-3 -16.247 0.378 -135.902
6890 0.301 -162.99 19.638 -108.84 1.492e-3 -8.362 0.374 -137.239
6985 0.302 -162.622 19.156 -120.992 1.535e-3 -7.313 0.369 -137.079
7080 0.303 -162.368 18.682 -132.84 1.673e-3 -9.967 0.371 -136.913
7175 0.298 -161.972 18.3 -144.485 1.838e-3 -11.074 0.374 -137.999
7270 0.293 -161.858 17.938 -155.953 1.93e-3 -5.293 0.372 -139.839
7365 0.29 -161.124 17.64 -166.895 2.037e-3 -9.05 0.376 -139.982
7460 0.288 -161.074 17.384 -177.496 2.08e-3 -9.738 0.387 -140.87
7555 0.289 -160.479 17.133 171.979 2.226e-3 -12.562 0.397 -143.731
7650 0.285 -160.059 17.027 161.213 2.284e-3 -12.838 0.401 -146.652
7745 0.28 -159.797 17.04 150.894 2.409e-3 -11.793 0.408 -148.147
7840 0.272 -159.359 17.175 140.772 2.456e-3 -10.34 0.428 -149.641
7935 0.264 -158.851 17.346 130.606 2.319e-3 -8.909 0.446 -153.9
8030 0.262 -157.438 17.494 120.184 2.402e-3 -11.988 0.451 -157.761
8125 0.261 -155.07 17.734 109.41 2.684e-3 -11.89 0.453 -161.252
8220 0.258 -152.926 18.107 98.528 2.795e-3 -13.205 0.466 -165.253
8315 0.249 -151.092 18.645 87.426 2.881e-3 -10.293 0.487 -170.577
8410 0.241 -149.007 19.163 76.077 2.896e-3 -9.629 0.505 -176.168
8505 0.24 -146.343 19.691 64.506 2.865e-3 -12.859 0.515 178.677
8600 0.245 -142.823 20.334 52.285 3.006e-3 -10.061 0.532 173.091
8695 0.251 -138.8 21.062 39.549 3.031e-3 -8.708 0.553 167.235
8790 0.257 -134.665 21.809 26.238 3.251e-3 -4.881 0.57 160.387
8885 0.264 -130.865 22.511 12.409 3.053e-3 -5.811 0.584 153.501
8980 0.275 -128.156 23.043 -2.126 3.1e-3 -7.108 0.602 146.065
9075 0.295 -126.946 23.458 -17.623 3.152e-3 -9.957 0.616 138.065
9170 0.318 -125.915 23.66 -33.883 3.489e-3 -10.87 0.633 129.436
9265 0.341 -124.741 23.546 -50.601 3.439e-3 -5.919 0.651 120.056
9360 0.366 -123.599 23.052 -67.803 3.515e-3 -7.48 0.663 110.646
9455 0.397 -123.477 22.115 -85.28 3.676e-3 -1.695 0.667 102.127
9550 0.42 -124.177 20.763 -102.653 3.435e-3 -1.506 0.665 93.629
9645 0.441 -125.555 19.147 -120.023 3.592e-3 -4.807 0.655 85.086
9740 0.459 -127.38 17.275 -137.158 3.622e-3 -3.051 0.639 76.19
9835 0.477 -128.164 15.484 -153.48 3.632e-3 -8.524 0.625 68.255
9930 0.5 -129.61 13.703 -169.164 3.772e-3 -10.226 0.613 60.587
10025 0.518 -130.56 12.009 176.014 3.905e-3 -11.385 0.597 53.635
10120 0.534 -131.823 10.458 161.807 3.973e-3 -7.434 0.584 47.974
10215 0.556 -133.043 9.081 147.92 4.116e-3 -7.252 0.572 42.631
10310 0.578 -134.613 7.862 134.534 4.184e-3 -8.539 0.562 37.281
10405 0.598 -136.403 6.776 121.584 4.124e-3 -6.819 0.55 31.893
10500 0.613 -137.54 5.854 109.352 3.994e-3 -9.422 0.537 26.993
10595 0.63 -138.644 5.025 97.343 4.228e-3 -11.424 0.527 23.327
10690 0.653 -139.983 4.297 85.764 4.481e-3 -12.48 0.526 19.66
10785 0.673 -141.856 3.674 74.582 4.59e-3 -13.893 0.527 15.796
10880 0.688 -143.936 3.142 63.813 4.32e-3 -10.538 0.521 11.96
10975 0.702 -145.646 2.695 53.303 4.508e-3 -9.093 0.509 9.394
11070 0.721 -147.103 2.305 43.419 4.74e-3 -10.227 0.503 7.739
11165 0.74 -148.54 1.964 33.867 4.808e-3 -9.761 0.507 5.575
11260 0.754 -150.713 1.679 24.399 4.561e-3 -9.584 0.512 2.499
11355 0.765 -152.797 1.434 15.011 4.641e-3 -7.677 0.511 -0.711
11450 0.776 -154.39 1.225 6.108 4.697e-3 -11.598 0.511 -3.101
11545 0.791 -155.814 1.05 -2.311 4.823e-3 -12.736 0.515 -5.017
11640 0.803 -157.333 0.896 -10.432 4.94e-3 -13.462 0.522 -6.831
11735 0.813 -159.537 0.766 -18.624 4.961e-3 -7.891 0.529 -8.366
11830 0.821 -161.37 0.657 -26.404 4.961e-3 -5.741 0.533 -10.163
11925 0.83 -162.891 0.566 -34.11 4.721e-3 -9.577 0.536 -12.14
12020 0.843 -164.332 0.487 -41.284 4.686e-3 -11.177 0.541 -14.216
12115 0.851 -166.064 0.418 -48.153 5.082e-3 -12.349 0.55 -16.644
12210 0.855 -168.04 0.359 -55.231 5.321e-3 -11.985 0.56 -19.112
12305 0.859 -169.521 0.31 -62.131 4.924e-3 -14.219 0.57 -21.32
12400 0.867 -170.884 0.268 -68.476 4.803e-3 -16.546 0.579 -22.779
12495 0.877 -172.457 0.232 -74.75 4.685e-3 -17.94 0.589 -23.909
12590 0.883 -174.094 0.2 -80.683 5.033e-3 -20.713 0.598 -25.802
12685 0.888 -175.779 0.173 -86.662 5.007e-3 -19.732 0.605 -27.744
12780 0.89 -177.2 0.15 -92.824 4.823e-3 -17.724 0.607 -29.495
12875 0.897 -178.737 0.13 -98.673 4.602e-3 -20.093 0.616 -31.457
12970 0.906 179.487 0.114 -104.13 4.563e-3 -29.89 0.625 -33.592
13065 0.906 177.8 0.099 -109.278 4.643e-3 -32.088 0.632 -35.92
13160 0.905 176.269 0.086 -114.552 4.631e-3 -32.652 0.636 -37.595
13255 0.907 175.232 0.075 -120.471 4.254e-3 -32.501 0.647 -38.643
13350 0.916 174.041 0.065 -125.14 4.445e-3 -32.69 0.661 -40.086
13445 0.921 172.386 0.057 -130.413 3.849e-3 -33.863 0.665 -41.86
13540 0.92 170.559 0.05 -134.906 3.89e-3 -38.106 0.662 -43.701
13635 0.916 169.309 0.043 -141.793 3.29e-3 -42.083 0.663 -44.975
13730 0.92 168.288 0.038 -146.092 3.207e-3 -41.382 0.672 -46.493
13825 0.927 167.011 0.033 -150.837 2.784e-3 -34.177 0.684 -48.877
13920 0.932 165.483 0.029 -156.265 2.604e-3 -38.335 0.689 -51.157
14015 0.931 164.057 0.024 -161.583 2.796e-3 -28.123 0.689 -52.531
14110 0.929 163.054 0.021 -168.841 2.508e-3 -25.809 0.7 -53.095
14205 0.932 162 0.019 -175.735 2.031e-3 -8.121 0.717 -54.371
14300 0.941 160.815 0.017 178.176 1.885e-3 -4.139 0.721 -56.639
14395 0.944 159.292 0.015 171.498 1.616e-3 2.775 0.713 -58.147
14490 0.941 158.008 0.013 164.422 1.663e-3 11.721 0.717 -59.121
14585 0.938 157.038 0.011 157.13 2.019e-3 21.369 0.733 -60.938
14680 0.941 156.079 0.01 152.451 1.576e-3 4.016 0.742 -63.648
14775 0.945 155.016 9.182e-3 146.599 1.357e-3 16.197 0.743 -65.666
14870 0.949 153.837 8.435e-3 135.874 1.858e-3 38.354 0.742 -66.555
14965 0.952 152.662 8.106e-3 130.31 1.606e-3 33.194 0.755 -66.979
15060 0.953 151.657 7.838e-3 120.714 2.013e-3 56.751 0.766 -68.252
15155 0.955 150.153 7.44e-3 116.965 2.006e-3 66.843 0.767 -70.04
15250 0.955 149.048 7.449e-3 110.556 1.974e-3 72.015 0.764 -71.417
15345 0.956 147.883 6.424e-3 113.092 2.082e-3 70.685 0.763 -72.772
15440 0.956 146.991 5.714e-3 106.017 2.054e-3 75.255 0.767 -74.168
15535 0.957 145.904 5.575e-3 96.885 2.128e-3 70.931 0.777 -75.622
15630 0.962 144.628 4.942e-3 99.105 2.369e-3 72.17 0.788 -77.165
15725 0.966 143.217 7.048e-3 74.261 2.629e-3 74.025 0.79 -78.673
15820 0.964 142.272 7.472e-3 85.504 3.084e-3 82.888 0.79 -79.574
15915 0.961 141.261 8.407e-3 98.086 3.518e-3 97.077 0.793 -80.484
16010 0.961 140.201 9.23e-3 113.198 3.37e-3 99.299 0.799 -81.862
16105 0.966 138.979 2.56e-3 100.57 3.783e-3 95.366 0.804 -83.532
16200 0.968 137.445 7.359e-3 91.426 4.113e-3 83.417 0.807 -85.575
16295 0.966 136.06 8.058e-3 -96.785 4.693e-3 74.49 0.806 -87.314
16390 0.967 135.684 0.014 -7.917 5.376e-3 80.224 0.807 -88.578
16485 0.968 134.699 0.018 62.42 6.049e-3 82.576 0.816 -89.334
16580 0.972 133.654 7.802e-3 97.349 5.71e-3 82.433 0.832 -90.453
16675 0.972 132.307 7.099e-3 76.416 6.122e-3 80.761 0.841 -92.374
16770 0.969 130.951 7.549e-3 72.818 6.147e-3 74.859 0.839 -94.428
16865 0.966 130.01 7.779e-3 72.648 6.967e-3 75.331 0.83 -95.676
16960 0.967 129.644 7.446e-3 71.434 6.763e-3 75.417 0.83 -96.685
17055 0.972 128.942 6.917e-3 69.553 6.395e-3 71.654 0.842 -98.156
17150 0.976 127.719 7.039e-3 70.109 6.794e-3 73.184 0.855 -100.384
17245 0.972 126.57 7.587e-3 71.947 6.858e-3 74.708 0.857 -102.562
17340 0.97 125.87 7.638e-3 72.767 7.439e-3 77.37 0.855 -103.183
17435 0.97 125.371 7.935e-3 78.896 7.297e-3 83.916 0.86 -103.493
17530 0.975 124.707 7.874e-3 84.147 7.489e-3 85.766 0.875 -104.199
17625 0.979 123.528 7.473e-3 83.144 6.663e-3 84.918 0.882 -106.315
17720 0.977 122.574 8.393e-3 81.394 7.381e-3 83.213 0.872 -108.362
17815 0.973 121.869 8.667e-3 77.428 8.626e-3 79.132 0.858 -108.8
17910 0.972 121.341 9.668e-3 80.066 9.522e-3 77.984 0.871 -108.409
18005 0.98 120.812 9.934e-3 79.92 9.604e-3 81.855 0.906 -109.979
18100 0.986 119.9 9.507e-3 81.248 9.479e-3 83.276 0.915 -113.507
18195 0.989 118.57 9.591e-3 77.083 8.895e-3 78.877 0.899 -115.262
18290 0.983 117.424 9.723e-3 75.108 9.481e-3 75.881 0.901 -115.311
18385 0.98 116.553 0.01 76.324 9.557e-3 76.112 0.928 -115.748
18480 0.982 116.077 0.011 77.348 0.01 78.109 0.941 -117.848
18575 0.987 115.571 0.011 75.574 0.011 76.218 0.928 -120.433
18670 0.993 114.52 0.01 75.432 0.01 75.452 0.909 -122.05
18765 0.995 112.985 0.01 74.62 0.01 72.477 0.919 -123.465
18860 0.99 111.984 0.012 72.504 0.011 74.667 0.948 -125.278
18955 0.992 111.364 0.013 75.824 0.012 74.924 0.966 -127.781
19050 0.996 110.868 0.013 75.277 0.012 74.495 0.949 -129.047
19145 1.002 109.857 0.013 71.002 0.012 71.885 0.937 -129.413
19240 1.001 108.326 0.013 69.686 0.013 69.945 0.954 -131.001
19335 0.993 106.812 0.014 66.181 0.013 67.487 0.966 -134.724
19430 0.987 106.411 0.014 64.911 0.014 67 0.944 -137.629
19525 0.989 106.371 0.014 65.532 0.014 65.543 0.921 -136.917
19620 0.995 105.686 0.015 62.484 0.014 64.26 0.943 -136.836
19715 1.002 104.158 0.015 59.955 0.014 61.85 0.963 -140.534
19810 0.998 102.579 0.015 61.851 0.015 61.529 0.945 -144.673
19905 0.99 102.265 0.014 64.268 0.014 63.41 0.912 -144.437
20000 0.982 102.369 0.014 61.108 0.014 62.823 0.921 -142.183
