!Hittite Microwave Corporation								
!12 Elizabeth Drive								
!Chelmsford, MA 01824								
!Tel: 978-250-3343								
!Fax: 978-250-3373								
!Device: HMC436MS8G, 4.9-5.9 GHz GaAs MMIC DPDT Diversity Switch in 8-lead Grounded Base surface Mount Plastic Package								
!Misc:  Port 1 = ANT1, Port 2 = ANT2, Port 3 = Tx, Port 4 = Rx, Vctl=+3V, State 4 selected, Room							
!
# MHZ S MA R 50

4000 0.784 -4.195 0.283 0.06 0.123 -39.425 0.272 -3.669
          0.3 -4.672 0.244 69.86 0.112 -62.568 0.788 53.159
          0.118 -43.199 0.107 -66.569 0.781 -6.894 0.281 -3.968
          0.288 -8.641 0.801 51.996 0.297 -8.916 0.265 67.521
4015 0.784 -4.811 0.286 -0.762 0.119 -43.24 0.276 -4.511
          0.284 -6.265 0.239 69.319 0.109 -66.413 0.803 52.532
          0.111 -44.819 0.101 -68.096 0.782 -7.6 0.284 -4.845
          0.273 -10.094 0.804 51.264 0.281 -10.366 0.261 67.306
4030 0.785 -5.395 0.286 -1.898 0.112 -45.708 0.276 -5.7
          0.269 -6.011 0.234 68.75 0.102 -68.985 0.811 51.516
          0.104 -44.58 0.095 -67.731 0.782 -8.318 0.284 -6.164
          0.259 -9.748 0.801 50.682 0.267 -10.089 0.258 67.163
4045 0.786 -5.988 0.282 -3.039 0.103 -46.001 0.272 -6.833
          0.26 -4.474 0.23 68.194 0.094 -69.501 0.809 50.499
          0.1 -42.942 0.091 -66.26 0.782 -8.961 0.28 -7.398
          0.25 -8.13 0.795 50.412 0.257 -8.583 0.254 66.976
4060 0.787 -6.612 0.277 -3.826 0.096 -43.977 0.266 -7.589
          0.256 -2.511 0.226 67.584 0.088 -67.78 0.8 49.827
          0.097 -40.815 0.089 -64.454 0.783 -9.6 0.274 -8.231
          0.246 -6.118 0.789 50.495 0.254 -6.677 0.25 66.748
4075 0.787 -7.271 0.27 -4.015 0.092 -40.331 0.259 -7.739
          0.258 -1.024 0.222 66.865 0.084 -64.438 0.786 49.751
          0.097 -39.188 0.089 -63.09 0.784 -10.313 0.266 -8.484
          0.248 -4.589 0.786 50.853 0.256 -5.234 0.246 66.49
4090 0.789 -7.956 0.264 -3.631 0.092 -36.724 0.254 -7.143
          0.262 -0.721 0.217 66.131 0.085 -61.099 0.775 50.382
          0.097 -38.755 0.09 -62.961 0.786 -11.04 0.26 -8.036
          0.253 -4.063 0.788 51.291 0.259 -4.846 0.243 66.118
4105 0.789 -8.539 0.261 -2.869 0.096 -34.978 0.251 -6.213
          0.263 -1.409 0.213 65.319 0.088 -59.612 0.775 51.459
          0.097 -39.314 0.09 -63.737 0.787 -11.656 0.257 -7.184
          0.254 -4.637 0.793 51.426 0.26 -5.641 0.239 65.952
4120 0.791 -9.17 0.261 -2.288 0.1 -35.327 0.251 -5.459
          0.261 -1.912 0.208 64.558 0.092 -60.48 0.782 52.336
          0.095 -39.428 0.088 -64.525 0.787 -12.272 0.257 -6.503
          0.251 -5.244 0.796 51.362 0.257 -6.187 0.235 65.667
4135 0.792 -9.809 0.263 -2.177 0.102 -37.524 0.252 -5.163
          0.256 -1.706 0.204 63.837 0.094 -63.064 0.795 52.752
          0.093 -38.828 0.085 -64.515 0.788 -12.938 0.258 -6.333
          0.247 -4.954 0.797 51.249 0.253 -5.947 0.231 65.477
4150 0.793 -10.437 0.264 -2.567 0.101 -40.477 0.254 -5.433
          0.254 -0.728 0.2 63.103 0.093 -66.385 0.808 52.649
          0.091 -37.58 0.083 -63.651 0.79 -13.602 0.259 -6.727
          0.244 -3.798 0.795 51.297 0.25 -4.982 0.227 65.314
4165 0.795 -11.059 0.263 -3.305 0.097 -42.821 0.254 -6.155
          0.256 0.641 0.195 62.318 0.089 -69.252 0.818 52.123
          0.091 -36.088 0.083 -62.421 0.792 -14.221 0.259 -7.516
          0.246 -2.365 0.792 51.647 0.252 -3.777 0.224 65.081
4180 0.797 -11.706 0.261 -4.13 0.091 -43.506 0.252 -6.951
          0.263 1.576 0.191 61.509 0.083 -70.359 0.82 51.378
          0.093 -35.107 0.085 -61.633 0.793 -14.893 0.256 -8.38
          0.254 -1.392 0.793 52.242 0.259 -3.078 0.22 64.914
4195 0.798 -12.282 0.256 -4.593 0.087 -41.85 0.248 -7.443
          0.274 0.362 0.187 60.567 0.079 -69.058 0.816 50.983
          0.096 -35.811 0.087 -62.78 0.795 -15.605 0.251 -8.941
          0.264 -2.382 0.802 52.751 0.269 -4.212 0.217 64.673
4210 0.799 -12.845 0.252 -4.621 0.085 -39.79 0.243 -7.422
          0.281 -2.333 0.183 59.762 0.076 -67.037 0.81 51.005
          0.098 -38.32 0.089 -65.707 0.796 -16.249 0.246 -9.078
          0.271 -5.03 0.814 52.918 0.275 -7.03 0.213 64.516
4225 0.801 -13.392 0.249 -4.468 0.085 -38.301 0.24 -7.116
          0.279 -5.979 0.178 58.868 0.076 -65.691 0.807 51.321
          0.097 -41.859 0.087 -69.455 0.799 -16.933 0.243 -8.912
          0.269 -8.617 0.827 52.571 0.272 -10.666 0.21 64.238
4240 0.803 -13.944 0.247 -4.271 0.086 -37.992 0.238 -6.741
          0.268 -9.282 0.174 57.965 0.077 -65.598 0.808 51.765
          0.092 -45.043 0.082 -72.764 0.8 -17.606 0.241 -8.628
          0.258 -11.834 0.835 51.911 0.259 -13.846 0.206 63.999
4255 0.804 -14.511 0.246 -4.16 0.087 -38.977 0.237 -6.509
          0.249 -10.887 0.17 57.168 0.078 -66.755 0.815 52.117
          0.084 -46.427 0.075 -74.353 0.8 -18.219 0.239 -8.459
          0.24 -13.34 0.836 51.189 0.241 -15.278 0.202 63.923
4270 0.805 -15.049 0.246 -4.368 0.086 -40.755 0.237 -6.649
          0.23 -10.083 0.166 56.351 0.077 -68.865 0.824 52.077
          0.077 -45.052 0.069 -73.193 0.802 -18.879 0.239 -8.666
          0.222 -12.317 0.831 50.377 0.222 -14.049 0.199 63.692
4285 0.806 -15.525 0.244 -4.941 0.083 -42.259 0.236 -7.094
          0.22 -6.598 0.162 55.604 0.074 -70.619 0.829 51.689
          0.073 -41.45 0.066 -70.13 0.803 -19.526 0.237 -9.154
          0.212 -8.928 0.82 50.283 0.213 -10.793 0.195 63.615
4300 0.807 -16.064 0.242 -5.429 0.079 -42.328 0.233 -7.5
          0.22 -3.297 0.158 54.671 0.071 -71.267 0.831 51.29
          0.073 -37.953 0.065 -66.695 0.804 -20.116 0.234 -9.658
          0.212 -5.403 0.813 50.649 0.213 -7.398 0.192 63.508
4315 0.809 -16.636 0.238 -5.76 0.075 -41.229 0.23 -7.781
          0.226 -1.161 0.154 53.706 0.068 -70.771 0.829 51.007
          0.074 -35.634 0.066 -64.786 0.805 -20.72 0.231 -10.006
          0.218 -3.13 0.81 51.295 0.22 -5.298 0.188 63.362
4330 0.81 -17.201 0.235 -5.87 0.074 -39.696 0.227 -7.826
          0.236 -0.795 0.15 52.726 0.066 -69.708 0.826 50.975
          0.076 -35.026 0.068 -64.824 0.805 -21.332 0.227 -10.115
          0.227 -2.683 0.813 51.897 0.229 -5.03 0.184 63.234
4345 0.811 -17.743 0.232 -5.802 0.073 -38.533 0.224 -7.623
          0.244 -2.242 0.146 51.732 0.065 -68.954 0.825 51.208
          0.078 -36.102 0.07 -66.414 0.806 -21.926 0.224 -10.027
          0.235 -3.969 0.822 52.203 0.236 -6.482 0.181 63.161
4360 0.813 -18.305 0.231 -5.814 0.073 -38.211 0.222 -7.377
          0.246 -4.788 0.142 50.824 0.065 -69.387 0.827 51.487
          0.078 -38.242 0.07 -69.029 0.807 -22.518 0.222 -9.926
          0.237 -6.381 0.831 52.256 0.237 -9.127 0.177 63.074
4375 0.815 -18.926 0.229 -6.045 0.073 -39.397 0.221 -7.437
          0.239 -7.115 0.138 49.533 0.064 -70.774 0.833 51.49
          0.075 -40.059 0.066 -71.217 0.808 -23.085 0.221 -10.142
          0.231 -8.48 0.838 51.834 0.231 -11.295 0.174 63.01
4390 0.816 -19.519 0.227 -6.429 0.07 -40.166 0.219 -7.703
          0.23 -8.037 0.134 48.369 0.061 -71.97 0.837 51.207
          0.072 -40.539 0.063 -72.312 0.809 -23.656 0.219 -10.545
          0.222 -9.294 0.839 51.433 0.221 -12.156 0.17 62.853
4405 0.818 -20.143 0.224 -6.865 0.067 -39.845 0.217 -8.134
          0.222 -7.647 0.131 47.217 0.058 -71.93 0.838 50.783
          0.069 -39.847 0.06 -72.042 0.81 -24.207 0.216 -11.087
          0.214 -8.866 0.838 51.213 0.214 -11.778 0.167 62.717
4420 0.82 -20.776 0.22 -7.129 0.064 -38.092 0.214 -8.49
          0.217 -6.701 0.127 45.952 0.055 -70.381 0.834 50.448
          0.067 -38.828 0.058 -71.117 0.813 -24.799 0.212 -11.6
          0.21 -7.843 0.837 51.187 0.209 -10.894 0.164 62.571
4435 0.821 -21.382 0.216 -7.066 0.062 -35.125 0.209 -8.506
          0.216 -6.078 0.124 44.551 0.054 -67.637 0.826 50.423
          0.066 -38.195 0.058 -70.467 0.816 -25.443 0.208 -11.832
          0.209 -7.049 0.837 51.28 0.209 -10.344 0.161 62.344
4450 0.822 -21.99 0.212 -6.806 0.063 -31.963 0.205 -8.082
          0.217 -6.245 0.121 43.177 0.054 -64.42 0.818 50.839
          0.066 -37.729 0.056 -70.477 0.817 -25.963 0.203 -11.504
          0.21 -7.081 0.839 51.387 0.208 -10.511 0.158 62.01
4465 0.824 -22.545 0.211 -6.276 0.066 -30.59 0.202 -7.368
          0.215 -7.181 0.118 41.611 0.056 -62.87 0.817 51.662
          0.065 -38.711 0.055 -71.539 0.819 -26.555 0.2 -10.856
          0.208 -7.828 0.842 51.344 0.206 -11.343 0.155 61.889
4480 0.826 -23.125 0.21 -5.98 0.069 -31.327 0.201 -6.637
          0.209 -7.65 0.114 39.955 0.059 -63.878 0.823 52.505
          0.062 -38.668 0.053 -71.544 0.821 -27.132 0.198 -10.199
          0.202 -8.187 0.843 51.134 0.2 -11.771 0.152 61.604
4495 0.828 -23.664 0.21 -6.064 0.071 -34.414 0.201 -6.185
          0.202 -7.066 0.111 38.358 0.062 -67.216 0.836 53.043
          0.059 -37.667 0.051 -70.719 0.822 -27.693 0.198 -9.864
          0.196 -7.439 0.842 50.983 0.193 -11.108 0.148 61.332
4510 0.829 -24.177 0.21 -6.511 0.071 -38.921 0.201 -6.146
          0.198 -5.462 0.109 36.766 0.062 -72.003 0.851 53.119
          0.058 -35.611 0.05 -69.11 0.823 -28.224 0.198 -9.964
          0.191 -5.603 0.839 51.034 0.189 -9.413 0.145 61.078
4525 0.831 -24.684 0.209 -7.219 0.068 -43.396 0.201 -6.5
          0.198 -3.371 0.106 35.113 0.059 -77.012 0.865 52.702
          0.057 -32.877 0.05 -67.009 0.825 -28.735 0.198 -10.488
          0.191 -3.266 0.837 51.317 0.19 -7.3 0.142 60.842
4540 0.833 -25.133 0.206 -8.067 0.062 -46.51 0.2 -7.078
          0.205 -1.707 0.104 33.521 0.054 -80.954 0.876 51.852
          0.059 -30.972 0.051 -65.394 0.827 -29.296 0.197 -11.4
          0.197 -1.402 0.837 51.727 0.195 -5.752 0.14 60.767
4555 0.834 -25.651 0.203 -8.762 0.056 -45.792 0.198 -7.771
          0.215 -2.273 0.101 31.971 0.048 -81.527 0.876 50.921
          0.061 -31 0.052 -66.437 0.829 -29.719 0.194 -12.294
          0.208 -1.745 0.845 52.112 0.205 -6.547 0.137 60.607
4570 0.836 -26.131 0.198 -9.168 0.051 -43.298 0.194 -8.225
          0.224 -5.052 0.099 30.357 0.044 -79.87 0.871 50.25
          0.063 -33.502 0.054 -69.596 0.83 -30.212 0.19 -12.88
          0.217 -4.354 0.854 52.322 0.213 -9.419 0.134 60.532
4585 0.837 -26.574 0.194 -9.302 0.049 -40.049 0.19 -8.421
          0.226 -9.471 0.097 28.72 0.042 -77.322 0.863 49.903
          0.063 -37.556 0.054 -74.207 0.832 -30.684 0.186 -13.191
          0.219 -8.574 0.865 52.067 0.213 -13.734 0.132 60.435
4600 0.838 -26.998 0.19 -9.25 0.048 -37.075 0.186 -8.354
          0.217 -14.152 0.095 27.141 0.04 -74.791 0.857 49.84
          0.06 -41.746 0.051 -78.973 0.833 -31.138 0.182 -13.259
          0.211 -13.043 0.873 51.441 0.204 -18.248 0.13 60.378
4615 0.84 -27.433 0.187 -9.128 0.047 -35.034 0.183 -8.11
          0.199 -17.391 0.093 25.613 0.04 -72.971 0.853 49.946
          0.055 -44.45 0.046 -82.242 0.835 -31.597 0.178 -13.179
          0.194 -16.077 0.875 50.684 0.187 -21.336 0.127 60.405
4630 0.841 -27.909 0.185 -9.036 0.047 -33.836 0.18 -7.947
          0.178 -17.645 0.091 23.919 0.039 -72.41 0.852 50.053
          0.048 -44.128 0.041 -82.21 0.836 -32.041 0.175 -13.162
          0.173 -16.062 0.87 49.95 0.167 -21.225 0.125 60.341
4645 0.844 -28.409 0.182 -9.155 0.046 -32.231 0.178 -7.877
          0.164 -13.934 0.09 22.444 0.038 -71.044 0.85 50.019
          0.044 -39.651 0.037 -79.071 0.838 -32.459 0.172 -13.261
          0.16 -12.192 0.86 49.784 0.154 -17.445 0.124 60.348
4660 0.846 -28.957 0.179 -9.169 0.045 -30.103 0.175 -7.734
          0.16 -9.415 0.088 20.78 0.037 -69.588 0.846 50.054
          0.043 -34.66 0.036 -74.832 0.839 -32.892 0.169 -13.34
          0.156 -7.631 0.852 49.907 0.15 -12.798 0.122 60.157
4675 0.846 -29.49 0.176 -8.995 0.045 -27.756 0.172 -7.45
          0.162 -5.838 0.087 19.078 0.037 -68.212 0.841 50.288
          0.043 -30.473 0.036 -71.302 0.841 -33.311 0.165 -13.222
          0.158 -3.813 0.848 50.383 0.153 -9.255 0.12 60.014
4690 0.847 -29.997 0.174 -8.722 0.046 -25.608 0.168 -6.97
          0.169 -4.1 0.085 17.245 0.038 -67.033 0.838 50.759
          0.044 -28.257 0.037 -69.545 0.843 -33.726 0.162 -12.844
          0.165 -1.743 0.849 50.922 0.159 -7.583 0.118 59.874
4705 0.848 -30.496 0.172 -8.497 0.048 -24.418 0.166 -6.307
          0.176 -4.397 0.084 15.253 0.039 -66.508 0.838 51.418
          0.046 -28.378 0.038 -69.882 0.845 -34.154 0.159 -12.277
          0.172 -1.8 0.854 51.231 0.165 -7.843 0.116 59.611
4720 0.85 -31.003 0.171 -8.398 0.051 -25.498 0.164 -5.591
          0.18 -6.369 0.083 13.337 0.041 -67.843 0.844 52.123
          0.047 -29.728 0.038 -71.947 0.847 -34.592 0.157 -11.735
          0.176 -3.532 0.86 51.352 0.169 -9.866 0.114 59.239
4735 0.852 -31.548 0.17 -8.624 0.052 -29.153 0.164 -4.978
          0.177 -8.623 0.082 11.337 0.042 -71.966 0.856 52.526
          0.045 -31.343 0.037 -74.178 0.848 -34.961 0.157 -11.317
          0.173 -5.535 0.865 51.114 0.166 -11.96 0.112 58.864
4750 0.853 -32.064 0.169 -9.107 0.051 -34.143 0.163 -4.784
          0.171 -9.726 0.081 9.345 0.042 -77.596 0.871 52.488
          0.043 -31.798 0.035 -75.908 0.85 -35.459 0.156 -11.366
          0.167 -6.387 0.867 50.909 0.16 -12.984 0.11 58.507
4765 0.855 -32.581 0.167 -9.748 0.048 -38.883 0.163 -4.942
          0.166 -9.66 0.08 7.382 0.039 -83.175 0.883 52.026
          0.041 -31.054 0.034 -76.331 0.853 -35.918 0.155 -11.799
          0.162 -5.966 0.867 50.758 0.154 -12.82 0.108 58.233
4780 0.857 -33.083 0.164 -10.384 0.043 -41.129 0.162 -5.367
          0.162 -8.843 0.079 5.473 0.035 -86.898 0.89 51.265
          0.04 -29.424 0.033 -75.888 0.854 -36.329 0.154 -12.488
          0.159 -4.777 0.867 50.747 0.151 -11.9 0.106 58.015
4795 0.859 -33.546 0.16 -10.849 0.038 -39.487 0.159 -5.887
          0.162 -8.029 0.078 3.697 0.031 -87.516 0.891 50.408
          0.04 -27.762 0.032 -75.424 0.855 -36.732 0.151 -13.248
          0.159 -3.659 0.867 50.881 0.151 -11.05 0.104 57.812
4810 0.861 -33.985 0.156 -11.044 0.034 -34.946 0.156 -6.174
          0.164 -8.202 0.077 2.194 0.028 -84.952 0.884 49.706
          0.04 -27.655 0.032 -75.314 0.858 -37.118 0.147 -13.84
          0.162 -3.495 0.871 50.928 0.153 -11.349 0.102 57.602
4825 0.863 -34.402 0.153 -10.948 0.034 -30.042 0.152 -6.158
          0.164 -9.91 0.076 0.512 0.026 -80.727 0.874 49.546
          0.04 -28.374 0.031 -78.02 0.859 -37.5 0.143 -14.048
          0.162 -5.004 0.874 50.908 0.153 -12.942 0.101 57.288
4840 0.865 -34.77 0.149 -10.631 0.034 -26.27 0.149 -5.738
          0.161 -11.96 0.076 -1.006 0.026 -77.682 0.867 49.785
          0.039 -29.893 0.03 -80.163 0.861 -37.906 0.139 -13.804
          0.159 -6.793 0.878 50.687 0.149 -14.833 0.1 56.858
4855 0.866 -35.149 0.147 -10.401 0.035 -24.68 0.146 -5.164
          0.155 -13.526 0.076 -2.388 0.026 -76.67 0.865 50.143
          0.037 -30.58 0.029 -82.053 0.863 -38.267 0.136 -13.433
          0.153 -7.996 0.878 50.466 0.143 -16.226 0.099 56.407
4870 0.868 -35.53 0.145 -10.341 0.035 -25.038 0.144 -4.564
          0.147 -13.9 0.076 -3.79 0.026 -77.608 0.868 50.46
          0.035 -30.089 0.027 -82.919 0.865 -38.628 0.134 -13.095
          0.146 -7.977 0.877 50.309 0.136 -16.483 0.098 55.925
4885 0.87 -35.891 0.143 -10.432 0.035 -26.329 0.142 -4.063
          0.14 -12.869 0.076 -5.307 0.026 -79.724 0.873 50.612
          0.034 -28.555 0.025 -82.251 0.868 -39.008 0.132 -12.881
          0.14 -6.591 0.876 50.23 0.13 -15.421 0.096 55.401
4900 0.872 -36.255 0.141 -10.674 0.034 -27.246 0.141 -3.904
          0.137 -11.076 0.075 -6.81 0.025 -81.927 0.877 50.418
          0.033 -25.776 0.024 -81.211 0.868 -39.254 0.13 -12.921
          0.137 -4.444 0.874 50.278 0.127 -13.609 0.095 54.943
4915 0.873 -36.6 0.138 -10.749 0.032 -26.736 0.138 -3.9
          0.138 -10.226 0.075 -8.04 0.023 -82.784 0.878 50.108
          0.033 -24.834 0.024 -80.145 0.87 -39.66 0.128 -13.124
          0.138 -3.354 0.875 50.435 0.128 -12.695 0.094 54.667
4930 0.874 -36.959 0.135 -10.856 0.03 -24.528 0.136 -3.743
          0.139 -10.862 0.074 -9.152 0.021 -82.018 0.875 49.919
          0.032 -25.019 0.023 -81.439 0.872 -39.913 0.125 -13.274
          0.139 -3.642 0.879 50.412 0.129 -13.236 0.092 54.326
4945 0.875 -37.338 0.132 -10.77 0.03 -21.823 0.133 -3.442
          0.138 -12.632 0.074 -10.164 0.021 -80.397 0.872 49.934
          0.032 -25.885 0.022 -83.856 0.873 -40.202 0.122 -13.268
          0.138 -5.046 0.882 50.308 0.127 -14.901 0.091 53.912
4960 0.876 -37.734 0.13 -10.612 0.03 -19.635 0.13 -2.988
          0.133 -14.586 0.073 -11.117 0.02 -79.243 0.87 50.111
          0.031 -26.822 0.021 -86.362 0.875 -40.512 0.12 -13.082
          0.134 -6.58 0.883 50.103 0.122 -16.696 0.09 53.483
4975 0.877 -38.138 0.128 -10.56 0.03 -18.614 0.128 -2.382
          0.125 -15.516 0.073 -12.103 0.02 -79.447 0.87 50.354
          0.029 -26.92 0.019 -88.076 0.876 -40.791 0.117 -12.784
          0.125 -7.012 0.882 49.814 0.115 -17.409 0.089 53.094
4990 0.879 -38.541 0.126 -10.551 0.03 -18.883 0.126 -1.669
          0.116 -14.294 0.073 -13.319 0.02 -80.218 0.873 50.585
          0.026 -24.842 0.017 -88.168 0.879 -41.126 0.115 -12.542
          0.117 -5.345 0.878 49.654 0.106 -16.057 0.088 52.612
5005 0.88 -39.033 0.124 -10.773 0.03 -19.918 0.125 -1.239
          0.111 -10.568 0.072 -14.221 0.019 -81.817 0.878 50.592
          0.025 -20.271 0.016 -84.636 0.88 -41.509 0.113 -12.396
          0.112 -1.147 0.874 49.737 0.102 -12.067 0.086 52.137
5020 0.881 -39.451 0.121 -11.057 0.029 -20.945 0.123 -0.924
          0.111 -7.08 0.072 -15.215 0.018 -84.375 0.882 50.439
          0.025 -15.631 0.016 -81.594 0.882 -41.875 0.111 -12.476
          0.113 2.87 0.873 49.993 0.103 -8.436 0.085 51.595
5035 0.883 -39.9 0.119 -11.262 0.027 -20.447 0.121 -0.658
          0.115 -4.848 0.071 -16.246 0.017 -86.326 0.884 50.259
          0.026 -12.597 0.016 -79.766 0.884 -42.215 0.109 -12.594
          0.118 5.544 0.875 50.33 0.106 -6.205 0.084 51.14
5050 0.885 -40.365 0.116 -11.365 0.026 -18.751 0.119 -0.345
          0.121 -4.578 0.071 -17.323 0.016 -87.245 0.884 50.129
          0.027 -11.466 0.016 -79.547 0.886 -42.543 0.107 -12.672
          0.124 6.244 0.879 50.594 0.111 -5.903 0.082 50.656
5065 0.886 -40.798 0.114 -11.399 0.026 -16.97 0.117 0.075
          0.126 -6.625 0.071 -18.388 0.016 -87.574 0.882 50.106
          0.028 -12.102 0.016 -81.199 0.887 -42.867 0.104 -12.652
          0.13 4.818 0.886 50.655 0.116 -7.755 0.081 50.064
5080 0.888 -41.219 0.111 -11.393 0.026 -15.936 0.115 0.562
          0.129 -10.952 0.07 -19.186 0.015 -88.733 0.882 50.24
          0.028 -14.88 0.016 -85.049 0.887 -43.169 0.102 -12.413
          0.133 1.531 0.892 50.48 0.118 -11.9 0.079 49.631
5095 0.889 -41.629 0.109 -11.543 0.025 -16.556 0.113 1.246
          0.124 -15.455 0.07 -20.246 0.014 -91.154 0.886 50.299
          0.027 -19.13 0.016 -90.403 0.889 -43.516 0.099 -12.212
          0.129 -2.961 0.894 50.08 0.113 -16.662 0.078 48.851
5110 0.891 -42.025 0.107 -11.759 0.025 -17.844 0.111 1.773
          0.114 -18.591 0.069 -21.316 0.014 -93.104 0.891 50.256
          0.025 -20.866 0.014 -94.302 0.89 -43.843 0.098 -12.063
          0.119 -5.515 0.895 49.632 0.104 -19.459 0.076 48.378
5125 0.892 -42.39 0.104 -11.976 0.023 -19.182 0.109 2.132
          0.104 -18.961 0.069 -22.189 0.012 -95.828 0.895 50.063
          0.022 -20.145 0.013 -96.111 0.892 -44.174 0.096 -12.091
          0.109 -5.303 0.892 49.402 0.095 -19.664 0.075 47.838
5140 0.894 -42.735 0.101 -12.175 0.021 -18.887 0.108 2.373
          0.096 -17.014 0.068 -22.911 0.011 -97.782 0.897 49.728
          0.021 -17.432 0.011 -96.087 0.893 -44.494 0.094 -12.343
          0.101 -2.78 0.888 49.371 0.088 -17.671 0.073 47.236
5155 0.896 -43.08 0.099 -12.312 0.019 -15.786 0.105 2.595
          0.092 -14.154 0.068 -23.617 9.99e-3 -97.666 0.896 49.326
          0.02 -13.547 0.01 -95.215 0.894 -44.778 0.092 -12.749
