!Hittite Microwave Corporation								
!12 Elizabeth Drive								
!Chelmsford, MA 01824								
!Tel: 978-250-3343								
!Fax: 978-250-3373							
!Device: HMC435MS8G, DC-4 GHz, GaAs MESFET SPDT switch in 8-lead Grounded Base surface Mount Plastic Package									
!Misc: Vctl=0/+5V, Port1 = RFC, Port 2 = RF1, Port 3 = RF2, RF2 selected							
!
# MHZ S MA R 50

30 0.048 -28.922 814.2e-6 53.397 0.929 1.057
          813.3e-6 48.605 0.888 -25.076 813e-6 60.596
          0.929 0.955 885.9e-6 58.868 0.059 -25.395
59.85 0.045 -21.483 894.3e-6 -52.328 0.93 0.305
          919.9e-6 -52.212 0.707 -41.941 619.7e-6 -41.098
          0.93 0.333 554.1e-6 -45.761 0.056 -17.286
89.7 0.045 -18.502 424.5e-6 -42.69 0.93 -0.014
          375.1e-6 -46.808 0.56 -52.109 247.5e-6 -2.999
          0.93 6.141e-3 263e-6 0.698 0.055 -13.85
119.55 0.045 -18.305 329.8e-6 -43.39 0.931 -0.199
          392e-6 -42.676 0.455 -58.172 289.2e-6 5.661
          0.929 -0.247 316.1e-6 -0.126 0.056 -12.607
149.4 0.045 -19.911 389e-6 -29.183 0.929 -0.35
          370e-6 -29.641 0.378 -61.777 208.6e-6 44.009
          0.928 -0.381 225.4e-6 41.839 0.056 -13.335
179.25 0.046 -21.971 311.7e-6 -32.259 0.928 -0.48
          309.1e-6 -30.792 0.322 -64.097 318.9e-6 63.888
          0.928 -0.538 292.9e-6 53.675 0.057 -13.962
209.1 0.046 -23.869 294.6e-6 -25.188 0.926 -0.548
          358.3e-6 -31.84 0.28 -65.401 372.2e-6 73.333
          0.927 -0.58 408.7e-6 64.812 0.058 -14.952
238.95 0.047 -26.414 343.9e-6 -40.576 0.925 -0.61
          341.8e-6 -33.847 0.247 -65.996 482.5e-6 76.266
          0.927 -0.659 443.2e-6 80.204 0.059 -16.348
268.8 0.048 -28.819 295e-6 -34.811 0.926 -0.601
          328.5e-6 -34.464 0.222 -66.139 588.2e-6 84.791
          0.926 -0.724 539.9e-6 84.929 0.06 -17.588
298.65 0.048 -30.946 297.8e-6 -37.158 0.927 -0.69
          298.2e-6 -40.614 0.2 -65.904 647.4e-6 89.323
          0.927 -0.766 627.8e-6 86.682 0.061 -18.851
328.5 0.049 -33.075 318.4e-6 -39.399 0.929 -0.845
          260.2e-6 -39.43 0.183 -65.426 747.5e-6 89.865
          0.927 -0.87 716e-6 88.134 0.062 -19.974
358.35 0.05 -35.194 273.8e-6 -41.06 0.928 -0.932
          279.6e-6 -37.849 0.168 -64.573 794.6e-6 89.641
          0.926 -0.952 800.7e-6 88.432 0.063 -20.925
388.2 0.05 -37.517 284e-6 -40.939 0.925 -1.077
          266.9e-6 -49.698 0.156 -63.713 907.9e-6 89.743
          0.926 -1.053 905e-6 90.748 0.064 -21.957
418.05 0.05 -39.611 291e-6 -56.547 0.925 -1.067
          259.5e-6 -45.618 0.146 -62.556 949.3e-6 94.412
          0.924 -1.072 952e-6 93.567 0.066 -23.062
447.9 0.051 -41.741 255.6e-6 -58.568 0.925 -1.062
          217e-6 -53.21 0.136 -61.286 1.058e-3 97.436
          0.923 -1.046 1.033e-3 94.495 0.067 -23.79
477.75 0.051 -43.785 279.7e-6 -64.154 0.924 -1.038
          232.7e-6 -63.18 0.128 -59.744 1.095e-3 98.134
          0.924 -1.043 1.128e-3 96.202 0.068 -24.622
507.6 0.051 -46.063 298.1e-6 -67.279 0.926 -1.075
          248.2e-6 -71.883 0.122 -58.329 1.21e-3 99.179
          0.925 -1.135 1.158e-3 100.09 0.069 -25.552
537.45 0.051 -48.145 271.4e-6 -82.077 0.927 -1.16
          231.7e-6 -80.939 0.116 -56.776 1.234e-3 100.025
          0.925 -1.23 1.266e-3 101.078 0.07 -26.124
567.3 0.051 -50.218 263.1e-6 -85.708 0.925 -1.282
          275.1e-6 -85.883 0.11 -54.958 1.287e-3 103.017
          0.924 -1.393 1.299e-3 100.757 0.071 -26.869
597.15 0.051 -52.136 241e-6 -92.384 0.924 -1.361
          229.5e-6 -88.434 0.106 -53.1 1.392e-3 103.953
          0.924 -1.441 1.394e-3 103.626 0.072 -27.645
627 0.052 -53.906 309.5e-6 -93.494 0.924 -1.391
          267.1e-6 -97.468 0.102 -51.151 1.47e-3 104.003
          0.923 -1.484 1.464e-3 104.029 0.074 -28.046
656.85 0.052 -55.594 311.8e-6 -95.349 0.924 -1.382
          287.8e-6 -91.977 0.099 -49.029 1.558e-3 106.508
          0.923 -1.489 1.548e-3 106.155 0.075 -28.459
686.7 0.052 -57.027 323.7e-6 -101.199 0.923 -1.45
          342.4e-6 -99.298 0.096 -46.925 1.667e-3 107.541
          0.922 -1.498 1.664e-3 108.079 0.076 -28.588
716.55 0.052 -58.341 372.9e-6 -109.147 0.923 -1.466
          370.9e-6 -102.172 0.093 -44.611 1.726e-3 108.908
          0.922 -1.504 1.718e-3 109.484 0.077 -28.769
746.4 0.051 -59.407 350.2e-6 -114.801 0.922 -1.45
          397.4e-6 -113.104 0.091 -42.257 1.792e-3 109.104
          0.922 -1.55 1.809e-3 110.445 0.078 -28.885
776.25 0.051 -60.77 413.9e-6 -122.799 0.923 -1.399
          385.6e-6 -122.209 0.089 -39.938 1.902e-3 110.742
          0.923 -1.549 1.891e-3 110.349 0.079 -28.858
806.1 0.05 -62.033 437.2e-6 -119.985 0.925 -1.497
          412.9e-6 -119.702 0.088 -37.579 1.978e-3 111.406
          0.923 -1.642 1.97e-3 111.079 0.08 -28.726
835.95 0.05 -63.219 438.4e-6 -125.166 0.925 -1.654
          423.1e-6 -124.133 0.086 -35.171 2.025e-3 113.737
          0.922 -1.765 1.999e-3 113.242 0.081 -28.546
865.8 0.049 -64.429 493.5e-6 -129.843 0.922 -1.787
          489.6e-6 -127.962 0.085 -32.809 2.114e-3 114.319
          0.922 -1.894 2.095e-3 114.464 0.082 -28.305
895.65 0.049 -65.527 514.7e-6 -130.582 0.919 -1.941
          559e-6 -133.046 0.085 -30.517 2.207e-3 114.636
          0.921 -1.847 2.202e-3 115.473 0.083 -28.138
925.5 0.048 -66.392 568.9e-6 -133.673 0.918 -1.833
          593.1e-6 -133.835 0.085 -28.097 2.305e-3 116.217
          0.92 -1.855 2.298e-3 116.645 0.084 -27.957
955.35 0.048 -67.274 601.6e-6 -137.528 0.919 -1.74
          598.2e-6 -136.631 0.084 -25.717 2.399e-3 118.691
          0.921 -1.836 2.389e-3 117.696 0.085 -27.819
985.2 0.048 -67.849 652.8e-6 -138.139 0.922 -1.709
          634.9e-6 -138.473 0.085 -23.384 2.478e-3 119.955
          0.921 -1.846 2.479e-3 118.842 0.086 -27.5
1015.05 0.047 -68.027 707.1e-6 -140.63 0.921 -1.821
          688e-6 -141.32 0.085 -21.05 2.56e-3 120.273
          0.922 -1.967 2.556e-3 119.915 0.087 -26.979
1044.9 0.046 -68.008 720.3e-6 -143.43 0.922 -1.971
          694.3e-6 -144.076 0.086 -18.723 2.676e-3 121.344
          0.921 -2.065 2.645e-3 120.871 0.087 -26.397
1074.75 0.045 -67.876 743.4e-6 -144.528 0.922 -2.16
          749.6e-6 -143.844 0.086 -16.409 2.768e-3 122.195
          0.921 -2.146 2.756e-3 121.699 0.088 -25.684
1104.6 0.044 -67.64 814.7e-6 -145.789 0.921 -2.207
          815.7e-6 -144.464 0.087 -14.167 2.846e-3 123.144
          0.92 -2.198 2.861e-3 122.845 0.089 -24.961
1134.45 0.043 -67.624 882.9e-6 -145.312 0.919 -2.198
          850.4e-6 -145.238 0.088 -12.058 2.935e-3 123.969
          0.919 -2.23 2.96e-3 124.298 0.09 -24.313
1164.3 0.042 -67.784 914.5e-6 -144.886 0.918 -2.23
          909.3e-6 -145.118 0.089 -9.996 3.021e-3 124.953
          0.918 -2.276 3.063e-3 124.354 0.09 -23.631
1194.15 0.04 -67.952 949e-6 -145.629 0.917 -2.282
          965.7e-6 -144.999 0.09 -7.951 3.126e-3 126.45
          0.918 -2.326 3.14e-3 124.51 0.091 -22.913
1224 0.04 -68.168 998.2e-6 -146.136 0.917 -2.249
          1.008e-3 -145.729 0.092 -6.039 3.21e-3 127.256
          0.918 -2.295 3.222e-3 125.878 0.092 -22.259
1253.85 0.039 -68.264 1.079e-3 -145.048 0.918 -2.181
          1.087e-3 -146.676 0.093 -4.206 3.301e-3 128.097
          0.918 -2.272 3.338e-3 127.603 0.093 -21.627
1283.7 0.039 -68.054 1.142e-3 -146.723 0.92 -2.223
          1.159e-3 -146.822 0.095 -2.465 3.451e-3 128.55
          0.92 -2.314 3.46e-3 129.271 0.093 -20.848
1313.55 0.038 -67.381 1.205e-3 -147.366 0.922 -2.35
          1.216e-3 -147.346 0.096 -0.724 3.59e-3 129.493
          0.921 -2.437 3.585e-3 130.145 0.094 -19.958
1343.4 0.037 -65.953 1.261e-3 -147.484 0.922 -2.509
          1.276e-3 -147.714 0.098 1.034 3.666e-3 130.741
          0.92 -2.642 3.673e-3 130.956 0.094 -18.879
1373.25 0.036 -63.962 1.318e-3 -149.296 0.919 -2.709
          1.323e-3 -148.427 0.1 2.667 3.747e-3 131.526
          0.917 -2.754 3.771e-3 131.856 0.095 -17.734
1403.1 0.035 -61.932 1.381e-3 -149.721 0.915 -2.794
          1.37e-3 -148.693 0.102 4.25 3.877e-3 132.264
          0.915 -2.728 3.887e-3 132.492 0.096 -16.672
1432.95 0.034 -60.421 1.461e-3 -149.546 0.914 -2.677
          1.415e-3 -149.47 0.104 5.804 3.993e-3 132.872
          0.915 -2.655 3.998e-3 132.999 0.096 -15.721
1462.8 0.033 -59.491 1.53e-3 -149.423 0.915 -2.539
          1.483e-3 -149.909 0.106 7.327 4.108e-3 133.91
          0.916 -2.636 4.116e-3 133.809 0.096 -14.752
1492.65 0.032 -58.771 1.562e-3 -150.434 0.917 -2.576
          1.578e-3 -149.096 0.108 8.752 4.22e-3 134.824
          0.918 -2.715 4.204e-3 134.987 0.096 -13.7
1522.5 0.03 -58.099 1.623e-3 -150.405 0.918 -2.754
          1.663e-3 -149.263 0.111 10.112 4.345e-3 135.239
          0.918 -2.869 4.311e-3 135.539 0.096 -12.586
1552.35 0.029 -57.754 1.717e-3 -150.296 0.918 -2.922
          1.714e-3 -151.056 0.113 11.407 4.468e-3 136.014
          0.916 -3.013 4.453e-3 135.854 0.096 -11.477
1582.2 0.029 -57.923 1.767e-3 -150.975 0.918 -3.012
          1.771e-3 -152.508 0.115 12.611 4.564e-3 136.702
          0.915 -3.111 4.602e-3 136.704 0.096 -10.368
1612.05 0.028 -58.02 1.812e-3 -150.951 0.915 -3.032
          1.858e-3 -152.153 0.117 13.839 4.681e-3 137.767
          0.915 -3.186 4.718e-3 137.765 0.097 -9.21
1641.9 0.027 -57.355 1.918e-3 -151.868 0.912 -3.096
          1.937e-3 -151.811 0.12 14.994 4.825e-3 138.769
          0.913 -3.171 4.817e-3 138.547 0.098 -8.165
1671.75 0.026 -55.407 2.002e-3 -152.853 0.909 -3.12
          1.986e-3 -152.345 0.123 16.095 4.956e-3 139.222
          0.911 -3.164 4.93e-3 139.084 0.099 -7.222
1701.6 0.025 -52.544 2.051e-3 -153.973 0.907 -2.964
          2.042e-3 -152.936 0.125 17.183 5.047e-3 140.073
          0.911 -3.155 5.023e-3 139.942 0.1 -6.434
1731.45 0.024 -49.194 2.125e-3 -154.03 0.908 -2.807
          2.139e-3 -153.8 0.128 18.205 5.164e-3 140.774
          0.913 -3.05 5.147e-3 140.748 0.1 -5.753
1761.3 0.022 -44.961 2.194e-3 -153.759 0.913 -2.762
          2.195e-3 -154.61 0.13 19.272 5.324e-3 141.988
          0.914 -3.055 5.307e-3 141.369 0.099 -4.833
1791.15 0.02 -39.745 2.25e-3 -153.811 0.919 -2.98
          2.268e-3 -153.669 0.133 20.357 5.489e-3 142.773
          0.916 -3.227 5.477e-3 142.131 0.098 -3.629
1821 0.019 -34.208 2.326e-3 -153.528 0.919 -3.423
          2.357e-3 -153.476 0.135 21.385 5.606e-3 142.57
          0.916 -3.446 5.59e-3 142.829 0.097 -2.34
1850.85 0.018 -30.128 2.398e-3 -153.878 0.916 -3.769
          2.392e-3 -153.997 0.138 22.402 5.699e-3 143.148
          0.914 -3.543 5.711e-3 143.387 0.097 -1.236
1880.7 0.017 -28.433 2.447e-3 -154.249 0.912 -3.809
          2.45e-3 -154.179 0.14 23.349 5.79e-3 144.022
          0.913 -3.531 5.85e-3 143.829 0.096 -0.329
1910.55 0.016 -28.923 2.483e-3 -153.933 0.909 -3.448
          2.515e-3 -154.885 0.143 24.236 5.894e-3 144.519
          0.913 -3.498 5.999e-3 144.37 0.095 0.575
1940.4 0.015 -28.987 2.554e-3 -154.632 0.912 -3.311
          2.599e-3 -154.155 0.146 25.056 6.026e-3 145.512
          0.915 -3.551 6.094e-3 145.321 0.093 1.703
1970.25 0.014 -27.857 2.637e-3 -154.034 0.917 -3.329
          2.676e-3 -154.036 0.148 25.85 6.183e-3 146.159
          0.915 -3.607 6.237e-3 145.953 0.092 3.106
2000.1 0.014 -24.423 2.728e-3 -153.023 0.918 -3.466
          2.741e-3 -154.033 0.151 26.623 6.385e-3 146.964
          0.914 -3.749 6.398e-3 146.79 0.091 4.756
2029.95 0.013 -19.607 2.836e-3 -152.314 0.916 -3.649
          2.812e-3 -153.392 0.153 27.407 6.557e-3 147.529
          0.912 -3.779 6.536e-3 147.209 0.09 6.439
2059.8 0.013 -12.235 2.912e-3 -152.488 0.916 -3.777
          2.861e-3 -153.252 0.156 28.22 6.667e-3 148.169
          0.913 -3.86 6.624e-3 147.403 0.089 8.338
2089.65 0.012 -2.05 2.957e-3 -153.06 0.915 -3.904
          2.96e-3 -152.512 0.159 29.022 6.794e-3 148.78
          0.915 -3.986 6.801e-3 148.063 0.087 10.515
2119.5 0.011 10.344 3.075e-3 -152.659 0.915 -4.083
          3.068e-3 -153.333 0.161 29.85 6.946e-3 149.06
          0.917 -4.229 6.95e-3 148.842 0.086 13.008
2149.35 0.011 22.45 3.111e-3 -152.294 0.912 -4.218
          3.109e-3 -153.648 0.164 30.637 7.089e-3 149.58
          0.916 -4.468 7.138e-3 149.31 0.084 15.387
2179.2 0.011 33.408 3.202e-3 -151.908 0.91 -4.222
          3.205e-3 -153.897 0.166 31.411 7.238e-3 150.18
          0.913 -4.539 7.283e-3 149.676 0.083 17.675
2209.05 0.01 47.137 3.291e-3 -151.932 0.911 -4.195
          3.249e-3 -152.735 0.169 32.112 7.324e-3 150.509
          0.91 -4.501 7.357e-3 149.945 0.081 19.99
2238.9 9.982e-3 63 3.339e-3 -151.296 0.913 -4.233
          3.341e-3 -151.717 0.171 32.754 7.47e-3 151.283
          0.911 -4.331 7.485e-3 150.726 0.079 22.619
2268.75 0.01 78.432 3.493e-3 -150.109 0.914 -4.355
          3.43e-3 -150.492 0.174 33.376 7.647e-3 151.582
          0.911 -4.262 7.662e-3 150.823 0.077 25.261
2298.6 0.012 91.224 3.757e-3 -150.481 0.914 -4.544
          3.744e-3 -150.249 0.176 34.026 7.779e-3 150.791
          0.913 -4.428 7.764e-3 150.665 0.076 27.732
2328.45 0.015 97.959 3.859e-3 -152.624 0.914 -4.702
          3.885e-3 -153.18 0.179 34.663 7.752e-3 151.083
          0.916 -4.677 7.764e-3 151.552 0.074 30.91
2358.3 0.018 99.461 3.877e-3 -154.062 0.915 -4.83
          3.866e-3 -154.817 0.181 35.329 7.799e-3 152.351
          0.917 -4.992 7.846e-3 152.506 0.074 35.036
2388.15 0.021 100.318 3.903e-3 -154.255 0.913 -4.951
          3.902e-3 -155.144 0.183 35.918 7.907e-3 153.839
          0.915 -5.266 7.964e-3 153.418 0.073 38.895
2418 0.024 101.511 4.002e-3 -154.068 0.914 -5.138
          3.953e-3 -154.978 0.186 36.511 8.063e-3 154.684
          0.912 -5.563 8.124e-3 154.401 0.074 43.109
2447.85 0.027 103.047 4.077e-3 -154.486 0.914 -5.384
          3.995e-3 -155.326 0.189 37.115 8.231e-3 155.485
          0.908 -5.667 8.307e-3 155.258 0.074 47.236
2477.7 0.031 106.202 4.101e-3 -155.103 0.911 -5.498
          4.038e-3 -154.341 0.191 37.702 8.398e-3 156.026
          0.904 -5.559 8.438e-3 155.675 0.074 51.376
2507.55 0.034 109.476 4.15e-3 -154.859 0.909 -5.585
          4.106e-3 -154.025 0.193 38.27 8.55e-3 156.641
          0.904 -5.338 8.575e-3 156.039 0.074 55.733
2537.4 0.039 112.613 4.075e-3 -155.091 0.91 -5.544
          4.136e-3 -153.267 0.195 38.846 8.74e-3 157.662
          0.91 -5.14 8.648e-3 156.667 0.075 60.649
2567.25 0.044 113.912 4.188e-3 -153.767 0.913 -5.591
          4.229e-3 -152.578 0.198 39.391 8.933e-3 158.255
          0.92 -5.381 8.813e-3 158.181 0.077 65.454
2597.1 0.048 114.371 4.24e-3 -152.746 0.917 -5.756
          4.373e-3 -153.2 0.2 40.007 9.14e-3 158.823
          0.924 -5.896 9.019e-3 159.281 0.08 69.519
2626.95 0.051 113.291 4.338e-3 -151.827 0.918 -6.227
          4.461e-3 -153.422 0.202 40.611 9.313e-3 158.792
          0.922 -6.755 9.357e-3 159.575 0.084 72.517
2656.8 0.053 113.154 4.49e-3 -152.201 0.912 -6.579
          4.416e-3 -153.493 0.203 41.146 9.398e-3 159.067
          0.91 -7.141 9.608e-3 159.27 0.086 75.052
2686.65 0.056 114.319 4.522e-3 -152.726 0.908 -6.628
          4.364e-3 -152.792 0.206 41.57 9.506e-3 159.568
          0.899 -7.005 9.704e-3 159.064 0.088 78.125
2716.5 0.06 115.539 4.619e-3 -152.759 0.904 -6.589
          4.435e-3 -152.124 0.208 42.028 9.638e-3 160.133
          0.896 -6.488 9.727e-3 158.472 0.092 81.697
2746.35 0.065 115.932 4.589e-3 -152.255 0.904 -6.675
          4.565e-3 -150.853 0.21 42.534 9.778e-3 161.006
          0.901 -6.191 9.734e-3 159.724 0.096 85.067
2776.2 0.071 115.531 4.639e-3 -151.626 0.907 -6.964
          4.625e-3 -151.016 0.212 42.895 9.952e-3 161.07
          0.907 -6.581 9.828e-3 160.735 0.102 87.882
2806.05 0.076 115.157 4.647e-3 -151.306 0.907 -7.072
          4.706e-3 -151.488 0.214 43.332 0.01 162.011
          0.91 -7.15 0.01 161.816 0.107 90.256
2835.9 0.081 114.702 4.712e-3 -150.481 0.905 -7.368
          4.717e-3 -151.218 0.215 43.861 0.01 162.277
          0.907 -7.56 0.01 162.316 0.113 92.277
2865.75 0.085 115.199 4.764e-3 -149.675 0.905 -7.62
          4.827e-3 -150.455 0.217 44.266 0.01 162.85
          0.904 -7.843 0.01 162.764 0.118 94.268
2895.6 0.09 115.38 4.894e-3 -148.686 0.904 -7.873
          4.892e-3 -150.205 0.219 44.797 0.011 163.175
          0.904 -7.946 0.011 163.18 0.123 96.209
2925.45 0.093 115.296 4.976e-3 -148.459 0.899 -8.141
          4.968e-3 -149.688 0.221 45.271 0.011 163.597
          0.901 -8.311 0.011 163.783 0.128 97.565
2955.3 0.096 115.57 5.145e-3 -149.066 0.894 -8.261
          4.963e-3 -149.858 0.223 45.72 0.011 164.278
          0.895 -8.462 0.011 163.99 0.133 98.987
2985.15 0.1 115.589 5.134e-3 -150.129 0.893 -8.149
          4.973e-3 -148.485 0.224 46.052 0.011 165.507
          0.888 -8.426 0.011 164.033 0.138 100.476
3015 0.105 114.644 5.013e-3 -150.312 0.894 -8.328
          4.956e-3 -147.453 0.226 46.619 0.011 165.948
          0.887 -8.159 0.011 164.927 0.145 101.788
3044.85 0.11 114.012 5.022e-3 -148.724 0.894 -8.469
          5.12e-3 -148.045 0.227 47.131 0.011 166.66
          0.892 -8.102 0.011 165.776 0.152 102.836
3074.7 0.114 112.602 5.04e-3 -147.426 0.892 -8.768
          5.193e-3 -147.482 0.229 47.515 0.011 166.561
          0.898 -8.623 0.011 167.037 0.159 103.449
3104.55 0.117 111.7 5.138e-3 -145.793 0.885 -9.151
          5.187e-3 -147.424 0.231 48.104 0.011 167.271
          0.893 -9.291 0.012 167.861 0.165 103.963
3134.4 0.121 111.305 5.253e-3 -144.81 0.879 -9.308
          5.11e-3 -146.46 0.232 48.456 0.011 167.863
          0.882 -9.698 0.012 168.046 0.17 104.643
3164.25 0.126 111.464 5.266e-3 -144.78 0.876 -9.101
          5.101e-3 -144.364 0.234 48.96 0.012 168.809
          0.871 -9.378 0.012 168.091 0.176 105.697
3194.1 0.13 111.428 5.24e-3 -144.666 0.875 -9.162
          5.127e-3 -143.445 0.235 49.339 0.012 169.802
          0.87 -8.964 0.012 168.06 0.182 106.463
3223.95 0.133 111.153 5.226e-3 -143.78 0.876 -9.157
          5.225e-3 -141.692 0.237 49.687 0.012 170.715
          0.874 -8.686 0.012 169.131 0.189 106.909
3253.8 0.135 110.687 5.203e-3 -141.075 0.874 -9.518
          5.331e-3 -141.296 0.239 50.153 0.012 170.786
          0.879 -9.074 0.012 170.64 0.195 106.903
3283.65 0.136 110.757 5.237e-3 -139.584 0.868 -9.498
          5.345e-3 -139.897 0.242 50.391 0.012 171.512
          0.876 -9.72 0.012 172.087 0.199 106.846
3313.5 0.136 110.904 5.41e-3 -137.361 0.867 -9.491
          5.395e-3 -138.396 0.243 50.495 0.012 172.48
          0.869 -9.961 0.012 172.59 0.204 106.866
3343.35 0.138 111.104 5.496e-3 -136.335 0.866 -9.526
          5.402e-3 -136.253 0.246 50.712 0.012 173.166
          0.864 -9.706 0.013 172.749 0.209 106.958
3373.2 0.14 111.224 5.572e-3 -135.64 0.866 -9.573
          5.57e-3 -134.792 0.247 50.838 0.013 173.992
          0.863 -9.424 0.013 173.221 0.213 107.026
3403.05 0.142 111.296 5.626e-3 -134.5 0.863 -9.707
          5.726e-3 -133.81 0.249 50.976 0.013 174.56
          0.866 -9.5 0.013 174.47 0.218 106.979
3432.9 0.145 111.587 5.768e-3 -133.018 0.861 -9.626
          5.769e-3 -132.994 0.25 51.023 0.013 175.49
          0.866 -9.888 0.013 175.237 0.222 107.005
3462.75 0.149 112.158 5.942e-3 -131.436 0.861 -9.523
          5.847e-3 -131.179 0.251 51.145 0.013 176.415
          0.862 -10.143 0.013 176.001 0.226 107.238
3492.6 0.152 112.947 5.972e-3 -130.794 0.864 -9.625
          5.912e-3 -129.444 0.252 51.162 0.013 177.335
          0.855 -10.011 0.013 176.15 0.229 107.516
3522.45 0.157 113.825 6.035e-3 -129.72 0.867 -9.982
          6.045e-3 -127.594 0.253 51.251 0.014 177.665
          0.855 -9.658 0.013 176.573 0.233 107.772
3552.3 0.16 114.554 6.042e-3 -127.666 0.865 -10.58
          6.214e-3 -126.287 0.253 51.218 0.014 177.939
          0.863 -9.548 0.013 177.66 0.236 107.845
3582.15 0.163 115.275 6.176e-3 -125.391 0.857 -10.907
          6.391e-3 -125.643 0.254 51.141 0.014 178.707
          0.872 -10.272 0.014 179.556 0.238 107.722
3612 0.165 116.357 6.398e-3 -122.945 0.851 -10.745
