!Hittite Microwave Corporation								
!20 Alpha Road								
!Chelmsford, MA 01824								
!Tel: 978-250-3343								
!Fax: 978-250-3373								
!Device: HMC478ST89, DC-4 GHz, SiGe HBT Gain Block MMIC Amplifier in SOT89 Package.															
!Misc: +5V, Room							
!
# MHZ S MA R 50

50 0.13 110.543 16.119 140.865 0.047 -34.345 0.064 80.828
99.75 0.04 56.712 16.324 153.737 0.05 -18.733 0.078 -12.931
149.5 0.047 24.115 16.289 154.865 0.05 -13.821 0.1 -23.348
199.25 0.058 16.611 16.187 153.157 0.05 -11.57 0.109 -30.407
249 0.068 14.588 16.056 150.162 0.05 -10.791 0.115 -37.394
298.75 0.075 9.681 15.959 146.759 0.05 -10.041 0.121 -43.775
348.5 0.083 5.252 15.824 143.102 0.049 -10.085 0.124 -50.12
398.25 0.092 1.959 15.743 139.159 0.05 -9.957 0.131 -56.36
448 0.1 -1.477 15.544 135.276 0.05 -10.404 0.136 -62.248
497.75 0.106 -6.253 15.368 131.473 0.05 -10.778 0.141 -68.445
547.5 0.114 -11.188 15.206 127.136 0.05 -10.628 0.145 -74.112
597.25 0.119 -14.805 14.95 122.855 0.05 -11.474 0.149 -79.705
647 0.125 -19.166 14.842 119.186 0.05 -11.477 0.156 -86.195
696.75 0.131 -23.959 14.626 114.789 0.05 -11.666 0.16 -91.828
746.5 0.136 -29.933 14.275 111.078 0.05 -12.153 0.166 -97.2
796.25 0.138 -34.772 14.182 107.05 0.05 -12.593 0.171 -102.418
846 0.145 -39.267 13.826 102.463 0.05 -12.715 0.175 -108.007
895.75 0.15 -44.849 13.625 98.969 0.051 -13.272 0.182 -113.437
945.5 0.153 -50.459 13.513 95.075 0.051 -13.453 0.188 -117.832
995.25 0.157 -55.619 13.102 90.71 0.052 -13.662 0.192 -123.068
1045 0.162 -61.349 12.914 87.375 0.052 -14.689 0.198 -127.007
1094.75 0.168 -66.799 12.654 83.061 0.052 -14.493 0.202 -132.257
1144.5 0.17 -71.75 12.388 79.633 0.054 -15.527 0.208 -136.87
1194.25 0.177 -77.209 12.245 75.667 0.053 -15.81 0.213 -140.189
1244 0.182 -82.482 11.829 72.423 0.054 -16.177 0.216 -144.735
1293.75 0.188 -87.5 11.609 68.775 0.055 -17.254 0.221 -149.032
1343.5 0.194 -92.206 11.496 64.565 0.055 -17.084 0.225 -152.747
1393.25 0.2 -97.03 11.128 61.368 0.056 -18.484 0.229 -156.253
1443 0.208 -101.639 10.978 58.153 0.056 -18.562 0.232 -159.867
1492.75 0.215 -105.762 10.651 54.43 0.058 -19.7 0.234 -163.709
1542.5 0.219 -109.923 10.572 51.405 0.058 -20.681 0.24 -167.106
1592.25 0.228 -114.039 10.158 47.017 0.059 -20.848 0.243 -169.898
1642 0.234 -117.843 10.074 45.218 0.062 -22.271 0.244 -173.77
1691.75 0.239 -121.857 9.993 41.392 0.06 -23.234 0.246 -176.894
1741.5 0.25 -125.114 9.442 36.938 0.06 -22.965 0.252 -179.357
1791.25 0.252 -129.023 9.424 36.031 0.065 -25.151 0.252 177.697
1841 0.256 -132.676 9.453 30.822 0.062 -26.6 0.247 174.945
1890.75 0.265 -136.97 8.881 28.414 0.065 -24.614 0.253 171.35
1940.5 0.269 -139.732 8.964 26.272 0.066 -28.983 0.256 169.353
1990.25 0.275 -143.287 8.76 21.85 0.065 -27.961 0.252 166.817
2040 0.281 -146.528 8.472 19.245 0.069 -29.042 0.252 163.423
2089.75 0.284 -149.613 8.433 16.173 0.068 -32.25 0.253 161.457
2139.5 0.291 -153.517 8.15 13.238 0.069 -30.528 0.253 158.873
2189.25 0.295 -156.351 8.012 10.519 0.072 -32.404 0.25 156.134
2239 0.298 -159.125 7.941 6.818 0.071 -35.397 0.248 154.313
2288.75 0.304 -162.379 7.736 4.713 0.072 -34.846 0.249 151.503
2338.5 0.306 -165.553 7.63 1.789 0.075 -35.46 0.244 149.191
2388.25 0.314 -168.274 7.472 -1.083 0.074 -38.764 0.241 147.131
2438 0.317 -170.921 7.376 -4.139 0.076 -38.394 0.241 144.555
2487.75 0.32 -173.395 7.14 -7.091 0.076 -39.834 0.236 142.412
2537.5 0.321 -176.48 7.053 -8.793 0.079 -40.562 0.231 139.706
2587.25 0.324 -178.636 7.098 -13.023 0.081 -44.613 0.225 137.743
2637 0.333 178.959 6.731 -15.533 0.077 -42.017 0.227 135.434
2686.75 0.325 176.871 6.823 -16.75 0.086 -43.322 0.214 132.104
2736.5 0.329 174.416 6.771 -21.245 0.083 -49.812 0.208 131.113
2786.25 0.334 171.614 6.481 -22.964 0.082 -45.829 0.207 127.9
2836 0.327 170.58 6.516 -25.279 0.09 -47.212 0.194 125.227
2885.75 0.328 168.239 6.412 -29.335 0.088 -53.041 0.184 123.937
2935.5 0.332 165.399 6.224 -31.197 0.086 -50.573 0.184 120.262
2985.25 0.324 164.631 6.275 -34.238 0.094 -51.66 0.171 118.36
3035 0.324 162.573 6.137 -37.035 0.093 -56.913 0.158 116.463
3084.75 0.322 159.675 6.088 -39.347 0.093 -55.171 0.154 111.846
3134.5 0.316 158.388 5.982 -42.1 0.098 -56.971 0.144 109.008
3184.25 0.313 156.335 5.937 -45.08 0.096 -60.021 0.13 107.444
3234 0.308 154.327 5.867 -47.22 0.101 -60.346 0.118 101.895
3283.75 0.304 152.486 5.776 -50.794 0.101 -63.849 0.111 98.957
3333.5 0.297 150.487 5.726 -52.955 0.103 -62.571 0.098 93.94
3383.25 0.295 148.953 5.663 -55.974 0.106 -67.134 0.083 90.781
3433 0.286 146.534 5.633 -59.225 0.105 -67.511 0.073 82.123
3482.75 0.281 145.326 5.522 -61.746 0.11 -69.825 0.063 74.067
3532.5 0.275 143.441 5.548 -64.232 0.11 -71.532 0.049 64.775
3582.25 0.268 141.792 5.463 -67.655 0.114 -73.152 0.039 43.861
3632 0.259 140.074 5.314 -70.517 0.113 -75.636 0.036 24.201
3681.75 0.253 138.829 5.316 -71.953 0.115 -77.808 0.035 -3.034
3731.5 0.246 137.07 5.304 -76.821 0.118 -78.147 0.041 -28.886
3781.25 0.238 135.389 5.109 -79.773 0.122 -82.253 0.055 -46.952
3831 0.227 134.927 5.129 -79.851 0.117 -84.088 0.068 -53.393
3880.75 0.221 133.805 5.15 -85.917 0.123 -82.951 0.078 -62.855
3930.5 0.209 131.516 4.873 -88.729 0.126 -89.15 0.098 -73.435
3980.25 0.197 132.043 4.976 -88.475 0.123 -89.991 0.116 -74.257
4030 0.194 131.282 5.058 -93.912 0.127 -90.481 0.126 -80.616
4079.75 0.18 129.976 4.683 -96.955 0.131 -93.896 0.145 -85.434
4129.5 0.167 130.922 4.729 -97.867 0.128 -96.266 0.163 -88.488
4179.25 0.162 130.48 4.746 -101.864 0.129 -97.902 0.177 -90.664
4229 0.154 130.169 4.712 -107.515 0.134 -99.442 0.188 -93.916
4278.75 0.136 132.047 4.462 -106.8 0.133 -102.596 0.209 -98.783
4328.5 0.129 133.607 4.491 -109.093 0.133 -104.429 0.227 -100.683
4378.25 0.125 132.822 4.687 -115.358 0.136 -105.839 0.237 -103.58
4428 0.107 134.56 4.219 -118.666 0.137 -108.471 0.251 -106.337
4477.75 0.102 141.568 4.259 -115.561 0.137 -110.94 0.271 -110.39
4527.5 0.097 141.072 4.462 -122.888 0.138 -112.269 0.286 -111.905
4577.25 0.085 143.595 4.107 -126.935 0.141 -114.601 0.296 -113.89
4627 0.082 153.969 3.892 -127.061 0.14 -116.882 0.313 -117.785
4676.75 0.08 155.116 4.288 -130.161 0.14 -118.677 0.329 -119.445
4726.5 0.075 160.05 4.097 -134.191 0.143 -120.863 0.337 -121.752
4776.25 0.073 169.852 3.836 -137.266 0.143 -123.124 0.35 -123.983
4826 0.08 174.371 3.764 -137.529 0.143 -124.517 0.363 -127.675
4875.75 0.081 176.952 4.126 -140.472 0.145 -126.809 0.382 -129.899
4925.5 0.078 -173.816 3.611 -147.579 0.145 -129.326 0.383 -130.741
4975.25 0.091 -172.846 3.621 -145.026 0.144 -130.872 0.396 -134.756
5025 0.093 -172.095 3.842 -148.668 0.147 -132.644 0.41 -136.718
5074.75 0.095 -164.664 3.47 -156.97 0.149 -135.256 0.41 -138.476
5124.5 0.104 -166.726 3.513 -153.8 0.145 -137.591 0.426 -141.54
5174.25 0.113 -166.84 3.597 -158.361 0.148 -137.442 0.434 -143.634
5224 0.119 -162.112 3.325 -159.7 0.151 -141.585 0.445 -146.143
5273.75 0.122 -163.839 3.428 -165.131 0.148 -143.481 0.448 -147.878
5323.5 0.137 -164.411 3.189 -165.558 0.148 -143.87 0.457 -151.163
5373.25 0.141 -164.457 3.247 -166.292 0.152 -146.394 0.467 -153.81
5423 0.144 -163.272 3.317 -174.577 0.152 -149.233 0.466 -155.371
5472.75 0.157 -165.378 2.928 -173.347 0.147 -149.899 0.478 -158.537
5522.5 0.161 -167.046 3.156 -173.507 0.154 -152.422 0.484 -161.213
5572.25 0.164 -165.375 3.184 176.941 0.152 -154.133 0.487 -162.951
5622 0.176 -167.679 2.845 179.793 0.154 -156.131 0.494 -165.858
5671.75 0.178 -169.914 2.948 178.09 0.15 -158.161 0.498 -168.335
5721.5 0.185 -171.68 2.922 173.968 0.154 -158.386 0.503 -171.178
5771.25 0.19 -170.273 2.834 169.576 0.157 -162.794 0.506 -173.31
5821 0.193 -173.77 2.668 168.673 0.152 -163.035 0.513 -176.199
5870.75 0.196 -175.985 2.841 167.917 0.156 -164.795 0.513 -179.302
5920.5 0.2 -176.186 2.825 161.385 0.159 -166.219 0.519 178.246
5970.25 0.207 -178.819 2.4 161.447 0.156 -169.859 0.523 175.497
6020 0.2 177.815 2.836 162.738 0.156 -170.908 0.522 172.135
6069.75 0.208 175.903 2.591 153.14 0.162 -171.103 0.528 169.363
6119.5 0.213 173.675 2.387 156.806 0.161 -174.546 0.531 165.961
6169.25 0.206 170.587 2.613 155.095 0.16 -177.322 0.533 163.457
6219 0.211 167.321 2.471 146.126 0.158 -177.13 0.537 160.638
6268.75 0.216 164.227 2.331 148.379 0.17 -178.727 0.534 156.399
6318.5 0.213 162.4 2.521 145.335 0.163 175.342 0.541 154.393
6368.25 0.21 156.176 2.389 143.724 0.159 178.232 0.541 150.372
6418 0.22 153.859 2.394 139.216 0.175 175.697 0.546 146.97
6467.75 0.222 151.419 2.203 139.301 0.164 169.839 0.552 144.308
6517.5 0.218 145.078 2.335 139.033 0.166 171.235 0.548 140.522
6567.25 0.225 143.359 2.382 132.549 0.175 169.822 0.553 137.031
6617 0.229 139.422 2.124 128.367 0.17 165.969 0.559 133.691
6666.75 0.233 134.465 2.204 133.25 0.168 163.886 0.56 129.869
6716.5 0.233 131.558 2.327 125.344 0.175 163.254 0.56 126.693
6766.25 0.239 127.481 2.223 121.718 0.175 160.531 0.569 122.762
6816 0.245 123.517 2.023 122.313 0.175 158.153 0.569 119.235
6865.75 0.244 119.816 2.227 123.06 0.175 155.885 0.569 115.402
6915.5 0.249 115.924 2.219 115.947 0.176 155.981 0.579 111.874
6965.25 0.258 112.127 1.952 111.152 0.183 150.85 0.582 108.418
7015 0.259 108.036 2.009 117.153 0.173 148.99 0.585 103.899
7064.75 0.264 104.976 2.323 106.826 0.186 150.281 0.596 101.607
7114.5 0.271 101.227 1.967 102.855 0.179 144.194 0.599 97.202
7164.25 0.273 95.876 1.927 107.439 0.179 143.909 0.603 93.017
7214 0.281 93.605 2.135 102.753 0.188 140.404 0.611 90.042
7263.75 0.28 89.064 1.962 94.401 0.18 139.959 0.618 86.247
7313.5 0.292 84.289 1.852 97.856 0.185 136.512 0.623 82.255
7363.25 0.294 82.167 1.981 95.985 0.186 133.787 0.627 79.209
7413 0.295 76.72 1.905 89.41 0.18 132.365 0.634 75.382
7462.75 0.308 72.909 1.802 84.855 0.185 131.187 0.645 71.575
7512.5 0.314 70.214 1.826 86.579 0.191 125.499 0.647 68.486
7562.25 0.311 65.201 1.927 84.225 0.177 126.787 0.65 64.925
7612 0.328 61.137 1.778 78.327 0.189 125.46 0.664 61.425
7661.75 0.334 59.068 1.648 77.18 0.184 117.785 0.667 58.094
7711.5 0.335 53.857 1.743 77.735 0.181 120.305 0.671 54.789
7761.25 0.349 50.796 1.764 71.075 0.188 117.531 0.683 51.511
7811 0.353 47.657 1.599 67.835 0.181 114.521 0.687 48.233
7860.75 0.361 43.975 1.585 69.98 0.186 111.997 0.691 45.252
7910.5 0.364 40.668 1.681 63.829 0.178 111.138 0.696 41.967
7960.25 0.374 36.836 1.615 59.513 0.185 108.544 0.709 38.873
8010 0.383 34.515 1.491 61.179 0.184 105.713 0.707 35.998
8059.75 0.385 30.955 1.521 59.861 0.18 104.609 0.713 32.807
8109.5 0.394 27.388 1.495 53.609 0.177 103.093 0.724 29.891
8159.25 0.402 25.053 1.41 51.365 0.186 99.775 0.726 26.936
8209 0.403 21.648 1.415 52.977 0.175 97.06 0.729 24.159
8258.75 0.41 18.295 1.449 47.101 0.181 98.616 0.737 21.459
8308.5 0.416 15.934 1.345 44.641 0.179 92.957 0.739 18.377
8358.25 0.418 12.265 1.339 45 0.177 92.923 0.745 15.723
8408 0.428 9.333 1.375 41.324 0.18 90.341 0.751 13.002
8457.75 0.426 6.844 1.264 39.264 0.175 88.003 0.753 10.391
8507.5 0.432 2.787 1.257 38.512 0.179 87.513 0.758 7.497
8557.25 0.44 0.607 1.248 34.988 0.177 84.412 0.76 4.925
8607 0.437 -2.548 1.238 32.485 0.173 82.77 0.765 2.379
8656.75 0.445 -6.084 1.195 30.47 0.178 81.491 0.768 -0.287
8706.5 0.451 -8.263 1.174 29.617 0.178 78.767 0.767 -3.007
8756.25 0.451 -11.636 1.192 27.493 0.173 77.123 0.772 -5.59
8806 0.457 -14.648 1.133 23.472 0.175 76.174 0.778 -7.985
8855.75 0.462 -17.118 1.104 24.311 0.176 72.749 0.773 -10.905
8905.5 0.466 -20.369 1.127 21.266 0.173 71.916 0.779 -13.3
8955.25 0.471 -22.941 1.081 17.666 0.176 69.627 0.782 -15.937
9005 0.474 -25.733 1.061 17.054 0.174 67.917 0.784 -18.739
9054.75 0.48 -28.987 1.065 14.999 0.175 66.207 0.784 -21.107
9104.5 0.484 -31.184 1.05 12.341 0.174 63.8 0.784 -23.69
9154.25 0.483 -34.201 1.024 11.083 0.175 62.291 0.787 -26.699
9204 0.492 -37.137 1.012 8.808 0.174 60.209 0.788 -29.174
9253.75 0.492 -39.521 1.001 6.571 0.174 58.378 0.789 -31.12
9303.5 0.497 -42.823 0.985 4.402 0.175 56.405 0.786 -34.355
9353.25 0.501 -45.078 0.973 2.194 0.174 54.256 0.793 -37.551
9403 0.5 -48.755 0.956 -0.124 0.174 52.277 0.791 -39.458
9452.75 0.509 -51.376 0.944 -1.826 0.174 50.337 0.785 -42.175
9502.5 0.506 -53.476 0.936 -4.461 0.174 48.528 0.789 -45.923
9552.25 0.505 -57.583 0.907 -6.837 0.175 46.03 0.795 -47.767
9602 0.516 -60.837 0.899 -8.559 0.172 43.964 0.786 -50.279
9651.75 0.519 -62.231 0.889 -11.188 0.173 43.431 0.784 -53.678
9701.5 0.51 -66.486 0.88 -12.552 0.176 39.5 0.795 -56.301
9751.25 0.526 -70.068 0.867 -15.696 0.171 37.467 0.787 -58.9
9801 0.528 -71.557 0.83 -17.239 0.172 37.375 0.786 -62.063
9850.75 0.525 -75.05 0.83 -18.531 0.175 34.431 0.79 -64.943
9900.5 0.53 -78.758 0.835 -23.03 0.172 30.622 0.786 -67.59
9950.25 0.543 -81.68 0.781 -24.594 0.165 29.908 0.786 -71.036
10000 0.546 -83.252 0.79 -24.071 0.175 29.786 0.79 -73.41
