!Hittite Microwave Corporation								
!12 Elizabeth Drive								
!Chelmsford, MA 01824								
!Tel: 978-250-3343								
!Fax: 978-250-3373								
!Device: HMC498, 17-24 GHz, GaAS PHEMT MMIC Power Amplifier
!Misc: Vdd = 5 V, data includes two (K) connectors, Room							
!
# MHZ S MA R 50

12000 0.564 171.602 1.569 -124.974 1.81e-3 -29.284 0.637 -168.082
12160 0.511 163.423 1.867 -141.941 1.74e-3 -35.736 0.604 -176.002
12320 0.457 155.945 2.293 -160.025 1.76e-3 -37.081 0.586 175.244
12480 0.406 149.399 2.732 -178.215 1.855e-3 -37.18 0.579 166.918
12640 0.364 144.067 2.947 163.227 1.968e-3 -47.072 0.558 160.264
12800 0.324 140.319 3.338 149.356 1.956e-3 -51.313 0.522 151.171
12960 0.292 136.855 3.476 133.336 1.921e-3 -54.398 0.509 141.988
13120 0.269 134.863 3.797 118.339 1.948e-3 -58.104 0.496 134.365
13280 0.254 133.568 4.291 104.031 1.999e-3 -61.609 0.471 127.048
13440 0.24 131.027 4.668 88.101 1.976e-3 -62.748 0.435 117.123
13600 0.236 128.177 4.955 74.107 2.114e-3 -66.418 0.427 107.257
13760 0.233 125.667 5.144 60.118 2.122e-3 -71.493 0.404 100.907
13920 0.23 122.08 5.59 46.272 2.103e-3 -78.569 0.371 92.365
14080 0.227 117.128 6.135 32.218 2.048e-3 -84.546 0.344 81.649
14240 0.222 111.272 6.37 17.524 1.909e-3 -84.968 0.339 72.121
14400 0.218 105.38 6.775 5.111 2.011e-3 -89.396 0.304 66.297
14560 0.212 100.044 7.141 -7.577 1.948e-3 -94.177 0.269 55.605
14720 0.203 92.957 7.545 -21.823 1.977e-3 -99.076 0.251 45.246
14880 0.194 85.207 7.965 -36.115 2.057e-3 -103.894 0.239 37.056
15040 0.185 79.525 8.34 -47.792 2.002e-3 -108.368 0.209 30.575
15200 0.169 73.962 8.911 -61.481 2.003e-3 -111.145 0.174 16.628
15360 0.157 67.527 9.196 -74.682 1.849e-3 -114.369 0.165 6.082
15520 0.141 61.912 9.502 -87.887 1.73e-3 -117.531 0.148 1.124
15680 0.123 57.873 9.883 -100.667 1.679e-3 -121.34 0.118 -6.26
15840 0.107 55.714 10.278 -112.411 1.644e-3 -126.784 0.086 -27.194
16000 0.093 57.422 10.762 -125.842 1.527e-3 -130.991 0.089 -40.191
16160 0.081 59.086 11.051 -138.294 1.591e-3 -132.965 0.068 -38.633
16320 0.074 65.413 11.365 -150.524 1.505e-3 -136.137 0.042 -57.619
16480 0.076 74.626 11.745 -162.762 1.341e-3 -138.818 0.026 -93.71
16640 0.084 82.014 12.149 -175.029 1.334e-3 -137.511 0.025 -121.826
16800 0.1 82.946 12.484 172.574 1.316e-3 -136.409 0.023 172.566
16960 0.117 82.793 12.833 160.384 1.255e-3 -133.8 0.035 141.731
17120 0.137 80.18 13.167 148.228 1.239e-3 -133.119 0.045 122.004
17280 0.159 75.079 13.48 136.046 1.199e-3 -132.771 0.052 107.929
17440 0.182 68.156 13.771 123.854 1.041e-3 -129.915 0.066 93.539
17600 0.201 60.04 13.993 111.923 1.179e-3 -132.645 0.083 89.871
17760 0.222 53.317 14.27 99.915 1.229e-3 -136.497 0.085 78.659
17920 0.238 45.693 14.523 87.978 1.257e-3 -135.316 0.094 66.335
18080 0.252 36.615 14.742 76.082 1.281e-3 -129.805 0.105 58.265
18240 0.27 26.578 14.939 64.138 1.312e-3 -124.507 0.105 57.084
18400 0.278 18.783 15.137 52.242 1.461e-3 -131.801 0.102 43.216
18560 0.286 9.14 15.276 40.592 1.608e-3 -130.776 0.113 35.113
18720 0.295 -0.399 15.408 28.785 1.708e-3 -131.534 0.111 29.984
18880 0.3 -9.88 15.538 16.959 1.808e-3 -136.77 0.102 24.17
19040 0.299 -19.827 15.653 5.392 1.959e-3 -145.332 0.099 15.027
19200 0.299 -28.639 15.734 -6.136 1.95e-3 -148.116 0.102 12.113
19360 0.294 -37.931 15.785 -17.508 2.113e-3 -152.5 0.094 7.972
19520 0.289 -47.283 15.843 -28.967 2.291e-3 -158.198 0.082 0.015
19680 0.278 -56.815 15.909 -40.459 2.37e-3 -163.514 0.075 -7.255
19840 0.259 -66.774 15.966 -51.864 2.306e-3 -166.679 0.077 -7.115
20000 0.245 -76.946 15.955 -63.316 2.441e-3 -169.128 0.07 4.075
20160 0.228 -87.073 15.921 -74.521 2.571e-3 -175.905 0.052 -0.532
20320 0.208 -98.331 15.88 -85.915 2.697e-3 178.838 0.05 -5.207
20480 0.184 -110.168 15.834 -97.336 2.794e-3 174.11 0.059 1.108
20640 0.156 -121.983 15.776 -108.524 2.832e-3 167.551 0.064 21.66
20800 0.136 -136.574 15.657 -119.811 2.815e-3 162.212 0.055 24.407
20960 0.114 -149.195 15.538 -130.89 2.845e-3 153.199 0.061 15.613
21120 0.091 -170.076 15.483 -142.182 2.892e-3 145.765 0.077 13.502
21280 0.07 163.177 15.408 -153.577 2.914e-3 138.883 0.092 17.037
21440 0.057 134.675 15.225 -164.806 2.897e-3 130.576 0.098 18.379
21600 0.058 93.161 15.105 -175.624 3.051e-3 124.48 0.099 6.073
21760 0.074 65.595 14.994 173.111 3.137e-3 118.035 0.119 -0.457
21920 0.099 41.617 14.855 162.156 3.006e-3 113.673 0.13 -0.995
22080 0.126 21.912 14.743 151.028 2.913e-3 106.866 0.132 -3.655
22240 0.15 8.312 14.678 139.19 3.085e-3 94.082 0.135 -15.142
22400 0.174 -4.683 14.317 127.741 2.891e-3 88.802 0.159 -20.351
22560 0.205 -15.127 14.162 117.182 2.95e-3 81.651 0.156 -22.922
22720 0.23 -26.753 14.127 106.145 2.967e-3 73.596 0.156 -29.181
22880 0.255 -38.661 14.069 94.485 2.903e-3 64.971 0.162 -36.486
23040 0.283 -49.192 13.832 82.573 2.802e-3 56.464 0.171 -41.063
23200 0.305 -59.148 13.296 71.83 2.792e-3 51.241 0.168 -45.595
23360 0.337 -69.342 13.241 60.982 2.887e-3 42.591 0.165 -49.085
23520 0.362 -79.89 13.061 48.961 2.837e-3 31.693 0.163 -52.278
23680 0.386 -90.604 12.885 36.812 2.741e-3 21.167 0.163 -55.281
23840 0.416 -101.144 12.866 25.469 2.742e-3 12.66 0.164 -58.046
24000 0.437 -110.827 12.481 12.934 2.778e-3 1.515 0.162 -60.401
24160 0.465 -122.61 12.242 1.259 2.94e-3 -8.491 0.165 -59.495
24320 0.491 -133.937 11.967 -10.778 2.935e-3 -21.148 0.166 -58.292
24480 0.515 -144.937 11.652 -23.441 2.831e-3 -32.686 0.173 -59.071
24640 0.538 -156.105 11.295 -36.537 2.769e-3 -39.969 0.191 -62.378
24800 0.561 -167.031 10.701 -48.819 2.832e-3 -50.051 0.21 -61.772
24960 0.586 -179.136 10.357 -61.665 2.825e-3 -64.256 0.22 -64.922
25120 0.613 169.334 9.942 -74.93 2.56e-3 -71.862 0.244 -70.489
25280 0.634 157.945 9.461 -88.504 2.424e-3 -79.086 0.272 -76.771
25440 0.647 146.074 8.924 -101.881 2.693e-3 -92.32 0.293 -82.64
25600 0.676 134.079 8.078 -112.907 2.698e-3 -104.578 0.306 -89.978
25760 0.691 122.268 7.604 -124.943 2.49e-3 -110.718 0.324 -97.893
25920 0.708 110.506 7.053 -138.62 2.488e-3 -120.39 0.347 -106.196
26080 0.724 99.278 6.387 -151.991 2.477e-3 -129.764 0.366 -114.602
26240 0.738 88.731 5.69 -163.382 2.279e-3 -134.837 0.375 -123.226
26400 0.758 77.448 5.22 -173.692 2.272e-3 -139.461 0.378 -133.847
26560 0.775 67.266 4.91 174.126 2.173e-3 -147.959 0.396 -142.607
26720 0.792 56.98 4.392 161.848 2.206e-3 -152.761 0.401 -151.651
26880 0.807 47.023 3.879 150.647 2.272e-3 -156.301 0.405 -161.695
27040 0.822 37.753 3.549 140.72 2.251e-3 -160.148 0.418 -172.416
27200 0.834 28.482 3.134 129.425 2.113e-3 -156.93 0.424 179.186
27360 0.843 19.214 2.815 119.927 2.237e-3 -165.763 0.419 169.663
27520 0.853 10.326 2.526 109.747 2.345e-3 -171.337 0.423 158.747
27680 0.867 2.01 2.256 99.707 2.289e-3 -174.064 0.433 148.027
27840 0.883 -5.843 2.009 90.478 2.093e-3 -177.406 0.441 138.496
28000 0.883 -14.088 1.81 80.771 2.231e-3 172.996 0.428 128.459
