!HMC490LP5
!De-embedded to amplifier pins, Vdd=5.0V, Idd=200mA (Vgg adjusted)
# MHZ S MA R 50

8000 0.740396 21.020437 0.369067 -153.835736 0.00281 -172.141636 0.509128 -156.019107
8057.416268 0.740789 17.828202 0.440155 -156.403381 0.002689 -174.65352 0.502114 -157.780379
8114.832536 0.739738 14.765028 0.518079 -159.439714 0.002718 -177.184155 0.494693 -159.535036
8172.248804 0.736298 11.640081 0.603273 -162.877296 0.002594 179.745116 0.487773 -161.353005
8229.665072 0.730659 8.471341 0.695887 -166.48417 0.002527 177.857746 0.481107 -163.255905
8287.08134 0.724634 5.214662 0.796002 -170.247809 0.002381 174.998209 0.475182 -165.130431
8344.497608 0.720446 1.91845 0.905632 -174.115925 0.002285 173.469293 0.470357 -166.930637
8401.913876 0.718692 -1.349295 1.025822 -178.159931 0.002228 171.587656 0.465372 -168.699185
8459.330144 0.717723 -4.534334 1.158064 177.56517 0.002128 170.257755 0.460474 -170.488093
8516.746411 0.715271 -7.628083 1.302757 173.116121 0.002034 168.89008 0.456247 -172.279043
8574.162679 0.709488 -10.687518 1.457863 168.598351 0.00196 166.615369 0.452471 -174.086649
8631.578947 0.700928 -13.821429 1.624361 163.98092 0.001871 164.933028 0.449383 -175.908128
8688.995215 0.691986 -17.111404 1.805491 159.335824 0.001775 164.230929 0.446775 -177.659529
8746.411483 0.684226 -20.56899 2.004654 154.668865 0.001685 163.399548 0.44428 -179.346434
8803.827751 0.678368 -24.192535 2.224152 149.84393 0.001592 162.21857 0.441965 178.966221
8861.244019 0.674371 -27.950328 2.46418 144.830108 0.001507 161.970265 0.439921 177.250402
8918.660287 0.670306 -31.749297 2.722253 139.626005 0.001423 163.197899 0.438596 175.478953
8976.076555 0.66404 -35.57692 2.994143 134.241169 0.001322 164.595254 0.43813 173.699332
9033.492823 0.654912 -39.49541 3.282323 128.7071 0.001254 167.158182 0.438275 171.931106
9090.909091 0.644821 -43.540492 3.592451 123.143754 0.001246 168.353122 0.43927 170.277399
9148.325359 0.635208 -47.763536 3.927715 117.572687 0.001202 171.376011 0.440015 168.647496
9205.741627 0.62728 -52.274067 4.292022 111.845029 0.001132 174.252962 0.440389 167.016139
9263.157895 0.621165 -56.945352 4.681561 105.979286 0.001163 179.521022 0.440847 165.334067
9320.574163 0.61491 -61.683664 5.091225 99.824062 0.001171 -177.971012 0.44211 163.483529
9377.990431 0.606543 -66.473415 5.518509 93.514444 0.001207 -175.744037 0.444163 161.659974
9435.406699 0.596022 -71.42126 5.955673 87.089765 0.001253 -172.292868 0.44634 159.847997
9492.822967 0.584035 -76.7113 6.415884 80.553551 0.001379 -167.811676 0.449092 158.184045
9550.239234 0.573095 -82.344594 6.896158 73.985261 0.001467 -165.519682 0.450692 156.537606
9607.655502 0.565081 -88.397708 7.390494 67.247714 0.00158 -165.067453 0.451864 154.893214
9665.07177 0.560067 -94.543074 7.899022 60.298517 0.001702 -166.137931 0.452138 153.140729
9722.488038 0.555542 -100.597845 8.394002 53.205645 0.001833 -165.472089 0.452388 151.338259
9779.904306 0.54963 -106.507009 8.871434 45.979191 0.002005 -166.526196 0.452342 149.606056
9837.320574 0.540821 -112.322244 9.323505 38.769556 0.002132 -169.059059 0.45195 147.987277
9894.736842 0.52991 -118.323618 9.751232 31.623735 0.002254 -171.613086 0.450688 146.492889
9952.15311 0.519804 -124.577363 10.171345 24.446678 0.002403 -173.737472 0.448473 145.020156
10009.569378 0.512966 -131.011567 10.587308 17.200647 0.002536 -176.105586 0.445527 143.570655
10066.985646 0.50954 -137.391861 10.965096 9.933844 0.002642 -179.238196 0.442366 142.190034
10124.401914 0.507726 -143.371534 11.289731 2.665907 0.00274 177.032066 0.439458 140.930671
10181.818182 0.504807 -148.772294 11.558473 -4.503975 0.002816 173.531707 0.436568 139.899933
10239.23445 0.499005 -153.662911 11.763416 -11.461763 0.002867 170.590495 0.433375 139.050656
10296.650718 0.491932 -158.356228 11.948659 -18.266626 0.002938 167.357981 0.429724 138.272844
10354.066986 0.486515 -163.078542 12.115077 -24.83028 0.003028 164.915991 0.425546 137.576903
10411.483254 0.484852 -167.864913 12.266887 -31.308369 0.003068 161.890746 0.421355 136.954766
10468.899522 0.487248 -172.704012 12.398851 -37.811271 0.003194 159.368855 0.417204 136.537085
10526.315789 0.4926 -177.196962 12.485528 -44.178051 0.003225 156.660777 0.413728 136.201717
10583.732057 0.497345 178.876804 12.56055 -50.477288 0.003279 152.437335 0.410868 136.004124
10641.148325 0.499716 175.453688 12.593215 -56.446665 0.003285 149.871527 0.408184 135.90279
10698.564593 0.499771 172.159808 12.618886 -62.328536 0.00329 147.927284 0.405098 135.850632
10755.980861 0.50016 168.774309 12.645111 -67.898742 0.003398 144.350815 0.402753 135.817297
10813.397129 0.503054 165.098522 12.669388 -73.567423 0.003394 141.524765 0.401083 135.815815
10870.813397 0.510086 161.382955 12.678203 -79.210807 0.003436 138.46934 0.400046 135.930357
10928.229665 0.519211 157.982845 12.693348 -84.851071 0.00342 135.099537 0.399948 136.045121
10985.645933 0.528154 155.240703 12.661718 -90.223378 0.003443 133.054136 0.39981 136.255454
11043.062201 0.533999 153.092074 12.627882 -95.464477 0.003502 130.302148 0.399599 136.481788
11100.478469 0.536343 151.219091 12.604787 -100.462751 0.003513 127.819678 0.399398 136.68182
11157.894737 0.53653 149.277623 12.58419 -105.310587 0.003488 125.425388 0.399429 136.879037
11215.311005 0.536594 146.939274 12.589849 -110.20613 0.003477 123.347028 0.399903 137.086275
11272.727273 0.539094 144.261981 12.589605 -115.093939 0.003503 120.284333 0.401123 137.299946
11330.143541 0.54445 141.579728 12.574549 -119.974085 0.003511 117.341686 0.402669 137.532688
11387.559809 0.551301 139.24306 12.554295 -124.794546 0.003513 115.415941 0.404395 137.774437
11444.976077 0.557672 137.402064 12.523943 -129.465915 0.003541 113.014663 0.406312 137.975525
11502.392344 0.561841 135.886676 12.50574 -134.013575 0.003566 110.112616 0.408211 138.158714
11559.808612 0.563475 134.390205 12.514399 -138.466023 0.003573 107.728402 0.410246 138.374091
11617.22488 0.563349 132.693779 12.524244 -142.908098 0.00354 105.427808 0.412393 138.579273
11674.641148 0.56356 130.708394 12.52368 -147.368562 0.003536 102.536906 0.414656 138.73269
11732.057416 0.565825 128.615699 12.521069 -151.865415 0.003568 99.833128 0.416616 138.827974
11789.473684 0.569867 126.800737 12.507921 -156.263987 0.00354 97.181843 0.418388 138.919955
11846.889952 0.574302 125.442368 12.503448 -160.52507 0.00355 95.710558 0.420621 138.976378
11904.30622 0.577058 124.37428 12.516859 -164.630353 0.003517 92.495159 0.422684 139.091944
11961.722488 0.57674 123.337861 12.550768 -168.761702 0.003555 90.442518 0.42535 139.158843
12019.138756 0.574189 122.043784 12.600071 -172.963578 0.003513 88.384662 0.427101 139.291359
12076.555024 0.571412 120.268103 12.644979 -177.280092 0.003531 85.997352 0.428329 139.297573
12133.971292 0.570513 118.252311 12.663398 178.439599 0.003588 82.502203 0.429854 139.238656
12191.38756 0.572548 116.419092 12.670811 174.245991 0.00353 80.724779 0.431335 139.040018
12248.803828 0.576311 114.963933 12.645204 170.234725 0.003561 77.97683 0.433034 138.870317
12306.220096 0.579408 113.971328 12.685648 166.133301 0.003563 75.812537 0.434927 138.750323
12363.636364 0.579523 113.200351 12.750493 162.068084 0.003558 73.396629 0.436292 138.630161
12421.052632 0.576316 112.299001 12.805557 157.976758 0.003578 71.060005 0.437073 138.451747
12478.4689 0.570451 111.114104 12.864884 153.868052 0.003583 67.564999 0.437384 138.172516
12535.885167 0.564312 109.598927 12.890474 149.810909 0.003562 65.277874 0.438288 137.8196
12593.301435 0.560111 107.941567 12.91116 145.787146 0.003531 62.698441 0.439263 137.514775
12650.717703 0.558385 106.398647 12.959365 141.77437 0.003509 60.037272 0.439837 137.265084
12708.133971 0.5581 105.150515 13.032689 137.766638 0.003512 57.878076 0.439681 136.995688
12765.550239 0.556872 104.157232 13.111468 133.763205 0.003525 55.565736 0.439065 136.657929
12822.966507 0.552924 103.219766 13.186018 129.764784 0.003525 53.107036 0.438279 136.202511
12880.382775 0.546549 102.130306 13.257638 125.742047 0.003525 50.167185 0.437283 135.62733
12937.799043 0.539048 100.715921 13.307581 121.681212 0.003521 47.391168 0.43672 135.022503
12995.215311 0.532824 99.069999 13.374361 117.587313 0.003467 44.831038 0.43558 134.472079
13052.631579 0.529244 97.370781 13.485869 113.443073 0.003406 42.43652 0.433651 133.973028
13110.047847 0.527604 95.883378 13.551199 109.319946 0.003432 40.558817 0.43089 133.433748
13167.464115 0.5266 94.677039 13.637757 105.277436 0.003405 37.904912 0.427506 132.765366
13224.880383 0.523116 93.804948 13.690413 101.237905 0.003405 34.783704 0.423736 131.945533
13282.296651 0.515897 92.887401 13.779681 97.146892 0.003407 32.072072 0.420172 131.109308
13339.712919 0.505952 91.79416 13.858356 93.029559 0.003421 29.556749 0.416963 130.214749
13397.129187 0.495807 90.271702 13.99339 88.833453 0.003436 27.399175 0.413963 129.550739
13454.545455 0.487501 88.507971 14.096331 84.682159 0.003371 23.953298 0.409472 128.902516
13511.961722 0.482128 86.659561 14.156504 80.664556 0.003279 22.530137 0.403473 128.162952
13569.37799 0.477996 85.097484 14.235055 76.551289 0.003227 19.709263 0.396774 127.274489
13626.794258 0.473765 83.78963 14.307321 72.512323 0.003195 17.641752 0.389422 126.169606
13684.210526 0.467441 82.615053 14.421043 68.409797 0.003143 15.858459 0.382995 124.998973
13741.626794 0.458172 81.356269 14.518919 64.305976 0.003101 13.930613 0.376777 124.000422
13799.043062 0.447279 79.82046 14.638788 60.162835 0.003056 13.37296 0.37003 123.191372
13856.45933 0.436032 77.932153 14.728098 56.091258 0.003028 12.502219 0.362485 122.505038
13913.875598 0.425429 75.880634 14.829059 52.022051 0.003024 12.026287 0.354176 121.781907
13971.291866 0.416118 73.94937 14.957232 47.919963 0.003093 11.726425 0.346094 120.903029
14028.708134 0.407642 72.375146 15.097081 43.804132 0.003233 11.09495 0.339144 119.949537
14086.124402 0.398942 71.238187 15.246759 39.653058 0.003408 9.642226 0.333401 119.025238
14143.54067 0.390125 70.347397 15.405495 35.50836 0.003603 6.673222 0.328198 118.168815
14200.956938 0.381949 69.291138 15.592622 31.337517 0.003782 3.011604 0.32279 117.371699
14258.373206 0.374505 67.669194 15.810502 27.026472 0.003937 -1.172958 0.316886 116.434517
14315.789474 0.368022 65.340678 16.038623 22.555994 0.004074 -6.040942 0.310207 115.15986
14373.205742 0.361771 62.552533 16.235218 17.774411 0.004148 -10.489115 0.303423 113.700029
14430.62201 0.355308 60.018477 16.374963 12.927206 0.004186 -15.254181 0.297255 112.342916
14488.038278 0.349338 58.196461 16.48963 8.054048 0.004226 -19.99404 0.291851 111.08403
14545.454545 0.342856 56.989693 16.551475 3.408537 0.004194 -24.470303 0.286532 110.034705
14602.870813 0.334976 55.998615 16.618579 -1.292685 0.004166 -29.317781 0.281542 109.010434
14660.287081 0.32698 54.728459 16.697979 -5.76674 0.004134 -34.017703 0.276507 107.740614
14717.703349 0.319505 52.944698 16.792475 -10.446639 0.004076 -39.470137 0.273535 106.202149
14775.119617 0.314927 50.36826 16.916597 -15.00459 0.004013 -43.715044 0.271405 104.375176
14832.535885 0.315233 47.451148 17.086308 -19.717578 0.003918 -48.135687 0.270312 102.17806
14889.952153 0.31863 44.807923 17.213016 -24.406645 0.003806 -52.306922 0.268715 99.889564
14947.368421 0.322419 42.551008 17.336966 -29.126552 0.003692 -56.458678 0.266411 97.319723
15004.784689 0.323878 40.560801 17.46821 -33.9505 0.003566 -59.783279 0.263715 94.445195
15062.200957 0.322493 38.442605 17.596151 -38.885163 0.003503 -63.211573 0.260531 91.364928
15119.617225 0.319396 35.615479 17.748995 -43.955574 0.003429 -66.843733 0.257446 88.031006
15177.033493 0.31782 32.129581 17.900601 -49.024828 0.00331 -70.115048 0.254667 84.636518
15234.449761 0.319753 28.297766 18.016546 -54.071932 0.003217 -73.593653 0.251888 81.313678
15291.866029 0.325624 24.599731 18.129885 -59.139195 0.003166 -77.793128 0.248925 77.904213
15349.282297 0.333252 21.39347 18.246324 -64.292334 0.003111 -82.326006 0.246006 74.33372
15406.698565 0.339502 18.432959 18.371482 -69.591786 0.003032 -86.595106 0.243458 70.560039
15464.114833 0.343304 15.250999 18.515972 -75.025763 0.00297 -91.17656 0.241454 66.527836
15521.5311 0.345611 11.5093 18.631224 -80.515989 0.002901 -96.026475 0.239988 62.402439
15578.947368 0.34915 7.05342 18.69604 -86.032578 0.002761 -100.216352 0.238604 58.331162
15636.363636 0.357123 2.29802 18.752263 -91.629276 0.002644 -104.998058 0.236893 54.213736
15693.779904 0.369131 -2.295812 18.812914 -97.250718 0.002563 -109.957036 0.234961 49.938532
15751.196172 0.382849 -6.363676 18.852828 -102.956549 0.002438 -115.009209 0.232228 45.287674
15808.61244 0.395324 -10.033516 18.88454 -108.80897 0.002331 -120.107444 0.229826 40.27976
15866.028708 0.40436 -13.709282 18.903182 -114.864085 0.002205 -127.06743 0.228352 35.248789
15923.444976 0.409239 -17.765346 18.802542 -120.822184 0.002064 -133.232437 0.22642 30.313923
15980.861244 0.413736 -22.451001 18.692662 -127.065421 0.001929 -140.877732 0.223581 25.211618
16038.277512 0.419513 -27.522236 18.59103 -133.321643 0.00181 -149.215351 0.219326 20.13042
16095.69378 0.428782 -32.491387 18.369426 -139.499951 0.001646 -155.573076 0.214114 14.797488
16153.110048 0.43958 -37.169498 18.170889 -145.808377 0.001524 -163.087753 0.208953 9.296915
16210.526316 0.448917 -41.385676 17.9211 -152.121406 0.00138 -170.954769 0.203467 3.863386
16267.942584 0.454146 -45.557666 17.599458 -158.436609 0.001263 178.243897 0.197064 -1.602899
16325.358852 0.455801 -49.943323 17.256089 -164.87023 0.00115 168.892112 0.189572 -7.117748
16382.77512 0.455406 -54.624982 16.84765 -171.18506 0.001086 155.305161 0.181284 -12.854028
16440.191388 0.456062 -59.442671 16.417339 -177.444642 0.001044 141.158027 0.17208 -18.831353
16497.607656 0.458434 -64.117974 15.946194 176.406696 0.000982 129.28416 0.162441 -25.075622
16555.023923 0.46158 -68.344418 15.497601 170.288776 0.00101 115.979956 0.152387 -31.463951
16612.440191 0.462681 -72.126813 15.03773 164.207977 0.001028 101.116171 0.14159 -38.134888
16669.856459 0.459563 -75.681254 14.562534 158.133639 0.00103 88.57354 0.13022 -45.288433
16727.272727 0.452527 -79.345067 14.086996 152.087862 0.001081 76.920421 0.118438 -53.072526
16784.688995 0.443172 -83.319892 13.58357 146.115779 0.001154 66.587682 0.106601 -61.852506
16842.105263 0.433819 -87.516638 13.070812 140.220277 0.001247 59.339951 0.095397 -72.006844
16899.521531 0.427062 -91.712412 12.569138 134.451313 0.001336 50.760345 0.085904 -84.272015
16956.937799 0.423015 -95.568459 12.071704 128.748512 0.001409 42.179824 0.079646 -98.975798
17014.354067 0.41878 -98.813728 11.589036 123.156295 0.001508 35.738994 0.073851 -113.500005
17071.770335 0.411779 -101.542954 11.116024 117.67398 0.001602 29.434934 0.071154 -131.891039
17129.186603 0.40118 -104.144843 10.659794 112.157683 0.001638 24.031904 0.074365 -149.847982
17186.602871 0.386493 -106.938833 10.202608 106.733439 0.001772 17.928725 0.08227 -165.858081
17244.019139 0.371308 -110.149344 9.765574 101.375912 0.001869 13.823013 0.093658 -179.444112
17301.435407 0.358442 -113.625645 9.34651 96.185131 0.001934 10.109502 0.107789 169.26851
17358.851675 0.348507 -117.052604 8.935732 91.078328 0.002 5.481551 0.123536 160.073273
17416.267943 0.340403 -119.957258 8.548122 86.014676 0.002026 1.555555 0.140965 152.169023
17473.684211 0.330694 -122.426152 8.174584 80.902605 0.002107 -4.47879 0.159525 145.401058
17531.100478 0.318149 -124.818675 7.812215 75.851512 0.002142 -6.721175 0.178818 139.576735
17588.516746 0.30307 -127.248261 7.461599 70.866428 0.002187 -10.406496 0.198913 134.3183
17645.933014 0.286987 -130.220524 7.129792 65.890202 0.002204 -13.445214 0.219319 129.568629
17703.349282 0.272199 -133.686433 6.809763 60.92624 0.002242 -15.428624 0.239837 125.208077
17760.76555 0.26005 -137.214261 6.49814 56.104473 0.002298 -18.994559 0.260593 121.14495
17818.181818 0.249747 -140.476851 6.200567 51.308586 0.002325 -22.697471 0.281421 117.295773
17875.598086 0.23911 -143.239346 5.916432 46.488675 0.002358 -24.442399 0.302394 113.612102
17933.014354 0.225947 -145.681906 5.643311 41.670881 0.00237 -26.58001 0.32398 110.059963
17990.430622 0.20989 -148.314869 5.377707 36.874581 0.002421 -29.100661 0.345913 106.678566
18047.84689 0.19239 -151.772576 5.122058 32.110022 0.002463 -31.693004 0.368057 103.485628
18105.263158 0.17598 -156.500883 4.880932 27.387337 0.002457 -34.517283 0.390238 100.490732
18162.679426 0.162729 -162.251551 4.652284 22.707388 0.002477 -37.588479 0.411731 97.650559
18220.095694 0.152424 -168.119822 4.432359 18.040522 0.002498 -40.870523 0.432477 94.853612
18277.511962 0.143024 -173.604286 4.219596 13.36887 0.002534 -42.029679 0.452989 92.065892
18334.92823 0.132449 -179.204014 4.013724 8.693049 0.002564 -43.630933 0.473716 89.26485
18392.344498 0.120363 174.035394 3.813187 3.958309 0.002604 -47.179827 0.494848 86.598039
18449.760766 0.108558 165.04697 3.619618 -0.741808 0.00257 -49.711901 0.516159 84.043773
18507.177033 0.100857 153.577933 3.435916 -5.300684 0.002573 -51.872182 0.536094 81.688237
18564.593301 0.098982 140.996245 3.262921 -9.858111 0.002538 -53.093318 0.555749 79.366677
18622.009569 0.101396 129.624293 3.097424 -14.383246 0.002535 -55.081347 0.573999 76.985165
18679.425837 0.105141 119.245316 2.931822 -18.938367 0.002514 -56.545457 0.592974 74.597439
18736.842105 0.10966 109.312932 2.776649 -23.536137 0.002545 -59.165504 0.61155 72.351732
18794.258373 0.116032 99.267768 2.626263 -28.056322 0.002527 -62.041441 0.629965 70.182543
18851.674641 0.126076 89.903707 2.481235 -32.553153 0.002488 -63.065889 0.647015 68.122251
18909.090909 0.140999 81.937264 2.346145 -36.956318 0.0025 -65.759589 0.663434 66.090062
18966.507177 0.158445 75.960611 2.216257 -41.360118 0.002466 -66.916581 0.679758 64.075648
19023.923445 0.176533 71.657728 2.096048 -45.768319 0.002458 -68.925088 0.695535 62.139361
19081.339713 0.193293 68.246429 1.979246 -50.150911 0.00244 -70.569363 0.710853 60.246725
19138.755981 0.208261 64.940766 1.867107 -54.514384 0.002422 -72.334495 0.725684 58.460084
19196.172249 0.222265 61.481956 1.759067 -58.834865 0.002419 -73.805196 0.739701 56.727323
19253.588517 0.237794 57.968065 1.655547 -63.062491 0.00241 -75.886433 0.752435 55.006245
19311.004785 0.255435 54.787241 1.557404 -67.25791 0.00237 -78.048169 0.765135 53.311544
19368.421053 0.27429 52.23888 1.46666 -71.491209 0.002342 -79.660436 0.777164 51.699555
19425.837321 0.293372 50.238126 1.38185 -75.728978 0.002335 -81.202358 0.788191 50.138689
19483.253589 0.311447 48.483248 1.299988 -79.934151 0.002285 -83.240815 0.799329 48.608278
19540.669856 0.327869 46.700672 1.22226 -84.124164 0.002241 -85.705351 0.80999 47.146897
19598.086124 0.34347 44.783014 1.148082 -88.244868 0.002223 -87.543988 0.81999 45.726506
19655.502392 0.359857 42.834275 1.076665 -92.249014 0.002139 -88.612373 0.829405 44.390764
19712.91866 0.377243 41.060541 1.009477 -96.319762 0.002137 -89.151136 0.838235 43.067251
19770.334928 0.396046 39.609622 0.94703 -100.345763 0.002146 -92.286826 0.846449 41.813492
19827.751196 0.415511 38.496872 0.889619 -104.325956 0.001993 -92.663451 0.853795 40.592382
19885.167464 0.433444 37.662238 0.835727 -108.354868 0.001906 -96.041739 0.862278 39.38576
19942.583732 0.449693 36.772275 0.784802 -112.313494 0.001894 -97.741912 0.869312 38.254608
20000 0.462998 35.767144 0.735164 -116.198286 0.001877 -98.464886 0.876369 37.23315
