!Hittite Microwave Corporation								
!12 Elizabeth Drive								
!Chelmsford, MA 01824								
!Tel: 978-250-3343								
!Fax: 978-250-3373							
!Device: HMC413QS8G, 1.7-2.2 GHz GaAs InGap HBT MMIC Power Amplifier in 16-lead Grounded Base surface Mount Plastic Package							
!Misc: Input reference is the input pin of the device, output reference is the last component on output line, Vs=3.6V, Vpd=3.6V, Room							
!
# MHZ S MA R 50

1000 0.89 -137.958 1.41 115.304 428.7e-6 79.727 0.76 123.161
1035 0.874 -143.209 1.62 111.839 819.7e-6 64.614 0.749 117.064
1070 0.857 -148.381 1.885 108.871 1.06e-3 85.739 0.737 110.939
1105 0.836 -153.565 2.228 104.486 1.08e-3 79.071 0.724 104.706
1140 0.813 -158.717 2.62 98.751 1.143e-3 55.24 0.709 98.465
1175 0.789 -163.819 3.045 93.605 836.1e-6 54.927 0.693 92.125
1210 0.763 -168.755 3.683 86.944 904.1e-6 68.059 0.675 85.713
1245 0.735 -173.649 4.284 78.041 1.282e-3 30.447 0.657 79.152
1280 0.711 -178.474 4.913 69.577 1.201e-3 34.668 0.636 72.464
1315 0.686 176.682 5.682 61.159 1.255e-3 41.17 0.613 65.742
1350 0.661 171.812 6.528 51.008 1.155e-3 18.129 0.588 58.779
1385 0.635 166.612 7.235 40.244 847.3e-6 9.122 0.563 51.728
1420 0.606 161.162 7.926 31.348 1.068e-3 -4.204 0.538 44.589
1455 0.573 155.568 9.008 21.248 827.4e-6 -6.11 0.511 36.989
1490 0.533 149.802 9.786 9.303 1.018e-3 -33.822 0.485 29.18
1525 0.487 143.859 10.414 -0.768 747.5e-6 -32.786 0.458 20.959
1560 0.437 138.204 11.395 -11.245 973.2e-6 -63.848 0.433 12.157
1595 0.381 133.319 12.067 -23.644 644.3e-6 -72.824 0.407 2.922
1630 0.321 129.853 12.49 -34.274 671.5e-6 -83.605 0.381 -7.302
1665 0.262 128.737 13.112 -44.544 658.2e-6 -137.409 0.359 -17.85
1700 0.21 131.811 13.578 -56.282 656.2e-6 -143.722 0.338 -29.86
1735 0.171 141.263 13.687 -67.304 721.6e-6 -162.152 0.32 -42.873
1770 0.153 156.607 13.808 -77.423 919.1e-6 166.611 0.308 -56.512
1805 0.162 171.612 14.059 -87.932 839.3e-6 119.804 0.3 -70.921
1840 0.192 179.999 13.777 -98.758 1.24e-3 118.861 0.299 -86.052
1875 0.228 -176.83 13.608 -107.698 1.414e-3 118.979 0.304 -101.07
1910 0.264 -177.003 13.542 -117.508 1.51e-3 104.51 0.315 -115.582
1945 0.297 -179.375 13.137 -127.442 1.461e-3 92.852 0.331 -129.575
1980 0.328 177.067 12.748 -135.421 1.655e-3 88.087 0.352 -142.683
2015 0.355 173.003 12.517 -144.392 1.767e-3 72.415 0.375 -154.949
2050 0.376 168.576 12.126 -153.237 1.69e-3 61.868 0.4 -166.175
2085 0.393 163.692 11.445 -161.383 1.827e-3 63.317 0.424 -177.291
2120 0.408 158.754 11.099 -168.107 1.677e-3 59.377 0.445 172.451
2155 0.416 154.032 10.587 -175.769 1.245e-3 55.195 0.452 162.145
2190 0.418 149.64 9.914 178.407 989.5e-6 47.979 0.447 153.191
2225 0.428 146.254 10.058 174.034 1.944e-3 81.837 0.457 152.973
2260 0.438 141.906 10.245 166.324 2.601e-3 75.932 0.493 148.593
2295 0.445 136.944 9.79 156.977 2.603e-3 56.105 0.541 141.192
2330 0.448 132.147 9.263 150.455 3.118e-3 44.895 0.572 134.324
2365 0.448 127.18 9.087 144.603 3.015e-3 33.807 0.599 127.172
2400 0.449 122.532 8.731 135.721 2.861e-3 23.763 0.625 120.834
2435 0.445 117.931 8.184 130.662 2.869e-3 19.834 0.643 114.448
2470 0.442 113.196 7.89 125.151 2.924e-3 16.379 0.665 108.309
2505 0.438 108.603 7.695 119.157 2.786e-3 19.203 0.681 102.439
2540 0.432 104.118 7.317 112.12 2.644e-3 18.613 0.696 96.626
2575 0.426 99.64 6.863 107.395 3.112e-3 5.871 0.71 91.013
2610 0.42 95.044 6.712 103.624 2.95e-3 9.195 0.723 85.447
2645 0.414 90.639 6.616 96.47 2.701e-3 5.106 0.735 80.314
2680 0.406 86.321 6.157 90.749 3.222e-3 -4.427 0.746 75.026
2715 0.398 81.963 5.911 87.036 3.365e-3 -9.37 0.757 69.816
2750 0.391 77.591 5.833 82.466 3.273e-3 -6.72 0.766 64.766
2785 0.383 73.409 5.689 75.728 3.407e-3 -21.703 0.776 59.714
2820 0.374 69.271 5.267 70.373 3.257e-3 -16.699 0.781 54.733
2855 0.366 65.022 5.117 67.629 3.426e-3 -24.098 0.789 49.777
2890 0.358 61.003 5.044 62.04 3.349e-3 -27.407 0.797 44.882
2925 0.35 57.13 4.764 56.599 3.452e-3 -24.326 0.802 40.052
2960 0.342 53.23 4.533 53.862 3.655e-3 -30.103 0.808 35.161
2995 0.335 49.253 4.586 50.32 3.925e-3 -35.528 0.813 30.321
3030 0.327 45.641 4.47 43.149 3.513e-3 -35.324 0.817 25.593
3065 0.319 42.105 4.138 38.811 3.209e-3 -37.243 0.822 20.799
3100 0.312 38.561 4.098 37.079 3.598e-3 -44.136 0.826 15.994
3135 0.306 35.175 4.124 30.382 3.909e-3 -49.45 0.83 11.213
3170 0.3 32.062 3.862 25.353 3.921e-3 -49.948 0.834 6.447
3205 0.293 29.057 3.719 22.242 3.845e-3 -50.459 0.837 1.595
3240 0.287 26.018 3.747 18.891 3.846e-3 -54.366 0.841 -3.254
3275 0.282 23.277 3.709 11.623 3.775e-3 -61.136 0.844 -8.123
3310 0.277 20.798 3.436 6.707 3.753e-3 -60.557 0.848 -12.977
3345 0.272 18.318 3.358 5.006 3.717e-3 -63.021 0.85 -17.896
3380 0.268 15.909 3.439 -1.286 3.65e-3 -73.738 0.852 -22.828
3415 0.264 13.964 3.172 -7.183 3.589e-3 -71.204 0.856 -27.732
3450 0.261 12.137 3.1 -9.602 3.52e-3 -79.41 0.859 -32.71
3485 0.258 10.358 3.081 -14.288 3.499e-3 -79.833 0.86 -37.808
3520 0.257 8.691 3.009 -20.66 3.584e-3 -84.725 0.863 -42.865
3555 0.256 7.324 2.814 -25.056 3.539e-3 -94.128 0.866 -47.954
3590 0.255 6.082 2.77 -27.693 4.134e-3 -86.153 0.866 -53.131
3625 0.255 4.818 2.768 -33.801 3.323e-3 -92.176 0.87 -58.388
3660 0.257 3.81 2.607 -39.952 3.559e-3 -97.337 0.873 -63.605
3695 0.259 2.878 2.491 -43.366 3.702e-3 -102.254 0.875 -68.865
3730 0.261 1.88 2.439 -47.613 4.036e-3 -104.84 0.877 -74.239
3765 0.265 0.823 2.384 -53.255 3.585e-3 -103.718 0.881 -79.636
3800 0.27 -0.043 2.213 -58.227 3.993e-3 -111.692 0.883 -84.97
3835 0.275 -1.01 2.164 -60.861 3.949e-3 -112.811 0.885 -90.414
3870 0.281 -2.038 2.123 -66.411 3.551e-3 -118.072 0.888 -95.957
3905 0.288 -3.108 2.008 -71.308 3.53e-3 -115.844 0.891 -101.495
3940 0.296 -4.157 1.937 -75.299 3.651e-3 -117.089 0.893 -107.027
3975 0.304 -5.308 1.865 -80.113 3.676e-3 -119.902 0.897 -112.665
4010 0.313 -6.744 1.792 -84.403 3.63e-3 -126.906 0.899 -118.224
4045 0.323 -8.191 1.711 -89.089 3.593e-3 -134.668 0.9 -123.877
4080 0.332 -9.637 1.639 -93.18 3.154e-3 -132.724 0.904 -129.562
4115 0.342 -11.283 1.571 -97.728 3.499e-3 -131.31 0.907 -135.308
4150 0.352 -13.19 1.496 -102.033 3.077e-3 -124.833 0.91 -141.009
4185 0.363 -15.019 1.435 -106.273 2.918e-3 -137.157 0.913 -146.745
4220 0.371 -16.925 1.353 -110.582 3.098e-3 -128.951 0.915 -152.509
4255 0.379 -18.818 1.287 -113.868 3.456e-3 -127.363 0.916 -158.375
4290 0.386 -20.476 1.234 -117.615 4.246e-3 -131.679 0.917 -164.167
4325 0.394 -21.858 1.184 -121.085 4.989e-3 -139.152 0.916 -169.857
4360 0.404 -23.315 1.138 -124.441 4.626e-3 -146.564 0.915 -175.597
4395 0.416 -24.947 1.102 -128.673 4.96e-3 -156.324 0.914 178.739
4430 0.429 -26.697 1.062 -133.218 4.577e-3 -162.728 0.914 173.219
4465 0.441 -28.55 1.017 -137.271 4.622e-3 -167.61 0.914 167.597
4500 0.453 -30.651 0.974 -141.242 4.458e-3 -176.173 0.916 162.049
4535 0.465 -32.843 0.931 -145.427 4.21e-3 -177.15 0.918 156.76
4570 0.477 -35.281 0.887 -149.932 3.994e-3 176.94 0.917 150.968
4605 0.489 -36.929 0.845 -153.575 3.788e-3 -178.477 0.919 145.687
4640 0.497 -39.245 0.803 -157.754 3.653e-3 168.621 0.917 139.844
4675 0.509 -41.51 0.767 -161.571 3.604e-3 162.253 0.918 134.459
4710 0.518 -43.796 0.73 -165.789 3.549e-3 161.93 0.916 128.887
4745 0.529 -46.078 0.689 -170.168 3.336e-3 157.807 0.917 123.457
4780 0.54 -48.417 0.65 -173 3.466e-3 158.623 0.917 118.051
4815 0.549 -50.753 0.629 -177.321 3.038e-3 153.111 0.916 112.686
4850 0.557 -53.019 0.59 178.324 2.844e-3 149.386 0.915 107.253
4885 0.566 -55.442 0.555 174.948 2.816e-3 142.033 0.915 101.87
4920 0.575 -57.825 0.53 171.687 2.803e-3 140.994 0.914 96.503
4955 0.583 -60.202 0.503 167.257 2.467e-3 134.39 0.912 91.201
4990 0.591 -62.628 0.471 163.332 2.299e-3 143.446 0.911 85.772
5025 0.598 -65.115 0.441 160.641 2.746e-3 134.151 0.91 80.414
5060 0.606 -67.582 0.427 157.197 2.308e-3 134.01 0.909 75.1
5095 0.613 -70.004 0.4 152.586 2.534e-3 130.831 0.909 69.75
5130 0.62 -72.485 0.372 149.019 2.31e-3 132.339 0.907 64.334
5165 0.627 -75.013 0.351 146.857 2.305e-3 130.177 0.906 58.952
5200 0.633 -77.436 0.34 142.023 2.374e-3 129.154 0.904 53.565
5235 0.639 -79.929 0.31 137.681 2.207e-3 129.045 0.903 48.181
5270 0.645 -82.494 0.29 135.941 2.189e-3 124.175 0.901 42.785
5305 0.651 -85.025 0.281 132.202 2.133e-3 119.374 0.9 37.364
5340 0.657 -87.574 0.26 127.02 2.177e-3 117.637 0.899 31.923
5375 0.662 -90.143 0.24 124.151 2.588e-3 126.894 0.897 26.471
5410 0.668 -92.79 0.223 121.517 2.126e-3 105.875 0.897 20.971
5445 0.673 -95.398 0.216 117.601 2.03e-3 107.227 0.897 15.486
5480 0.679 -98.012 0.195 112.241 1.793e-3 103.108 0.896 9.947
5515 0.684 -100.645 0.178 110.746 2.131e-3 101.793 0.896 4.384
5550 0.689 -103.312 0.172 107.08 1.898e-3 93.794 0.896 -1.151
5585 0.694 -106.001 0.156 100.855 1.621e-3 99.068 0.895 -6.776
5620 0.699 -108.742 0.139 99.069 1.256e-3 87.777 0.895 -12.498
5655 0.705 -111.494 0.129 96.156 1.168e-3 91.826 0.896 -18.163
5690 0.71 -114.182 0.12 92.223 1.001e-3 71.8 0.897 -23.843
5725 0.715 -116.872 0.107 87.522 965.1e-6 64.525 0.898 -29.452
5760 0.72 -119.705 0.094 85.362 1.378e-3 63.097 0.899 -35.18
5795 0.725 -122.517 0.087 83.037 1.261e-3 53.101 0.9 -40.969
5830 0.731 -125.234 0.077 77.633 618.9e-6 70.199 0.902 -46.636
5865 0.735 -128.009 0.065 74.96 761.8e-6 73.952 0.903 -52.32
5900 0.74 -130.873 0.057 73.959 819.6e-6 54.551 0.905 -58.131
5935 0.746 -133.745 0.051 71.316 602.6e-6 69.626 0.908 -63.841
5970 0.751 -136.545 0.042 66.736 634.5e-6 108.044 0.912 -69.481
6005 0.756 -139.389 0.033 67.509 471.2e-6 121.338 0.915 -75.174
6040 0.761 -142.222 0.025 68.334 306.1e-6 134.407 0.917 -80.865
6075 0.766 -145.042 0.016 69.164 141.5e-6 147.481 0.92 -86.553
6110 0.772 -147.85 7.4e-3 70 22.48e-6 -19.439 0.922 -92.237
6145 0.777 -150.645 1.203e-3 -109.157 185.9e-6 -6.352 0.925 -97.916
6180 0.782 -153.425 9.77e-3 -108.307 348.6e-6 6.743 0.928 -103.589
6215 0.787 -156.191 0.018 -107.448 510.5e-6 19.846 0.93 -109.255
6250 0.792 -158.941 0.027 -106.58 671.6e-6 32.958 0.933 -114.913
6285 0.798 -161.676 0.035 -105.702 831.8e-6 46.08 0.936 -120.562
6320 0.803 -164.394 0.044 -104.814 991.2e-6 59.212 0.938 -126.203
6355 0.808 -167.096 0.052 -103.915 1.15e-3 72.355 0.941 -131.834
6390 0.813 -169.781 0.06 -103.005 1.307e-3 85.51 0.943 -137.455
6425 0.818 -172.449 0.069 -102.082 1.464e-3 98.676 0.946 -143.066
6460 0.823 -175.099 0.077 -101.148 1.619e-3 111.855 0.949 -148.665
6495 0.828 -177.733 0.085 -100.201 1.774e-3 125.046 0.951 -154.255
6530 0.833 179.651 0.093 -99.241 1.928e-3 138.25 0.954 -159.833
6565 0.838 177.052 0.101 -98.269 2.081e-3 151.466 0.957 -165.4
6600 0.843 174.47 0.109 -97.284 2.233e-3 164.695 0.959 -170.957
6635 0.848 171.905 0.117 -96.286 2.384e-3 177.937 0.962 -176.503
6670 0.853 169.357 0.125 -95.276 2.535e-3 -168.808 0.964 177.96
6705 0.858 166.825 0.133 -94.253 2.685e-3 -155.542 0.967 172.433
6740 0.862 164.309 0.141 -93.218 2.834e-3 -142.263 0.97 166.915
6775 0.867 161.809 0.149 -92.172 2.983e-3 -128.973 0.972 161.405
6810 0.872 159.324 0.156 -91.115 3.132e-3 -115.671 0.975 155.902
6845 0.876 156.852 0.164 -90.047 3.281e-3 -102.359 0.977 150.406
6880 0.881 154.395 0.172 -88.969 3.429e-3 -89.038 0.98 144.915
6915 0.885 151.951 0.18 -87.882 3.578e-3 -75.707 0.982 139.428
6950 0.89 149.519 0.188 -86.787 3.726e-3 -62.367 0.985 133.944
6985 0.894 147.098 0.196 -85.684 3.875e-3 -49.02 0.987 128.463
7020 0.899 144.689 0.203 -84.574 4.025e-3 -35.665 0.99 122.982
7055 0.903 142.289 0.211 -83.457 4.175e-3 -22.305 0.992 117.501
7090 0.907 139.897 0.219 -82.336 4.325e-3 -8.94 0.995 112.02
7125 0.911 137.514 0.227 -81.211 4.477e-3 4.43 0.997 106.536
7160 0.915 135.138 0.235 -80.082 4.629e-3 17.803 1 101.049
7195 0.919 132.768 0.243 -78.951 4.783e-3 31.178 1.002 95.558
7230 0.924 130.402 0.251 -77.819 4.937e-3 44.554 1.005 90.061
7265 0.928 128.04 0.26 -76.687 5.093e-3 57.93 1.007 84.559
7300 0.932 125.682 0.268 -75.556 5.251e-3 71.305 1.01 79.05
7335 0.936 123.324 0.276 -74.426 5.41e-3 84.679 1.012 73.533
7370 0.94 120.968 0.285 -73.3 5.57e-3 98.05 1.015 68.008
7405 0.944 118.61 0.293 -72.177 5.732e-3 111.417 1.017 62.472
7440 0.947 116.251 0.302 -71.058 5.896e-3 124.779 1.02 56.926
7475 0.951 113.888 0.31 -69.946 6.062e-3 138.136 1.022 51.369
7510 0.955 111.522 0.319 -68.84 6.23e-3 151.486 1.025 45.799
7545 0.959 109.15 0.328 -67.741 6.4e-3 164.829 1.028 40.216
7580 0.963 106.771 0.337 -66.65 6.571e-3 178.164 1.03 34.62
7615 0.967 104.383 0.346 -65.568 6.745e-3 -168.51 1.033 29.011
7650 0.971 101.987 0.355 -64.495 6.921e-3 -155.193 1.035 23.389
7685 0.975 99.581 0.365 -63.432 7.099e-3 -141.886 1.038 17.753
7720 0.979 97.162 0.374 -62.38 7.279e-3 -128.589 1.04 12.106
7755 0.983 94.731 0.384 -61.338 7.461e-3 -115.304 1.043 6.446
7790 0.987 92.286 0.393 -60.308 7.645e-3 -102.029 1.046 0.776
7825 0.991 89.826 0.403 -59.29 7.831e-3 -88.767 1.048 -4.904
7860 0.995 87.35 0.413 -58.283 8.019e-3 -75.516 1.051 -10.593
7895 0.999 84.857 0.423 -57.288 8.208e-3 -62.277 1.054 -16.289
7930 1.003 82.346 0.433 -56.306 8.4e-3 -49.051 1.056 -21.991
7965 1.007 79.816 0.443 -55.335 8.593e-3 -35.836 1.059 -27.699
8000 1.011 77.266 0.453 -54.377 8.787e-3 -22.634 1.062 -33.411
