!Hittite Microwave Corporation								
!20 Alpha Road								
!Chelmsford, MA 01824								
!Tel: 978-250-3343								
!Fax: 978-250-3373								
!Device: HMC489LP5, 12-16 GHz, GaAS PHEMT MMIC 1 Watt Power Amplifier in Leadless 5x5 mm SMT Package
!Misc: Vdd1,2,3,4,5 = +7 V, Idd = 1300 mA, Room							
!
# MHZ S MA R 50

1000 1.009 -40.953 4.871e-3 86.808 146.8e-6 111.067 1.011 -23.349
1095 1.004 -44.842 3.986e-3 47.987 265.9e-6 164.926 1.011 -25.538
1190 1.003 -48.876 2.224e-3 4.687 532.6e-6 141.962 1.011 -27.927
1285 1 -53.009 6.448e-6 23.144 327.3e-6 134.148 1.009 -30.198
1380 0.997 -56.731 1.87e-3 92.429 699.2e-6 138.883 1.01 -32.731
1475 0.994 -60.533 3.73e-3 80.633 656.8e-6 97.343 1.006 -35.2
1570 0.991 -64.48 3.962e-3 70.176 601.9e-6 139.013 1.004 -37.572
1665 0.987 -68.179 4.649e-3 65.216 1.096e-3 87.897 1.001 -40.114
1760 0.987 -72.037 4.607e-3 60.746 737e-6 79.245 1.001 -42.517
1855 0.984 -75.804 7.033e-3 65.163 749.9e-6 72.906 0.999 -45.057
1950 0.978 -79.785 8.724e-3 77.309 876e-6 73.348 0.993 -47.551
2045 0.978 -83.573 0.011 66.039 628.5e-6 75.132 0.995 -49.923
2140 0.975 -87.521 0.017 61.983 862.7e-6 67.723 0.991 -52.544
2235 0.972 -91.322 0.023 53.945 751.5e-6 67.485 0.987 -54.932
2330 0.973 -95.168 0.031 43.043 885.9e-6 69.833 0.989 -57.409
2425 0.971 -98.84 0.041 23.976 838.9e-6 64.376 0.986 -59.866
2520 0.971 -102.578 0.056 9.656 881.6e-6 57.566 0.983 -62.14
2615 0.97 -106.24 0.059 1.479 1.148e-3 64.849 0.984 -64.605
2710 0.971 -109.862 0.059 -19.535 890.8e-6 62.195 0.985 -66.814
2805 0.971 -113.489 0.08 -39.529 1.102e-3 46.298 0.982 -69.195
2900 0.971 -117.187 0.081 -38.083 1.214e-3 56.871 0.982 -71.343
2995 0.973 -120.732 0.081 -62.399 966.4e-6 41.987 0.984 -73.567
3090 0.972 -124.613 0.102 -68.963 1.284e-3 38.043 0.979 -75.719
3185 0.974 -128.311 0.096 -74.293 1.13e-3 42.052 0.982 -77.526
3280 0.974 -132.159 0.095 -88.849 1.304e-3 34.946 0.982 -79.545
3375 0.975 -135.722 0.094 -104.516 1.324e-3 35.725 0.982 -81.329
3470 0.977 -139.672 0.119 -115.021 1.346e-3 21.808 0.984 -83.161
3565 0.976 -143.299 0.118 -116.236 1.455e-3 20.228 0.983 -84.82
3660 0.976 -147.197 0.111 -132.498 1.263e-3 16.756 0.985 -86.555
3755 0.976 -151.018 0.142 -135.766 1.413e-3 9.386 0.984 -88.067
3850 0.976 -155.041 0.117 -138.818 1.275e-3 18.037 0.986 -89.512
3945 0.975 -159.145 0.115 -158.52 1.163e-3 5.878 0.987 -91.062
4040 0.973 -163.507 0.129 -158.078 1.418e-3 9.387 0.987 -92.522
4135 0.973 -167.791 0.128 -168.443 1.27e-3 19.885 0.987 -93.913
4230 0.969 -172.245 0.119 -167.599 1.404e-3 5.299 0.986 -95.29
4325 0.966 -176.733 0.122 -176.421 1.382e-3 5.873 0.986 -96.742
4420 0.964 178.627 0.137 -179.932 1.414e-3 7.945 0.986 -98.198
4515 0.963 174.026 0.125 168.003 1.236e-3 1.388 0.986 -99.72
4610 0.958 169.244 0.148 163.749 1.384e-3 -7.028 0.983 -101.486
4705 0.958 164.504 0.156 155.482 1.158e-3 1.829 0.982 -103.128
4800 0.956 159.443 0.155 153.901 1.278e-3 2.347 0.98 -105.086
4895 0.952 154.468 0.137 149.418 1.309e-3 -5.234 0.978 -106.932
4990 0.95 149.493 0.15 141.637 1.382e-3 -4.299 0.979 -109.326
5085 0.95 144.65 0.137 137.671 1.455e-3 7.548 0.976 -111.52
5180 0.949 139.932 0.167 128.736 1.338e-3 -5.135 0.972 -114.286
5275 0.947 135.261 0.181 132.369 2.197e-3 -8.466 0.968 -117.132
5370 0.949 131.052 0.178 120.887 1.805e-3 -4.497 0.966 -119.933
5465 0.948 126.697 0.206 121.044 1.559e-3 -21.408 0.961 -123.327
5560 0.948 122.673 0.182 117.118 2.094e-3 -10.718 0.961 -126.491
5655 0.949 118.631 0.182 102.481 2.076e-3 -17.33 0.959 -130.405
5750 0.947 114.815 0.199 99.096 2.031e-3 -15.718 0.955 -134.134
5845 0.949 111.166 0.21 92.285 2.019e-3 -25.121 0.95 -138.236
5940 0.949 107.655 0.206 90.604 2.264e-3 -25.096 0.952 -142.228
6035 0.951 104.299 0.205 83.655 2.551e-3 -20.875 0.946 -146.528
6130 0.951 101.07 0.226 78.913 2.089e-3 -34.757 0.947 -150.656
6225 0.95 98.167 0.207 79.253 2.804e-3 -38.015 0.947 -154.718
6320 0.951 95.393 0.202 64.124 2.526e-3 -31.014 0.948 -158.875
6415 0.95 92.505 0.265 59.857 2.306e-3 -45.52 0.942 -163.135
6510 0.946 89.721 0.231 66.487 3.082e-3 -46.433 0.946 -166.431
6605 0.948 86.906 0.221 52.346 2.476e-3 -50.274 0.946 -170.413
6700 0.943 83.984 0.244 52.435 2.895e-3 -53.805 0.948 -173.455
6795 0.943 81.099 0.232 48.223 2.528e-3 -57.187 0.949 -176.845
6890 0.936 77.821 0.239 43.756 3.029e-3 -60.504 0.95 -179.542
6985 0.938 74.755 0.244 34.207 2.796e-3 -61.851 0.952 177.547
7080 0.931 71.176 0.317 39.289 2.738e-3 -73.081 0.95 175.273
7175 0.927 67.926 0.269 40.287 2.979e-3 -76.209 0.958 173.487
7270 0.923 64.073 0.271 29.737 2.681e-3 -76.137 0.956 171.237
7365 0.921 60.259 0.314 28.984 2.767e-3 -79.501 0.956 169.711
7460 0.915 55.997 0.304 25.633 2.828e-3 -85.45 0.958 168.001
7555 0.911 51.66 0.296 16.291 2.777e-3 -80.671 0.956 166.738
7650 0.906 46.913 0.387 16.587 2.698e-3 -89.805 0.953 165.342
7745 0.903 41.891 0.373 16.83 2.917e-3 -84.024 0.955 164.492
7840 0.902 36.76 0.372 10.823 2.697e-3 -95.266 0.955 163.337
7935 0.898 31.332 0.393 6.226 3.097e-3 -93.12 0.951 162.212
8030 0.9 25.915 0.455 -0.023 3.134e-3 -97.025 0.947 161.149
8125 0.897 20.277 0.428 -2.594 3.073e-3 -101.934 0.945 160.18
8220 0.901 15.049 0.487 -13.324 3.148e-3 -105.595 0.94 158.841
8315 0.902 9.417 0.543 -10.228 3.219e-3 -112.276 0.937 157.815
8410 0.907 4.324 0.54 -15.791 3.054e-3 -113.514 0.933 156.358
8505 0.908 -0.939 0.558 -21.322 3.014e-3 -122.389 0.925 154.743
8600 0.913 -5.483 0.635 -27.785 2.97e-3 -125.047 0.917 152.7
8695 0.918 -10.38 0.656 -29.441 2.912e-3 -127.295 0.915 151.059
8790 0.921 -14.5 0.691 -37.442 2.76e-3 -130.73 0.906 148.099
8885 0.923 -18.767 0.766 -39.914 2.664e-3 -130.82 0.894 145.584
8980 0.927 -22.172 0.801 -44.394 3.041e-3 -130.47 0.892 142.471
9075 0.93 -25.936 0.858 -48.994 2.844e-3 -140.602 0.88 138.747
9170 0.927 -28.911 0.912 -55.079 3.184e-3 -142.934 0.873 134.743
9265 0.933 -32.06 1 -60.301 2.986e-3 -150.148 0.858 130.049
9360 0.93 -34.888 1.082 -65.246 2.746e-3 -153.026 0.857 125.847
9455 0.93 -37.535 1.169 -70.924 2.92e-3 -157.244 0.843 119.741
9550 0.925 -40.298 1.261 -76.961 2.742e-3 -161.741 0.836 115
9645 0.926 -42.826 1.382 -83.31 2.575e-3 -164.95 0.833 108.67
9740 0.917 -45.777 1.507 -88.829 2.652e-3 -168.279 0.822 102.256
9835 0.912 -48.266 1.656 -96.16 2.545e-3 -172.59 0.822 96.15
9930 0.905 -51.694 1.777 -101.385 2.39e-3 -179.032 0.815 89.62
10025 0.887 -54.787 1.903 -109.472 2.531e-3 177.964 0.813 83.686
10120 0.875 -58.602 2.155 -116.847 2.308e-3 173.14 0.813 77.513
10215 0.854 -62.728 2.235 -125.352 2.413e-3 169.822 0.809 72.154
10310 0.83 -67.413 2.533 -134.521 2.375e-3 163.27 0.816 66.959
10405 0.801 -72.63 2.826 -141.546 2.151e-3 161.128 0.815 61.492
10500 0.768 -78.477 2.982 -150.651 1.855e-3 151.339 0.816 56.815
10595 0.727 -85.364 3.24 -158.752 1.803e-3 143.965 0.814 52.321
10690 0.676 -92.72 3.381 -167.765 1.752e-3 144.374 0.809 48.423
10785 0.626 -101.405 3.635 178.541 1.47e-3 136.933 0.809 44.999
10880 0.57 -111.184 3.966 171.531 1.326e-3 134.512 0.803 41.488
10975 0.503 -121.928 3.96 158.664 1.287e-3 134.251 0.804 38.75
11070 0.447 -133.068 4.416 147.824 1.049e-3 145.727 0.8 35.45
11165 0.395 -146.575 4.405 140.279 1.004e-3 138.669 0.79 33.023
11260 0.339 -159.71 4.409 128.412 995.2e-6 143.857 0.782 30.452
11355 0.299 -172.102 4.514 117.339 885.5e-6 156.018 0.773 28.272
11450 0.267 174.295 4.686 105.741 976.7e-6 151.413 0.765 25.837
11545 0.236 161.163 4.698 97.637 820.4e-6 156.455 0.753 23.41
11640 0.217 151.143 4.43 90.654 1.221e-3 144.525 0.745 21.028
11735 0.208 139.437 4.711 75.829 1.111e-3 157.217 0.733 18.284
11830 0.19 128.834 4.828 74.655 1.174e-3 157.371 0.717 15.613
11925 0.173 123.157 4.214 60.63 1.383e-3 144.26 0.703 13.195
12020 0.165 116.467 4.97 49.477 1.268e-3 136.357 0.692 9.801
12115 0.147 110.198 4.776 44.081 1.339e-3 132.911 0.67 5.728
12210 0.127 105.533 4.813 38.312 1.191e-3 128.212 0.647 2.158
12305 0.111 104.098 4.445 27.335 1.19e-3 124.695 0.626 -1.906
12400 0.094 95.348 4.965 18.591 1.246e-3 116.869 0.598 -6.137
12495 0.068 88.531 4.566 17.308 1.299e-3 112.995 0.573 -10.096
12590 0.052 79.268 4.666 1.874 1.117e-3 103.54 0.554 -14.901
12685 0.038 55.31 4.879 -6.856 1.247e-3 87.284 0.529 -20.625
12780 0.033 14.29 5.323 -14.31 877.5e-6 74.891 0.496 -26.005
12875 0.04 -24.449 4.745 -19.367 678.8e-6 54.305 0.471 -30.776
12970 0.054 -43.84 4.588 -36.627 559.8e-6 0.602 0.456 -36.751
13065 0.073 -55.417 5.108 -36.062 268e-6 -72.699 0.435 -43.863
13160 0.094 -63.123 4.544 -45.562 349.6e-6 -96.078 0.418 -50.032
13255 0.109 -66.669 4.61 -55.22 689.3e-6 -124.978 0.41 -59.468
13350 0.13 -67.406 4.981 -62.307 953.9e-6 -151.153 0.389 -69.766
13445 0.15 -69.87 5.437 -70.024 1.31e-3 -164.849 0.366 -80.527
13540 0.165 -69.582 4.794 -77.256 1.569e-3 -172.046 0.338 -90.731
13635 0.186 -68.326 4.926 -89.774 1.488e-3 -173.144 0.327 -100.095
13730 0.203 -68.582 5.179 -98.592 2.023e-3 -178.922 0.317 -113.761
13825 0.22 -67.439 4.911 -102.786 2.243e-3 156.594 0.303 -126.258
13920 0.234 -67.339 4.829 -113.772 2.036e-3 146.373 0.296 -140.248
14015 0.257 -66.98 5.271 -126.812 2.251e-3 145.121 0.279 -154.156
14110 0.274 -69.387 5.268 -127.709 2.116e-3 132.636 0.266 -164.789
14205 0.289 -69.303 5.081 -137.687 2.32e-3 124.911 0.269 -174.604
14300 0.31 -70.897 5.114 -150.05 2.229e-3 125.348 0.273 174.176
14395 0.328 -72.466 5.113 -157.241 2.443e-3 111.317 0.271 164.646
14490 0.341 -74.084 5.147 -166.033 2.338e-3 107.126 0.274 156.704
14585 0.361 -74.495 4.949 -176.742 2.297e-3 102.76 0.275 148.461
14680 0.376 -76.982 5.136 173.369 2.111e-3 83.52 0.27 140.158
14775 0.385 -77.96 5.366 167.834 2.311e-3 83.269 0.257 134.573
14870 0.397 -79.924 5.035 159.379 2.198e-3 79.306 0.253 130.742
14965 0.406 -81.415 5.16 147.998 1.681e-3 73.81 0.248 124.476
15060 0.415 -84.546 5.254 139.755 1.555e-3 68.621 0.228 120.215
15155 0.42 -86.406 5.134 129.866 1.281e-3 64.96 0.218 116.692
15250 0.438 -88.729 5.181 119.549 1.226e-3 68.935 0.199 110.971
15345 0.443 -91.456 5.299 109.73 1.073e-3 58.891 0.167 106.544
15440 0.453 -93.073 5.357 100.638 1.082e-3 71.603 0.134 105.253
15535 0.469 -95.452 5.387 90.286 1.054e-3 52.977 0.101 104.039
15630 0.479 -97.316 5.449 79.654 962e-6 62.094 0.065 104.962
15725 0.49 -98.92 5.446 68.507 955.9e-6 60.097 0.028 123.706
15820 0.499 -100.842 5.507 57.154 794.1e-6 47.034 0.028 -142.002
15915 0.512 -102.902 5.425 46.713 830.1e-6 68.453 0.058 -113.157
16010 0.516 -104.998 5.364 33.287 821.6e-6 39.427 0.112 -109.895
16105 0.523 -106.907 5.451 21.696 683.3e-6 47.956 0.145 -117.002
16200 0.538 -108.549 5.304 9.295 646.1e-6 50.455 0.181 -115.608
16295 0.539 -111.15 5.281 -4.012 633.6e-6 33.008 0.214 -120.177
16390 0.552 -112.162 5.039 -16.175 483.9e-6 37.346 0.237 -120.338
16485 0.558 -114.374 4.874 -29.329 602.5e-6 44.463 0.261 -123.521
16580 0.561 -115.013 4.663 -41.714 225e-6 42.315 0.27 -124.82
16675 0.569 -116.417 4.356 -55.149 333.4e-6 38.499 0.288 -127.484
16770 0.567 -116.786 4.236 -68.414 274.2e-6 30.143 0.275 -130.085
16865 0.572 -118.145 3.983 -80.949 199.2e-6 -11.561 0.271 -129.829
16960 0.57 -118.486 3.765 -94.276 412.7e-6 4.643 0.255 -132.066
17055 0.579 -119.488 3.542 -106.631 445.5e-6 -36.477 0.241 -131.019
17150 0.582 -120.981 3.254 -120.03 199.5e-6 -128.731 0.219 -133.729
17245 0.59 -122.41 3.005 -133.419 79.78e-6 -136.169 0.186 -136.192
17340 0.597 -124.233 2.761 -146.467 437.8e-6 -131.097 0.143 -140.729
17435 0.603 -126.365 2.502 -159.658 352.8e-6 -170.698 0.088 -145.214
17530 0.609 -128.149 2.273 -172.589 171.6e-6 175.981 0.026 -158.219
17625 0.622 -130.341 2.053 174.131 340.7e-6 174.541 0.037 47.026
17720 0.627 -133.339 1.857 161.689 146.7e-6 -141.701 0.111 38.368
17815 0.636 -136.496 1.655 148.396 297.4e-6 -172.514 0.186 33.536
17910 0.642 -140.459 1.472 135.763 470.1e-6 173.233 0.272 31.466
18005 0.652 -144.859 1.266 122.138 542e-6 -155.991 0.356 25.593
18100 0.656 -150.009 1.113 109.96 518.4e-6 -163.115 0.436 22.824
18195 0.668 -155.349 0.932 97.469 542.9e-6 -165.826 0.514 17.97
18290 0.68 -161.058 0.805 85.074 754.1e-6 -178.944 0.571 15.177
18385 0.694 -166.64 0.681 74.621 855.3e-6 -179.412 0.633 12.047
18480 0.705 -172.135 0.577 63.915 688.6e-6 178.753 0.678 9.596
18575 0.73 -177.141 0.488 53.495 1.026e-3 -179.497 0.722 7.319
18670 0.742 176.745 0.411 43.367 817.6e-6 163.821 0.75 4.928
18765 0.757 172.574 0.346 33.811 686.7e-6 159.193 0.782 3.41
18860 0.779 166.619 0.29 24.524 626.4e-6 155.142 0.8 1.09
18955 0.789 162.672 0.245 15.921 630.7e-6 175.433 0.817 -0.274
19050 0.815 157.219 0.202 7.003 1.025e-3 -171.146 0.826 -2.425
19145 0.82 154.325 0.172 -1.625 891.2e-6 178.098 0.838 -4.189
19240 0.851 150.228 0.143 -7.323 918.6e-6 -173.396 0.835 -7.044
19335 0.85 147.596 0.12 -16.624 1.152e-3 175.876 0.831 -9.264
19430 0.88 145.997 0.104 -21.524 745.5e-6 169.513 0.827 -12.81
19525 0.887 143.84 0.086 -29.331 1.305e-3 167.1 0.812 -16.271
19620 0.899 142.773 0.076 -36.306 908.6e-6 155.736 0.799 -20.654
19715 0.907 141.578 0.063 -43.442 1.053e-3 157.989 0.78 -26.014
19810 0.92 141.124 0.057 -52.302 1.042e-3 144.165 0.763 -33.128
19905 0.924 139.803 0.048 -57.534 1.059e-3 152.319 0.731 -41.172
20000 0.931 139.782 0.039 -67.015 1.099e-3 162.427 0.713 -50.533
