!Hittite Microwave Corporation								
!20 Alpha Rd								
!Chelmsford, MA 01824								
!Tel: 978-250-3343								
!Fax: 978-250-3373
!Device: HMC469MS8G, DC - 5 GHz SiGe HBT Dual Channel Gain Block in 8 lead MSOP SMT package
!Misc: Data taken on a part mounted evaluation PCB 104421-2,Bias: +8VDC	thru Bias Tee on the output; Channel 2
# MHZ S MA R 50

0.01 0.259 174.358 5.789 177.69 0.104 -1.581 0.127 171.186
50.01 0.261 175.729 5.794 176.504 0.106 -1.56 0.128 176.561
100.01 0.263 173.857 5.777 174.238 0.106 -2.416 0.13 176.476
150.01 0.263 170.62 5.759 171.509 0.105 -3.597 0.131 175.079
200.01 0.266 167.969 5.745 168.897 0.105 -4.689 0.135 173.819
250.01 0.265 165.72 5.74 166.364 0.105 -5.729 0.135 171.562
300.01 0.268 162.048 5.722 163.665 0.105 -6.881 0.14 171.608
350.01 0.271 159.876 5.699 161.038 0.105 -7.855 0.145 169.586
400.01 0.274 157.159 5.672 158.376 0.104 -8.916 0.15 168.175
450.01 0.276 155.077 5.667 155.78 0.104 -9.846 0.156 165.828
500.01 0.28 152.496 5.635 153.241 0.104 -10.911 0.161 164.959
550.009 0.285 150.026 5.622 150.666 0.103 -11.796 0.17 163.678
600.009 0.292 147.777 5.583 148.128 0.103 -12.76 0.178 162.596
650.009 0.297 146.205 5.559 145.642 0.102 -13.601 0.187 160.863
700.009 0.302 144.323 5.537 143.136 0.102 -14.429 0.194 159.332
750.009 0.306 142.232 5.502 140.651 0.102 -15.252 0.202 158.241
800.009 0.313 140.453 5.466 138.163 0.101 -16.08 0.212 156.761
850.009 0.319 138.903 5.447 135.739 0.101 -16.853 0.221 155.536
900.009 0.323 137.685 5.415 133.269 0.101 -17.574 0.229 153.955
950.009 0.326 136.231 5.379 130.852 0.1 -18.312 0.236 152.5
1000.009 0.333 134.768 5.354 128.425 0.1 -19.088 0.246 151.185
1050.009 0.337 133.129 5.319 126.048 0.1 -19.871 0.254 150.05
1100.009 0.342 132.104 5.281 123.64 0.1 -20.531 0.263 148.746
1150.009 0.345 130.78 5.267 121.239 0.1 -21.292 0.271 147.346
1200.009 0.351 129.645 5.221 118.891 0.099 -21.907 0.28 146.027
1250.009 0.354 128.347 5.185 116.609 0.099 -22.582 0.288 144.898
1300.009 0.36 127.267 5.161 114.247 0.099 -23.287 0.298 143.732
1350.009 0.362 125.875 5.124 111.901 0.099 -23.925 0.305 142.656
1400.009 0.366 124.959 5.089 109.637 0.099 -24.537 0.313 141.48
1450.009 0.37 123.727 5.059 107.345 0.099 -25.15 0.323 140.448
1500.008 0.373 122.9 5.025 105.105 0.099 -25.74 0.331 139.258
1550.008 0.374 121.324 4.99 102.848 0.099 -26.435 0.336 138.585
1600.008 0.378 120.649 4.951 100.636 0.099 -27.029 0.344 137.435
1650.008 0.381 119.319 4.928 98.33 0.099 -27.615 0.351 136.556
1700.008 0.382 118.679 4.894 96.228 0.099 -28.217 0.358 135.457
1750.008 0.384 117.53 4.857 93.989 0.099 -28.845 0.363 134.484
1800.008 0.384 116.661 4.831 91.85 0.099 -29.296 0.369 133.7
1850.008 0.386 115.489 4.805 89.613 0.1 -29.995 0.374 132.742
1900.008 0.385 114.567 4.778 87.503 0.1 -30.574 0.379 131.991
1950.008 0.387 113.841 4.743 85.271 0.1 -31.205 0.384 130.846
2000.008 0.387 112.927 4.723 83.166 0.101 -31.69 0.388 130.137
2050.008 0.386 112.05 4.693 81.017 0.101 -32.442 0.392 128.991
2100.008 0.384 111.209 4.665 78.913 0.101 -32.983 0.394 128.147
2150.008 0.383 110.248 4.641 76.78 0.101 -33.648 0.398 127.252
2200.008 0.38 109.57 4.624 74.654 0.102 -34.179 0.399 126.225
2250.008 0.378 108.561 4.6 72.56 0.103 -34.886 0.402 125.516
2300.008 0.374 107.848 4.57 70.394 0.103 -35.555 0.402 124.367
2350.008 0.37 106.675 4.553 68.264 0.104 -36.194 0.404 123.948
2400.008 0.368 105.834 4.543 66.119 0.104 -36.839 0.405 122.686
2450.008 0.363 104.805 4.517 64.031 0.105 -37.511 0.404 121.916
2500.007 0.36 104.026 4.493 61.82 0.106 -38.247 0.406 120.858
2550.007 0.355 103.042 4.474 59.727 0.107 -38.982 0.403 119.97
2600.007 0.349 101.854 4.458 57.522 0.107 -39.752 0.404 119.249
2650.007 0.346 100.814 4.446 55.383 0.108 -40.49 0.402 118.033
2700.007 0.341 99.759 4.426 53.265 0.109 -41.256 0.402 117.175
2750.007 0.335 98.96 4.408 51.064 0.11 -42.083 0.4 115.937
2800.007 0.329 97.461 4.392 48.928 0.111 -42.86 0.397 115.124
2850.007 0.325 96.203 4.379 46.619 0.112 -43.738 0.397 113.835
2900.007 0.32 94.818 4.364 44.39 0.113 -44.552 0.395 112.74
2950.007 0.316 93.668 4.341 42.211 0.114 -45.512 0.395 111.52
3000.007 0.312 92.552 4.324 40.036 0.114 -46.437 0.393 110.149
3050.007 0.305 91.123 4.309 37.753 0.115 -47.377 0.391 109.326
3100.007 0.302 89.469 4.296 35.517 0.117 -48.404 0.391 107.802
3150.007 0.299 87.905 4.274 33.359 0.117 -49.367 0.391 106.694
3200.007 0.297 86.607 4.257 31.085 0.118 -50.335 0.39 105.051
3250.007 0.292 84.983 4.239 28.856 0.119 -51.351 0.388 103.657
3300.007 0.288 83.429 4.222 26.547 0.12 -52.424 0.387 102.081
3350.007 0.285 81.193 4.203 24.24 0.121 -53.514 0.386 100.744
3400.007 0.286 79.6 4.19 21.972 0.122 -54.618 0.388 99.073
3450.007 0.285 78.445 4.166 19.666 0.123 -55.769 0.387 97.021
3500.006 0.283 77.091 4.144 17.349 0.124 -56.819 0.386 95.387
3550.006 0.283 74.816 4.126 14.973 0.125 -58.051 0.388 93.099
3600.006 0.284 72.82 4.1 12.656 0.126 -59.258 0.389 91.293
3650.006 0.288 70.931 4.084 10.269 0.127 -60.466 0.393 88.96
3700.006 0.291 69.947 4.063 7.939 0.128 -61.61 0.394 86.438
3750.006 0.292 68.062 4.034 5.582 0.129 -62.926 0.397 84.259
3800.006 0.295 66.02 4.008 3.169 0.13 -64.203 0.401 81.875
3850.006 0.302 63.68 3.974 0.755 0.13 -65.575 0.407 79.639
3900.006 0.309 62.077 3.945 -1.689 0.131 -66.9 0.414 76.895
3950.006 0.317 60.72 3.916 -4.026 0.132 -68.148 0.42 74.457
4000.006 0.323 59.018 3.881 -6.416 0.133 -69.513 0.427 71.738
4050.006 0.329 56.919 3.848 -8.813 0.133 -70.852 0.434 69.604
4100.006 0.34 54.343 3.806 -11.199 0.133 -72.3 0.445 67.248
4150.006 0.353 52.978 3.764 -13.573 0.134 -73.649 0.455 64.784
4200.006 0.362 51.492 3.725 -15.908 0.134 -75.004 0.464 62.324
4250.006 0.371 50.017 3.684 -18.254 0.134 -76.268 0.473 59.83
4300.006 0.383 47.657 3.648 -20.568 0.135 -77.576 0.485 57.861
4350.006 0.396 46.153 3.604 -22.921 0.135 -78.956 0.496 55.339
4400.006 0.41 44.557 3.553 -25.2 0.135 -80.239 0.507 53.215
4450.006 0.421 43.753 3.507 -27.417 0.135 -81.484 0.516 50.621
4500.005 0.429 42.133 3.464 -29.623 0.135 -82.794 0.525 48.695
4550.005 0.441 40.301 3.415 -31.938 0.135 -84.173 0.538 46.645
4600.005 0.457 38.554 3.368 -34.102 0.135 -85.393 0.551 44.509
4650.005 0.469 37.766 3.314 -36.189 0.135 -86.591 0.562 42.486
4700.005 0.482 36.773 3.263 -38.256 0.134 -87.767 0.572 40.379
4750.005 0.489 35.878 3.219 -40.28 0.134 -88.879 0.581 38.625
4800.005 0.499 33.996 3.171 -42.432 0.134 -90.113 0.592 36.866
4850.005 0.513 32.581 3.117 -44.442 0.133 -91.241 0.604 35.24
4900.005 0.526 32.061 3.064 -46.277 0.133 -92.197 0.614 33.521
4950.005 0.534 31.512 3.025 -48.06 0.133 -93.151 0.622 31.977
5000.005 0.541 30.383 2.982 -49.968 0.132 -94.166 0.63 30.536
5050.005 0.548 28.899 2.938 -51.898 0.132 -95.21 0.638 29.303
5100.005 0.56 27.71 2.89 -53.638 0.132 -96.147 0.647 28.062
5150.005 0.57 27.241 2.847 -55.267 0.131 -96.941 0.655 26.711
5200.005 0.575 26.937 2.806 -56.885 0.131 -97.705 0.66 25.525
5250.005 0.577 25.941 2.781 -58.591 0.132 -98.647 0.665 24.455
5300.005 0.584 24.484 2.746 -60.334 0.132 -99.591 0.671 23.591
5350.005 0.592 23.508 2.704 -61.982 0.131 -100.416 0.676 22.537
5400.005 0.598 23.224 2.666 -63.464 0.131 -101.095 0.68 21.463
5450.005 0.6 22.988 2.636 -64.938 0.131 -101.753 0.683 20.484
5500.005 0.6 22.187 2.615 -66.549 0.132 -102.605 0.684 19.64
5550.004 0.603 20.71 2.593 -68.269 0.132 -103.555 0.689 18.837
5600.004 0.61 19.879 2.559 -69.81 0.132 -104.317 0.692 17.864
5650.004 0.613 19.859 2.531 -71.159 0.133 -104.934 0.693 16.977
5700.004 0.612 19.582 2.514 -72.596 0.133 -105.639 0.693 16.148
5750.004 0.609 18.611 2.501 -74.177 0.134 -106.455 0.692 15.452
5800.004 0.609 17.372 2.486 -75.741 0.135 -107.279 0.693 14.651
5850.004 0.612 16.478 2.462 -77.308 0.136 -108.082 0.694 13.772
5900.004 0.615 16.381 2.44 -78.716 0.136 -108.787 0.693 12.86
5950.004 0.609 16.316 2.434 -80.185 0.137 -109.544 0.688 12.041
6000.004 0.602 14.98 2.431 -81.878 0.139 -110.541 0.685 11.343
6050.004 0.601 13.477 2.417 -83.586 0.14 -111.562 0.684 10.48
6100.004 0.604 12.913 2.407 -85.082 0.141 -112.351 0.683 9.611
6150.004 0.602 12.696 2.397 -86.611 0.142 -113.184 0.679 8.583
6200.004 0.594 12.34 2.395 -88.191 0.144 -114.056 0.674 7.668
6250.004 0.584 10.898 2.396 -90.007 0.145 -115.178 0.669 6.812
6300.004 0.581 8.943 2.39 -91.917 0.147 -116.449 0.665 5.849
6350.004 0.584 7.966 2.382 -93.658 0.148 -117.574 0.664 4.618
6400.004 0.581 7.82 2.377 -95.306 0.15 -118.548 0.658 3.312
6450.004 0.569 6.968 2.38 -97.13 0.152 -119.714 0.652 2.255
6500.004 0.559 4.942 2.381 -99.179 0.154 -121.105 0.647 1.225
6550.003 0.555 2.554 2.378 -101.279 0.155 -122.55 0.644 9.616e-3
6600.003 0.557 1.254 2.375 -103.207 0.157 -123.879 0.641 -1.539
6650.003 0.554 0.625 2.371 -105.016 0.158 -125.079 0.635 -3.031
6700.003 0.543 -0.421 2.374 -107.016 0.161 -126.434 0.629 -4.397
6750.003 0.53 -3.552 2.378 -109.413 0.163 -128.208 0.624 -5.592
6800.003 0.531 -6.838 2.37 -111.787 0.164 -129.996 0.625 -7.25
6850.003 0.534 -8.807 2.358 -114.021 0.165 -131.644 0.622 -9.144
6900.003 0.533 -9.84 2.355 -116.101 0.167 -133.13 0.618 -11.088
6950.003 0.522 -11.781 2.358 -118.399 0.169 -134.848 0.614 -12.827
7000.003 0.517 -15.798 2.35 -121.083 0.17 -136.907 0.615 -14.485
7050.003 0.523 -19.465 2.333 -123.698 0.171 -138.939 0.617 -16.663
7100.003 0.531 -21.523 2.313 -126.011 0.172 -140.702 0.618 -19.064
7150.003 0.532 -23.339 2.299 -128.328 0.173 -142.492 0.618 -21.631
7200.003 0.531 -25.735 2.292 -130.786 0.174 -144.438 0.619 -23.862
7250.003 0.533 -29.892 2.276 -133.586 0.175 -146.61 0.625 -26.088
7300.003 0.545 -33.815 2.246 -136.403 0.174 -148.831 0.631 -28.714
7350.003 0.558 -35.916 2.213 -138.878 0.174 -150.848 0.636 -31.577
7400.003 0.564 -37.835 2.189 -141.209 0.174 -152.671 0.64 -34.328
7450.003 0.569 -40.348 2.165 -143.709 0.174 -154.652 0.645 -36.878
7500.003 0.574 -44.549 2.142 -146.679 0.174 -157.049 0.654 -39.423
7550.002 0.595 -48.672 2.094 -149.495 0.172 -159.402 0.665 -42.065
7600.002 0.613 -49.85 2.052 -151.819 0.171 -161.232 0.675 -44.924
7650.002 0.62 -51.614 2.016 -154.05 0.169 -162.85 0.681 -47.672
7700.002 0.627 -54.293 1.983 -156.545 0.168 -164.912 0.69 -50.078
7750.002 0.637 -58.423 1.938 -159.373 0.167 -167.278 0.7 -52.311
7800.002 0.661 -61.13 1.883 -161.829 0.163 -169.298 0.713 -54.782
7850.002 0.68 -62.251 1.832 -163.936 0.161 -170.822 0.723 -57.548
7900.002 0.687 -63.111 1.8 -165.868 0.16 -172.139 0.731 -59.668
7950.002 0.693 -66.171 1.762 -168.205 0.158 -174.076 0.742 -61.672
8000.002 0.71 -68.842 1.712 -170.477 0.155 -175.91 0.753 -63.585
8050.002 0.728 -71.005 1.656 -172.639 0.152 -177.5 0.764 -65.582
8100.002 0.745 -71.436 1.606 -174.238 0.149 -178.649 0.773 -67.622
8150.002 0.75 -71.918 1.568 -175.835 0.147 -179.882 0.78 -69.281
8200.002 0.755 -73.859 1.534 -177.68 0.145 178.64 0.786 -70.704
8250.002 0.768 -76.5 1.486 -179.635 0.142 177.145 0.797 -72.201
8300.002 0.788 -77.072 1.435 178.821 0.138 176.131 0.805 -73.718
8350.002 0.795 -76.606 1.397 177.838 0.136 175.482 0.81 -74.915
8400.002 0.8 -76.959 1.371 176.626 0.135 174.884 0.817 -76.118
8450.002 0.801 -78.509 1.343 175.1 0.133 173.66 0.823 -77.039
8500.002 0.81 -80.85 1.302 173.415 0.131 172.769 0.83 -77.966
8550.001 0.828 -81.229 1.257 172.337 0.128 171.899 0.836 -78.868
8600.001 0.835 -80.388 1.224 171.628 0.125 171.713 0.841 -79.687
8650.001 0.833 -80.074 1.205 170.858 0.125 171.283 0.843 -80.306
8700.001 0.832 -81.336 1.184 169.677 0.123 170.51 0.847 -80.756
8750.001 0.841 -83.096 1.154 168.437 0.122 169.762 0.854 -81.237
8800.001 0.854 -82.764 1.117 167.738 0.119 169.669 0.857 -81.709
8850.001 0.858 -81.341 1.094 167.363 0.119 169.589 0.858 -82.21
8900.001 0.851 -80.97 1.081 166.884 0.118 169.3 0.856 -82.313
8950.001 0.852 -82.279 1.071 165.858 0.117 168.761 0.864 -82.408
9000.001 0.86 -82.974 1.048 165.03 0.116 168.528 0.865 -82.59
9050.001 0.867 -82.561 1.026 164.514 0.115 168.58 0.867 -82.862
9100.001 0.87 -81.043 1.01 164.366 0.114 168.764 0.864 -82.991
9150.001 0.863 -80.39 1.007 164.021 0.115 168.532 0.865 -82.896
9200.001 0.86 -81.288 1.001 163.161 0.116 168.187 0.863 -83.003
9250.001 0.863 -82.479 0.988 162.201 0.115 167.718 0.864 -82.98
9300.001 0.872 -81.774 0.968 161.957 0.114 167.663 0.864 -83.135
9350.001 0.872 -79.916 0.965 161.847 0.115 168.129 0.86 -82.997
9400.001 0.866 -79.028 0.967 161.447 0.116 168.083 0.86 -83.26
9450.001 0.854 -80.02 0.973 160.518 0.118 167.692 0.857 -83.019
9500.001 0.857 -81.471 0.965 159.57 0.118 167.1 0.855 -83.16
9550 0.864 -80.983 0.955 158.898 0.118 166.552 0.854 -83.571
9600 0.864 -78.875 0.952 159.224 0.119 167.512 0.85 -83.156
9650 0.848 -77.957 0.965 158.676 0.121 167.542 0.842 -83.445
9700 0.838 -79.095 0.974 157.661 0.124 166.743 0.838 -83.762
9750 0.835 -80.843 0.971 156.342 0.125 165.713 0.836 -83.832
9800 0.845 -80.166 0.97 156.041 0.126 166.104 0.835 -83.657
9850 0.838 -78.449 0.977 155.689 0.129 165.965 0.824 -84.276
9900 0.825 -77.709 0.992 155.108 0.132 165.803 0.819 -84.439
9950 0.808 -79.654 1.008 153.584 0.136 164.443 0.812 -84.643
10000 0.791 -81.706 1.024 152.007 0.14 163.027 0.806 -84.886
