!Hittite Microwave Corporation								
!12 Elizabeth Drive								
!Chelmsford, MA 01824								
!Tel: 978-250-3343								
!Fax: 978-250-3373								
!Device: HMC491LP3, 3.4-3.8 GHz, GaAs MMIC Low Noise Amplifier with Bypass Mode in leadless SMT package																	
!Misc: LNA Mode, Room
!
# MHZ S MA R 50

50 0.991 -1.811 5.002e-3 -120.253 1.05e-3 -2.063 0.99 -2.704
100 0.991 -2.986 9.064e-3 -135.129 1.248e-3 72.091 0.994 -4.8
150 0.989 -4.239 0.015 -116.898 1.341e-3 61.852 0.995 -6.612
200 0.988 -5.335 8.266e-3 -116.577 1.599e-3 52.883 0.998 -8.582
250 0.987 -6.58 0.018 -159.351 1.807e-3 80.899 0.997 -10.053
300 0.986 -7.913 0.016 -145.84 2.162e-3 82.8 0.993 -12.115
350 0.984 -9.248 0.024 178.84 2.11e-3 84.52 0.994 -14.197
400 0.981 -10.722 0.026 174.132 2.498e-3 77.902 0.991 -15.595
450 0.984 -12.187 0.03 172.018 3.224e-3 80.168 0.986 -17.633
500 0.983 -13.408 0.035 170.218 3.064e-3 76.608 0.985 -19.407
550 0.983 -14.473 0.035 166.634 3.248e-3 95.294 0.975 -21.411
600 0.981 -15.628 0.047 174.082 4.065e-3 74.182 0.973 -23.753
650 0.98 -17.071 0.047 166.875 2.934e-3 85.705 0.968 -25.437
700 0.978 -18.476 0.05 167.049 4.29e-3 82.699 0.96 -28.152
750 0.978 -19.795 0.054 167.233 4.677e-3 79.253 0.966 -30.367
800 0.978 -21.036 0.06 165.716 4.698e-3 91.376 0.96 -32.18
850 0.974 -22.221 0.065 164.413 5.921e-3 92.463 0.962 -35.136
900 0.971 -23.565 0.069 171.007 6.597e-3 82.007 0.97 -36.699
950 0.969 -24.773 0.083 156.39 6.351e-3 92.53 0.962 -38.661
1000 0.967 -26.023 0.087 170.692 5.954e-3 84.372 0.974 -40.916
1050 0.967 -27.255 0.098 170.216 6.804e-3 88.706 0.977 -42.438
1100 0.964 -28.449 0.107 170.056 6.994e-3 88.216 0.977 -44.351
1150 0.961 -29.902 0.122 171.976 7.642e-3 79.786 0.982 -45.898
1200 0.958 -31.388 0.134 170.357 8.02e-3 85.297 0.977 -47.378
1250 0.955 -32.974 0.146 170.481 7.553e-3 80.171 0.977 -48.859
1300 0.958 -34.435 0.166 169.713 8.985e-3 85.003 0.971 -50.052
1350 0.951 -35.169 0.178 169.663 9.66e-3 79.763 0.963 -51.916
1400 0.949 -36.165 0.199 170.889 8.697e-3 74.469 0.962 -53.494
1450 0.946 -37.478 0.223 169.899 9.744e-3 77.709 0.949 -54.79
1500 0.943 -38.854 0.242 171.068 9.209e-3 79.948 0.941 -56.891
1550 0.941 -40.28 0.273 170.36 9.775e-3 83.27 0.936 -58.461
1600 0.938 -41.427 0.305 169.623 9.058e-3 84.123 0.92 -60.283
1650 0.934 -42.655 0.332 169.173 0.011 75.863 0.917 -62.338
1700 0.932 -43.973 0.378 170.137 0.011 83.067 0.905 -64.273
1750 0.929 -45.252 0.415 167.455 8.565e-3 88.285 0.904 -66.685
1800 0.928 -46.421 0.45 168.281 9.367e-3 74.611 0.896 -68.431
1850 0.926 -47.538 0.518 165.193 9.931e-3 82.043 0.886 -70.813
1900 0.923 -48.547 0.577 163.744 9.624e-3 81.634 0.892 -73.029
1950 0.921 -49.804 0.648 164.191 8.896e-3 70.131 0.884 -74.645
2000 0.918 -51.262 0.707 160.723 9.968e-3 73.903 0.88 -77.315
2050 0.917 -52.909 0.797 159.414 9.517e-3 89.554 0.88 -79.024
2100 0.916 -54.245 0.878 156.527 0.01 86.257 0.867 -81.065
2150 0.914 -55.459 0.964 156.153 0.011 81.483 0.865 -83.372
2200 0.911 -56.654 1.113 153.451 9.258e-3 78.431 0.858 -85.061
2250 0.909 -58.197 1.212 150.483 0.01 82.993 0.851 -87.451
2300 0.909 -60.082 1.377 148.602 0.011 82.792 0.846 -89.331
2350 0.906 -61.926 1.518 144.28 0.011 89.49 0.828 -91.393
2400 0.904 -63.59 1.66 142.865 0.012 80.845 0.814 -94.14
2450 0.902 -65.239 1.905 139.187 0.014 79.337 0.804 -96.324
2500 0.9 -67.367 2.079 135.538 0.013 77.958 0.787 -99.076
2550 0.898 -69.747 2.373 131.509 0.012 80.709 0.77 -101.635
2600 0.896 -72.292 2.608 126.114 0.013 74.034 0.745 -104.161
2650 0.893 -74.92 2.869 122.711 0.011 79.061 0.72 -107.362
2700 0.891 -77.535 3.256 118.412 0.015 68.542 0.695 -111.013
2750 0.885 -80.56 3.615 112.911 0.015 62.851 0.671 -114.091
2800 0.874 -84.052 4.022 107.004 0.015 53.524 0.635 -117.452
2850 0.864 -88.15 4.45 100.959 0.014 51.599 0.591 -121.746
2900 0.853 -92.341 4.928 94.941 0.018 46.831 0.549 -126.071
2950 0.835 -96.872 5.419 87.908 0.017 41.368 0.502 -129.907
3000 0.808 -101.854 5.941 80.285 0.017 30.195 0.439 -133.504
3050 0.772 -107.389 6.445 71.729 0.016 22.089 0.372 -136.521
3100 0.729 -113.345 6.916 63.357 0.017 19.467 0.295 -138.335
3150 0.674 -119.277 7.335 54.342 0.018 5.882 0.232 -136.829
3200 0.611 -125.261 7.652 44.691 0.02 -9.269 0.176 -125.551
3250 0.541 -130.797 7.871 35.356 0.018 -14.684 0.141 -103.587
3300 0.469 -136.102 7.988 25.785 0.02 -26.235 0.163 -81.319
3350 0.4 -140.255 7.941 16.581 0.021 -38.289 0.205 -67.882
3400 0.337 -142.998 7.763 8.041 0.02 -53.399 0.255 -64.674
3450 0.279 -144.049 7.575 -0.058 0.02 -57.788 0.301 -65.528
3500 0.232 -143.474 7.277 -7.214 0.022 -69.054 0.338 -68.226
3550 0.192 -142.898 7.056 -14.199 0.022 -76.719 0.378 -70.627
3600 0.161 -140.897 6.718 -20.778 0.023 -86.548 0.403 -72.814
3650 0.137 -138.495 6.384 -26.055 0.021 -89.055 0.416 -76.518
3700 0.119 -135.362 6.144 -31.999 0.023 -95.469 0.436 -78.871
3750 0.102 -131.516 5.804 -36.373 0.021 -100.543 0.443 -81.715
3800 0.088 -129.807 5.665 -40.978 0.024 -104.938 0.451 -85.37
3850 0.076 -128.906 5.388 -46.072 0.025 -106.432 0.461 -86.59
3900 0.065 -129.52 5.136 -49.078 0.024 -111.988 0.456 -87.912
3950 0.055 -131.575 5.011 -53.71 0.025 -115.66 0.452 -90.402
4000 0.044 -136.756 4.733 -56.849 0.025 -118.939 0.445 -92.728
4050 0.033 -145.892 4.671 -59.936 0.026 -121.516 0.445 -96.033
4100 0.024 -167.304 4.452 -64.368 0.028 -125.938 0.443 -97.574
4150 0.022 159.994 4.272 -66.314 0.028 -127.574 0.437 -98.92
4200 0.027 129.439 4.204 -70.633 0.028 -128.283 0.425 -102.092
4250 0.038 110.592 3.974 -73.227 0.03 -130.327 0.418 -105.132
4300 0.051 100.828 3.948 -76.079 0.031 -132.059 0.416 -108.733
4350 0.065 94.806 3.767 -80.146 0.031 -133.746 0.423 -110.673
4400 0.079 91.554 3.636 -81.989 0.032 -136.319 0.426 -112.097
4450 0.096 88.649 3.561 -85.715 0.032 -137.855 0.423 -115.175
4500 0.111 86.323 3.412 -87.472 0.034 -138.902 0.424 -117.867
4550 0.127 84.055 3.366 -90.368 0.034 -137.618 0.431 -120.367
4600 0.144 82.217 3.222 -93.277 0.034 -140.727 0.436 -121.865
4650 0.16 80.721 3.138 -94.88 0.036 -139.74 0.447 -122.925
4700 0.176 79.5 3.044 -97.938 0.036 -144.148 0.442 -124.015
4750 0.192 78.146 2.943 -99.594 0.037 -145.934 0.447 -126.345
4800 0.208 76.623 2.889 -102.563 0.038 -145.823 0.456 -127.404
4850 0.225 75.402 2.789 -104.942 0.037 -144.572 0.458 -127.641
4900 0.24 74.5 2.714 -106.761 0.038 -146.161 0.449 -129.237
4950 0.256 73.222 2.65 -109.078 0.039 -147.448 0.448 -130.877
5000 0.271 72.189 2.572 -111.077 0.04 -147.717 0.442 -132.402
5050 0.287 70.765 2.496 -113.655 0.04 -148.285 0.441 -134.521
5100 0.301 70.068 2.434 -115.512 0.04 -148.652 0.439 -135.952
5150 0.317 69.39 2.358 -117.904 0.041 -148.194 0.425 -138.244
5200 0.332 68.573 2.266 -120.085 0.042 -148.605 0.42 -141.694
5250 0.346 67.651 2.237 -121.884 0.042 -149.274 0.421 -144.499
5300 0.36 66.965 2.157 -124.497 0.043 -150.087 0.43 -149.161
5350 0.374 66.053 2.087 -125.649 0.043 -149.669 0.446 -150.9
5400 0.389 65.414 2.017 -127.809 0.043 -150.739 0.44 -152.07
5450 0.401 64.912 1.918 -129.493 0.044 -151.793 0.443 -155.976
5500 0.414 64.452 1.888 -130.545 0.044 -152.435 0.445 -158.424
5550 0.425 63.618 1.821 -133.12 0.043 -150.33 0.457 -162.865
5600 0.437 62.914 1.766 -133.841 0.046 -151.041 0.482 -163.728
5650 0.448 62.454 1.727 -135.863 0.047 -151.793 0.486 -164.761
5700 0.461 61.969 1.652 -137.044 0.047 -155.574 0.497 -167.262
5750 0.472 61.559 1.631 -137.731 0.046 -152.761 0.5 -167.845
5800 0.481 61.037 1.579 -139.839 0.046 -151.859 0.501 -171.56
5850 0.49 60.513 1.529 -140.65 0.046 -151.27 0.53 -173.08
5900 0.5 59.805 1.499 -142.44 0.049 -151.9 0.528 -173.139
5950 0.51 59.095 1.44 -143.394 0.049 -153.754 0.526 -175.578
6000 0.52 58.736 1.417 -144.261 0.047 -153.841 0.539 -176.014
6050 0.529 58.373 1.371 -145.953 0.047 -153.313 0.525 -178.36
6100 0.536 58.073 1.332 -146.444 0.05 -152.114 0.541 178.102
6150 0.543 57.476 1.311 -148.273 0.052 -151.983 0.541 177.756
6200 0.552 56.851 1.255 -149.324 0.049 -153.684 0.538 174.543
6250 0.559 56.351 1.233 -149.919 0.05 -152.619 0.553 172.536
6300 0.567 56.06 1.195 -151.608 0.05 -153.308 0.551 170.275
6350 0.575 55.571 1.154 -152.02 0.05 -153.12 0.566 167.182
6400 0.58 55.057 1.133 -153.246 0.051 -152.466 0.577 166.812
6450 0.586 54.492 1.093 -154.046 0.05 -152.606 0.568 163.549
6500 0.593 54.219 1.069 -154.645 0.05 -153.955 0.599 160.13
6550 0.599 53.733 1.038 -155.964 0.052 -153.064 0.609 159.797
6600 0.603 53.267 1.007 -156.345 0.052 -151.415 0.617 156.701
6650 0.609 52.655 0.984 -157.485 0.053 -149.775 0.647 155.147
6700 0.615 51.941 0.954 -158.171 0.051 -152.271 0.66 154.755
6750 0.62 51.478 0.928 -158.967 0.052 -151.347 0.674 153.504
6800 0.627 51.072 0.9 -159.638 0.052 -148.738 0.685 152.498
6850 0.63 50.656 0.879 -160.435 0.052 -150.645 0.701 150.512
6900 0.633 50.165 0.853 -161.048 0.052 -150.718 0.731 150.527
6950 0.636 49.393 0.833 -161.729 0.053 -150.129 0.739 150.924
7000 0.64 48.8 0.809 -162.28 0.053 -149.43 0.738 150.509
7050 0.641 48.459 0.79 -162.629 0.054 -149.069 0.742 150.276
7100 0.643 48.063 0.768 -162.99 0.053 -146.89 0.737 149.05
7150 0.646 47.54 0.747 -163.286 0.054 -146.696 0.755 147.669
7200 0.648 47.025 0.732 -163.997 0.053 -147.727 0.768 148.222
7250 0.65 46.669 0.714 -164.089 0.057 -147.009 0.753 147.987
7300 0.653 46.107 0.696 -164.237 0.055 -148.857 0.756 146.111
7350 0.653 45.843 0.677 -164.67 0.055 -147.83 0.762 145.526
7400 0.655 45.177 0.662 -164.827 0.055 -146.147 0.765 144.845
7450 0.657 44.563 0.648 -164.862 0.057 -143.152 0.761 144.613
7500 0.662 44.089 0.633 -164.851 0.06 -142.931 0.743 143.52
7550 0.662 43.7 0.622 -164.506 0.059 -145.536 0.74 140.952
7600 0.663 43.214 0.601 -164.559 0.058 -145.679 0.751 138.708
7650 0.663 42.567 0.589 -164.154 0.059 -142.534 0.766 137.861
7700 0.662 41.757 0.581 -164.71 0.059 -140.67 0.783 136.901
7750 0.665 41.264 0.563 -164.734 0.06 -142.634 0.792 136.494
7800 0.667 40.684 0.557 -163.983 0.061 -142.323 0.792 135.527
7850 0.666 40.214 0.544 -164.284 0.058 -141.474 0.8 134.187
7900 0.666 39.283 0.534 -163.512 0.059 -138.042 0.822 134.136
7950 0.667 38.531 0.528 -164.038 0.062 -137.788 0.829 134.364
8000 0.668 37.815 0.516 -163.619 0.065 -137.779 0.84 133.508
8050 0.67 37.317 0.511 -163.474 0.064 -137.264 0.858 134.317
8100 0.669 36.599 0.5 -163.962 0.063 -138.692 0.842 135.055
8150 0.667 35.522 0.498 -162.058 0.064 -136.758 0.844 133.805
8200 0.665 34.298 0.496 -163.543 0.068 -135.763 0.86 134.078
8250 0.669 33.177 0.48 -163.289 0.069 -137.429 0.853 134.605
8300 0.67 32.395 0.489 -162.808 0.066 -138.588 0.856 134.046
8350 0.671 31.817 0.474 -164.068 0.065 -140.718 0.853 134.965
8400 0.667 30.945 0.469 -163.164 0.061 -136.194 0.834 134.267
8450 0.667 29.615 0.472 -164.698 0.062 -132.138 0.847 134.108
8500 0.669 28.332 0.46 -164.485 0.068 -131.345 0.823 135.21
8550 0.671 27.506 0.466 -163.994 0.068 -133.854 0.798 133.328
8600 0.67 26.444 0.455 -164.749 0.064 -136.469 0.809 131.637
8650 0.667 25.495 0.457 -164.53 0.062 -129.65 0.807 131.819
8700 0.666 23.723 0.451 -165.396 0.07 -129.596 0.809 130.492
8750 0.667 21.941 0.447 -165.201 0.078 -131.741 0.814 130.229
8800 0.668 20.406 0.442 -166.342 0.075 -135.612 0.805 130.245
8850 0.67 19.476 0.427 -166.552 0.067 -134.912 0.795 128.236
8900 0.669 18.286 0.43 -165.761 0.067 -131.041 0.817 127.045
8950 0.67 16.743 0.423 -167.355 0.073 -130.055 0.825 127.161
9000 0.667 14.903 0.415 -167.415 0.076 -133.915 0.839 127.163
9050 0.669 13.177 0.408 -168.217 0.069 -136.377 0.838 127.602
9100 0.672 11.496 0.399 -168.314 0.065 -131.194 0.833 127.37
9150 0.672 10.083 0.391 -167.906 0.071 -124.796 0.836 126.352
9200 0.673 8.659 0.387 -167.79 0.08 -127.46 0.85 126.417
9250 0.676 6.875 0.382 -169.173 0.078 -131.973 0.85 126.636
9300 0.677 5.163 0.371 -168.347 0.071 -133.987 0.863 126.553
9350 0.68 3.813 0.363 -169.267 0.07 -131.417 0.854 127.978
9400 0.681 2.384 0.353 -169.082 0.071 -124.932 0.84 127.64
9450 0.679 0.748 0.347 -168.377 0.074 -126.607 0.846 127.142
9500 0.682 -1.265 0.344 -169.836 0.078 -127.836 0.839 127.462
9550 0.685 -3.541 0.339 -168.218 0.077 -123.588 0.829 126.791
9600 0.688 -5.554 0.335 -169.336 0.08 -124.886 0.821 126.424
9650 0.69 -6.986 0.324 -168.716 0.081 -123.076 0.817 125.507
9700 0.695 -8.472 0.329 -168.413 0.082 -122.193 0.832 124.393
9750 0.696 -10.03 0.314 -168.659 0.085 -121.249 0.827 124.74
9800 0.697 -12.277 0.312 -167.614 0.08 -124.934 0.823 123.748
9850 0.7 -14.638 0.301 -168.843 0.08 -122.653 0.832 124.005
9900 0.705 -16.53 0.294 -166.944 0.079 -120.274 0.807 123.466
9950 0.71 -17.86 0.298 -166.718 0.092 -119.808 0.821 121.359
10000 0.713 -19.363 0.284 -166.354 0.096 -119.294 0.836 121.756
10050 0.717 -21.189 0.284 -164.976 0.089 -127.396 0.829 121.628
