!Hittite Microwave Corporation								
!20 Alpha Road								
!Chelmsford, MA 01824								
!Tel: 978-250-3343								
!Fax: 978-250-3373								
!Device: HMC478MP86, DC-4 GHz, SiGe HBT Gain Block MMIC Amplifier in Micro-P Package.															
!Misc: +5V, Room							
!
# MHZ S MA R 50

50 0.253 129.544 18.363 136.398 0.047 -40.05 0.194 129.912
99.75 0.115 123.825 18.615 151.291 0.045 -18.914 0.056 114.888
149.5 0.094 111.736 18.601 152.604 0.045 -11.884 0.034 92.828
199.25 0.096 98.588 18.448 150.804 0.045 -7.766 0.029 71.955
249 0.103 87.337 18.223 147.769 0.045 -5.979 0.03 47.4
298.75 0.111 76.798 17.978 144.215 0.046 -4.404 0.033 38.609
348.5 0.121 66.921 17.701 140.446 0.046 -3.278 0.038 28.185
398.25 0.132 57.953 17.454 136.477 0.046 -2.457 0.041 15.521
448 0.143 50.173 17.129 132.538 0.047 -1.581 0.046 3.552
497.75 0.154 43.11 16.784 128.521 0.047 -1.444 0.051 -2.175
547.5 0.163 36.164 16.486 124.447 0.047 -0.368 0.055 -8.653
597.25 0.172 30.027 16.133 120.3 0.048 -0.521 0.059 -16.906
647 0.18 23.698 15.79 116.601 0.048 -0.047 0.064 -24.878
696.75 0.188 17.887 15.471 112.679 0.049 0.811 0.068 -32.264
746.5 0.194 12.29 15.008 108.819 0.049 0.44 0.07 -38.995
796.25 0.199 6.853 14.718 105.202 0.05 0.7 0.075 -46.449
846 0.205 1.644 14.358 101.112 0.05 1.559 0.078 -53.417
895.75 0.21 -2.908 13.993 97.705 0.051 1.277 0.082 -59.649
945.5 0.213 -8.208 13.689 94.337 0.052 1.266 0.086 -65.877
995.25 0.216 -13.47 13.316 90.317 0.053 2.187 0.09 -72.8
1045 0.22 -17.951 12.987 87.129 0.053 1.241 0.094 -78.251
1094.75 0.222 -22.982 12.709 83.553 0.054 1.613 0.097 -83.687
1144.5 0.225 -27.791 12.349 80.4 0.056 1.97 0.101 -90.216
1194.25 0.227 -32.321 12.099 77.127 0.056 1.032 0.104 -95.362
1244 0.229 -37.054 11.71 73.806 0.057 1.37 0.108 -100.122
1293.75 0.231 -41.168 11.432 70.746 0.059 0.908 0.111 -105.292
1343.5 0.234 -45.867 11.265 67.523 0.059 1.019 0.115 -110.215
1393.25 0.237 -50.01 10.919 64.334 0.061 0.197 0.118 -115.267
1443 0.239 -54.168 10.687 61.617 0.061 0.02 0.122 -118.927
1492.75 0.241 -58.191 10.412 58.397 0.064 0.133 0.124 -123.69
1542.5 0.244 -62.142 10.203 55.877 0.064 -1.274 0.128 -128.581
1592.25 0.246 -65.779 9.931 52.173 0.065 -1.569 0.131 -131.953
1642 0.249 -69.308 9.693 50.254 0.068 -1.378 0.134 -136.136
1691.75 0.251 -73.136 9.573 47.437 0.068 -3.088 0.137 -140.623
1741.5 0.254 -76.645 9.243 43.478 0.068 -3.292 0.14 -144.036
1791.25 0.256 -79.773 9.033 42.156 0.073 -3.061 0.143 -147.791
1841 0.254 -83.612 9.042 38.769 0.072 -5.994 0.144 -151.478
1890.75 0.256 -87.799 8.636 35.891 0.073 -3.702 0.147 -154.72
1940.5 0.261 -90.285 8.546 34.199 0.077 -6.798 0.15 -158.852
1990.25 0.26 -93.414 8.401 30.707 0.075 -6.955 0.151 -161.613
2040 0.258 -97.002 8.167 28.19 0.079 -6.65 0.151 -165.161
2089.75 0.262 -100.458 8.081 25.83 0.08 -9.823 0.153 -168.92
2139.5 0.263 -103.408 7.864 23.074 0.08 -9.097 0.155 -171.831
2189.25 0.262 -106.461 7.716 20.702 0.083 -9.725 0.157 -174.732
2239 0.261 -109.912 7.657 17.855 0.085 -12.641 0.156 -178.15
2288.75 0.264 -113.218 7.454 15.757 0.085 -12.503 0.158 178.391
2338.5 0.264 -116.289 7.341 13.303 0.087 -12.08 0.159 175.886
2388.25 0.264 -119.374 7.209 10.771 0.089 -15.401 0.157 172.614
2438 0.265 -122.789 7.119 8.183 0.09 -14.934 0.157 168.965
2487.75 0.267 -125.748 6.93 5.57 0.091 -16.753 0.158 165.737
2537.5 0.265 -129.087 6.82 3.902 0.094 -16.74 0.157 162.66
2587.25 0.267 -131.893 6.854 0.708 0.098 -19.502 0.155 159.287
2637 0.269 -134.305 6.563 -1.953 0.093 -19.997 0.153 156.349
2686.75 0.263 -137.93 6.563 -2.905 0.1 -18.519 0.151 152.136
2736.5 0.269 -140.788 6.55 -6.506 0.103 -24.486 0.151 149.08
2786.25 0.268 -142.858 6.294 -8.47 0.098 -23.047 0.147 145.97
2836 0.262 -145.8 6.283 -10.277 0.105 -21.917 0.142 141.349
2885.75 0.264 -148.736 6.216 -13.728 0.108 -27.236 0.143 138.195
2935.5 0.263 -150.702 6.032 -15.663 0.104 -26.983 0.138 134.906
2985.25 0.259 -152.968 6.07 -17.993 0.11 -26.155 0.132 130.797
3035 0.255 -155.866 5.936 -20.515 0.114 -30.425 0.131 125.672
3084.75 0.254 -158.367 5.874 -22.505 0.111 -30.247 0.128 122.276
3134.5 0.251 -160.709 5.769 -24.92 0.115 -30.69 0.122 117.789
3184.25 0.245 -163.6 5.731 -27.38 0.116 -33.869 0.118 111.624
3234 0.241 -166.399 5.644 -29.183 0.119 -33.633 0.118 107.069
3283.75 0.239 -168.81 5.594 -32.351 0.121 -36.688 0.115 102.704
3333.5 0.232 -171.869 5.512 -34.056 0.121 -35.716 0.11 95.7
3383.25 0.227 -174.669 5.46 -36.62 0.127 -38.718 0.109 89.799
3433 0.221 -177.514 5.457 -39.338 0.125 -39.968 0.109 83.179
3482.75 0.217 179.181 5.331 -41.698 0.13 -40.908 0.106 77.426
3532.5 0.209 175.969 5.328 -43.27 0.13 -42.97 0.106 68.629
3582.25 0.203 173.395 5.281 -46.352 0.134 -43.462 0.108 61.162
3632 0.198 169.18 5.159 -49.366 0.135 -46.076 0.108 54.898
3681.75 0.19 165.79 5.063 -50.134 0.137 -47.813 0.109 46.836
3731.5 0.182 163.203 5.165 -53.766 0.138 -47.846 0.113 38.466
3781.25 0.181 158.767 5.021 -57.313 0.145 -50.366 0.121 33.069
3831 0.17 155.373 4.847 -57.048 0.141 -53.298 0.123 26.383
3880.75 0.16 151.646 5.045 -61 0.143 -51.356 0.126 17.349
3930.5 0.16 147.289 4.841 -65.033 0.151 -56.063 0.141 12.355
3980.25 0.148 143.197 4.703 -64.228 0.147 -57.855 0.143 7.121
4030 0.141 138.686 4.878 -67.022 0.15 -57.452 0.15 0.018
4079.75 0.135 134.499 4.646 -71.964 0.155 -59.766 0.163 -4.576
4129.5 0.125 129.188 4.548 -72.383 0.154 -62.503 0.17 -9.232
4179.25 0.12 123.505 4.609 -74.782 0.154 -63.739 0.178 -13.995
4229 0.111 119.327 4.722 -78.422 0.16 -63.862 0.187 -18.707
4278.75 0.105 111.021 4.373 -80.359 0.16 -67.189 0.2 -23.123
4328.5 0.099 103.886 4.345 -81.696 0.16 -68.806 0.207 -26.372
4378.25 0.095 95.969 4.61 -83.694 0.162 -69.176 0.217 -31.232
4428 0.093 87.516 4.363 -89.711 0.165 -71.441 0.229 -33.765
4477.75 0.089 76.417 4.076 -88.06 0.167 -74.267 0.236 -38.519
4527.5 0.09 68.943 4.375 -90.44 0.164 -74.38 0.247 -40.602
4577.25 0.091 59.866 4.239 -95.896 0.171 -75.693 0.255 -44.492
4627 0.095 49.474 3.993 -98.219 0.171 -78.679 0.268 -47.786
4676.75 0.099 43.808 4.182 -96.545 0.169 -80.327 0.273 -49.662
4726.5 0.103 35.156 4.135 -100.694 0.173 -80.591 0.283 -53.359
4776.25 0.111 28.791 4.005 -104.929 0.177 -82.236 0.292 -56.348
4826 0.119 22.373 3.853 -106.259 0.175 -85.954 0.301 -59.204
4875.75 0.123 18.989 4.002 -104.647 0.175 -84.835 0.311 -60.748
4925.5 0.131 11.416 3.951 -113.328 0.181 -87.07 0.315 -64.346
4975.25 0.142 8.12 3.719 -112.462 0.182 -90.273 0.325 -67.333
5025 0.145 5.539 3.846 -112.464 0.18 -90.827 0.33 -68.836
5074.75 0.153 -0.897 3.905 -120.369 0.182 -90.765 0.338 -72.853
5124.5 0.163 -3.038 3.668 -118.993 0.192 -94.285 0.345 -74.9
5174.25 0.167 -5.258 3.768 -120.658 0.181 -96.987 0.349 -76.22
5224 0.17 -9.525 3.581 -124.742 0.189 -95.31 0.355 -79.107
5273.75 0.18 -13.35 3.724 -126.463 0.194 -98.345 0.358 -82.267
5323.5 0.189 -15.908 3.526 -129.982 0.191 -101.214 0.368 -84.464
5373.25 0.191 -18.1 3.472 -130.219 0.191 -101.172 0.37 -86.261
5423 0.199 -22.043 3.708 -133.415 0.196 -102.269 0.373 -89.52
5472.75 0.207 -24.622 3.381 -138.213 0.2 -106.517 0.38 -91.348
5522.5 0.21 -26.42 3.375 -136.27 0.197 -105.622 0.381 -93.634
5572.25 0.217 -30.172 3.642 -140.172 0.201 -108.088 0.383 -96.251
5622 0.222 -33.29 3.285 -144.063 0.201 -109.277 0.385 -99.39
5671.75 0.23 -35.387 3.288 -144.13 0.208 -111.788 0.392 -101.037
5721.5 0.231 -38.338 3.326 -146.746 0.202 -113.529 0.393 -103.772
5771.25 0.239 -40.997 3.347 -150.276 0.209 -112.754 0.393 -106.917
5821 0.244 -43.278 3.211 -153.661 0.212 -117.015 0.398 -109.016
5870.75 0.249 -45.442 3.212 -152.547 0.211 -117.855 0.397 -111.682
5920.5 0.254 -47.787 3.336 -155.799 0.209 -119.315 0.399 -114.25
5970.25 0.255 -50.293 3.068 -162.874 0.219 -120.493 0.396 -117.362
6020 0.264 -52.533 3.099 -157.22 0.221 -123.017 0.4 -120.423
6069.75 0.267 -54.859 3.245 -164.614 0.213 -124.671 0.403 -123.033
6119.5 0.265 -57.002 2.941 -167.538 0.221 -125.574 0.398 -126.415
6169.25 0.27 -59.34 2.994 -165.673 0.228 -127.138 0.4 -129.421
6219 0.271 -62.159 3.152 -171.676 0.228 -131.059 0.399 -132.152
6268.75 0.269 -64.214 2.93 -174.276 0.219 -130.302 0.398 -136.619
6318.5 0.272 -66.683 3.012 -173.373 0.239 -131.033 0.401 -139.464
6368.25 0.271 -69.928 2.923 -177.11 0.234 -137.487 0.401 -143.223
6418 0.27 -71.472 2.986 -179.583 0.224 -135.395 0.399 -146.678
6467.75 0.261 -74.1 2.82 176.173 0.247 -137.238 0.395 -150.075
6517.5 0.262 -78.258 2.791 177.056 0.24 -140.921 0.399 -155.001
6567.25 0.262 -80.534 2.922 174.454 0.234 -141.709 0.398 -158.443
6617 0.252 -84.251 2.871 167.802 0.246 -143.532 0.398 -162.941
6666.75 0.249 -87.399 2.66 169.455 0.251 -145.758 0.402 -167.38
6716.5 0.247 -91.586 2.864 167.572 0.245 -147.483 0.402 -171.537
6766.25 0.242 -95.308 2.845 163.458 0.25 -149.332 0.404 -176.074
6816 0.231 -99.285 2.657 159.03 0.254 -151.22 0.406 178.66
6865.75 0.232 -103.56 2.644 161.717 0.257 -153.227 0.411 174.191
6915.5 0.226 -108.13 2.757 157.715 0.254 -156.596 0.414 169.375
6965.25 0.216 -113.578 2.696 150.216 0.26 -156.032 0.421 163.968
7015 0.213 -117.091 2.452 152.424 0.268 -159.986 0.429 159.961
7064.75 0.211 -122.847 2.81 152.223 0.253 -161.471 0.425 155.392
7114.5 0.204 -129.474 2.674 143.715 0.27 -163.491 0.443 149.535
7164.25 0.198 -134.401 2.432 143.744 0.266 -166.519 0.45 144.44
7214 0.199 -139.78 2.597 144.345 0.267 -166.412 0.458 140.663
7263.75 0.193 -147.95 2.649 136.905 0.269 -171.01 0.47 134.983
7313.5 0.189 -153.392 2.401 135.021 0.27 -171.663 0.481 130.1
7363.25 0.188 -159.906 2.452 135.767 0.273 -173.624 0.493 126.12
7413 0.188 -168.89 2.503 130.312 0.275 -177.521 0.509 120.967
7462.75 0.187 -175.51 2.474 125.304 0.27 -178.918 0.522 116.476
7512.5 0.187 177.54 2.357 125.539 0.279 -179.203 0.534 112.517
7562.25 0.193 168.359 2.398 125.259 0.274 174.865 0.553 107.566
7612 0.194 161.569 2.37 118.815 0.266 175.045 0.561 103.884
7661.75 0.197 153.445 2.227 114.507 0.284 172.862 0.575 99.139
7711.5 0.206 146.97 2.197 116.157 0.271 169.347 0.594 95.453
7761.25 0.216 139.895 2.293 112.328 0.271 168.705 0.606 92.213
7811 0.223 132.693 2.172 106.269 0.273 165.009 0.616 87.716
7860.75 0.232 127.749 2.026 106.563 0.273 164.351 0.632 84.568
7910.5 0.246 120.84 2.16 104.625 0.269 160.345 0.648 80.772
7960.25 0.26 115.943 2.133 100.304 0.268 159.785 0.661 77.71
8010 0.268 111.452 1.926 97.775 0.269 157.735 0.668 74.349
8059.75 0.28 106.808 1.903 97.452 0.264 154.904 0.682 71.27
8109.5 0.295 101.679 1.946 92.663 0.261 152.433 0.695 67.956
8159.25 0.309 98.283 1.858 88.865 0.264 152.461 0.704 65.214
8209 0.318 94.754 1.748 89.967 0.263 148.487 0.714 62.487
8258.75 0.331 90.832 1.829 86.985 0.251 148.137 0.723 59.646
8308.5 0.344 86.961 1.729 82.456 0.259 145.626 0.734 56.633
8358.25 0.353 84.772 1.645 82.538 0.251 143.649 0.741 54.314
8408 0.362 81.241 1.684 81.13 0.252 142.69 0.754 51.754
8457.75 0.372 77.898 1.574 76.454 0.25 139.872 0.757 49.291
8507.5 0.383 75.748 1.518 76.142 0.245 139.722 0.765 47.054
8557.25 0.389 72.772 1.524 73.809 0.246 137.499 0.771 44.521
8607 0.398 69.679 1.501 71.944 0.243 135.114 0.78 42.325
8656.75 0.409 67.483 1.446 69.395 0.24 134.844 0.78 40.367
8706.5 0.413 65.166 1.39 68.365 0.241 133.365 0.786 37.786
8756.25 0.42 62.155 1.391 68.037 0.238 131.061 0.797 35.909
8806 0.427 60.103 1.362 63.588 0.234 130.408 0.797 33.885
8855.75 0.433 57.831 1.27 63.558 0.237 129.04 0.801 31.808
8905.5 0.437 55.399 1.298 62.89 0.233 127.199 0.807 29.888
8955.25 0.442 53.03 1.271 58.884 0.233 126.489 0.808 27.878
9005 0.45 51.171 1.217 58.288 0.231 124.813 0.811 26.122
9054.75 0.453 49.071 1.213 57.675 0.231 123.818 0.811 24.196
9104.5 0.458 47.038 1.202 55.548 0.231 122.294 0.813 22.067
9154.25 0.461 44.95 1.162 54.157 0.229 121.272 0.815 20.252
9204 0.466 42.997 1.143 52.917 0.23 120.093 0.818 18.512
9253.75 0.468 41.362 1.131 51.307 0.229 118.735 0.819 16.818
9303.5 0.468 39.345 1.116 49.439 0.229 117.475 0.818 14.798
9353.25 0.472 37.269 1.095 48.186 0.229 116.244 0.822 13.121
9403 0.476 35.788 1.085 46.451 0.23 114.873 0.819 11.396
9452.75 0.474 34.274 1.066 45.13 0.23 113.52 0.817 9.342
9502.5 0.472 31.716 1.06 43.631 0.23 112.458 0.82 7.589
9552.25 0.476 29.926 1.038 41.417 0.232 111.393 0.817 5.772
9602 0.475 28.809 1.028 40.421 0.232 109.146 0.819 3.756
9651.75 0.468 26.487 1.023 38.452 0.228 108.499 0.819 2.255
9701.5 0.471 23.872 0.999 37.675 0.237 107.596 0.814 0.171
9751.25 0.472 22.693 1.006 35.709 0.235 104.86 0.816 -2.113
9801 0.463 21.057 0.97 33.137 0.231 104.315 0.817 -3.366
9850.75 0.46 17.918 0.956 32.51 0.236 103.452 0.807 -5.605
9900.5 0.461 15.883 0.993 30.574 0.241 101.037 0.806 -8.052
9950.25 0.457 14.684 0.944 27.258 0.236 98.55 0.812 -9.781
10000 0.451 11.538 0.917 28.083 0.234 99.925 0.806 -11.642
