!Hittite Microwave Corporation								
!20 Alpha Road								
!Chelmsford, MA 01824								
!Tel: 978-250-3343								
!Fax: 978-250-3373								
!Device: HMC498LC4, 17-24 GHz, GaAS PHEMT MMIC MEdium Power Amplifier in a Leadless SMT Package
!Misc: Vdd1,2,3 = 5 V, Idd = 250 mA, data includes two Southwest (K) connectors, Room							
!
# MHZ S MA R 50

50 1.003 -3.344 1.822e-3 50.238 1.799e-3 -80.257 1 -3.192
249.75 1.003 -16.425 156.4e-6 35.349 12.06e-6 -32.79 1.001 -15.533
449.5 1.004 -29.318 83.97e-6 123.999 20.5e-6 -112.079 1.002 -28.06
649.25 1.004 -42.35 130.7e-6 -117.866 46.67e-6 159.89 1.003 -40.439
849 1.002 -55.331 408.2e-6 149.917 23.26e-6 -144.281 1.001 -52.925
1048.75 0.999 -68.322 625.2e-6 39.037 80.22e-6 50.331 0.997 -65.285
1248.5 0.994 -80.998 749.2e-6 -48.207 28.83e-6 35.638 0.992 -77.646
1448.25 0.987 -93.778 341.5e-6 -128.211 57.6e-6 23.714 0.987 -89.752
1648 0.98 -106.164 107.5e-6 143.843 36.62e-6 33.913 0.98 -101.727
1847.75 0.971 -118.706 76.98e-6 -158.151 45.61e-6 -12.808 0.972 -113.645
2047.5 0.962 -130.976 75.02e-6 163.865 69.83e-6 40.096 0.963 -125.834
2247.25 0.952 -143.247 44.02e-6 -142.546 111.2e-6 165.211 0.954 -137.849
2447 0.944 -155.452 36.6e-6 -118.853 81.94e-6 138.61 0.946 -149.899
2646.75 0.936 -168.01 40.94e-6 26.536 46.73e-6 147.743 0.938 -161.709
2846.5 0.928 179.584 130.6e-6 159.12 140.8e-6 139.997 0.932 -173.73
3046.25 0.926 166.915 129.2e-6 165.889 101.7e-6 140.412 0.926 174.089
3246 0.922 154.029 191.9e-6 132.839 108.2e-6 140.768 0.922 161.673
3445.75 0.924 141.074 278.5e-6 125.311 200.4e-6 117.608 0.92 149.209
3645.5 0.925 128.188 338e-6 121.972 241.3e-6 109.354 0.92 136.656
3845.25 0.929 114.851 383.8e-6 120.894 368.1e-6 100.598 0.921 123.975
4045 0.933 101.818 291.7e-6 119.314 493.5e-6 92.849 0.923 111.227
4244.75 0.941 88.4 196.3e-6 135.965 476.7e-6 90.619 0.927 98.627
4444.5 0.947 75.04 567.5e-6 72.268 570.6e-6 71.282 0.932 86.085
4644.25 0.953 61.788 607.2e-6 66.703 625e-6 60.32 0.935 73.607
4844 0.959 48.784 702e-6 58.766 678.2e-6 50.289 0.939 61.003
5043.75 0.963 35.935 698.9e-6 44.353 794.7e-6 42.478 0.942 48.598
5243.5 0.964 23.235 800.2e-6 40.881 913.1e-6 34.191 0.943 36.399
5443.25 0.966 11.052 1.015e-3 30.642 992.8e-6 28.193 0.943 24.687
5643 0.966 -1.269 1.237e-3 21.132 1.155e-3 18.662 0.942 13.182
5842.75 0.966 -13.317 1.468e-3 11.115 1.219e-3 14.517 0.94 1.636
6042.5 0.963 -25.549 1.544e-3 1.013 1.316e-3 2.274 0.937 -9.825
6242.25 0.961 -37.63 1.499e-3 -11.575 1.408e-3 0.837 0.932 -21.281
6442 0.954 -49.832 1.57e-3 -16.775 1.479e-3 -13.515 0.928 -32.836
6641.75 0.95 -61.624 1.675e-3 -23.83 1.69e-3 -22.677 0.923 -44.295
6841.5 0.944 -73.83 2.014e-3 -31.931 1.925e-3 -31.132 0.918 -55.913
7041.25 0.939 -86.451 2.264e-3 -37.099 2.09e-3 -37.718 0.911 -67.788
7241 0.932 -99.304 2.671e-3 -47.397 2.353e-3 -48.846 0.904 -80.05
7440.75 0.926 -112.65 3.134e-3 -52.634 2.388e-3 -54.403 0.897 -92.615
7640.5 0.92 -126.35 3.653e-3 -59.586 2.494e-3 -63.945 0.888 -105.477
7840.25 0.912 -140.519 3.973e-3 -67.726 2.65e-3 -76.212 0.876 -118.553
8040 0.905 -155.06 4.953e-3 -76.285 2.824e-3 -89.264 0.865 -131.934
8239.75 0.898 -169.545 6.458e-3 -86.196 3.211e-3 -96.433 0.853 -145.965
8439.5 0.891 175.979 8.277e-3 -93.355 3.336e-3 -107.662 0.841 -160.102
8639.25 0.885 161.498 0.011 -102.982 3.516e-3 -119.717 0.829 -174.107
8839 0.88 146.897 0.014 -114.238 3.729e-3 -127.921 0.817 171.902
9038.75 0.878 132.579 0.018 -124.864 3.882e-3 -138.923 0.808 158.183
9238.5 0.875 117.869 0.023 -136.745 4.032e-3 -152.816 0.8 144.401
9438.25 0.875 103.975 0.031 -149.512 4.076e-3 -166.496 0.793 130.814
9638 0.867 90.137 0.04 -162.4 4.041e-3 -179.083 0.784 117.741
9837.75 0.87 76.824 0.053 -176.323 3.703e-3 166.387 0.779 105.036
10037.5 0.859 63.085 0.07 169.97 3.316e-3 159.14 0.771 92.555
10237.25 0.861 49.999 0.093 155.897 3.162e-3 159.585 0.767 80.347
10437 0.847 36.033 0.126 141.639 2.998e-3 149.297 0.763 68.651
10636.75 0.852 22.522 0.177 127.225 3.447e-3 138.869 0.757 56.944
10836.5 0.826 7.355 0.226 111.523 3.56e-3 134.271 0.749 45.504
11036.25 0.833 -7.055 0.317 94.495 3.624e-3 120.762 0.738 33.772
11236 0.775 -23.202 0.424 69.606 4.031e-3 108.999 0.728 22.018
11435.75 0.755 -39.165 0.602 53.784 3.694e-3 108.36 0.715 10.427
11635.5 0.664 -55.975 0.757 28.853 3.595e-3 92.403 0.7 -1.321
11835.25 0.624 -71.659 0.945 4.594 3.958e-3 81.335 0.68 -13.391
12035 0.522 -86.31 1.187 -16.318 3.88e-3 73.305 0.655 -25.799
12234.75 0.482 -102.733 1.45 -41.912 4.032e-3 58.606 0.627 -38.671
12434.5 0.377 -117.839 1.549 -60.82 4.154e-3 34.102 0.597 -51.787
12634.25 0.322 -135.572 1.843 -87.667 3.74e-3 10.276 0.567 -65.149
12834 0.21 -142.047 2.135 -100.084 2.907e-3 -13.545 0.547 -78.219
13033.75 0.187 -138.381 3.066 -126.399 2.141e-3 -5.24 0.527 -92.27
13233.5 0.177 -139.319 3.554 -149.829 1.901e-3 -18.167 0.503 -107.623
13433.25 0.195 -151.51 3.806 -175.115 1.652e-3 -51.037 0.473 -124.94
13633 0.182 -159.251 4.408 162.127 415.1e-6 1.607 0.43 -144.721
13832.75 0.189 -177.094 4.821 140.299 856e-6 14.98 0.385 -161.772
14032.5 0.175 175.037 5.208 113.863 1.375e-3 2.229 0.355 -177.836
14232.25 0.189 157.537 5.333 91.372 1.782e-3 -8.485 0.333 166.657
14432 0.188 146.882 5.771 67.485 1.963e-3 -24.512 0.315 150.946
14631.75 0.203 129.421 5.687 48.105 1.769e-3 -49.337 0.308 135.699
14831.5 0.186 116.499 5.8 31.225 870.5e-6 -81.52 0.328 121.482
15031.25 0.189 101.399 6.599 12.27 408.1e-6 21.583 0.333 101.845
15231 0.178 95.161 7.226 -3.402 946.9e-6 -9.142 0.321 85.058
15430.75 0.187 80.981 7.227 -24.032 1.28e-3 -26.264 0.304 71.971
15630.5 0.171 72.614 8.102 -48.037 1.583e-3 -44.608 0.289 60.766
15830.25 0.17 61.561 8.729 -66.334 1.54e-3 -58.656 0.268 52.447
16030 0.147 54.75 9.164 -90.354 1.894e-3 -60.203 0.246 44.61
16229.75 0.15 49.794 9.589 -107.144 1.877e-3 -87.171 0.222 37.373
16429.5 0.137 50.482 9.311 -127.816 1.973e-3 -100.329 0.193 34.851
16629.25 0.146 50.535 9.735 -145.217 2.054e-3 -115.162 0.179 34.247
16829 0.152 48.422 10.377 -162.68 1.418e-3 -133.824 0.199 35.544
17028.75 0.161 43.778 11.078 176.04 1.22e-3 -138.18 0.193 27.986
17228.5 0.166 43.282 11.387 158.099 1.134e-3 -132.932 0.188 22.399
17428.25 0.192 39.217 11.983 138.922 1.242e-3 -135.241 0.163 17.166
17628 0.21 35.394 12.514 119.101 1.38e-3 -144.447 0.146 21.649
17827.75 0.246 23.922 13.03 97.63 1.428e-3 -151.398 0.156 25.818
18027.5 0.265 14.06 12.97 77.776 1.299e-3 -158.112 0.171 26.102
18227.25 0.282 1.246 13.082 58.06 1.271e-3 -174.948 0.176 25.524
18427 0.283 -9.594 13.272 39.734 820.4e-6 -177.503 0.176 25.974
18626.75 0.295 -22.482 13.42 20.666 1.086e-3 173.868 0.175 24.117
18826.5 0.278 -35.769 13.673 2.589 955.6e-6 179.918 0.171 24.405
19026.25 0.283 -53.588 13.902 -16.516 934.8e-6 -161.146 0.163 23.086
19226 0.264 -75.398 14.181 -35.916 1.485e-3 -162.701 0.145 20.509
19425.75 0.252 -99.413 14.149 -55.454 1.863e-3 174.514 0.137 24.47
19625.5 0.23 -125.659 14.233 -75.023 1.845e-3 155.56 0.136 31.81
19825.25 0.236 -152.022 14.145 -94.053 1.877e-3 144.917 0.145 35.442
20025 0.247 178.922 13.986 -113.357 1.904e-3 138.258 0.152 40.533
20224.75 0.267 162.242 13.673 -131.595 2.187e-3 134.498 0.166 40.16
20424.5 0.238 145.609 13.317 -149.469 2.573e-3 128.365 0.187 45.123
20624.25 0.234 115.66 13.044 -167.868 3.088e-3 107.536 0.202 46.662
20824 0.274 91.727 13.052 174.169 3.253e-3 98.479 0.201 36.035
21023.75 0.26 78.754 13.083 156.57 3.157e-3 86.084 0.219 28.771
21223.5 0.256 63.647 12.904 139.588 3.46e-3 72.451 0.226 25.939
21423.25 0.228 46.942 12.742 120.499 3.758e-3 55.491 0.215 20.622
21623 0.205 25.018 12.721 102.717 3.917e-3 42.401 0.215 12.383
21822.75 0.18 6.437 12.643 84.988 4.096e-3 29.938 0.206 8.384
22022.5 0.165 -18.338 12.685 67.372 4.04e-3 18.633 0.192 3.865
22222.25 0.131 -43.326 12.784 48.495 4.353e-3 3.655 0.173 3.938
22422 0.115 -69.724 12.924 28.218 4.841e-3 -12.02 0.152 -0.211
22621.75 0.107 -99.159 12.506 10.206 4.756e-3 -28.413 0.139 -3.786
22821.5 0.126 -134.199 12.402 -9.525 4.781e-3 -44.37 0.123 -8.089
23021.25 0.152 -170.05 12.242 -29.61 5.064e-3 -59.185 0.115 -11.229
23221 0.206 164.369 11.966 -50.341 4.913e-3 -71.081 0.098 -14.228
23420.75 0.262 140.14 11.651 -71.29 4.753e-3 -89.433 0.078 -19.842
23620.5 0.318 119.728 11.139 -91.624 4.786e-3 -111.072 0.052 -25.684
23820.25 0.366 100.431 10.535 -112.048 4.504e-3 -125.563 0.024 -30.596
24020 0.419 82.738 9.862 -132.37 4.398e-3 -145.599 0.012 -85.598
24219.75 0.448 64.816 9.263 -152.232 4.667e-3 -160.718 0.035 173.074
24419.5 0.481 49.784 8.657 -171.946 4.673e-3 -171.05 0.073 150.656
24619.25 0.526 34.494 7.953 168.329 4.518e-3 161.099 0.12 138.498
24819 0.563 17.427 7.193 149.29 4.468e-3 147.364 0.184 125.84
25018.75 0.588 1.194 6.71 128.513 3.747e-3 137.626 0.238 116.394
25218.5 0.619 -15.016 6.206 108.194 3.128e-3 112.213 0.301 105.72
25418.25 0.655 -32.418 5.484 90.263 2.805e-3 103.234 0.356 94.433
25618 0.67 -49.891 4.909 68.829 2.023e-3 107.946 0.408 81.654
25817.75 0.674 -66.393 4.295 53.811 1.697e-3 109.482 0.45 68.023
26017.5 0.7 -80.182 3.494 36.386 2.554e-3 116.035 0.493 56.077
26217.25 0.726 -95.594 3.185 19.175 3.778e-3 96.866 0.526 42.951
26417 0.739 -111.648 2.943 2.627 4.984e-3 67.592 0.557 32.255
26616.75 0.747 -128.457 2.591 -12.977 5.325e-3 56.897 0.576 20.401
26816.5 0.746 -144.773 2.315 -28.521 4.888e-3 42.631 0.602 9.996
27016.25 0.753 -163.679 2.023 -46.683 5.259e-3 31.134 0.607 -0.768
27216 0.745 178.845 1.807 -62.527 5.817e-3 31.744 0.616 -10.968
27415.75 0.733 159.593 1.606 -78.099 7.144e-3 16.678 0.612 -21.456
27615.5 0.706 142.465 1.413 -94.095 9.026e-3 -1.61 0.616 -32.427
27815.25 0.682 123.331 1.247 -109.379 0.01 -24.781 0.61 -44.323
28015 0.663 105.936 1.115 -124.929 0.011 -51.573 0.609 -54.323
28214.75 0.662 87.052 0.989 -139.984 0.01 -72.163 0.599 -66.257
28414.5 0.689 71.261 0.869 -155.285 8.715e-3 -77.778 0.579 -76.813
28614.25 0.722 53.682 0.774 -170.888 0.01 -79.702 0.546 -90.598
28814 0.745 37.04 0.693 173.651 0.014 -95.675 0.524 -102.754
29013.75 0.77 22.09 0.61 159.688 0.018 -118.662 0.486 -121.684
29213.5 0.787 7.948 0.536 143.182 0.017 -146.077 0.461 -137.115
29413.25 0.815 -6.69 0.47 128.811 0.017 -168.223 0.428 -159.859
29613 0.823 -19.48 0.392 111.026 0.017 -178.358 0.407 -177.976
29812.75 0.826 -32.173 0.341 100.353 0.016 161.328 0.395 155.528
30012.5 0.859 -41.18 0.292 85.538 0.017 151.228 0.397 132.054
30212.25 0.859 -53.076 0.259 75.733 0.014 135.889 0.434 105.733
30412 0.86 -64.524 0.241 60.5 0.015 108.592 0.457 86.783
30611.75 0.833 -74.952 0.203 45.373 0.017 99.64 0.511 66.652
30811.5 0.821 -83.888 0.176 34.236 0.016 75.098 0.535 51.566
31011.25 0.79 -96.289 0.146 17.903 0.016 53.711 0.588 36.626
31211 0.782 -104.923 0.124 7.723 0.013 45.941 0.631 24.68
31410.75 0.751 -116.946 0.11 -1.649 9.943e-3 13.892 0.66 12.18
31610.5 0.774 -127.035 0.089 -10.695 9.132e-3 -10.538 0.667 1.939
31810.25 0.722 -143.001 0.083 -22.882 4.699e-3 -37.194 0.705 -9.785
32010 0.727 -155.619 0.062 -35.613 2.646e-3 -143.795 0.727 -17.433
32209.75 0.668 -171.732 0.059 -49.357 5.331e-3 146.582 0.794 -24.613
32409.5 0.688 175.61 0.052 -60.953 5.467e-3 123.629 0.83 -29.754
32609.25 0.662 157.696 0.037 -73.349 0.011 96.463 0.849 -40.344
32809 0.682 140.793 0.03 -76.181 0.017 92.949 0.804 -46.94
33008.75 0.665 123.983 0.025 -74.252 0.016 49.346 0.742 -60.003
33208.5 0.668 106.69 0.028 -82.592 0.02 21.818 0.714 -66.819
33408.25 0.675 87.468 0.027 -96.316 0.016 23.423 0.673 -80.233
33608 0.701 69.667 0.018 -110.126 0.013 -5.144 0.686 -90.486
33807.75 0.722 49.605 0.015 -125.825 0.012 -5.401 0.637 -104.192
34007.5 0.723 34.757 4.412e-3 -122.525 0.014 14.04 0.616 -115.53
34207.25 0.769 18.641 7.661e-3 -27.815 0.02 -2.163 0.529 -130.611
34407 0.742 4.843 0.014 -52.338 0.024 -20.592 0.443 -142.497
34606.75 0.761 -4.945 0.017 -66.91 0.024 -30.95 0.385 -155.99
34806.5 0.748 -16.456 0.016 -72.414 0.024 -46.777 0.348 -173.015
35006.25 0.774 -30.578 0.017 -85.525 0.026 -55.648 0.335 157.11
35206 0.738 -43.568 0.019 -93.861 0.025 -68.606 0.377 121.954
35405.75 0.734 -55.863 0.024 -94.482 0.024 -72.894 0.477 92.389
35605.5 0.679 -67.606 0.035 -88.231 0.025 -76.741 0.558 73.152
35805.25 0.666 -80.833 0.017 -98.868 0.028 -80.749 0.602 59.1
36005 0.581 -94.758 0.02 -94.007 0.033 -81.486 0.565 43.4
36204.75 0.541 -106.998 0.028 -91.583 0.04 -86.775 0.549 28.479
36404.5 0.456 -119.112 0.039 -103.08 0.051 -98.592 0.538 11.464
36604.25 0.441 -129.969 0.049 -114.943 0.06 -114.268 0.585 -2.582
36804 0.415 -143.509 0.057 -129.937 0.067 -132.699 0.591 -18.988
37003.75 0.421 -153.131 0.064 -144.94 0.073 -147.129 0.662 -30.257
37203.5 0.446 -164.325 0.071 -157.756 0.078 -160.807 0.645 -38.742
37403.25 0.471 -176.819 0.081 -171.421 0.087 -172.524 0.66 -46.45
37603 0.443 170.318 0.098 175.272 0.1 175.852 0.622 -50.644
37802.75 0.403 160.147 0.111 160.205 0.115 159.984 0.586 -54.761
38002.5 0.352 152.54 0.131 143.244 0.13 143.3 0.509 -56.925
38202.25 0.291 145.864 0.152 122.995 0.149 123.396 0.453 -64.367
38402 0.25 145.975 0.165 100.69 0.164 102.089 0.428 -77.508
38601.75 0.266 154.121 0.168 77.171 0.169 80.884 0.465 -88.251
38801.5 0.287 147.838 0.164 58.082 0.166 62.992 0.516 -97.313
39001.25 0.269 140.458 0.162 43.965 0.167 47.349 0.535 -106.097
39201 0.231 136.616 0.178 28.366 0.181 28.678 0.494 -114.123
39400.75 0.19 134.1 0.187 6.263 0.186 5.55 0.446 -123.419
39600.5 0.118 128.724 0.183 -20.03 0.177 -20.733 0.403 -130.951
39800.25 0.045 123.253 0.179 -46.325 0.169 -47.018 0.359 -138.411
40000 0.028 -61.346 0.175 -72.623 0.161 -73.306 0.315 -145.792
