!Hittite Microwave Corporation								
!12 Elizabeth Drive								
!Chelmsford, MA 01824								
!Tel: 978-250-3343								
!Fax: 978-250-3373							
!Device: HMC406MS8G, 5-6 GHz GaAs InGap HBT MMIC Power Amplifier in 8-lead Grounded Base surface Mount Plastic Package							
!Misc: Input reference is the input pin of the device, output reference is the last component on output line, Vs=Vpd=5V, Room							
!
# MHZ S MA R 50

3000 0.692 101.266 0.759 -37.057 5.264e-3 15.762 0.492 -110.026
3025 0.688 98.534 0.757 -38.891 5.287e-3 12.739 0.497 -113.373
3050 0.683 95.771 0.783 -39.296 5.132e-3 11.323 0.508 -117.371
3075 0.678 92.992 0.808 -40.091 5.026e-3 9.704 0.518 -121.146
3100 0.673 90.166 0.827 -42.441 5.118e-3 7.276 0.526 -124.037
3125 0.668 87.377 0.838 -44.291 5.151e-3 4.481 0.533 -127.209
3150 0.664 84.647 0.839 -45.39 5.098e-3 1.138 0.536 -130.804
3175 0.66 81.886 0.861 -46.735 5.039e-3 0.368 0.546 -134.085
3200 0.655 79.102 0.897 -48.245 4.975e-3 1.313 0.56 -137.155
3225 0.652 76.349 0.921 -50.269 5.005e-3 -2.388 0.565 -139.714
3250 0.649 73.599 0.943 -52.422 5.06e-3 -7.252 0.569 -142.145
3275 0.645 70.953 0.947 -52.97 4.857e-3 -8.478 0.576 -145.565
3300 0.641 68.284 0.959 -53.918 4.725e-3 -9.583 0.585 -148.678
3325 0.636 65.54 1.007 -56.464 4.88e-3 -10.201 0.597 -150.57
3350 0.632 62.835 1.041 -58.827 4.902e-3 -12.073 0.601 -152.668
3375 0.63 60.191 1.054 -60.913 4.723e-3 -15.827 0.595 -155.075
3400 0.626 57.568 1.079 -61.768 4.678e-3 -17.502 0.597 -158.099
3425 0.622 54.959 1.113 -61.802 4.722e-3 -17.791 0.605 -161.534
3450 0.618 52.317 1.145 -64.9 4.712e-3 -19.78 0.612 -163.616
3475 0.614 49.664 1.178 -68.764 4.688e-3 -22.194 0.618 -165.36
3500 0.611 47.129 1.194 -70.035 4.53e-3 -23.832 0.615 -168.245
3525 0.608 44.596 1.218 -71.21 4.41e-3 -25.271 0.616 -171.032
3550 0.604 42.082 1.274 -71.995 4.441e-3 -25.912 0.629 -173.434
3575 0.6 39.58 1.316 -73.801 4.447e-3 -27.177 0.636 -175.348
3600 0.595 37.098 1.338 -77.135 4.419e-3 -29.378 0.633 -176.532
3625 0.591 34.631 1.364 -79.328 4.309e-3 -30.991 0.63 -178.891
3650 0.587 32.173 1.394 -80.759 4.144e-3 -32.212 0.625 177.968
3675 0.582 29.712 1.462 -82.299 4.19e-3 -33.327 0.633 175.822
3700 0.578 27.247 1.539 -83.867 4.289e-3 -34.417 0.642 173.924
3725 0.573 24.847 1.542 -87.151 4.147e-3 -36.195 0.633 172.04
3750 0.568 22.44 1.555 -89.894 4.039e-3 -37.669 0.627 169.855
3775 0.563 20.012 1.608 -90.469 4.066e-3 -37.923 0.633 166.471
3800 0.558 17.61 1.671 -92.161 4.074e-3 -38.834 0.641 164.101
3825 0.553 15.249 1.748 -95.527 4.055e-3 -40.733 0.651 163.249
3850 0.547 12.894 1.785 -97.914 3.974e-3 -41.977 0.646 161.698
3875 0.541 10.542 1.795 -99.649 3.852e-3 -42.785 0.632 159.681
3900 0.535 8.132 1.87 -101.254 3.83e-3 -44.053 0.636 157.036
3925 0.529 5.707 1.962 -102.827 3.834e-3 -45.437 0.645 154.234
3950 0.524 3.404 2.018 -106.296 3.823e-3 -46.44 0.641 153.578
3975 0.517 1.105 2.07 -109.464 3.787e-3 -47.441 0.635 152.396
4000 0.51 -1.168 2.108 -111.425 3.653e-3 -48.435 0.622 149.112
4025 0.502 -3.474 2.174 -113.297 3.584e-3 -49.307 0.62 146.217
4050 0.495 -5.829 2.281 -115.039 3.612e-3 -49.999 0.638 143.902
4075 0.488 -8.118 2.348 -117.814 3.578e-3 -51.334 0.639 142.692
4100 0.48 -10.365 2.39 -121.279 3.502e-3 -53.099 0.629 142.217
4125 0.471 -12.703 2.458 -123.296 3.455e-3 -53.141 0.622 139.241
4150 0.461 -15.066 2.532 -124.951 3.416e-3 -52.751 0.614 135.641
4175 0.453 -17.555 2.675 -128.024 3.418e-3 -54.441 0.63 134.463
4200 0.444 -19.996 2.794 -131.034 3.396e-3 -55.868 0.638 133.335
4225 0.434 -22.231 2.816 -133.79 3.279e-3 -56.247 0.616 132.406
4250 0.424 -24.525 2.874 -136.399 3.201e-3 -56.422 0.604 130.163
4275 0.413 -26.904 2.984 -138.784 3.182e-3 -56.291 0.604 125.948
4300 0.402 -29.305 3.113 -141.829 3.151e-3 -57.339 0.612 123.963
4325 0.392 -31.722 3.254 -145.312 3.111e-3 -59.172 0.624 123.464
4350 0.38 -34.098 3.314 -148.048 3.021e-3 -59.169 0.607 121.885
4375 0.368 -36.467 3.352 -150.596 2.92e-3 -58.706 0.583 120.039
4400 0.355 -39.089 3.492 -153.193 2.895e-3 -59.353 0.596 116.163
4425 0.342 -41.71 3.63 -156.125 2.854e-3 -59.749 0.608 113.187
4450 0.33 -44.313 3.761 -160.401 2.746e-3 -59.141 0.612 113.812
4475 0.317 -46.914 3.868 -163.775 2.66e-3 -57.996 0.602 113.095
4500 0.303 -49.509 3.941 -165.797 2.61e-3 -56.046 0.571 110.365
4525 0.289 -52.287 4.074 -168.823 2.544e-3 -54.443 0.57 106.978
4550 0.275 -55.194 4.248 -172.515 2.466e-3 -53.068 0.588 103.15
4575 0.262 -58.053 4.333 -176.342 2.451e-3 -50.344 0.588 102.803
4600 0.248 -60.918 4.396 179.798 2.452e-3 -47.282 0.584 103.327
4625 0.233 -64.019 4.556 177.226 2.496e-3 -44.387 0.56 99.375
4650 0.218 -67.232 4.712 174.38 2.55e-3 -41.8 0.545 95.623
4675 0.204 -70.79 4.849 170.434 2.65e-3 -40.446 0.568 92.658
4700 0.19 -74.394 4.968 166.641 2.756e-3 -38.931 0.578 91.047
4725 0.177 -78.052 5.06 163.073 2.87e-3 -37.176 0.567 91.469
4750 0.163 -82.248 5.191 159.666 3.014e-3 -35.988 0.55 89.144
4775 0.149 -86.87 5.349 156.364 3.176e-3 -35.178 0.53 84.989
4800 0.136 -92.18 5.503 152.473 3.317e-3 -35.127 0.539 82.301
4825 0.124 -97.806 5.657 148.437 3.452e-3 -35.263 0.555 79.978
4850 0.112 -104.569 5.733 144.893 3.618e-3 -35.034 0.537 78.972
4875 0.101 -112.094 5.83 141.307 3.781e-3 -34.872 0.521 77.206
4900 0.091 -121.75 6.009 137.54 3.938e-3 -34.983 0.514 72.387
4925 0.083 -132.607 6.157 133.612 4.117e-3 -35.183 0.515 68.804
4950 0.078 -144.765 6.258 129.44 4.332e-3 -35.516 0.526 67.08
4975 0.076 -157.962 6.374 125.713 4.53e-3 -36.161 0.52 65.28
5000 0.075 -171.257 6.501 122.285 4.717e-3 -37.011 0.502 63.431
5025 0.079 175.775 6.634 118.188 4.95e-3 -37.975 0.495 59.789
5050 0.084 163.542 6.77 113.927 5.195e-3 -38.963 0.491 55.694
5075 0.092 154.669 6.87 109.976 5.44e-3 -40.347 0.488 53.603
5100 0.101 146.186 6.975 106.028 5.687e-3 -41.721 0.483 51.22
5125 0.11 139.285 7.101 102.073 5.941e-3 -43.07 0.47 47.673
5150 0.119 132.893 7.218 98.054 6.203e-3 -44.735 0.462 44.166
5175 0.13 127.346 7.32 93.935 6.474e-3 -46.876 0.462 40.717
5200 0.14 122.525 7.42 89.816 6.739e-3 -48.887 0.456 37.686
5225 0.15 118.171 7.52 85.698 7.001e-3 -50.811 0.445 34.933
5250 0.16 114.301 7.618 81.519 7.262e-3 -52.809 0.437 31.082
5275 0.17 110.496 7.716 77.326 7.523e-3 -54.824 0.429 26.949
5300 0.181 107.37 7.796 73.133 7.786e-3 -57.234 0.422 23.967
5325 0.191 104.303 7.877 68.917 8.046e-3 -59.645 0.414 20.737
5350 0.2 101.634 7.964 64.606 8.294e-3 -62.067 0.397 16.532
5375 0.209 99.012 8.039 60.318 8.552e-3 -64.542 0.384 12.113
5400 0.218 96.481 8.097 56.062 8.825e-3 -67.098 0.377 7.373
5425 0.227 94.195 8.161 51.722 9.075e-3 -69.618 0.365 2.442
5450 0.236 92.073 8.23 47.327 9.31e-3 -72.113 0.348 -2.621
5475 0.243 90.01 8.266 42.817 9.514e-3 -74.891 0.344 -9.379
5500 0.251 87.956 8.295 38.278 9.712e-3 -77.742 0.343 -16.577
5525 0.259 85.802 8.312 33.91 9.883e-3 -80.716 0.342 -20.205
5550 0.267 83.691 8.326 29.5 0.01 -83.672 0.336 -24.521
5575 0.275 81.777 8.332 24.923 0.01 -86.56 0.313 -31.58
5600 0.282 79.761 8.306 20.366 0.01 -89.451 0.302 -39.573
5625 0.288 77.594 8.235 15.834 0.01 -92.35 0.308 -48.937
5650 0.293 75.254 8.188 11.507 0.01 -94.936 0.307 -56.361
5675 0.298 72.795 8.158 7.319 0.01 -97.313 0.3 -62.499
5700 0.299 70.932 8.083 3.231 0.01 -98.528 0.296 -73.888
5725 0.298 69.22 7.995 -0.829 0.01 -99.449 0.292 -86.577
5750 0.296 68.786 8.007 -4.243 0.01 -100.591 0.309 -93.687
5775 0.295 68.472 8.024 -7.955 0.011 -101.856 0.32 -100.687
5800 0.299 68.617 8.068 -12.854 0.011 -103.61 0.306 -107.337
5825 0.304 68.684 8.076 -17.598 0.011 -106.032 0.304 -115.242
5850 0.311 68.636 8.031 -22.112 0.012 -109.457 0.319 -124.998
5875 0.319 68.182 7.993 -26.691 0.012 -112.721 0.331 -131.595
5900 0.327 67.458 7.961 -31.314 0.012 -115.878 0.343 -136.105
5925 0.337 66.467 7.843 -36.204 0.012 -118.856 0.347 -144.058
5950 0.347 65.411 7.705 -41.155 0.012 -121.785 0.35 -152.835
5975 0.356 64.293 7.557 -45.458 0.012 -124.983 0.385 -159.043
6000 0.366 63.107 7.428 -49.799 0.012 -128.003 0.414 -164.786
6025 0.375 61.648 7.376 -54.3 0.012 -130.326 0.421 -168.678
6050 0.383 60.134 7.247 -58.797 0.013 -132.759 0.431 -173.95
6075 0.392 58.537 7.005 -63.287 0.013 -135.355 0.446 178.717
6100 0.401 56.919 6.871 -67.178 0.013 -138.235 0.466 173.291
6125 0.409 55.286 6.81 -70.67 0.012 -141.304 0.491 169.129
6150 0.417 53.573 6.649 -75.758 0.012 -143.544 0.498 164.043
6175 0.424 51.835 6.464 -81.245 0.012 -145.575 0.5 158.734
6200 0.431 50.08 6.268 -84.329 0.012 -148.365 0.526 152.874
6225 0.438 48.291 6.102 -87.667 0.012 -151.122 0.55 147.527
6250 0.446 46.392 6.055 -92.034 0.012 -153.761 0.564 144.234
6275 0.452 44.445 5.91 -96.254 0.012 -156.008 0.575 140.117
6300 0.458 42.43 5.62 -100.254 0.012 -157.67 0.581 134.762
6325 0.463 40.348 5.45 -103.964 0.012 -160.214 0.598 130.17
6350 0.469 38.216 5.36 -107.48 0.012 -163.346 0.622 126.088
6375 0.474 35.943 5.29 -111.459 0.012 -165.08 0.626 122.346
6400 0.48 33.623 5.226 -115.557 0.012 -166.467 0.625 118.69
6425 0.485 31.457 4.955 -118.652 0.012 -169.345 0.639 113.252
6450 0.49 29.24 4.729 -121.838 0.012 -172.079 0.653 108.276
6475 0.492 26.855 4.683 -125.385 0.012 -174.231 0.671 105.165
6500 0.496 24.409 4.607 -129.517 0.012 -176.127 0.681 101.65
6525 0.5 21.876 4.484 -134.529 0.012 -177.639 0.677 97.527
6550 0.504 19.477 4.33 -137.132 0.012 179.588 0.688 93.109
6575 0.507 17.161 4.156 -138.129 0.012 175.974 0.709 88.491
6600 0.509 14.601 4.083 -142.251 0.012 174.217 0.718 85.764
6625 0.51 11.964 4.035 -147.158 0.011 172.922 0.723 83.512
6650 0.513 9.309 3.886 -151.137 0.011 170.077 0.711 78.648
6675 0.516 6.709 3.755 -154.681 0.012 167.211 0.705 73.818
6700 0.519 4.382 3.697 -156.461 0.011 164.293 0.728 69.139
6725 0.52 1.911 3.626 -159.324 0.011 162.289 0.742 65.266
6750 0.52 -0.772 3.533 -163.808 0.011 161.659 0.745 62.609
6775 0.521 -3.495 3.396 -167.708 0.011 159.378 0.744 58.582
6800 0.522 -6.25 3.23 -171.223 0.011 155.992 0.741 53.635
6825 0.523 -8.876 3.202 -173.622 0.011 153.071 0.758 49.729
6850 0.523 -11.481 3.21 -175.746 0.011 150.264 0.781 46.081
6875 0.523 -14.482 3.084 178.891 0.011 150.023 0.772 43.393
6900 0.524 -17.46 2.964 174.402 0.01 148.697 0.764 40.138
6925 0.528 -20.285 2.864 173.42 0.011 143.043 0.76 34.615
6950 0.53 -23.027 2.803 170.784 0.01 139.588 0.767 29.801
6975 0.53 -25.636 2.8 165.671 9.774e-3 139.437 0.791 26.064
7000 0.531 -28.404 2.704 160.957 9.781e-3 138.084 0.797 22.771
7025 0.532 -31.281 2.546 156.507 0.01 135.928 0.791 19.774
7050 0.534 -34.038 2.486 154.739 9.722e-3 131.157 0.791 15.106
7075 0.536 -36.769 2.449 153.636 9.038e-3 125.726 0.794 10.013
7100 0.536 -39.598 2.382 149.24 9.188e-3 128.042 0.81 6.916
7125 0.536 -42.46 2.3 144.8 9.271e-3 128.802 0.82 3.733
7150 0.539 -45.433 2.161 140.187 9.085e-3 123.351 0.805 0.215
7175 0.541 -48.278 2.095 136.846 8.725e-3 119.597 0.799 -4.074
7200 0.543 -50.933 2.139 135.411 8.104e-3 118.39 0.805 -9.523
7225 0.545 -53.674 2.084 131.718 7.975e-3 117.531 0.816 -13.633
7250 0.546 -56.471 1.963 126.519 8.173e-3 116.904 0.83 -16.849
7275 0.549 -59.221 1.837 123.643 7.733e-3 113.538 0.822 -20.864
7300 0.553 -61.956 1.709 121.347 7.131e-3 109.487 0.81 -25.083
7325 0.554 -64.431 1.766 115.987 6.764e-3 111.066 0.829 -30.032
7350 0.556 -66.962 1.778 111.239 6.498e-3 112.12 0.844 -34.442
7375 0.558 -69.73 1.614 108.946 6.639e-3 111.083 0.848 -36.683
7400 0.561 -72.428 1.5 106.799 6.54e-3 111.42 0.838 -39.749
7425 0.565 -75.025 1.461 104.872 6.08e-3 113.821 0.809 -44.054
7450 0.568 -77.529 1.427 99.85 6.311e-3 117.537 0.802 -48.435
7475 0.571 -79.969 1.395 92.765 7.001e-3 122.13 0.809 -52.867
7500 0.574 -82.505 1.31 90.502 7.763e-3 117.397 0.809 -54.98
7525 0.576 -85.055 1.212 89.445 8.54e-3 110.335 0.807 -56.512
7550 0.579 -87.352 1.172 86.817 8.231e-3 106.824 0.805 -60.82
7575 0.581 -89.649 1.124 83.604 8.046e-3 103.138 0.81 -65.002
7600 0.582 -91.98 1.049 78.041 8.362e-3 98.748 0.844 -68.683
7625 0.584 -94.336 0.987 74.901 8.254e-3 93.671 0.863 -71.738
7650 0.588 -96.734 0.943 75.398 7.514e-3 87.568 0.859 -73.856
7675 0.591 -98.964 0.92 72.952 7.149e-3 85.932 0.852 -77.844
7700 0.595 -101.079 0.911 68.545 7.032e-3 87.275 0.842 -83.073
7725 0.597 -103.219 0.839 65.078 7.133e-3 82.496 0.861 -87.005
7750 0.599 -105.355 0.751 61.847 7.286e-3 76.187 0.887 -90.609
7775 0.603 -107.42 0.739 61.24 6.533e-3 76.447 0.875 -93.369
7800 0.606 -109.433 0.722 59.673 5.974e-3 76.449 0.867 -96.578
7825 0.61 -111.283 0.688 54.252 6.186e-3 75.406 0.871 -101.585
7850 0.612 -113.215 0.649 50.956 6.223e-3 72.909 0.881 -105.58
7875 0.615 -115.276 0.602 50.839 6.002e-3 68.226 0.901 -108.067
7900 0.618 -117.274 0.574 49.657 5.721e-3 67.804 0.897 -110.907
7925 0.622 -119.225 0.558 47.766 5.4e-3 70.224 0.878 -113.98
7950 0.626 -120.981 0.528 43.562 5.413e-3 66.295 0.883 -118.472
7975 0.629 -122.679 0.495 38.784 5.509e-3 60.784 0.893 -123.309
8000 0.632 -124.41 0.475 38.922 5.234e-3 60.144 0.909 -125.523
