!Hittite Microwave Corporation								
!12 Elizabeth Drive								
!Chelmsford, MA 01824								
!Tel: 978-250-3343								
!Fax: 978-250-3373	
!Device: HMC427LP3, DC - 8 GHz GaAs MMIC Positive Control Transfer Switch in Leadless LP3 SMT Package
!Misc: Port 1 = RF1, Port 2 = RF2, Port 3 = RF3, Port 4 = RF4, Vctl=+5V, CtlA=Low, CtlB=High, Room  									
!
# MHZ S MA R 50

90 0.082 -16.058 698.5e-6 -65.5 0.909 0.449 878.2e-6 46.983
          744.4e-6 -160.241 0.075 -19.024 363.4e-6 65.046 0.911 0.442
          0.906 0.625 1.306e-3 60.572 0.076 -16.695 867.4e-6 -1.711
          1.277e-3 59.234 0.907 0.765 1.211e-3 -73.729 0.082 -16.502
139.55 0.075 -6.695 233.2e-6 -112.282 0.908 -0.908 872.4e-6 74.009
          798.6e-6 -93.051 0.067 -9.391 758.4e-6 25.53 0.909 -0.774
          0.908 -0.653 1.041e-3 66.885 0.069 -7.679 748.5e-6 -85.345
          858.4e-6 85.153 0.907 -0.556 622.8e-6 -55.238 0.075 -8.686
189.1 0.074 -10.104 200.9e-6 -54.022 0.906 -0.854 1.508e-3 76.949
          942.6e-6 -75.686 0.067 -10.009 967.4e-6 68.979 0.906 -0.803
          0.911 -1.193 1.004e-3 80.367 0.068 -8.058 398e-6 -102.823
          1.193e-3 81.084 0.91 -1.163 370.6e-6 -88.921 0.074 -10.011
238.65 0.076 -13.934 583.8e-6 -86.432 0.909 -0.997 1.319e-3 79.94
          783.9e-6 -92.74 0.068 -14.334 1.251e-3 70.82 0.91 -0.927
          0.909 -0.917 950.5e-6 83.434 0.07 -12.334 650.9e-6 -91.025
          1.406e-3 75.244 0.909 -0.883 943.6e-6 -61.671 0.075 -14.829
288.2 0.075 -17.234 694.5e-6 -74.658 0.908 -1.047 1.865e-3 79.564
          490.7e-6 -126.983 0.068 -17.37 1.52e-3 73.144 0.909 -0.985
          0.908 -0.994 1.158e-3 74.983 0.07 -15.182 814.5e-6 -81.597
          1.447e-3 80.008 0.909 -0.966 886.8e-6 -65.037 0.075 -18.216
337.75 0.075 -20.695 794.8e-6 -56.174 0.907 -1.159 2.071e-3 77.038
          836e-6 -104.309 0.069 -20.09 1.922e-3 73.851 0.909 -1.093
          0.907 -1.165 1.792e-3 76.89 0.071 -17.976 714.2e-6 -86.469
          1.593e-3 78.078 0.909 -1.148 889.6e-6 -74.047 0.075 -21.462
387.3 0.076 -23.684 880.6e-6 -66.031 0.906 -1.305 1.949e-3 77.771
          1.321e-3 -68.284 0.07 -22.858 2.243e-3 77.57 0.908 -1.237
          0.906 -1.266 2.38e-3 86.021 0.072 -20.994 734.8e-6 -96.534
          1.871e-3 73.31 0.907 -1.239 973e-6 -75.015 0.075 -24.676
436.85 0.076 -26.108 857.1e-6 -100.349 0.905 -1.348 2.045e-3 83.786
          1.015e-3 -75.473 0.07 -25.767 2.175e-3 84.86 0.906 -1.304
          0.907 -1.261 2.407e-3 87.305 0.073 -24.038 1.184e-3 -90.655
          2.102e-3 75.422 0.907 -1.202 890.7e-6 -67.804 0.075 -27.712
486.4 0.075 -29.969 981.4e-6 -83.95 0.907 -1.364 2.246e-3 77.133
          586.9e-6 -55.628 0.072 -28.027 2.017e-3 77.762 0.909 -1.292
          0.909 -1.442 2.761e-3 73.323 0.074 -25.596 990.3e-6 -58.137
          2.131e-3 82.096 0.908 -1.462 1.223e-3 -91.724 0.076 -30.548
535.95 0.076 -32.323 1.346e-3 -94.117 0.906 -1.602 2.674e-3 85.235
          822.3e-6 -66.081 0.072 -30.606 2.505e-3 86.67 0.907 -1.517
          0.906 -1.523 2.788e-3 80.203 0.075 -28.508 1.253e-3 -77.814
          2.573e-3 80.854 0.907 -1.469 1.321e-3 -92.627 0.075 -33.468
585.5 0.075 -34.875 1.275e-3 -89.701 0.904 -1.758 2.887e-3 87.752
          1.455e-3 -80.164 0.073 -32.909 2.772e-3 88.559 0.905 -1.678
          0.906 -1.687 3.045e-3 86.532 0.075 -31.506 1.525e-3 -82.763
          2.79e-3 84.595 0.906 -1.593 1.316e-3 -88.761 0.075 -36.46
635.05 0.075 -38.105 1.37e-3 -82.991 0.904 -1.748 3.158e-3 87.968
          1.635e-3 -87.347 0.073 -35.022 3.076e-3 87.478 0.904 -1.682
          0.905 -1.743 3.255e-3 86.328 0.076 -33.764 1.692e-3 -86.351
          3.106e-3 84.938 0.905 -1.63 1.277e-3 -85.117 0.075 -39.24
684.6 0.075 -40.949 1.628e-3 -80.91 0.905 -1.734 3.522e-3 87.273
          1.419e-3 -87.101 0.074 -37.031 3.429e-3 87.219 0.905 -1.668
          0.905 -1.805 3.319e-3 82.64 0.077 -35.642 1.725e-3 -91.745
          3.479e-3 83.588 0.905 -1.677 1.376e-3 -83.081 0.075 -41.64
734.15 0.075 -42.069 1.486e-3 -79.187 0.908 -2.007 3.75e-3 83.746
          1.631e-3 -88.612 0.075 -38.989 3.557e-3 88.218 0.908 -1.904
          0.907 -2.159 3.416e-3 83.546 0.078 -38.348 1.659e-3 -89.183
          3.53e-3 90.985 0.906 -2.016 1.751e-3 -83.398 0.075 -43.748
783.7 0.074 -44.854 1.628e-3 -84.71 0.902 -2.272 3.867e-3 85.821
          1.815e-3 -84.874 0.076 -40.747 3.809e-3 85.253 0.903 -2.184
          0.903 -1.854 3.887e-3 84.133 0.078 -40.037 1.653e-3 -89.885
          3.93e-3 89.533 0.903 -1.717 1.556e-3 -93.071 0.074 -45.975
833.25 0.075 -46.844 1.953e-3 -86.938 0.901 -2.132 4.083e-3 87.647
          1.906e-3 -84.575 0.077 -42 4.034e-3 86.856 0.902 -2.032
          0.905 -2.234 4.092e-3 86.136 0.079 -41.935 1.83e-3 -90.932
          4.258e-3 88.47 0.905 -2.134 1.952e-3 -89.452 0.074 -47.603
882.8 0.074 -48.18 2.209e-3 -89.094 0.903 -2.206 4.399e-3 87.112
          1.806e-3 -83.86 0.077 -43.316 4.279e-3 87.83 0.903 -2.104
          0.903 -2.224 4.384e-3 86.819 0.08 -44.042 1.939e-3 -89.768
          4.446e-3 88.004 0.904 -2.126 2.002e-3 -89.589 0.073 -49.361
932.35 0.072 -49.927 2.295e-3 -91.275 0.902 -2.34 4.669e-3 86.453
          1.879e-3 -85.979 0.078 -44.606 4.621e-3 87.628 0.902 -2.25
          0.902 -2.261 4.647e-3 87.444 0.08 -45.681 2.133e-3 -88.725
          4.687e-3 87.918 0.902 -2.123 2.153e-3 -90.813 0.072 -50.903
981.9 0.072 -51.907 2.256e-3 -92.518 0.9 -2.382 4.872e-3 87.092
          2.225e-3 -90.528 0.078 -45.621 4.988e-3 86.628 0.901 -2.297
          0.904 -2.549 4.843e-3 87.917 0.081 -46.852 2.428e-3 -89.035
          5.011e-3 88.066 0.903 -2.37 2.587e-3 -90.108 0.072 -51.956
1031.45 0.072 -52.162 2.292e-3 -91.232 0.902 -2.432 5.206e-3 87.697
          2.418e-3 -90.062 0.079 -46.192 5.121e-3 85.059 0.903 -2.323
          0.903 -2.493 5.182e-3 85.129 0.082 -48.719 2.531e-3 -88.136
          5.142e-3 88.386 0.903 -2.356 2.674e-3 -88.997 0.071 -52.729
1081 0.07 -52.958 2.605e-3 -90.794 0.9 -2.708 5.229e-3 88.504
          2.393e-3 -92.942 0.08 -46.932 5.506e-3 87.707 0.9 -2.58
          0.899 -2.464 5.258e-3 84.192 0.081 -49.781 2.559e-3 -89.961
          5.246e-3 87.317 0.899 -2.39 2.708e-3 -89.298 0.07 -53.465
1130.55 0.07 -54.178 2.722e-3 -90.197 0.897 -2.664 5.529e-3 87.048
          2.741e-3 -91.713 0.08 -47.327 5.583e-3 88.631 0.898 -2.559
          0.903 -2.688 5.535e-3 86.84 0.082 -50.747 2.579e-3 -91.708
          5.438e-3 88.497 0.903 -2.532 2.823e-3 -93.637 0.069 -53.831
1180.1 0.069 -54.177 2.813e-3 -91.243 0.899 -2.649 5.797e-3 86.549
          2.896e-3 -89.252 0.081 -47.62 5.748e-3 88.017 0.899 -2.521
          0.9 -2.764 5.815e-3 86.835 0.083 -52.036 2.882e-3 -92.695
          5.712e-3 87.166 0.901 -2.591 3.026e-3 -93.704 0.068 -53.9
1229.65 0.067 -54.084 2.979e-3 -91.938 0.901 -2.793 6.05e-3 87.137
          2.877e-3 -88.977 0.081 -47.792 5.998e-3 86.966 0.901 -2.625
          0.898 -2.718 6.04e-3 86.469 0.083 -52.908 3.142e-3 -92.36
          5.992e-3 86.446 0.899 -2.604 3.158e-3 -90.131 0.067 -53.68
1279.2 0.066 -54.841 3.181e-3 -91.025 0.9 -3.025 6.306e-3 87.76
          2.944e-3 -92.056 0.082 -47.779 6.23e-3 86.661 0.9 -2.855
          0.902 -2.763 6.229e-3 88.543 0.082 -53.043 3.12e-3 -91.159
          6.202e-3 88.959 0.904 -2.7 3.129e-3 -87.684 0.066 -53.154
1328.75 0.067 -54.43 3.11e-3 -92.672 0.896 -3.018 6.269e-3 87.647
          3.353e-3 -93.384 0.083 -47.662 6.484e-3 87.563 0.897 -2.88
          0.896 -3.118 6.431e-3 88.895 0.083 -54.211 3.378e-3 -92.605
          6.335e-3 88.588 0.897 -3.023 3.167e-3 -92.281 0.065 -52.32
1378.3 0.065 -53.184 3.367e-3 -92.524 0.896 -3.015 6.68e-3 87.795
          3.539e-3 -90.525 0.083 -47.446 6.569e-3 86.598 0.896 -2.876
          0.9 -2.899 6.648e-3 87.179 0.083 -54.79 3.452e-3 -93.125
          6.721e-3 88.013 0.9 -2.744 3.318e-3 -93.045 0.064 -50.946
1427.85 0.064 -53.239 3.581e-3 -94.086 0.898 -2.958 6.938e-3 88.247
          3.46e-3 -92.915 0.084 -47.053 6.724e-3 86.752 0.898 -2.83
          0.9 -3.229 6.824e-3 87.947 0.083 -54.84 3.578e-3 -94.696
          6.946e-3 86.978 0.899 -3.033 3.435e-3 -91.57 0.063 -49.108
1477.4 0.064 -52.139 3.725e-3 -94.123 0.9 -3.255 7.173e-3 88.292
          3.506e-3 -94.081 0.085 -46.608 7.07e-3 87.626 0.899 -3.114
          0.898 -3.319 6.938e-3 87.663 0.083 -55.177 3.717e-3 -95.668
          7.028e-3 87.602 0.896 -3.061 3.622e-3 -92.968 0.062 -46.982
1526.95 0.064 -50.108 3.806e-3 -93.456 0.896 -3.556 7.372e-3 88.012
          3.684e-3 -94.947 0.087 -46.225 7.395e-3 88.385 0.895 -3.415
          0.898 -3.259 7.139e-3 86.846 0.083 -55.6 3.854e-3 -96.09
          7.172e-3 88.781 0.895 -2.987 3.798e-3 -96.357 0.062 -44.457
1576.5 0.062 -48.713 3.866e-3 -94.789 0.89 -3.314 7.487e-3 88.051
          3.823e-3 -98.47 0.089 -46.138 7.442e-3 88.379 0.889 -3.221
          0.9 -3.503 7.544e-3 87.648 0.084 -55.556 4e-3 -96.759
          7.536e-3 88.185 0.899 -3.332 3.838e-3 -97.925 0.063 -41.449
1626.05 0.065 -47.666 4.059e-3 -97.059 0.896 -3.229 7.753e-3 89.17
          4.107e-3 -93.895 0.09 -47.197 7.635e-3 88.452 0.893 -3.085
          0.891 -3.41 7.676e-3 87.067 0.085 -55.845 4.193e-3 -96.559
          7.631e-3 87.334 0.887 -3.205 3.978e-3 -98.393 0.065 -38.655
1675.6 0.067 -45.414 4.103e-3 -95.228 0.893 -3.468 7.884e-3 88.377
          4.262e-3 -95.554 0.088 -47.46 7.926e-3 88.227 0.891 -3.198
          0.896 -3.48 8.008e-3 87.339 0.083 -56.644 4.138e-3 -96.721
          7.841e-3 88.744 0.894 -3.173 4.105e-3 -96.891 0.069 -38.548
1725.15 0.067 -45.253 4.255e-3 -95.892 0.893 -3.396 8.025e-3 88.84
          4.359e-3 -95.357 0.087 -46.466 8.142e-3 88.332 0.891 -3.081
          0.895 -3.415 8.141e-3 88.113 0.082 -56.196 4.26e-3 -97.504
          8.128e-3 88.81 0.893 -2.999 4.293e-3 -96.54 0.07 -38.394
1774.7 0.068 -44.916 4.462e-3 -97.241 0.894 -3.363 8.263e-3 89.023
          4.413e-3 -97.101 0.087 -44.833 8.322e-3 88.55 0.893 -3.034
          0.894 -3.484 8.223e-3 88.146 0.081 -55.459 4.405e-3 -97.549
          8.301e-3 89.229 0.892 -3.047 4.438e-3 -97.079 0.071 -37.352
1824.25 0.069 -43.251 4.638e-3 -98.28 0.895 -3.562 8.56e-3 88.458
          4.492e-3 -99.845 0.088 -43.184 8.492e-3 88.448 0.895 -3.221
          0.896 -3.656 8.412e-3 87.699 0.081 -54.727 4.549e-3 -96.997
          8.405e-3 89.779 0.896 -3.265 4.5e-3 -98.093 0.072 -35.548
1873.8 0.069 -41.114 4.725e-3 -99.658 0.895 -3.853 8.778e-3 88.249
          4.686e-3 -98.113 0.089 -41.885 8.651e-3 87.719 0.895 -3.515
          0.895 -3.605 8.741e-3 88.343 0.08 -53.454 4.808e-3 -97.561
          8.689e-3 88.375 0.894 -3.212 4.543e-3 -99.347 0.073 -33.805
1923.35 0.071 -41.396 4.727e-3 -99.933 0.888 -3.596 8.946e-3 88.734
          4.927e-3 -99.799 0.09 -40.686 8.91e-3 88.033 0.887 -3.313
          0.897 -3.761 8.748e-3 88.828 0.081 -52.621 4.737e-3 -99.78
          9.008e-3 89.156 0.896 -3.366 4.762e-3 -99.639 0.075 -32.151
1972.9 0.073 -39.397 4.915e-3 -98.654 0.896 -3.489 8.988e-3 88.834
          5.1e-3 -97.582 0.092 -39.458 9.112e-3 88.671 0.895 -3.141
          0.894 -3.795 9.109e-3 88.533 0.08 -51.693 4.859e-3 -99.801
          9.049e-3 88.646 0.894 -3.405 4.977e-3 -100.313 0.077 -30.376
2022.45 0.074 -37.88 5.094e-3 -99.971 0.896 -3.872 9.184e-3 88.346
          5.139e-3 -98.135 0.093 -38.252 9.294e-3 88.786 0.895 -3.504
          0.894 -3.947 9.382e-3 87.953 0.08 -50.337 5.001e-3 -99.858
          9.231e-3 88.557 0.894 -3.58 5.063e-3 -100.584 0.08 -28.754
2072 0.076 -37.34 5.175e-3 -101.291 0.892 -3.991 9.392e-3 88.273
          5.129e-3 -99.065 0.095 -37.14 9.387e-3 88.522 0.893 -3.652
          0.896 -3.955 9.504e-3 87.971 0.081 -49.223 5.147e-3 -99.904
          9.457e-3 88.76 0.895 -3.541 5.165e-3 -100.086 0.083 -27.446
2121.55 0.078 -37.029 5.208e-3 -101.028 0.893 -3.713 9.53e-3 88.83
          5.176e-3 -99.347 0.096 -36.102 9.426e-3 88.286 0.893 -3.391
          0.895 -3.892 9.622e-3 88.599 0.082 -48.402 5.281e-3 -100.168
          9.599e-3 89.052 0.894 -3.434 5.365e-3 -99.721 0.086 -26.389
2171.1 0.081 -35.311 5.405e-3 -101.659 0.896 -4.214 9.756e-3 88.589
          5.338e-3 -103.151 0.098 -35.002 9.629e-3 88.442 0.897 -3.81
          0.89 -4.462 0.01 88.389 0.081 -46.697 5.33e-3 -101.982
          9.683e-3 89.751 0.89 -4.271 5.526e-3 -101.873 0.089 -25.297
2220.65 0.081 -35.629 5.558e-3 -101.32 0.892 -4.192 9.902e-3 87.599
          5.372e-3 -102.144 0.1 -33.966 9.925e-3 87.895 0.892 -3.819
          0.898 -3.904 9.902e-3 87.082 0.083 -45.316 5.333e-3 -102.77
          9.822e-3 89.191 0.897 -3.413 5.455e-3 -101.167 0.092 -24.673
2270.2 0.085 -35.56 5.646e-3 -102.247 0.89 -4.157 9.923e-3 88.13
          5.656e-3 -103.679 0.102 -33.053 0.01 88.539 0.89 -3.848
          0.894 -4.43 0.01 88.275 0.083 -44.228 5.493e-3 -101.878
          9.817e-3 88.223 0.893 -4.049 5.644e-3 -102.243 0.095 -24.211
2319.75 0.087 -34.894 5.725e-3 -102.496 0.892 -4.059 0.01 89.238
          5.891e-3 -103.617 0.104 -32.213 0.01 88.511 0.89 -3.739
          0.892 -4.396 0.01 88.768 0.084 -42.738 5.667e-3 -101.358
          0.01 87.843 0.891 -4.001 5.815e-3 -103.092 0.098 -23.931
2369.3 0.088 -34.596 5.846e-3 -102.793 0.894 -4.109 0.01 89.492
          5.984e-3 -102.398 0.106 -31.291 0.01 88.056 0.892 -3.714
          0.894 -4.317 0.01 88.19 0.085 -41.271 5.824e-3 -102.076
          0.01 87.807 0.894 -3.879 5.887e-3 -103.728 0.101 -23.697
2418.85 0.09 -35.156 6.035e-3 -103.964 0.895 -4.402 0.01 88.479
          5.974e-3 -102.127 0.108 -30.28 0.011 87.881 0.894 -3.929
          0.896 -4.807 0.011 87.417 0.086 -40.32 5.971e-3 -103.831
          0.01 87.875 0.898 -4.467 5.904e-3 -104.487 0.104 -23.469
2468.4 0.093 -34.62 6.259e-3 -104.131 0.897 -4.463 0.011 88.876
          6.003e-3 -103.998 0.109 -29.573 0.01 87.524 0.896 -3.948
          0.885 -4.34 0.01 87.333 0.087 -39.273 6.079e-3 -105.071
          0.01 89.234 0.881 -3.916 5.994e-3 -104.242 0.107 -23.549
2517.95 0.094 -34.557 6.105e-3 -105.017 0.89 -4.973 0.011 88.276
          6.295e-3 -105.457 0.111 -28.695 0.011 87.724 0.891 -4.582
          0.896 -4.609 0.011 88.59 0.089 -37.656 6.031e-3 -104.647
          0.011 88.525 0.897 -4.125 6.21e-3 -103.972 0.11 -23.596
2567.5 0.096 -35.29 6.321e-3 -104.446 0.887 -4.455 0.011 88.667
          6.307e-3 -105.042 0.113 -27.962 0.011 87.307 0.885 -4.088
          0.892 -4.879 0.011 88.548 0.09 -36.717 6.021e-3 -105.095
          0.011 88.216 0.892 -4.478 6.214e-3 -104.215 0.113 -23.852
2617.05 0.098 -35.357 6.522e-3 -104.226 0.891 -4.381 0.011 88.731
          6.385e-3 -104.45 0.115 -27.295 0.011 87.472 0.889 -3.905
          0.889 -4.729 0.011 88.474 0.091 -35.608 6.217e-3 -105.103
          0.011 88.763 0.888 -4.243 6.368e-3 -103.504 0.115 -24.126
2666.6 0.099 -35.107 6.582e-3 -104.512 0.896 -4.729 0.011 88.418
          6.572e-3 -104.489 0.117 -26.607 0.011 87.86 0.895 -4.149
          0.892 -4.732 0.011 88.098 0.093 -34.363 6.472e-3 -104.528
          0.011 89.157 0.89 -4.147 6.567e-3 -103.429 0.117 -24.392
2716.15 0.099 -35.67 6.611e-3 -104.488 0.891 -4.686 0.011 88.503
          6.705e-3 -104.962 0.119 -25.844 0.011 87.417 0.889 -4.149
          0.892 -5.495 0.011 86.78 0.095 -33.519 6.559e-3 -104.308
          0.011 88.28 0.894 -5.091 6.501e-3 -105.915 0.12 -24.709
2765.7 0.101 -35.871 6.757e-3 -104.769 0.898 -5.048 0.011 89.012
          6.774e-3 -104.566 0.12 -25.097 0.011 87.171 0.898 -4.361
          0.889 -4.717 0.011 87.725 0.095 -32.918 6.847e-3 -106.261
          0.011 88.777 0.887 -4.105 6.501e-3 -104.622 0.121 -25.017
2815.25 0.101 -35.6 6.81e-3 -106.269 0.892 -5.402 0.011 88.409
          6.796e-3 -105.129 0.121 -24.457 0.011 87.673 0.893 -4.828
          0.89 -5.153 0.011 87.162 0.097 -31.865 6.849e-3 -107.075
          0.011 88.128 0.889 -4.536 6.798e-3 -106.219 0.123 -25.287
2864.8 0.101 -36.456 6.958e-3 -105.918 0.885 -5.41 0.011 88.049
          6.975e-3 -105.494 0.123 -23.929 0.012 87.5 0.886 -4.891
          0.889 -5.516 0.012 87.09 0.098 -31.515 6.824e-3 -106.208
          0.011 87.417 0.888 -4.929 6.868e-3 -105.418 0.125 -25.712
2914.35 0.101 -36.968 7.048e-3 -104.747 0.885 -4.985 0.011 88.88
          7.111e-3 -104.773 0.124 -23.456 0.012 87.1 0.883 -4.387
          0.888 -5.488 0.012 87.912 0.099 -31.112 6.917e-3 -105.326
          0.011 87.472 0.888 -4.842 6.912e-3 -105.57 0.125 -26.216
2963.9 0.101 -36.71 7.176e-3 -104.54 0.891 -4.791 0.011 89.767
          7.09e-3 -104.233 0.125 -22.872 0.011 87.264 0.889 -4.02
          0.888 -5.366 0.012 88.91 0.1 -30.342 7.13e-3 -105.231
          0.011 88.256 0.888 -4.645 6.992e-3 -106.777 0.126 -26.596
3013.45 0.099 -36.779 7.615e-3 -106.657 0.901 -5.877 0.012 88.109
          7.018e-3 -106.558 0.126 -21.995 0.012 88.46 0.905 -4.995
          0.884 -5.797 0.012 88.673 0.102 -29.615 7.323e-3 -105.497
          0.011 88.874 0.885 -5.203 6.953e-3 -105.276 0.126 -26.636
3063 0.1 -37.677 7.376e-3 -107.081 0.88 -6.134 0.012 87.515
          7.561e-3 -106.846 0.128 -21.455 0.012 87.1 0.883 -5.555
          0.881 -5.905 0.012 87.978 0.102 -28.959 7.258e-3 -106.708
          0.011 88.792 0.882 -5.292 7.048e-3 -105.324 0.126 -26.971
3112.55 0.099 -36.705 7.332e-3 -106.699 0.879 -5.815 0.011 88.394
          7.683e-3 -106.444 0.128 -20.854 0.012 87.68 0.882 -5.131
          0.882 -5.658 0.012 88.041 0.102 -27.949 7.252e-3 -105.856
          0.012 89.065 0.883 -4.851 7.329e-3 -106.117 0.125 -27.19
3162.1 0.098 -36.387 7.496e-3 -106.067 0.877 -5.5 0.012 88.805
          7.649e-3 -106.882 0.129 -20.13 0.012 87.935 0.88 -4.774
          0.875 -5.771 0.012 87.743 0.103 -27.328 7.365e-3 -105.992
          0.012 88.736 0.875 -5.044 7.533e-3 -106.565 0.124 -27.219
3211.65 0.098 -35.919 7.69e-3 -105.658 0.879 -5.455 0.012 88.745
          7.749e-3 -107.602 0.13 -19.194 0.012 88.173 0.883 -4.758
          0.871 -5.813 0.012 87.644 0.104 -26.34 7.576e-3 -105.906
          0.012 88.379 0.873 -5.203 7.659e-3 -105.809 0.124 -26.89
3261.2 0.099 -34.561 7.793e-3 -105.731 0.881 -5.66 0.012 88.719
          7.963e-3 -107.295 0.131 -18.217 0.012 88.726 0.889 -5.05
          0.874 -5.491 0.012 88.226 0.105 -24.928 7.836e-3 -104.903
          0.012 88.698 0.88 -4.886 7.79e-3 -104.356 0.123 -26.337
3310.75 0.099 -33.1 7.885e-3 -106.196 0.864 -5.742 0.012 89.195
          7.777e-3 -104.588 0.133 -17.73 0.012 88.875 0.869 -5.422
          0.866 -5.239 0.012 89.1 0.107 -24.701 8.1e-3 -104.917
          0.012 89.854 0.871 -4.811 8.028e-3 -104.687 0.123 -26.162
3360.3 0.099 -33.859 7.996e-3 -105.671 0.874 -4.85 0.012 90.315
          8.111e-3 -106.389 0.134 -17.326 0.012 88.86 0.877 -4.379
          0.868 -4.835 0.012 89.529 0.107 -24.265 8.213e-3 -104.28
          0.012 90.017 0.87 -4.371 8.258e-3 -103.366 0.122 -25.767
3409.85 0.1 -33.324 8.145e-3 -106.664 0.877 -4.871 0.012 90.277
          8.318e-3 -105.704 0.135 -17.097 0.012 88.313 0.879 -4.446
          0.874 -5.303 0.012 87.945 0.109 -23.543 8.369e-3 -104.872
          0.012 89.335 0.878 -4.961 8.473e-3 -104.345 0.122 -25.599
3459.4 0.1 -33.112 8.387e-3 -106.538 0.882 -4.908 0.012 90.403
          8.37e-3 -104.91 0.136 -16.969 0.012 88.686 0.885 -4.47
          0.877 -4.72 0.012 88.672 0.11 -23.264 8.541e-3 -105.516
          0.012 90.167 0.879 -4.304 8.635e-3 -105.735 0.121 -25.611
3508.95 0.098 -33.5 8.624e-3 -105.986 0.886 -4.991 0.012 90.423
          8.476e-3 -105.559 0.136 -16.899 0.012 89.126 0.889 -4.556
          0.877 -4.492 0.012 89.915 0.11 -23.288 8.682e-3 -105.789
          0.012 90.733 0.877 -4.041 8.719e-3 -106.495 0.12 -25.624
3558.5 0.098 -33.903 8.727e-3 -106.502 0.884 -5.339 0.012 89.895
          8.758e-3 -107.355 0.136 -16.875 0.012 88.564 0.887 -5.028
          0.878 -5.678 0.013 88.617 0.111 -23.217 8.758e-3 -106.178
          0.012 89.429 0.881 -5.42 8.764e-3 -106.29 0.119 -25.518
3608.05 0.096 -33.003 8.665e-3 -107.562 0.886 -5.531 0.012 89.947
