!Hittite Microwave Corporation								
!12 Elizabeth Drive								
!Chelmsford, MA 01824								
!Tel: 978-250-3343								
!Fax: 978-250-3373								
!Device: HMC490, 12-17 GHz, GaAs PHEMT MMIC Low Noise High IP3 Amplifier
!Misc: Vdd = 5 V, data includes two (K) connectors, Room							
!
# MHZ S MA R 50

8000 0.645 -115.889 0.316 -145.002 377e-6 57.196 0.566 30.262
8140 0.626 -130.512 0.49 -149.43 407.7e-6 63.151 0.551 25.329
8280 0.611 -145.054 0.723 -157.255 451.4e-6 67.487 0.532 21.107
8420 0.599 -159.141 1.01 -167.023 469.5e-6 70.016 0.516 16.339
8560 0.58 -173.403 1.347 -177.728 527.1e-6 60.785 0.504 11.845
8700 0.566 171.783 1.722 170.697 578.9e-6 60.669 0.491 7.864
8840 0.554 156.501 2.197 160.174 509e-6 46.416 0.482 4.176
8980 0.544 141.086 2.729 148.398 611.6e-6 56.745 0.471 1.037
9120 0.549 125.827 3.354 136.782 542.7e-6 62.282 0.461 -2.064
9260 0.551 112.018 4.034 124.941 734.5e-6 55.204 0.451 -4.75
9400 0.558 98.577 4.927 112.642 522.5e-6 37.932 0.447 -8.507
9540 0.568 86.314 5.858 100.298 725.2e-6 48.107 0.443 -10.903
9680 0.577 74.095 6.969 87.414 703.7e-6 46.039 0.442 -13.532
9820 0.586 63.709 8.206 74.21 673.5e-6 51.978 0.439 -17.339
9960 0.592 52.957 9.601 60.516 671.3e-6 62.846 0.441 -20.132
10100 0.594 42.905 11.108 46.251 769.5e-6 42.15 0.439 -23.893
10240 0.599 32.929 12.755 30.774 721.6e-6 31.959 0.437 -28.347
10380 0.595 23.328 14.144 15.58 743.6e-6 43.52 0.436 -33.197
10520 0.596 13.629 15.742 0.379 708.4e-6 38.138 0.429 -38.136
10660 0.591 4.575 17.203 -15.509 756.9e-6 37.098 0.421 -43.038
10800 0.588 -3.909 18.729 -31.674 821.1e-6 31.51 0.405 -48.867
10940 0.581 -10.898 19.187 -46.837 727.5e-6 46.665 0.397 -52.632
11080 0.569 -19.57 20.11 -61.284 720.3e-6 52.564 0.369 -59.358
11220 0.553 -26.447 21.061 -76.782 846.1e-6 44.063 0.366 -61.256
11360 0.549 -35.446 20.746 -90.031 830.4e-6 38.874 0.342 -67.058
11500 0.527 -42.24 21.45 -103.321 905e-6 38.505 0.338 -69.137
11640 0.522 -50.61 21.321 -114.822 1.101e-3 32.561 0.321 -74.413
11780 0.499 -58.531 21.775 -127.992 1.086e-3 33.238 0.322 -78.01
11920 0.486 -67.537 22.078 -140.011 1.153e-3 32.288 0.321 -82.412
12060 0.471 -76.653 22.064 -152.72 1.169e-3 30.633 0.327 -85.67
12200 0.459 -85.843 21.542 -164.002 1.229e-3 27.793 0.325 -88.442
12340 0.452 -94.515 21.731 -174.617 1.355e-3 26.922 0.33 -93.367
12480 0.438 -103.435 22.056 175.718 1.371e-3 24.586 0.333 -96.818
12620 0.427 -110.875 22.349 162.673 1.479e-3 22.817 0.344 -103.872
12760 0.421 -121.44 21.664 152.878 1.472e-3 18.584 0.356 -106.015
12900 0.404 -126.761 22.246 141.507 1.548e-3 13.616 0.372 -112.029
13040 0.405 -136.234 21.896 128.185 1.559e-3 12.813 0.377 -113.45
13180 0.388 -143.324 21.228 118.391 1.844e-3 7.027 0.382 -118.951
13320 0.386 -149.403 20.834 108.65 1.831e-3 2.26 0.386 -123.01
13460 0.368 -157.267 21.503 98.471 1.805e-3 0.625 0.395 -128.578
13600 0.366 -163.526 21.504 87.051 1.848e-3 -6.755 0.403 -132.449
13740 0.36 -169.269 21.03 78.231 2.044e-3 -9.264 0.408 -136.704
13880 0.348 -173.817 20.795 68.209 2.037e-3 -15.204 0.413 -140.083
14020 0.337 -178.093 20.902 58.64 1.998e-3 -18.968 0.408 -145.018
14160 0.321 176.279 20.018 49.385 1.899e-3 -18.433 0.413 -148.103
14300 0.301 172.555 20.66 42.099 2.046e-3 -24.63 0.399 -154.222
14440 0.297 166.156 20.018 31.32 2.201e-3 -23.211 0.412 -156.363
14580 0.265 162.251 20.114 21.878 2.337e-3 -35.897 0.397 -163.542
14720 0.26 159.424 20.009 14.663 2.21e-3 -38.704 0.406 -163.713
14860 0.23 149.855 20.602 2.248 2.368e-3 -48.542 0.385 -171.216
15000 0.223 148.135 19.865 -6.684 2.297e-3 -50.433 0.391 -173.023
15140 0.208 135.533 19.794 -16.118 2.529e-3 -59.583 0.381 179.58
15280 0.197 130.947 20.557 -23.855 2.554e-3 -59.436 0.383 177.051
15420 0.192 122.886 21.043 -34.866 2.549e-3 -66.33 0.374 171.48
15560 0.176 114.031 21.127 -43.595 2.466e-3 -69.04 0.369 166.354
15700 0.179 104.621 21.527 -53.596 2.493e-3 -73.848 0.372 161.304
15840 0.17 92.971 22.829 -63.606 2.576e-3 -79.615 0.361 153.649
15980 0.165 85.231 21.931 -74.914 2.479e-3 -91.108 0.374 150.79
16120 0.161 67.384 23.013 -83.109 2.482e-3 -95.405 0.365 142.168
16260 0.167 52.122 23.439 -96.169 2.472e-3 -99.083 0.376 140.222
16400 0.168 39.939 24.456 -104.646 2.551e-3 -108.47 0.363 130.426
16540 0.203 19.529 24.451 -118.005 2.476e-3 -112.687 0.37 126.707
16680 0.212 5.608 25.132 -127.573 2.536e-3 -127.854 0.372 117.629
16820 0.258 -8.406 25.542 -142.629 2.343e-3 -139.528 0.374 112.079
16960 0.29 -22.954 25.113 -153.883 2.287e-3 -150.154 0.37 104.673
17100 0.329 -34.672 25.714 -166.995 2.112e-3 -161.105 0.356 98.794
17240 0.363 -47.393 25.76 179.425 1.996e-3 -174.301 0.34 91.401
17380 0.385 -60.566 25.491 163.899 1.853e-3 175.072 0.319 84.326
17520 0.405 -74.52 24.97 148.796 1.759e-3 156.564 0.283 79.397
17660 0.419 -91.892 23.916 133.933 1.581e-3 141.618 0.267 74.354
17800 0.427 -106.782 22.412 118.58 1.289e-3 131.317 0.222 78.868
17940 0.45 -123.467 21.105 103.39 1.169e-3 115.886 0.212 78.263
18080 0.45 -138.686 19.168 89.256 827.5e-6 93.166 0.177 91.406
18220 0.452 -151.945 17.574 74.703 883.6e-6 86.224 0.198 91.291
18360 0.465 -165.238 15.682 62.132 779.3e-6 64.363 0.203 99.871
18500 0.444 -178.372 14.051 48.968 754.7e-6 29.708 0.244 97.949
18640 0.452 170.833 12.493 37.25 728.6e-6 14.581 0.267 99.3
18780 0.442 157.194 11.079 25.561 776.7e-6 9.943 0.305 96.105
18920 0.443 147.769 9.838 14.865 729e-6 -12.697 0.332 93.172
19060 0.448 136.134 8.739 4.092 801e-6 -34.868 0.357 88.623
19200 0.446 126.519 7.752 -6.072 680.4e-6 -39.693 0.383 83.1
19340 0.469 118.176 6.959 -15.966 596.7e-6 -37.802 0.412 76.927
19480 0.463 109.499 6.105 -25.297 592e-6 -40.713 0.442 72.387
19620 0.49 104.121 5.528 -34.43 597.5e-6 -69.319 0.46 65.836
19760 0.486 97.02 4.899 -43 596.3e-6 -67.411 0.481 61.45
19900 0.484 92.009 4.471 -53.519 637.5e-6 -49.529 0.499 52.487
20040 0.496 85.741 3.92 -61.079 546.3e-6 -90.754 0.518 48.1
20180 0.487 80.534 3.592 -69.797 488.3e-6 -46.212 0.55 39.233
20320 0.488 75.051 3.2 -78.942 614.5e-6 -65.527 0.555 35.366
20460 0.487 69.338 2.87 -88.018 419.7e-6 -64.844 0.582 26.66
20600 0.486 63.905 2.602 -95.874 486e-6 -79.515 0.593 20.599
20740 0.486 59.079 2.393 -105.042 417.4e-6 -83.848 0.616 12.717
20880 0.474 53.178 2.125 -114.317 583.1e-6 -71.026 0.634 6.089
21020 0.484 48.338 1.902 -122.745 790.3e-6 -50.921 0.65 -0.573
21160 0.468 42.289 1.754 -130.863 682.9e-6 -50.718 0.671 -7.363
21300 0.476 37.797 1.565 -140.415 557.2e-6 -73.17 0.675 -14.029
21440 0.455 32.691 1.399 -149.847 602.2e-6 -60.803 0.702 -21.575
21580 0.456 23.303 1.245 -159.896 294.4e-6 -79.018 0.699 -28.44
21720 0.441 22.621 1.161 -167.38 784.8e-6 -72.276 0.741 -36.528
21860 0.453 10.028 1.044 -179.14 704.5e-6 -40.122 0.73 -41.652
22000 0.418 9.117 0.905 172.266 467.9e-6 -36.885 0.762 -49.31
