!Hittite Microwave Corporation								
!12 Elizabeth Drive								
!Chelmsford, MA 01824								
!Tel: 978-250-3343								
!Fax: 978-250-3373
!Device: HMC484MS8G, DC - 3 GHz GaAs MMIC 10 Watt T/R Switch in 8-lead MSOP grounded base package
!Misc: Port1=RFC, Port2= RF1, Port3=RF2, RF1 ON, Bias: +5VDC								
!
# MHZ S MA R 50

50 0.024 78.928 0.978 -3.465 7.444e-3 65.621
          0.979 -3.405 0.024 77.837 7.964e-3 74.523
          7.34e-3 64.765 7.95e-3 74.013 0.965 -19.769
67.25 0.012 42.596 0.972 -3.583 6.461e-3 64.663
          0.973 -3.537 0.012 46.076 6.599e-3 63.79
          6.429e-3 63.961 6.752e-3 62.869 0.96 -26.691
84.5 8.942e-3 21.855 0.971 -4.04 7.97e-3 73.558
          0.972 -4.03 8.814e-3 25.727 7.856e-3 74.344
          8.044e-3 75.061 7.897e-3 73.579 0.953 -33.077
101.75 7.876e-3 -2.562 0.97 -4.524 9.912e-3 74.654
          0.971 -4.534 7.621e-3 2.987 0.01 73.317
          0.01 74.155 0.01 72.796 0.947 -39.341
119 8.404e-3 -22.253 0.968 -5.05 0.013 71.572
          0.968 -5.095 7.813e-3 -12.403 0.013 66.553
          0.012 71.305 0.013 66.526 0.94 -45.448
136.25 8.726e-3 -28.121 0.969 -5.695 0.014 67.047
          0.969 -5.665 8.519e-3 -14.363 0.014 66.028
          0.014 67.063 0.014 65.89 0.935 -51.377
153.5 0.01 -28.965 0.971 -6.298 0.016 62.167
          0.971 -6.27 9.707e-3 -15.825 0.015 61.341
          0.016 62.661 0.015 61.299 0.931 -57.037
170.75 0.012 -38.033 0.97 -6.972 0.018 58.105
          0.97 -6.96 0.01 -26.53 0.017 58.007
          0.017 58.007 0.017 57.999 0.927 -62.533
188 0.013 -46.335 0.969 -7.617 0.019 50.833
          0.97 -7.653 0.011 -43.509 0.017 51.063
          0.019 50.891 0.017 51.323 0.92 -67.858
205.25 0.013 -48.089 0.968 -8.172 0.019 50.775
          0.969 -8.26 0.011 -40.453 0.018 53.249
          0.019 50.851 0.018 53.254 0.911 -73.005
222.5 0.014 -56.013 0.969 -8.803 0.02 50.182
          0.968 -8.834 0.013 -49.343 0.02 51.71
          0.02 49.823 0.019 51.45 0.905 -77.779
239.75 0.015 -61.345 0.968 -9.43 0.021 47.691
          0.967 -9.422 0.014 -53.833 0.021 49.122
          0.021 47.649 0.021 48.956 0.901 -82.419
257 0.016 -63.127 0.968 -10.063 0.023 44.526
          0.968 -10.066 0.014 -56.828 0.022 46.659
          0.023 44.635 0.022 46.347 0.897 -86.874
274.25 0.017 -67.587 0.966 -10.645 0.023 39.704
          0.967 -10.671 0.016 -60.703 0.023 43.31
          0.023 39.7 0.023 43.161 0.891 -91.103
291.5 0.019 -70.021 0.966 -11.286 0.023 39.18
          0.967 -11.342 0.018 -64.057 0.023 41.374
          0.023 39.367 0.023 41.314 0.885 -95.122
308.75 0.02 -71.93 0.968 -11.959 0.024 37.421
          0.968 -11.986 0.019 -64.465 0.024 39.725
          0.024 37.231 0.024 39.656 0.881 -98.967
326 0.021 -74.884 0.967 -12.599 0.025 35.517
          0.968 -12.604 0.02 -67.308 0.024 38.143
          0.025 35.588 0.025 38.059 0.877 -102.575
343.25 0.022 -76.536 0.966 -13.238 0.025 33.921
          0.968 -13.277 0.021 -68.468 0.025 36.255
          0.026 33.996 0.025 36.295 0.872 -106.017
360.5 0.023 -79.185 0.966 -13.868 0.026 32.235
          0.967 -13.897 0.021 -70.549 0.026 34.471
          0.026 32.114 0.026 34.563 0.868 -109.427
377.75 0.022 -80.226 0.966 -14.491 0.027 30.66
          0.967 -14.497 0.021 -69.9 0.026 32.782
          0.027 30.521 0.026 32.81 0.865 -112.715
395 0.022 -79.583 0.967 -15.125 0.027 28.871
          0.968 -15.077 0.022 -67.814 0.027 30.75
          0.027 28.735 0.027 30.876 0.861 -115.815
412.25 0.024 -83.475 0.967 -15.813 0.028 25.554
          0.967 -15.804 0.023 -71.505 0.027 29.566
          0.028 25.62 0.027 29.486 0.858 -118.76
429.5 0.025 -87.272 0.966 -16.434 0.028 24.988
          0.966 -16.432 0.026 -72.834 0.027 28.238
          0.028 24.718 0.027 28.23 0.854 -121.657
446.75 0.027 -89.999 0.967 -17.066 0.028 23.618
          0.966 -17.018 0.027 -75.415 0.028 27.123
          0.028 23.577 0.028 26.953 0.851 -124.346
464 0.03 -92.538 0.965 -17.69 0.028 22.253
          0.966 -17.692 0.029 -76.57 0.028 25.804
          0.028 22.028 0.028 25.76 0.849 -126.94
481.25 0.032 -94.338 0.964 -18.277 0.029 20.812
          0.965 -18.347 0.03 -79.827 0.028 24.727
          0.029 20.818 0.028 24.542 0.847 -129.433
498.5 0.034 -95.192 0.964 -18.971 0.029 19.483
          0.965 -19.022 0.033 -82.145 0.029 23.429
          0.029 19.439 0.029 23.342 0.844 -131.78
515.75 0.035 -96.493 0.964 -19.606 0.029 18.052
          0.965 -19.675 0.034 -82.758 0.029 22.135
          0.029 18.227 0.029 21.997 0.842 -134.001
533 0.035 -96.926 0.964 -20.238 0.029 17.141
          0.965 -20.269 0.035 -83.32 0.029 21.112
          0.029 16.932 0.029 20.934 0.839 -136.259
550.25 0.035 -96.919 0.964 -20.867 0.03 15.778
          0.965 -20.917 0.036 -83.865 0.029 19.999
          0.03 15.713 0.029 19.99 0.838 -138.42
567.5 0.037 -98.836 0.964 -21.511 0.03 14.723
          0.964 -21.504 0.037 -84.87 0.029 19.108
          0.03 14.616 0.029 19.032 0.836 -140.499
584.75 0.037 -99.675 0.964 -22.133 0.03 13.555
          0.964 -22.114 0.037 -86.868 0.03 18.215
          0.03 13.473 0.03 18.248 0.834 -142.556
602 0.038 -100.296 0.965 -22.759 0.03 12.276
          0.965 -22.823 0.038 -87.308 0.03 17.245
          0.03 12.335 0.03 17.23 0.833 -144.538
619.25 0.038 -102.463 0.965 -23.466 0.03 11.277
          0.965 -23.398 0.039 -88.676 0.03 16.223
          0.03 11.382 0.03 16.223 0.833 -146.52
636.5 0.04 -103.798 0.965 -24.091 0.03 10.392
          0.965 -24.065 0.04 -89.149 0.03 15.491
          0.03 10.338 0.03 15.376 0.831 -148.382
653.75 0.042 -105.253 0.964 -24.683 0.03 9.524
          0.965 -24.672 0.042 -89.945 0.03 14.665
          0.03 9.473 0.03 14.666 0.828 -150.138
671 0.044 -106.934 0.963 -25.332 0.03 8.583
          0.963 -25.304 0.044 -92.154 0.03 13.788
          0.03 8.559 0.03 13.755 0.828 -151.853
688.25 0.045 -108.043 0.963 -25.955 0.03 7.658
          0.963 -25.942 0.046 -93.379 0.03 13.039
          0.03 7.717 0.03 13.128 0.826 -153.446
705.5 0.046 -108.488 0.962 -26.593 0.03 6.703
          0.963 -26.583 0.047 -94.732 0.031 12.268
          0.03 6.679 0.03 12.334 0.825 -155.094
722.75 0.047 -109.251 0.962 -27.219 0.031 5.877
          0.963 -27.234 0.047 -95.784 0.031 11.602
          0.031 5.778 0.031 11.584 0.824 -156.645
740 0.048 -110.314 0.962 -27.854 0.031 5.147
          0.962 -27.865 0.047 -96.396 0.031 10.874
          0.031 5.103 0.031 10.827 0.823 -158.216
757.25 0.048 -111.509 0.962 -28.485 0.031 4.256
          0.962 -28.503 0.047 -97.212 0.031 10.174
          0.031 4.324 0.031 10.067 0.822 -159.789
774.5 0.049 -112.932 0.962 -29.124 0.031 3.45
          0.962 -29.128 0.048 -97.513 0.031 9.482
          0.031 3.475 0.031 9.434 0.821 -161.316
791.75 0.049 -114.346 0.962 -29.769 0.031 2.758
          0.962 -29.784 0.05 -97.945 0.031 8.801
          0.031 2.816 0.031 8.804 0.819 -162.79
809 0.05 -116.09 0.961 -30.406 0.031 1.913
          0.962 -30.418 0.05 -98.098 0.031 8.149
          0.031 2.015 0.031 8.128 0.818 -164.255
826.25 0.051 -117.438 0.961 -31.059 0.031 1.221
          0.961 -31.061 0.051 -99.334 0.031 7.596
          0.031 1.23 0.031 7.426 0.818 -165.686
843.5 0.053 -117.685 0.96 -31.696 0.031 0.478
          0.96 -31.688 0.053 -100.361 0.031 6.941
          0.031 0.466 0.031 6.861 0.817 -167.007
860.75 0.055 -118.214 0.96 -32.35 0.031 -0.394
          0.96 -32.31 0.055 -101.007 0.031 6.266
          0.031 -0.283 0.031 6.279 0.815 -168.262
878 0.056 -119.168 0.96 -32.991 0.031 -0.996
          0.959 -32.956 0.056 -101.992 0.031 5.742
          0.031 -0.95 0.031 5.668 0.815 -169.555
895.25 0.057 -120.386 0.959 -33.581 0.031 -1.489
          0.959 -33.617 0.057 -102.957 0.031 5.283
          0.031 -1.669 0.031 5.1 0.814 -170.85
912.5 0.057 -121.15 0.96 -34.229 0.031 -2.175
          0.96 -34.231 0.059 -103.47 0.031 4.691
          0.031 -2.317 0.031 4.603 0.814 -172.094
929.75 0.058 -121.797 0.961 -34.864 0.031 -2.951
          0.961 -34.886 0.059 -104.464 0.032 4.095
          0.031 -2.98 0.031 4.07 0.814 -173.354
947 0.059 -122.545 0.96 -35.483 0.031 -3.558
          0.961 -35.558 0.059 -105.078 0.032 3.587
          0.031 -3.683 0.032 3.49 0.814 -174.63
964.25 0.059 -123.339 0.961 -36.131 0.031 -4.224
          0.961 -36.186 0.059 -105.541 0.032 3.033
          0.031 -4.329 0.032 3.047 0.813 -175.854
981.5 0.059 -124.282 0.96 -36.791 0.031 -4.929
          0.961 -36.804 0.06 -105.704 0.032 2.511
          0.031 -4.999 0.032 2.598 0.812 -177.053
998.75 0.059 -125.606 0.96 -37.42 0.031 -5.585
          0.96 -37.433 0.061 -106.448 0.032 2.013
          0.031 -5.589 0.032 2.01 0.811 -178.252
1016 0.06 -127.153 0.96 -38.065 0.031 -6.165
          0.96 -38.059 0.062 -107.536 0.032 1.523
          0.031 -6.128 0.032 1.538 0.811 -179.398
1033.25 0.062 -128.363 0.959 -38.696 0.031 -6.663
          0.96 -38.708 0.063 -108.573 0.032 1.117
          0.031 -6.777 0.032 1.09 0.811 179.457
1050.5 0.063 -129.106 0.958 -39.322 0.031 -7.316
          0.96 -39.321 0.065 -109.002 0.032 0.646
          0.031 -7.314 0.032 0.632 0.81 178.351
1067.75 0.065 -129.861 0.958 -39.964 0.031 -7.896
          0.96 -39.931 0.066 -109.889 0.032 0.172
          0.031 -7.924 0.032 0.186 0.81 177.252
1085 0.066 -130.508 0.958 -40.611 0.031 -8.493
          0.959 -40.565 0.067 -110.813 0.032 -0.27
          0.031 -8.518 0.032 -0.241 0.809 176.176
1102.25 0.066 -131.594 0.957 -41.24 0.031 -9.082
          0.958 -41.226 0.068 -111.629 0.032 -0.705
          0.031 -9.071 0.032 -0.76 0.809 175.119
1119.5 0.067 -132.963 0.957 -41.868 0.031 -9.653
          0.957 -41.884 0.068 -112.355 0.032 -1.094
          0.031 -9.638 0.032 -1.221 0.809 174.079
1136.75 0.067 -133.785 0.957 -42.513 0.031 -10.14
          0.957 -42.499 0.068 -112.736 0.032 -1.446
          0.031 -10.126 0.032 -1.542 0.808 173.024
1154 0.068 -134.908 0.958 -43.151 0.031 -10.542
          0.958 -43.134 0.069 -113.213 0.032 -1.881
          0.031 -10.537 0.032 -1.867 0.808 171.977
1171.25 0.068 -135.83 0.959 -43.794 0.031 -11.061
          0.959 -43.794 0.069 -113.883 0.032 -2.38
          0.031 -11.118 0.032 -2.31 0.808 170.893
1188.5 0.069 -136.492 0.96 -44.454 0.031 -11.587
          0.959 -44.427 0.07 -114.349 0.032 -2.77
          0.031 -11.65 0.032 -2.687 0.809 169.86
1205.75 0.069 -137.152 0.959 -45.097 0.031 -12.114
          0.959 -45.079 0.072 -114.558 0.032 -3.147
          0.031 -12.076 0.032 -3.099 0.809 168.893
1223 0.07 -138.179 0.959 -45.719 0.031 -12.724
          0.959 -45.765 0.072 -115.199 0.032 -3.566
          0.031 -12.627 0.032 -3.572 0.808 167.894
1240.25 0.072 -139.435 0.958 -46.357 0.031 -13.258
          0.959 -46.442 0.073 -116.275 0.032 -3.942
          0.031 -13.232 0.032 -4.004 0.808 166.917
1257.5 0.073 -140.288 0.958 -47.004 0.031 -13.701
          0.958 -47.055 0.074 -117.139 0.032 -4.26
          0.031 -13.741 0.032 -4.302 0.808 165.967
1274.75 0.074 -140.94 0.957 -47.636 0.031 -14.117
          0.958 -47.651 0.075 -117.799 0.032 -4.639
          0.031 -14.124 0.032 -4.589 0.807 165.01
1292 0.074 -141.53 0.957 -48.268 0.031 -14.566
          0.958 -48.297 0.077 -118.318 0.032 -5.046
          0.031 -14.607 0.032 -5.003 0.806 164.045
1309.25 0.075 -142.175 0.957 -48.917 0.031 -15.102
          0.958 -48.934 0.076 -119.164 0.032 -5.393
          0.031 -15.12 0.032 -5.401 0.806 163.034
1326.5 0.074 -143.343 0.958 -49.572 0.031 -15.625
          0.958 -49.562 0.076 -119.946 0.032 -5.782
          0.031 -15.529 0.032 -5.782 0.806 162.049
1343.75 0.075 -144.592 0.958 -50.208 0.031 -16.039
          0.958 -50.219 0.076 -120.169 0.033 -6.168
          0.031 -16.034 0.032 -6.18 0.806 161.104
1361 0.074 -145.567 0.957 -50.843 0.031 -16.443
          0.958 -50.858 0.076 -120.78 0.033 -6.512
          0.031 -16.501 0.033 -6.546 0.805 160.119
1378.25 0.075 -146.406 0.956 -51.505 0.031 -16.98
          0.957 -51.481 0.077 -121.379 0.033 -6.833
          0.031 -16.934 0.033 -6.828 0.805 159.129
1395.5 0.076 -147.013 0.956 -52.156 0.031 -17.445
          0.956 -52.13 0.078 -121.746 0.033 -7.189
          0.031 -17.463 0.033 -7.179 0.805 158.175
1412.75 0.077 -148.603 0.956 -52.806 0.031 -17.85
          0.956 -52.775 0.079 -122.703 0.033 -7.506
          0.031 -17.889 0.033 -7.521 0.804 157.276
1430 0.078 -149.378 0.956 -53.449 0.031 -18.36
          0.955 -53.403 0.08 -123.866 0.033 -7.796
          0.031 -18.259 0.033 -7.891 0.804 156.375
1447.25 0.079 -149.893 0.956 -54.082 0.031 -18.692
          0.956 -54.057 0.08 -124.559 0.033 -8.213
          0.031 -18.676 0.033 -8.22 0.804 155.516
1464.5 0.08 -151.006 0.956 -54.715 0.031 -19.094
          0.956 -54.697 0.081 -125.164 0.033 -8.516
          0.031 -19.076 0.033 -8.512 0.805 154.644
1481.75 0.081 -151.589 0.955 -55.36 0.031 -19.548
          0.956 -55.334 0.082 -124.984 0.033 -8.798
          0.031 -19.513 0.033 -8.796 0.804 153.793
1499 0.081 -152.974 0.955 -56.001 0.031 -19.975
          0.955 -56.015 0.082 -125.983 0.033 -9.136
          0.031 -19.972 0.033 -9.131 0.805 152.885
1516.25 0.081 -153.809 0.955 -56.647 0.03 -20.392
          0.955 -56.656 0.083 -126.911 0.033 -9.569
          0.031 -20.35 0.033 -9.435 0.804 151.98
1533.5 0.081 -154.454 0.954 -57.296 0.03 -20.808
          0.955 -57.326 0.083 -127.047 0.033 -9.826
          0.03 -20.837 0.033 -9.846 0.804 151.066
1550.75 0.081 -155.377 0.954 -57.964 0.03 -21.198
          0.954 -57.991 0.084 -127.685 0.033 -10.104
          0.03 -21.254 0.033 -10.132 0.804 150.141
1568 0.082 -156.269 0.954 -58.615 0.03 -21.607
          0.953 -58.641 0.085 -128.16 0.033 -10.367
          0.03 -21.645 0.033 -10.355 0.803 149.306
1585.25 0.083 -157.188 0.953 -59.261 0.03 -21.963
          0.953 -59.295 0.085 -129.124 0.033 -10.703
          0.03 -22.036 0.033 -10.687 0.803 148.444
1602.5 0.083 -158.329 0.953 -59.919 0.03 -22.387
          0.953 -59.934 0.086 -129.924 0.033 -10.987
          0.03 -22.41 0.033 -11.046 0.803 147.593
1619.75 0.084 -159.506 0.952 -60.575 0.03 -22.788
          0.952 -60.582 0.087 -130.498 0.033 -11.242
          0.03 -22.771 0.033 -11.305 0.803 146.767
1637 0.085 -159.543 0.952 -61.229 0.03 -23.187
          0.952 -61.266 0.087 -131.012 0.033 -11.62
          0.03 -23.268 0.033 -11.645 0.802 145.908
1654.25 0.085 -160.264 0.951 -61.868 0.03 -23.553
          0.951 -61.905 0.088 -131.291 0.033 -11.879
          0.03 -23.601 0.033 -11.992 0.801 145.068
1671.5 0.085 -161.431 0.951 -62.536 0.03 -24.023
          0.95 -62.509 0.089 -132.635 0.033 -12.214
          0.03 -24.07 0.033 -12.273 0.801 144.176
1688.75 0.085 -161.784 0.951 -63.163 0.03 -24.347
          0.951 -63.177 0.089 -133.073 0.033 -12.637
          0.03 -24.343 0.033 -12.529 0.801 143.321
1706 0.085 -162.653 0.95 -63.832 0.03 -24.831
          0.951 -63.824 0.089 -133.376 0.033 -12.84
          0.03 -24.716 0.033 -12.932 0.8 142.461
1723.25 0.085 -163.625 0.949 -64.477 0.03 -25.175
          0.949 -64.468 0.089 -134.611 0.033 -13.2
          0.03 -25.208 0.033 -13.23 0.801 141.601
1740.5 0.085 -163.802 0.95 -65.145 0.03 -25.623
          0.95 -65.09 0.09 -135.741 0.033 -13.57
          0.03 -25.563 0.033 -13.562 0.803 140.705
1757.75 0.085 -164.538 0.949 -65.774 0.03 -25.867
          0.949 -65.702 0.091 -136.012 0.033 -13.816
          0.03 -25.957 0.033 -13.812 0.802 139.873
1775 0.085 -165.562 0.948 -66.374 0.03 -26.104
          0.948 -66.351 0.092 -137.339 0.034 -14.128
          0.03 -26.155 0.034 -14.115 0.801 139.02
1792.25 0.086 -165.582 0.948 -66.999 0.03 -26.412
          0.948 -67.025 0.093 -138.374 0.034 -14.43
          0.03 -26.43 0.034 -14.431 0.802 138.178
1809.5 0.087 -166.243 0.947 -67.632 0.03 -26.612
          0.947 -67.689 0.094 -139.125 0.034 -14.626
          0.03 -26.852 0.034 -14.728 0.8 137.41
1826.75 0.088 -167.234 0.946 -68.248 0.03 -26.979
          0.947 -68.266 0.094 -140.329 0.034 -14.906
          0.03 -27.051 0.034 -14.835 0.801 136.651
1844 0.089 -167.67 0.946 -68.883 0.03 -27.383
          0.946 -68.824 0.094 -141.829 0.034 -15.161
          0.03 -27.472 0.034 -15.183 0.801 135.72
1861.25 0.09 -167.589 0.946 -69.479 0.03 -27.51
          0.946 -69.507 0.095 -142.555 0.034 -15.356
          0.03 -27.797 0.034 -15.407 0.8 134.962
1878.5 0.091 -168.877 0.946 -70.159 0.03 -27.924
          0.946 -70.061 0.094 -143.379 0.034 -15.738
          0.03 -27.909 0.034 -15.743 0.801 134.115
1895.75 0.091 -169.574 0.946 -70.803 0.03 -28.335
          0.947 -70.737 0.094 -144.676 0.034 -16.006
          0.03 -28.329 0.034 -16.001 0.801 133.257
1913 0.092 -170.404 0.946 -71.439 0.03 -28.604
          0.946 -71.416 0.095 -144.573 0.034 -16.283
          0.03 -28.508 0.034 -16.191 0.799 132.544
1930.25 0.093 -171.262 0.946 -72.063 0.03 -28.798
          0.946 -71.995 0.095 -145.064 0.034 -16.576
          0.03 -28.932 0.034 -16.458 0.8 131.686
1947.5 0.094 -172.137 0.946 -72.731 0.03 -29.128
          0.946 -72.71 0.095 -145.745 0.034 -16.9
          0.03 -29.148 0.034 -16.702 0.8 130.874
1964.75 0.096 -172.873 0.946 -73.366 0.03 -29.559
          0.945 -73.318 0.095 -146.314 0.034 -17.032
          0.03 -29.621 0.034 -17.063 0.799 130.017
1982 0.097 -173.673 0.945 -74.039 0.03 -29.866
          0.946 -74.098 0.095 -147.623 0.034 -17.303
          0.03 -29.897 0.034 -17.518 0.8 129.203
1999.25 0.098 -174.185 0.944 -74.707 0.03 -30.026
          0.945 -74.707 0.096 -148.388 0.034 -17.614
          0.03 -30.192 0.034 -17.65 0.8 128.487
2016.5 0.099 -174.928 0.944 -75.343 0.03 -30.396
          0.946 -75.314 0.098 -148.649 0.034 -17.93
          0.03 -30.593 0.034 -17.859 0.801 127.706
2033.75 0.1 -175.98 0.945 -76.011 0.03 -30.735
          0.945 -76.01 0.096 -149.516 0.034 -18.112
          0.03 -30.734 0.034 -18.29 0.8 126.913
2051 0.1 -176.638 0.944 -76.674 0.03 -30.902
          0.945 -76.703 0.097 -150.545 0.034 -18.478
          0.03 -31.189 0.034 -18.472 0.801 126.055
2068.25 0.1 -177.33 0.944 -77.344 0.03 -31.424
          0.945 -77.412 0.097 -151.465 0.034 -18.715
          0.03 -31.545 0.034 -18.882 0.801 125.321
2085.5 0.101 -178.429 0.944 -77.997 0.03 -31.881
          0.944 -78.01 0.098 -151.78 0.035 -18.995
          0.03 -31.891 0.034 -18.919 0.8 124.515
2102.75 0.102 -179.709 0.945 -78.676 0.03 -32.054
          0.944 -78.649 0.097 -152.785 0.035 -19.301
          0.03 -32.11 0.035 -19.186 0.8 123.742
2120 0.103 179.327 0.944 -79.34 0.03 -32.499
          0.944 -79.319 0.097 -153.605 0.035 -19.534
          0.03 -32.512 0.035 -19.543 0.799 122.979
2137.25 0.104 178.698 0.943 -80.036 0.03 -32.738
          0.944 -80.061 0.099 -154.224 0.035 -19.783
          0.03 -33.005 0.035 -19.875 0.8 122.178
2154.5 0.104 177.745 0.943 -80.684 0.03 -32.958
          0.943 -80.722 0.099 -154.933 0.035 -20.046
          0.03 -33.133 0.035 -20.075 0.799 121.39
2171.75 0.105 176.687 0.942 -81.35 0.03 -33.538
          0.942 -81.355 0.1 -156.101 0.035 -20.326
          0.03 -33.394 0.035 -20.416 0.799 120.597
2189 0.107 175.913 0.941 -82.03 0.03 -33.821
          0.941 -82.03 0.101 -157.266 0.035 -20.652
          0.03 -33.926 0.035 -20.67 0.799 119.866
2206.25 0.108 175.591 0.941 -82.711 0.029 -33.924
          0.941 -82.72 0.102 -158.386 0.035 -20.952
          0.029 -34.069 0.035 -20.901 0.8 119.118
2223.5 0.109 174.932 0.94 -83.376 0.029 -34.053
          0.94 -83.386 0.102 -158.958 0.035 -21.104
          0.029 -34.174 0.035 -21.099 0.799 118.361
2240.75 0.11 173.735 0.94 -84.059 0.029 -34.358
          0.94 -84.069 0.103 -159.788 0.035 -21.356
          0.029 -34.498 0.035 -21.454 0.799 117.576
2258 0.111 172.886 0.939 -84.706 0.029 -34.543
          0.94 -84.749 0.103 -160.788 0.035 -21.608
          0.029 -34.707 0.035 -21.737 0.799 116.844
