!Hittite Microwave Corporation								
!12 Elizabeth Drive								
!Chelmsford, MA 01824								
!Tel: 978-250-3343								
!Fax: 978-250-3373								
!Device: HMC441LP3, 6.5-13.5 GHz GaAs PHEMT MMIc Medium Power Amplifier in Leadless LP3 SMT Package								
!Misc: Vdd1 = Vdd2 = +5V, Vgg1 = vgg2 = Open, Room								
!
# MHZ S MA R 50

90 1.013 -6.388 8.072e-3 38.176 130.4e-6 75.159 0.563 -7.371
169.55 1.012 -11.196 5.285e-3 20.319 243.7e-6 54.071 0.59 -13.129
249.1 1.01 -16.008 2.495e-3 2.463 357.3e-6 32.983 0.617 -18.9
328.65 1.009 -20.826 301.1e-6 164.605 471.1e-6 11.894 0.643 -24.686
408.2 1.007 -25.652 3.104e-3 146.744 585.4e-6 -9.199 0.67 -30.488
487.75 1.006 -30.486 5.917e-3 128.877 700.3e-6 -30.297 0.697 -36.307
567.3 1.005 -35.33 8.742e-3 111.002 815.7e-6 -51.403 0.723 -42.145
646.85 1.003 -40.187 0.012 93.118 931.8e-6 -72.519 0.75 -48.001
726.4 1.002 -45.056 0.014 75.221 1.049e-3 -93.647 0.777 -53.878
805.95 1 -49.94 0.017 57.311 1.166e-3 -114.789 0.804 -59.775
885.5 0.999 -54.84 0.02 39.384 1.285e-3 -135.947 0.831 -65.695
965.05 0.997 -59.756 0.023 21.44 1.405e-3 -157.122 0.858 -71.637
1044.6 0.995 -64.69 0.026 3.476 1.525e-3 -178.317 0.885 -77.602
1124.15 0.994 -69.625 0.028 -10.682 1.563e-3 165.356 0.903 -84.125
1203.7 0.991 -74.559 0.031 -18.339 1.562e-3 157.891 0.903 -91.141
1283.25 0.99 -79.554 0.043 -26.451 2.077e-3 152.489 0.893 -95.95
1362.8 0.988 -84.535 0.048 -35.981 2.362e-3 144.38 0.899 -102.081
1442.35 0.985 -89.56 0.056 -46.254 2.622e-3 135.294 0.896 -108.356
1521.9 0.983 -94.562 0.064 -55.13 2.719e-3 125.821 0.886 -115.057
1601.45 0.981 -99.58 0.074 -62.135 2.926e-3 119.431 0.874 -121.683
1681 0.978 -104.691 0.087 -67.733 3.461e-3 116.813 0.861 -127.782
1760.55 0.974 -109.915 0.104 -72.437 3.965e-3 109.851 0.845 -133.931
1840.1 0.97 -115.198 0.116 -83.405 4.596e-3 100.274 0.831 -140.364
1919.65 0.966 -120.515 0.129 -93.054 4.905e-3 91.346 0.813 -147.029
1999.2 0.962 -125.882 0.142 -100.059 5.371e-3 84.822 0.793 -153.45
2078.75 0.957 -131.439 0.156 -105.081 5.901e-3 78.205 0.772 -159.731
2158.3 0.951 -137.221 0.175 -110.234 6.406e-3 69.843 0.749 -166.125
2237.85 0.945 -143.003 0.203 -118.321 7.178e-3 62.227 0.726 -172.698
2317.4 0.938 -148.844 0.216 -127.68 7.479e-3 50.643 0.703 -179.093
2396.95 0.932 -154.799 0.225 -130.887 7.693e-3 44.374 0.682 174.714
2476.5 0.924 -161.013 0.247 -134.849 8.169e-3 36.54 0.659 168.52
2556.05 0.914 -167.404 0.275 -142.604 8.721e-3 27.481 0.638 162.265
2635.6 0.904 -173.887 0.295 -151.578 9.07e-3 18.088 0.618 155.996
2715.15 0.893 179.514 0.305 -154.259 9.106e-3 7.566 0.599 149.829
2794.7 0.883 172.784 0.32 -152.837 9.212e-3 3.302 0.581 143.855
2874.25 0.87 165.742 0.356 -156.204 0.01 -4.689 0.565 137.702
2953.8 0.857 158.445 0.401 -162.874 0.01 -16.439 0.55 131.405
3033.35 0.843 151.022 0.439 -168.072 0.01 -27.441 0.533 125.09
3112.9 0.828 143.512 0.469 -169.171 0.01 -35.958 0.515 118.795
3192.45 0.815 135.815 0.507 -167.955 0.01 -44.336 0.498 112.399
3272 0.799 127.703 0.601 -172.797 0.01 -52.177 0.487 105.51
3351.55 0.783 119.483 0.694 177.628 0.011 -66.81 0.47 99.056
3431.1 0.767 111.148 0.748 171.936 9.359e-3 -77.16 0.456 92.751
3510.65 0.749 102.629 0.804 169.967 8.635e-3 -82.54 0.444 86.175
3590.2 0.731 93.885 0.895 167.545 8.73e-3 -88.352 0.432 79.1
3669.75 0.714 84.941 1.019 160.067 8.398e-3 -100.223 0.422 71.737
3749.3 0.697 75.99 1.104 151.141 7.623e-3 -106.483 0.41 65.472
3828.85 0.681 66.976 1.196 146.683 7.348e-3 -113.588 0.4 59.469
3908.4 0.663 57.62 1.323 142.161 7.599e-3 -118.333 0.391 53.078
3987.95 0.646 48.074 1.461 134.782 7.787e-3 -129.375 0.381 45.953
4067.5 0.629 38.572 1.575 125.538 7.243e-3 -144.301 0.37 39.224
4147.05 0.613 29.325 1.645 117.76 5.762e-3 -153.632 0.359 34.44
4226.6 0.6 20.393 1.698 113.488 4.624e-3 -155.304 0.357 30.895
4306.15 0.59 10.806 1.838 109.846 4.879e-3 -151.146 0.359 24.308
4385.7 0.579 1.345 2.037 103.048 4.884e-3 -156.741 0.354 17.459
4465.25 0.566 -8.07 2.151 95.086 4.643e-3 -165.507 0.346 11.227
4544.8 0.554 -17.357 2.169 89.101 4.37e-3 -170.678 0.339 6.223
4624.35 0.543 -26.462 2.208 86.024 4.291e-3 -171.416 0.338 1.999
4703.9 0.533 -35.764 2.495 80.13 4.482e-3 -179.637 0.339 -4.224
4783.45 0.524 -44.669 2.703 70.207 4.169e-3 177.163 0.333 -11.463
4863 0.516 -53.343 2.747 65.259 4.164e-3 177.768 0.325 -17.144
4942.55 0.508 -61.991 2.763 61.423 4.477e-3 174.321 0.32 -21.824
5022.1 0.501 -70.553 2.811 55.692 4.728e-3 166.02 0.318 -26.907
5101.65 0.495 -78.907 2.908 47.621 4.619e-3 156.97 0.317 -33.189
5181.2 0.49 -87.078 3.064 40.573 4.385e-3 153.375 0.312 -39.452
5260.75 0.484 -94.795 3.16 36.515 4.452e-3 155.42 0.309 -43.854
5340.3 0.477 -102.507 3.164 33.057 4.889e-3 150.984 0.31 -48.499
5419.85 0.471 -110.217 3.298 27.223 5.036e-3 144.937 0.309 -54.056
5499.4 0.466 -117.779 3.525 18.806 4.962e-3 138.676 0.305 -59.627
5578.95 0.461 -125.09 3.661 10.398 4.852e-3 134.334 0.301 -64.143
5658.5 0.455 -132.213 3.503 6.68 4.668e-3 136.179 0.302 -67.46
5738.05 0.448 -139.415 3.535 5.183 5.395e-3 130.448 0.303 -71.744
5817.6 0.445 -146.346 3.739 -0.227 5.387e-3 125.562 0.299 -77.407
5897.15 0.441 -152.968 3.942 -5.788 5.28e-3 122.321 0.293 -82.347
5976.7 0.437 -159.346 4.05 -10.668 5.369e-3 120.771 0.289 -86.116
6056.25 0.431 -165.572 4.035 -15.296 5.765e-3 119.616 0.288 -89.502
6135.8 0.426 -171.718 3.95 -20.505 6.372e-3 116.325 0.286 -94.012
6215.35 0.419 -177.773 4.15 -25.782 6.229e-3 108.917 0.281 -98.757
6294.9 0.413 176.518 4.38 -32.232 6.239e-3 106.652 0.277 -103.078
6374.45 0.407 170.879 4.329 -37.661 6.522e-3 104.097 0.277 -106.511
6454 0.399 165.305 4.218 -40.988 6.898e-3 101.493 0.278 -109.998
6533.55 0.391 159.798 4.261 -43.969 7.139e-3 97.884 0.277 -114.038
6613.1 0.383 154.348 4.477 -50.023 7.15e-3 91.458 0.273 -118.227
6692.65 0.375 149.16 4.546 -56.481 7.458e-3 90.237 0.272 -121.7
6772.2 0.365 144.127 4.443 -61.379 7.706e-3 87.697 0.275 -124.789
6851.75 0.356 138.914 4.494 -65.299 7.718e-3 83.639 0.273 -127.923
6931.3 0.346 133.663 4.649 -68.852 7.786e-3 79.549 0.269 -130.905
7010.85 0.336 128.632 4.791 -72.722 7.96e-3 76.545 0.267 -133.988
7090.4 0.326 123.976 4.807 -77.478 8.108e-3 74.718 0.268 -137.489
7169.95 0.312 119.311 4.661 -83.25 8.504e-3 72.364 0.267 -140.09
7249.5 0.296 114.362 4.671 -87.035 8.639e-3 68.225 0.263 -142.36
7329.05 0.282 109.185 4.883 -90.936 8.658e-3 65.177 0.26 -144.215
7408.6 0.266 104.017 5.032 -95.39 8.858e-3 63.568 0.263 -146.672
7488.15 0.251 98.991 5.019 -99.624 9.195e-3 62.025 0.265 -149.467
7567.7 0.235 94.022 4.941 -102.822 9.464e-3 58.969 0.261 -151.543
7647.25 0.219 88.628 5.045 -106.366 9.775e-3 55.401 0.253 -152.245
7726.8 0.202 83.108 5.229 -111.68 0.01 51.632 0.252 -153.829
7806.35 0.186 77.721 5.334 -117.741 0.01 49.162 0.252 -157.017
7885.9 0.168 71.906 5.303 -122.717 0.01 46.631 0.248 -159.465
7965.45 0.15 65.488 5.219 -126.231 0.011 44.007 0.241 -160.009
8045 0.134 58.244 5.204 -129.187 0.011 41.292 0.238 -159.598
8124.55 0.119 49.775 5.29 -133.361 0.011 36.51 0.242 -162.347
8204.1 0.104 41.707 5.351 -138.891 0.012 33.635 0.24 -165.691
8283.65 0.089 31.8 5.397 -143.395 0.012 31.133 0.239 -167.065
8363.2 0.076 18.176 5.391 -147.053 0.012 28.009 0.24 -166.784
8442.75 0.067 0.925 5.377 -150.662 0.012 24.904 0.241 -167.19
8522.3 0.063 -17.54 5.403 -154.924 0.012 22.61 0.238 -169.651
8601.85 0.064 -35.017 5.447 -159.83 0.012 20.678 0.232 -172.131
8681.4 0.07 -52.928 5.442 -164.514 0.012 16.926 0.231 -171.194
8760.95 0.081 -68.205 5.411 -167.932 0.012 15.112 0.236 -170.284
8840.5 0.092 -79.148 5.424 -171.568 0.013 13.768 0.236 -171.389
8920.05 0.102 -87.522 5.452 -175.68 0.013 11.425 0.23 -173.344
8999.6 0.112 -94.94 5.459 -179.93 0.013 7.923 0.224 -174.708
9079.15 0.123 -101.662 5.445 176.173 0.013 4.918 0.223 -175.224
9158.7 0.134 -106.917 5.422 172.32 0.013 2.073 0.227 -175.033
9238.25 0.145 -111.373 5.412 168.357 0.014 -0.597 0.224 -176.089
9317.8 0.153 -115.158 5.417 164.48 0.014 -3.388 0.214 -176.719
9397.35 0.162 -119.239 5.417 160.614 0.014 -6.598 0.21 -177.326
9476.9 0.171 -123.657 5.399 156.729 0.014 -9.591 0.214 -178.209
9556.45 0.182 -127.418 5.374 152.919 0.014 -11.074 0.219 -179.19
9636 0.191 -130.72 5.358 149.091 0.014 -13.544 0.213 -179.324
9715.55 0.2 -133.2 5.342 145.395 0.014 -15.972 0.205 -178.686
9795.1 0.207 -136.065 5.333 141.675 0.014 -18.61 0.202 -179.551
9874.65 0.212 -138.669 5.33 138.026 0.015 -21.22 0.202 178.834
9954.2 0.216 -140.76 5.321 134.446 0.015 -23.633 0.201 178.664
10033.75 0.218 -142.718 5.292 130.792 0.014 -25.879 0.199 -178.445
10113.3 0.218 -144.77 5.257 126.931 0.014 -28.112 0.202 -178.878
10192.85 0.222 -147.688 5.241 123.14 0.014 -29.188 0.2 178.26
10272.4 0.227 -150.695 5.232 119.612 0.014 -30.307 0.199 177.14
10351.95 0.231 -153.23 5.201 116.167 0.015 -31.672 0.2 177.734
10431.5 0.232 -155.293 5.139 112.673 0.015 -33.204 0.203 178.234
10511.05 0.231 -157.195 5.069 109.195 0.015 -34.922 0.205 176.287
10590.6 0.231 -158.747 5.083 106.226 0.016 -37.838 0.199 171.454
10670.15 0.233 -160.605 5.131 102.517 0.016 -39.956 0.198 169.793
10749.7 0.233 -162.571 5.108 98.883 0.016 -42.825 0.203 169.476
10829.25 0.232 -164.641 5.057 95.608 0.016 -45.503 0.204 168.64
10908.8 0.231 -166.95 5.025 92.467 0.016 -47.786 0.2 166.709
10988.35 0.231 -169.439 5.033 89.006 0.017 -50.014 0.196 164.128
11067.9 0.232 -171.34 5.046 85.05 0.017 -52.245 0.201 161.617
11147.45 0.23 -172.734 5.039 81.723 0.017 -53.998 0.203 159.252
11227 0.228 -174.4 4.995 78.486 0.017 -55.73 0.194 158.883
11306.55 0.224 -177.011 4.927 75.549 0.017 -57.943 0.184 157.867
11386.1 0.22 -179.985 4.89 72.558 0.017 -60.722 0.179 154.579
11465.65 0.217 177.472 4.909 69.143 0.018 -63.574 0.18 149.232
11545.2 0.217 175.305 4.91 65.546 0.018 -65.358 0.181 146.022
11624.75 0.214 173.193 4.886 62.455 0.018 -67.024 0.174 144.219
11704.3 0.209 170.766 4.859 59.378 0.018 -69.443 0.168 141.796
11783.85 0.203 168.445 4.859 55.806 0.018 -72.361 0.169 138.701
11863.4 0.198 166.412 4.878 51.812 0.018 -75.056 0.176 135.221
11942.95 0.195 164.336 4.879 48.063 0.018 -77.024 0.18 132.128
12022.5 0.191 161.522 4.814 45.677 0.018 -78.519 0.173 130.307
12102.05 0.188 157.857 4.758 43.369 0.018 -80.332 0.176 127.314
12181.6 0.185 154.545 4.766 39.06 0.018 -82.244 0.179 120.906
12261.15 0.184 151.837 4.779 34.773 0.018 -84.281 0.18 115.101
12340.7 0.182 149.177 4.8 31.67 0.018 -86.033 0.178 111.979
12420.25 0.178 146.028 4.813 29.467 0.018 -87.591 0.174 110.49
12499.8 0.174 142.174 4.757 26.354 0.019 -89.789 0.18 106.327
12579.35 0.17 138.104 4.596 21.48 0.019 -91.736 0.185 99.176
12658.9 0.168 134.251 4.614 17.833 0.019 -94.051 0.187 94.931
12738.45 0.167 130.253 4.591 15.074 0.019 -96.092 0.189 92.75
12818 0.166 126.047 4.532 13.166 0.019 -97.695 0.193 89.092
12897.55 0.165 121.754 4.505 10.594 0.019 -99.348 0.198 83.13
12977.1 0.165 117.579 4.549 4.956 0.019 -101.772 0.198 77.956
13056.65 0.164 113.53 4.401 -0.663 0.019 -103.119 0.202 75.21
13136.2 0.159 108.623 4.394 -0.676 0.02 -105.886 0.206 72.916
13215.75 0.155 103.796 4.453 -1.49 0.02 -109.063 0.212 68.594
13295.3 0.156 99.368 4.469 -5.343 0.02 -112.425 0.219 63.933
13374.85 0.162 95.475 4.437 -11.174 0.019 -114.81 0.227 60.855
13454.4 0.17 91.911 4.432 -15.925 0.019 -114.847 0.241 59.744
13533.95 0.172 87.554 4.43 -18.77 0.019 -114.66 0.249 55.213
13613.5 0.175 82.179 4.314 -19.655 0.019 -118.108 0.252 50.538
13693.05 0.18 76.19 4.254 -22.167 0.019 -120.667 0.256 47.176
13772.6 0.187 70.51 4.203 -27.081 0.019 -121.853 0.265 45.367
13852.15 0.196 65.375 4.135 -32.253 0.019 -122.408 0.28 43.716
13931.7 0.207 60.436 4.089 -34.682 0.019 -123.449 0.298 40.57
14011.25 0.217 55.128 4.214 -35.146 0.019 -125.252 0.299 36.779
14090.8 0.226 51.357 4.201 -38.069 0.02 -126.021 0.309 33.294
14170.35 0.234 48.047 4.007 -42.9 0.02 -126.517 0.321 31.149
14249.9 0.242 44.56 3.858 -48.102 0.021 -128.95 0.332 28.5
14329.45 0.249 40.388 3.834 -51.707 0.021 -132.515 0.337 25.731
14409 0.258 35.456 3.919 -52.819 0.021 -135.29 0.341 23.853
14488.55 0.271 30.627 4.131 -53.791 0.021 -137.728 0.355 21.34
14568.1 0.286 26.976 3.841 -60.104 0.02 -139.318 0.374 19.913
14647.65 0.298 23.868 3.558 -62.94 0.021 -140.189 0.385 16.687
14727.2 0.307 20.934 3.54 -64.238 0.022 -143.44 0.384 14.847
14806.75 0.316 18.16 3.645 -67.261 0.023 -148.236 0.387 13.96
14886.3 0.329 15.416 3.658 -72.642 0.022 -152.132 0.404 12.09
14965.85 0.341 12.043 3.651 -74.761 0.021 -153.775 0.42 8.442
15045.4 0.355 8.021 3.704 -76.148 0.021 -155.772 0.42 7
15124.95 0.369 3.844 3.581 -79.465 0.021 -158.233 0.426 5.442
15204.5 0.385 0.37 3.462 -83.265 0.02 -161.728 0.439 2.165
15284.05 0.4 -2.522 3.467 -88.8 0.02 -163.509 0.455 -1.687
15363.6 0.414 -5.232 3.522 -95.037 0.019 -163.232 0.469 -4.415
15443.15 0.425 -7.988 3.295 -95.893 0.02 -166.183 0.476 -5.465
15522.7 0.433 -11.455 3.147 -91.057 0.02 -168.777 0.483 -8.733
15602.25 0.445 -14.946 3.191 -98.205 0.019 -170.656 0.496 -12.619
15681.8 0.457 -18.181 3.141 -106.117 0.019 -171.856 0.506 -15.025
15761.35 0.469 -21.16 3.094 -108.295 0.018 -173.281 0.518 -15.899
15840.9 0.481 -24.183 3.106 -105.841 0.018 -175.159 0.533 -16.609
15920.45 0.494 -27.685 3.032 -107.119 0.018 -176.472 0.545 -19.318
16000 0.505 -31.108 2.835 -110.711 0.017 -176.591 0.549 -24.718
