# MHZ S MA R 50

50 0.997 -2.382 436.4e-6 50.012 998.3e-6 61.526 1.015 -4.031
174.75 1.002 -7.493 300.4e-6 -113.298 269.7e-6 68.368 1.026 -10.876
299.5 1.001 -12.744 1.221e-3 78.368 125.4e-6 36.227 1.012 -18.101
424.25 1.002 -17.911 416.9e-6 104.221 101.1e-6 151.979 0.996 -26.057
549 1.001 -23.155 313.6e-6 62.419 206.1e-6 62.805 0.998 -33.721
673.75 1 -28.403 766e-6 122.68 262.7e-6 55.145 1.001 -41.751
798.5 0.997 -33.61 2.248e-3 132.105 440.8e-6 12.972 0.991 -49.505
923.25 0.996 -38.814 6.597e-3 127.621 762.4e-6 -9.326 0.966 -57.851
1048 0.994 -43.904 0.014 105.088 1.444e-3 -36.749 0.913 -66.909
1172.75 0.991 -48.944 0.036 83.985 2.442e-3 -77.404 0.812 -73.685
1297.5 0.987 -53.91 0.059 50.06 3.347e-3 -116.029 0.746 -72.86
1422.25 0.981 -58.79 0.073 21.598 3.84e-3 -149.658 0.779 -73.427
1547 0.979 -63.759 0.085 4.045 4.041e-3 -171.249 0.819 -78.496
1671.75 0.973 -68.787 0.097 -9.768 4.208e-3 173.463 0.836 -84.913
1796.5 0.969 -73.826 0.118 -19.233 4.87e-3 157.297 0.839 -91.432
1921.25 0.961 -79.005 0.136 -30.14 4.949e-3 144.657 0.831 -97.947
2046 0.956 -84.247 0.158 -37.792 5.25e-3 132.664 0.821 -104.562
2170.75 0.95 -89.652 0.171 -46.489 5.966e-3 127.649 0.808 -111.175
2295.5 0.941 -95.135 0.202 -53.285 6.498e-3 113.374 0.79 -117.462
2420.25 0.933 -100.891 0.223 -58.181 6.91e-3 106.325 0.767 -123.851
2545 0.92 -106.864 0.25 -62.131 7.525e-3 98.461 0.74 -130.528
2669.75 0.908 -113.151 0.279 -62.008 9.085e-3 84.289 0.715 -137.253
2794.5 0.89 -119.792 0.319 -64.881 9.203e-3 71.589 0.693 -143.948
2919.25 0.872 -126.797 0.369 -66.458 9.921e-3 60.126 0.665 -150.645
3044 0.851 -134.221 0.44 -68.674 0.011 48.735 0.638 -157.819
3168.75 0.826 -142.01 0.538 -70.472 0.011 33.044 0.607 -165.488
3293.5 0.798 -150.332 0.664 -72.903 0.011 20.656 0.577 -173.452
3418.25 0.765 -159.193 0.779 -77.213 0.011 6.307 0.544 178.644
3543 0.73 -168.695 0.974 -84.418 0.011 -7.741 0.51 170.964
3667.75 0.69 -178.792 1.151 -88.144 0.011 -26.82 0.471 162.652
3792.5 0.649 170.365 1.407 -99.898 9.479e-3 -35.457 0.434 154.766
3917.25 0.61 158.766 1.56 -105.005 9.237e-3 -48.167 0.407 147.329
4042 0.57 146.395 1.72 -114.993 8.681e-3 -55.876 0.38 139.625
4166.75 0.53 132.965 1.98 -120.786 7.74e-3 -69.759 0.355 131.851
4291.5 0.495 118.977 2.198 -129.929 7.283e-3 -77.879 0.333 123.831
4416.25 0.466 104.258 2.454 -136.512 6.522e-3 -87.639 0.317 115.952
4541 0.447 89.161 2.608 -142.927 5.625e-3 -93.108 0.303 107.985
4665.75 0.433 74.162 2.757 -150.684 5.185e-3 -96.2 0.293 99.765
4790.5 0.428 59.639 3.024 -160.128 4.923e-3 -100.494 0.286 91.522
4915.25 0.43 46.22 3.121 -166.058 4.597e-3 -104.599 0.283 83.466
5040 0.436 33.821 3.345 -173.363 4.476e-3 -106.052 0.283 75.349
5164.75 0.446 22.857 3.498 -176.392 4.253e-3 -109.281 0.285 67.837
5289.5 0.456 13.044 3.533 174.753 4.083e-3 -112.879 0.29 60.58
5414.25 0.466 4.258 3.674 170.451 3.944e-3 -111.392 0.295 53.854
5539 0.476 -3.471 3.701 164.225 3.746e-3 -113.803 0.303 47.74
5663.75 0.486 -10.264 4.035 159.551 3.742e-3 -111.402 0.311 41.888
5788.5 0.492 -16.334 4.087 153.736 3.709e-3 -110.246 0.32 36.704
5913.25 0.497 -21.703 4.2 148.739 4.002e-3 -111.618 0.329 32.035
6038 0.499 -26.638 4.142 145.05 3.892e-3 -111.485 0.337 27.755
6162.75 0.499 -31.072 4.222 139.061 4.031e-3 -110.628 0.346 24.015
6287.5 0.498 -35.294 4.289 134.87 4.342e-3 -111.016 0.354 20.491
6412.25 0.493 -39.192 4.348 131.178 4.304e-3 -114.276 0.361 17.38
6537 0.485 -42.874 4.513 129.368 4.532e-3 -111.542 0.367 14.505
6661.75 0.476 -46.378 4.539 126.022 4.678e-3 -110.188 0.371 11.887
6786.5 0.463 -49.652 4.605 122.568 4.926e-3 -114.623 0.375 9.662
6911.25 0.449 -52.902 4.755 119.062 5.101e-3 -112.794 0.378 7.495
7036 0.431 -56.359 4.908 116.065 5.253e-3 -113.409 0.377 5.711
7160.75 0.41 -59.639 5.145 112.523 5.687e-3 -115.587 0.378 3.942
7285.5 0.388 -62.933 5.229 109.756 5.687e-3 -116.737 0.376 2.266
7410.25 0.361 -66.55 5.43 105.367 5.859e-3 -117.415 0.372 0.722
7535 0.333 -70.32 5.52 102.178 6.255e-3 -118.262 0.366 -0.739
7659.75 0.303 -74.493 5.638 97.305 6.261e-3 -120.058 0.359 -2.272
7784.5 0.272 -79 5.745 95.156 6.76e-3 -119.532 0.35 -3.756
7909.25 0.24 -83.817 5.844 91.228 6.727e-3 -119.053 0.34 -5.192
8034 0.207 -89.637 6.073 88.518 7.19e-3 -121.427 0.329 -6.421
8158.75 0.174 -96.649 6.133 84.691 7.654e-3 -122.394 0.316 -7.778
8283.5 0.141 -105.665 6.396 81.16 7.823e-3 -123.956 0.303 -9.151
8408.25 0.115 -118.832 6.468 77.585 8.149e-3 -126.449 0.289 -10.87
8533 0.092 -136.46 6.569 73.383 8.355e-3 -128.518 0.273 -12.628
8657.75 0.081 -159.458 6.665 69.823 8.709e-3 -129.206 0.256 -14.468
8782.5 0.083 176.26 6.765 66.09 8.794e-3 -131.855 0.239 -16.474
8907.25 0.093 156.599 6.834 62.849 9.026e-3 -132.806 0.221 -19.313
9032 0.112 142.343 6.872 59.551 9.203e-3 -133.645 0.202 -22.264
9156.75 0.13 132.595 6.926 56.287 9.409e-3 -136.319 0.183 -25.995
9281.5 0.149 125.961 6.978 52.895 9.552e-3 -137.23 0.165 -30.962
9406.25 0.168 120.645 7.051 49.72 9.801e-3 -137.724 0.147 -37.146
9531 0.185 116.907 7.087 46.57 9.903e-3 -139.063 0.132 -44.971
9655.75 0.198 114.226 7.124 43.537 0.01 -139.717 0.12 -54.021
9780.5 0.21 111.721 7.172 40.513 0.01 -140.901 0.111 -64.702
9905.25 0.218 109.765 7.223 37.668 0.01 -141.859 0.105 -76.603
10030 0.225 108.016 7.28 34.614 0.01 -142.324 0.104 -89.845
10154.75 0.228 106.406 7.275 31.745 0.01 -143.521 0.108 -101.848
10279.5 0.233 105.065 7.28 29.208 0.011 -144.1 0.115 -112.705
10404.25 0.236 103.399 7.275 25.903 0.012 -145.39 0.124 -121.327
10529 0.238 102.781 7.338 23.009 0.012 -145.698 0.134 -128.332
10653.75 0.238 102.352 7.316 20.557 0.012 -146.172 0.145 -134.71
10778.5 0.235 101.379 7.347 18.504 0.012 -146.809 0.154 -139.683
10903.25 0.229 100.426 7.287 15.709 0.012 -148.06 0.165 -143.993
11028 0.225 99.378 7.344 12.497 0.012 -147.854 0.173 -147.488
11152.75 0.218 98.604 7.273 10.153 0.012 -149.63 0.18 -150.226
11277.5 0.211 97.205 7.409 7.935 0.012 -149.76 0.183 -152.777
11402.25 0.205 96.126 7.352 5.804 0.012 -149.209 0.185 -155.23
11527 0.198 95.155 7.352 2.111 0.013 -148.685 0.186 -157.85
11651.75 0.189 93.924 7.265 0.344 0.013 -150.32 0.184 -160.627
11776.5 0.181 92.861 7.216 -2.182 0.013 -150.191 0.183 -163.169
11901.25 0.171 91.285 7.215 -3.835 0.013 -150.039 0.179 -165.864
12026 0.162 89.891 7.185 -7.04 0.014 -151.551 0.173 -168.896
12150.75 0.153 87.934 7.246 -9.165 0.013 -151.9 0.167 -172.447
12275.5 0.145 85.997 7.251 -11.355 0.013 -152.379 0.16 -175.849
12400.25 0.136 84.133 7.317 -13.181 0.014 -152.51 0.155 -179.834
12525 0.129 81.669 7.076 -16.106 0.014 -153.475 0.148 175.998
12649.75 0.123 79.136 7.093 -19.053 0.014 -152.534 0.14 171.983
12774.5 0.116 76.431 7.039 -20.865 0.014 -153.368 0.131 167.355
12899.25 0.109 73.305 7.098 -23.341 0.014 -153.128 0.122 161.466
13024 0.103 69.95 7.1 -25.375 0.014 -153.826 0.114 154.547
13148.75 0.095 66.021 6.962 -27.261 0.015 -153.496 0.109 146.585
13273.5 0.09 60.478 6.852 -30.437 0.015 -154.739 0.107 137.831
13398.25 0.085 54.691 6.873 -32.26 0.015 -154.715 0.108 129.722
13523 0.083 48.747 6.764 -35.587 0.015 -155.461 0.11 122.815
13647.75 0.082 42.486 6.853 -36.972 0.015 -155.106 0.113 117.165
13772.5 0.08 35.516 6.691 -38.813 0.015 -156.833 0.117 112.49
13897.25 0.078 28.066 6.691 -41.043 0.015 -157.023 0.12 108.774
14022 0.078 19.403 6.578 -43.807 0.015 -158.718 0.121 105.789
14146.75 0.082 10.538 6.515 -46.285 0.015 -158.186 0.123 102.54
14271.5 0.086 2.721 6.462 -49 0.015 -158.527 0.124 99.228
14396.25 0.094 -5.294 6.372 -51.122 0.015 -158.367 0.123 94.858
14521 0.103 -12.703 6.276 -53.208 0.015 -158.031 0.123 90.288
14645.75 0.115 -19.562 6.159 -54.477 0.015 -158.317 0.123 85.682
14770.5 0.13 -25.164 5.97 -56.67 0.015 -158.95 0.125 81.005
14895.25 0.146 -30.001 5.874 -58.292 0.015 -157.472 0.127 77.975
15020 0.165 -33.992 5.864 -60.861 0.014 -156.913 0.128 75.259
15144.75 0.183 -36.908 5.926 -61.894 0.015 -158.522 0.127 72.725
15269.5 0.203 -40.154 5.796 -64.121 0.015 -157.605 0.124 69.615
15394.25 0.224 -42.921 5.708 -65.87 0.015 -158.407 0.12 66.259
15519 0.247 -45.416 5.519 -68.69 0.015 -159.736 0.115 60.824
15643.75 0.271 -47.383 5.456 -71.154 0.015 -159.963 0.111 54.22
15768.5 0.297 -48.86 5.343 -72.691 0.015 -159.333 0.109 46.547
15893.25 0.321 -50.152 5.256 -74.212 0.015 -159.995 0.111 37.425
16018 0.346 -51.413 5.157 -75.895 0.015 -160.073 0.116 28.191
16142.75 0.372 -52.393 5.005 -77.995 0.014 -159.788 0.124 19.025
16267.5 0.397 -53.101 4.821 -79.669 0.014 -159.765 0.137 11.338
16392.25 0.422 -53.596 4.72 -81.706 0.014 -160.966 0.152 5.443
16517 0.449 -53.983 4.601 -83.25 0.013 -161.227 0.168 0.291
16641.75 0.471 -54.137 4.525 -84.506 0.013 -160.817 0.185 -3.695
16766.5 0.494 -54.146 4.349 -85.005 0.013 -158.563 0.202 -7.51
16891.25 0.517 -54.127 4.279 -86.907 0.013 -158.581 0.223 -11.175
17016 0.537 -53.979 4.117 -88.047 0.013 -157.627 0.243 -14.26
17140.75 0.558 -53.577 4.039 -90.378 0.013 -156.132 0.267 -16.872
17265.5 0.576 -53.099 3.946 -90.2 0.013 -157.237 0.291 -18.502
17390.25 0.592 -52.601 3.821 -92.339 0.013 -155.797 0.313 -19.805
17515 0.606 -52.163 3.725 -92.962 0.012 -156.304 0.334 -20.898
17639.75 0.62 -51.613 3.552 -94.333 0.012 -154.018 0.355 -21.396
17764.5 0.632 -51.027 3.501 -94.527 0.011 -155.306 0.375 -21.863
17889.25 0.646 -50.145 3.374 -95.156 0.012 -152.929 0.394 -22.094
18014 0.654 -49.268 3.304 -95.807 0.012 -152.457 0.411 -22.15
18138.75 0.661 -48.33 3.224 -96.282 0.011 -150.657 0.426 -21.978
18263.5 0.664 -47.432 3.174 -96.579 0.011 -150.237 0.438 -21.765
18388.25 0.664 -46.625 3.118 -97.214 0.011 -147.885 0.448 -21.698
18513 0.665 -45.946 3.063 -97.421 0.012 -147.236 0.459 -21.499
18637.75 0.667 -45.364 3.025 -97.862 0.011 -146.736 0.468 -21.288
18762.5 0.665 -44.733 2.997 -98.193 0.012 -145.548 0.479 -20.87
18887.25 0.66 -44.054 2.963 -98.681 0.012 -143.087 0.484 -20.3
19012 0.654 -43.697 2.947 -99.391 0.012 -143.168 0.489 -19.646
19136.75 0.645 -43.436 2.932 -99.795 0.012 -142.393 0.491 -18.913
19261.5 0.635 -43.163 2.93 -100.592 0.012 -142.797 0.49 -18.243
19386.25 0.622 -43.251 2.948 -100.786 0.012 -142.604 0.487 -17.74
19511 0.608 -43.386 2.924 -101.509 0.012 -142.883 0.483 -17.264
19635.75 0.59 -43.859 2.964 -102.707 0.012 -140.79 0.476 -16.975
19760.5 0.569 -44.776 2.951 -103.764 0.013 -140.81 0.469 -16.647
19885.25 0.547 -46.314 3.029 -105.248 0.013 -141.403 0.463 -16.346
20010 0.521 -48.631 3.052 -105.714 0.014 -140.599 0.451 -16.425
20134.75 0.495 -51.658 3.09 -107.005 0.014 -141.666 0.439 -16.456
20259.5 0.463 -55.06 3.144 -108.55 0.014 -142.955 0.425 -16.762
20384.25 0.43 -59.886 3.166 -111.362 0.015 -143.46 0.408 -17.465
20509 0.396 -66.156 3.265 -114.341 0.015 -145.727 0.391 -18.446
20633.75 0.362 -74.123 3.293 -116.45 0.015 -147.439 0.372 -19.709
20758.5 0.338 -83.85 3.339 -119.292 0.015 -147.248 0.351 -21.51
20883.25 0.32 -95.182 3.292 -121.534 0.016 -147.413 0.328 -24.093
21008 0.309 -107.402 3.238 -125.586 0.016 -148.252 0.306 -27.59
21132.75 0.31 -120.574 3.252 -128.383 0.017 -152.087 0.285 -32.003
21257.5 0.326 -133.46 3.212 -130.861 0.017 -154.371 0.266 -37.31
21382.25 0.354 -144.189 3.2 -133.404 0.016 -156.691 0.251 -43.757
21507 0.388 -153.106 3.084 -135.577 0.016 -159.751 0.237 -50.729
21631.75 0.429 -160.232 3.047 -139.608 0.018 -161.634 0.228 -59.602
21756.5 0.469 -165.913 2.977 -141.655 0.016 -161.401 0.224 -69.133
21881.25 0.51 -170.116 2.891 -144.092 0.017 -163.263 0.229 -79.057
22006 0.548 -173.609 2.758 -145.982 0.018 -165.237 0.239 -88.163
22130.75 0.586 -176.086 2.584 -148.178 0.016 -168.135 0.257 -96.042
22255.5 0.621 -177.8 2.539 -150.145 0.015 -169.867 0.279 -101.973
22380.25 0.656 -178.976 2.508 -149.011 0.015 -167.89 0.304 -107.057
22505 0.683 -179.885 2.524 -149.821 0.015 -170.571 0.328 -111.519
22629.75 0.708 179.396 2.379 -149.845 0.014 -165.078 0.355 -114.817
22754.5 0.73 178.949 2.313 -155.717 0.015 -166.972 0.381 -117.592
22879.25 0.753 178.693 2.244 -156.761 0.015 -167.477 0.408 -119.507
23004 0.775 178.746 2.265 -158.342 0.015 -168.616 0.435 -120.899
23128.75 0.796 178.981 2.128 -156.658 0.015 -166.595 0.458 -122.028
23253.5 0.811 179.594 1.939 -157.97 0.015 -171.794 0.478 -122.984
23378.25 0.826 179.99 1.878 -159.428 0.014 -171.818 0.499 -123.869
23503 0.84 -179.608 1.809 -161.862 0.014 -167.855 0.517 -124.611
23627.75 0.852 -179.221 1.815 -161.48 0.014 -171.264 0.538 -125.251
23752.5 0.863 -178.809 1.67 -159.657 0.014 -170.268 0.555 -126.029
23877.25 0.872 -178.156 1.584 -158.176 0.014 -169.127 0.573 -126.083
24002 0.877 -177.677 1.592 -157.233 0.015 -172.061 0.586 -126.728
24126.75 0.884 -177.161 1.526 -158.418 0.014 -176.283 0.596 -127.094
24251.5 0.886 -176.933 1.535 -161.384 0.013 -177.816 0.604 -128.149
24376.25 0.887 -176.683 1.385 -157.462 0.013 -175.613 0.612 -129.152
24501 0.889 -176.527 1.441 -158.924 0.011 -179.434 0.624 -130.158
24625.75 0.891 -176.275 1.357 -152.425 0.011 -173.318 0.631 -131.264
24750.5 0.893 -176.057 1.354 -155.579 9.695e-3 -173.942 0.635 -132.435
24875.25 0.889 -175.92 1.303 -150.507 0.01 -171.057 0.637 -133.729
25000 0.883 -175.948 1.327 -154.859 8.876e-3 -167.226 0.638 -135.379
