!Hittite Microwave Corporation								
!20 Alpha Road								
!Chelmsford, MA 01824								
!Tel: 978-250-3343								
!Fax: 978-250-3373								
!Device: HMC487LP5, 9-12 GHz, GaAs PHEMT MMIC 2 Watt Power Amplifier in leadless 5x5 mm SMT package															
!Misc: Vdd1,2,3,4,5 = +7V, Idd = 1300 mA, Room							
!
# MHZ S MA R 50

6035 0.932 90.897 0.12 -25.956 1.116e-3 -46.276 0.754 20.758
6130 0.922 87.389 0.041 -16.089 826.7e-6 -58.639 0.747 15.482
6225 0.914 84.057 0.052 96.041 933.9e-6 -52.65 0.743 9.738
6320 0.91 80.927 0.136 114.571 807.6e-6 -45.268 0.728 3.227
6415 0.906 77.906 0.211 111.593 779.5e-6 -47.054 0.707 -3.469
6510 0.904 75.014 0.349 98.039 1.078e-3 -50.993 0.685 -10.598
6605 0.904 71.985 0.536 97.645 845.9e-6 -54.429 0.657 -18.598
6700 0.902 69.2 0.68 87.658 998.7e-6 -56.41 0.622 -27.333
6795 0.898 65.951 0.962 77.024 910.3e-6 -59.346 0.585 -36.883
6890 0.891 62.863 1.233 67.645 1.014e-3 -63.845 0.542 -47.627
6985 0.885 59.594 1.604 57.651 967.6e-6 -62.381 0.496 -59.553
7080 0.87 56.1 1.759 47.661 1.07e-3 -72.019 0.445 -71.909
7175 0.855 52.432 2.182 29.194 1.152e-3 -77.168 0.405 -84.878
7270 0.843 48.61 2.785 18.501 1.105e-3 -80.315 0.369 -98.762
7365 0.827 44.877 3.124 7.515 1.103e-3 -87.702 0.336 -113.126
7460 0.815 40.807 3.698 -6.6 1.071e-3 -94.477 0.309 -127.264
7555 0.804 36.62 4.38 -20.474 1.07e-3 -96.919 0.289 -141.961
7650 0.808 32.415 5.02 -29.996 1.076e-3 -102.914 0.266 -157.098
7745 0.807 28.022 5.568 -43.923 1.166e-3 -102.134 0.24 -170.791
7840 0.816 23.611 6.374 -58.722 1.228e-3 -118.489 0.22 175.975
7935 0.827 18.643 7.21 -72.819 1.19e-3 -119.838 0.202 162.348
8030 0.839 13.754 8.246 -87.638 1.246e-3 -129.975 0.183 146.498
8125 0.851 8.338 8.938 -103.063 1.168e-3 -139.954 0.162 129.581
8220 0.858 2.626 9.777 -119.573 1.152e-3 -144.582 0.146 109.668
8315 0.861 -3.04 10.574 -135.184 1.199e-3 -152.826 0.137 84.622
8410 0.853 -9.095 10.969 -150.988 1.132e-3 -152.688 0.132 58.2
8505 0.845 -14.965 11.239 -166.498 1.328e-3 -168.218 0.138 35.62
8600 0.83 -20.648 11.312 177.843 1.176e-3 -179.337 0.158 17.62
8695 0.81 -26.017 11.374 163.143 1.084e-3 -174.087 0.187 2.069
8790 0.794 -30.828 11.179 149.69 1.051e-3 174.23 0.216 -9.446
8885 0.777 -35.695 11.03 135.887 1.033e-3 170.357 0.25 -17.539
8980 0.759 -39.275 10.922 123.48 1.077e-3 173.12 0.285 -25.122
9075 0.74 -43.065 10.693 111.241 1.063e-3 170.841 0.316 -31.058
9170 0.723 -46.232 10.482 99.84 1.111e-3 169.963 0.34 -35.332
9265 0.704 -48.863 10.202 88.272 1.263e-3 162.404 0.37 -38.122
9360 0.68 -50.794 10.064 77.246 1.16e-3 158.998 0.403 -41.451
9455 0.656 -52.381 9.874 66.608 1.355e-3 154.509 0.426 -44.446
9550 0.63 -54.115 9.671 56.683 1.28e-3 145.986 0.452 -46.956
9645 0.601 -54.901 9.476 46.455 1.205e-3 139.867 0.466 -49.667
9740 0.572 -56.254 9.4 36.854 1.314e-3 141.423 0.478 -51.449
9835 0.543 -57.168 9.263 27.172 1.161e-3 129.494 0.488 -53.016
9930 0.516 -57.955 9.36 18.705 1.19e-3 129.508 0.5 -54.374
10025 0.49 -58.962 9.351 10.027 1.247e-3 121.013 0.509 -56.517
10120 0.465 -60.186 9.448 0.318 1.324e-3 127.637 0.507 -58.489
10215 0.444 -61.4 9.515 -7.548 1.346e-3 124.162 0.506 -59.997
10310 0.423 -62.211 9.649 -17.688 1.381e-3 117.226 0.496 -61.536
10405 0.405 -63.838 10.023 -28.057 1.375e-3 114.874 0.488 -62.927
10500 0.386 -64.831 10.331 -36.521 1.421e-3 107.245 0.478 -64.628
10595 0.37 -66.002 10.742 -46.827 1.376e-3 109.223 0.467 -66.618
10690 0.351 -67.049 11.256 -55.697 1.354e-3 107.286 0.446 -68.459
10785 0.331 -67.61 11.292 -67.018 1.466e-3 96.368 0.421 -70.261
10880 0.311 -68.68 12.224 -77.929 1.413e-3 96.439 0.395 -71.478
10975 0.29 -68.965 12.435 -88.252 1.466e-3 97.733 0.37 -73.118
11070 0.264 -70.092 13.246 -101.575 1.36e-3 91.466 0.34 -74.569
11165 0.238 -69.674 13.984 -112.773 1.481e-3 93.469 0.307 -75.39
11260 0.211 -71.48 14.581 -125.489 1.469e-3 87.495 0.273 -75.495
11355 0.181 -69.669 15.036 -138.76 1.439e-3 88.672 0.24 -73.458
11450 0.154 -70.089 15.716 -153.347 1.522e-3 83.421 0.216 -68.455
11545 0.129 -69.324 16.233 -167.492 1.389e-3 74.658 0.205 -63.002
11640 0.106 -64.243 16.668 178.67 1.565e-3 80.145 0.2 -58.299
11735 0.092 -57.459 16.759 162.083 1.52e-3 72.129 0.196 -53.458
11830 0.083 -43.578 17.402 148.195 1.371e-3 71.276 0.204 -48.731
11925 0.093 -30.71 16.622 132.372 1.327e-3 70.582 0.213 -46.648
12020 0.116 -20.143 17.435 114.402 1.135e-3 63.172 0.224 -44.117
12115 0.15 -15.086 16.9 99.433 1.131e-3 63.063 0.242 -44.089
12210 0.196 -12.735 16.823 83.09 1.12e-3 55.44 0.256 -44.701
12305 0.254 -14.577 15.591 65.418 840.5e-6 57.728 0.273 -45.753
12400 0.311 -16.497 15.711 46.932 702.9e-6 67.102 0.296 -46.211
12495 0.377 -20.365 13.831 33.394 596.8e-6 70.524 0.329 -49.089
12590 0.436 -25.552 13.132 10.214 601.8e-6 96.083 0.362 -52.92
12685 0.491 -30.997 12.037 -6.462 780.5e-6 105.015 0.403 -57.667
12780 0.533 -36.611 11.478 -23.294 945.8e-6 112.096 0.443 -64.011
12875 0.568 -42.586 8.997 -36.37 1.239e-3 115.285 0.481 -71.098
12970 0.589 -48.136 7.704 -64.655 1.507e-3 109.482 0.511 -77.803
13065 0.608 -53.889 7.295 -67.099 1.723e-3 110.246 0.551 -84.714
13160 0.618 -58.562 5.148 -87.113 1.895e-3 90.768 0.579 -92.286
13255 0.634 -63.901 4.58 -102.671 1.973e-3 99.43 0.603 -98.815
13350 0.642 -68.153 3.99 -112.789 1.956e-3 91.998 0.625 -105.118
13445 0.657 -72.472 3.81 -120.654 2.144e-3 80.514 0.647 -111.183
13540 0.665 -76.365 2.359 -135.555 2.341e-3 82.511 0.661 -117.141
13635 0.676 -79.755 2.352 -149.9 2.222e-3 72.309 0.676 -121.779
13730 0.685 -82.594 2.061 -157.119 2.099e-3 68.779 0.696 -126.609
13825 0.69 -84.902 1.442 -167.688 2.543e-3 64.04 0.705 -131.836
13920 0.694 -87.358 1.226 -178.901 2.159e-3 58.218 0.713 -136.271
14015 0.694 -89.478 1.336 177.277 1.939e-3 57.078 0.725 -140.214
14110 0.699 -91.369 0.833 177.707 2.228e-3 43.374 0.732 -144.848
14205 0.697 -93.514 0.729 161.388 2.102e-3 50.407 0.73 -148.298
14300 0.696 -95.808 0.721 157.343 1.813e-3 47.982 0.743 -151.835
14395 0.7 -98.752 0.589 148.055 1.77e-3 41.144 0.75 -155.488
14490 0.696 -101.951 0.523 144.124 2.013e-3 53.393 0.756 -158.971
14585 0.697 -105.989 0.504 128.785 1.972e-3 46.996 0.762 -162.147
14680 0.697 -110.102 0.469 131.877 1.851e-3 32.481 0.77 -165.007
14775 0.702 -114.415 0.314 125.356 2.049e-3 43.936 0.771 -168.327
14870 0.703 -118.896 0.305 106.32 2.058e-3 35.863 0.776 -170.709
14965 0.713 -123.084 0.283 106.513 1.823e-3 33.683 0.788 -173.205
15060 0.724 -126.965 0.237 100.212 2.106e-3 26.091 0.79 -175.88

