!Hittite Microwave Corporation								
!12 Elizabeth Drive								
!Chelmsford, MA 01824								
!Tel: 978-250-3343								
!Fax: 978-250-3373							
!Device: HMC435MS8G, DC-4 GHz, GaAs MESFET SPDT switch in 8-lead Grounded Base surface Mount Plastic Package									
!Misc: Vctl=0/+5V, Port1 = RFC, Port 2 = RF1, Port 3 = RF2, RF1 selected							
!
# MHZ S MA R 50

30 0.04 1.648 0.932 -0.672 803.7e-6 61.789
          0.933 -0.704 0.05 -0.021 786.5e-6 58.638
          836e-6 56.686 739.6e-6 59.79 0.89 -24.799
59.85 0.039 -5.744 0.931 -0.634 883e-6 -51.839
          0.931 -0.664 0.049 -4.393 740.3e-6 -52.274
          888.9e-6 -51.896 694.7e-6 -49.376 0.713 -41.653
89.7 0.039 -6.17 0.931 -0.633 513.7e-6 -49.08
          0.931 -0.712 0.048 -3.462 204.6e-6 -29.355
          478.7e-6 -44.227 221.4e-6 -19.368 0.567 -51.822
119.55 0.039 -7.659 0.93 -0.722 498.7e-6 -43.243
          0.93 -0.734 0.049 -4.186 132e-6 -0.145
          452.7e-6 -48.691 147.8e-6 -10.361 0.46 -57.931
149.4 0.039 -9.544 0.929 -0.797 454.6e-6 -35.413
          0.929 -0.807 0.049 -4.361 237.4e-6 43.036
          485.4e-6 -45.31 289.9e-6 53.82 0.385 -61.614
179.25 0.04 -11.598 0.928 -0.896 430.6e-6 -49.603
          0.928 -0.878 0.05 -5.347 375e-6 73.3
          408.8e-6 -51.223 323.1e-6 78.23 0.328 -63.904
209.1 0.041 -13.34 0.926 -0.868 434.5e-6 -48.332
          0.927 -0.876 0.051 -6.491 482.5e-6 79.844
          392.5e-6 -43.138 484.5e-6 79.832 0.287 -65.193
238.95 0.042 -15.278 0.925 -0.907 436.2e-6 -52.355
          0.927 -0.935 0.051 -7.488 555e-6 84.21
          341.1e-6 -50.625 545.1e-6 83.905 0.254 -65.883
268.8 0.042 -17.758 0.926 -0.88 445.5e-6 -55.423
          0.926 -0.956 0.052 -8.319 611.5e-6 87.708
          425.1e-6 -52.913 618.6e-6 87.411 0.229 -65.958
298.65 0.043 -19.922 0.927 -0.945 476.7e-6 -59.879
          0.927 -0.998 0.053 -9.153 721.9e-6 88.823
          438.9e-6 -54.93 677.3e-6 88.746 0.208 -65.858
328.5 0.044 -21.563 0.927 -1.06 461.8e-6 -61.704
          0.927 -1.074 0.054 -9.999 804.8e-6 92.94
          433.8e-6 -59.472 796.4e-6 91.941 0.192 -65.345
358.35 0.046 -23.043 0.927 -1.121 471.8e-6 -62.229
          0.927 -1.166 0.055 -11.013 906.9e-6 92.246
          451.5e-6 -62.562 883.9e-6 93.207 0.177 -64.643
388.2 0.047 -24.868 0.926 -1.209 462.6e-6 -68.123
          0.926 -1.232 0.056 -11.78 976.5e-6 94.585
          462e-6 -66.851 967.7e-6 95.029 0.165 -63.638
418.05 0.047 -26.563 0.922 -1.217 487.8e-6 -67.526
          0.923 -1.271 0.057 -12.859 1.094e-3 95.15
          492.6e-6 -68.884 1.115e-3 94.961 0.156 -62.577
447.9 0.048 -28.167 0.923 -1.223 497.9e-6 -71.297
          0.922 -1.206 0.058 -13.573 1.182e-3 96.657
          540.2e-6 -72.584 1.169e-3 97.563 0.147 -61.382
477.75 0.049 -30.126 0.924 -1.233 523.2e-6 -75.307
          0.924 -1.229 0.059 -14.396 1.255e-3 97.278
          521.5e-6 -72.753 1.235e-3 98.643 0.139 -59.868
507.6 0.05 -31.91 0.925 -1.251 559.7e-6 -76.234
          0.924 -1.293 0.06 -15.228 1.366e-3 98.618
          576.1e-6 -74.65 1.337e-3 98.609 0.133 -58.572
537.45 0.05 -33.873 0.926 -1.306 572e-6 -78.401
          0.923 -1.364 0.061 -16.031 1.458e-3 98.89
          573.2e-6 -82.093 1.458e-3 99.83 0.127 -56.983
567.3 0.051 -35.755 0.924 -1.448 609e-6 -82.566
          0.925 -1.525 0.062 -17.026 1.461e-3 101.427
          591.1e-6 -83.104 1.522e-3 100.353 0.122 -55.413
597.15 0.052 -37.482 0.922 -1.485 625.7e-6 -83.881
          0.923 -1.581 0.063 -17.879 1.59e-3 102.139
          640.6e-6 -85.995 1.586e-3 101.807 0.119 -53.705
627 0.053 -39.208 0.923 -1.551 646.5e-6 -87.029
          0.921 -1.619 0.064 -18.704 1.644e-3 103.66
          634.5e-6 -88.286 1.673e-3 103.84 0.115 -51.998
656.85 0.054 -40.695 0.923 -1.532 712.7e-6 -91.085
          0.922 -1.6 0.065 -19.379 1.708e-3 104.495
          716.5e-6 -92.408 1.797e-3 105.13 0.112 -50.078
686.7 0.055 -42.068 0.921 -1.603 693.1e-6 -93.591
          0.92 -1.657 0.066 -19.978 1.852e-3 106.8
          721.2e-6 -93.701 1.849e-3 105.772 0.11 -48.037
716.55 0.056 -43.38 0.921 -1.659 739.4e-6 -94.769
          0.921 -1.641 0.067 -20.424 1.948e-3 106.884
          752.4e-6 -94.393 1.906e-3 106.653 0.108 -46.008
746.4 0.057 -44.71 0.921 -1.587 736.5e-6 -97.634
          0.921 -1.653 0.068 -20.836 2.021e-3 108.111
          795.2e-6 -96.169 1.999e-3 107.792 0.106 -43.854
776.25 0.057 -46.184 0.922 -1.582 809.1e-6 -96.031
          0.922 -1.674 0.069 -21.182 2.109e-3 108.94
          821.1e-6 -97.058 2.092e-3 108.643 0.104 -41.779
806.1 0.058 -47.575 0.923 -1.666 854.1e-6 -97.761
          0.922 -1.749 0.069 -21.46 2.208e-3 109.78
          853.8e-6 -97.648 2.174e-3 109.723 0.103 -39.59
835.95 0.058 -48.906 0.923 -1.795 881.9e-6 -100.456
          0.921 -1.882 0.07 -21.808 2.293e-3 110.887
          884.5e-6 -99.422 2.278e-3 110.878 0.102 -37.572
865.8 0.058 -50.492 0.921 -1.885 905.9e-6 -103.548
          0.92 -2.004 0.071 -22.354 2.371e-3 111.509
          893.8e-6 -103.047 2.399e-3 111.877 0.101 -35.342
895.65 0.059 -52.127 0.918 -2.003 973.3e-6 -104.758
          0.92 -1.992 0.072 -22.933 2.425e-3 113.103
          952.8e-6 -105.012 2.457e-3 113.558 0.101 -33.214
925.5 0.06 -53.551 0.918 -1.974 993.6e-6 -107.122
          0.918 -1.932 0.073 -23.345 2.52e-3 114.593
          1.006e-3 -106.929 2.529e-3 113.951 0.101 -31.221
955.35 0.06 -55.145 0.918 -1.933 995.4e-6 -107.548
          0.919 -1.944 0.074 -23.814 2.608e-3 114.632
          1.027e-3 -109.084 2.623e-3 114.043 0.101 -29.192
985.2 0.061 -56.451 0.92 -1.858 1.056e-3 -109.019
          0.92 -1.955 0.074 -24.289 2.701e-3 115.715
          1.088e-3 -109.473 2.749e-3 115.199 0.102 -27.141
1015.05 0.061 -57.287 0.921 -1.912 1.085e-3 -109.795
          0.921 -2.042 0.075 -24.303 2.807e-3 116.62
          1.112e-3 -109.426 2.812e-3 116.282 0.102 -25.076
1044.9 0.061 -57.952 0.921 -2.07 1.133e-3 -111.124
          0.921 -2.167 0.075 -24.24 2.896e-3 117.207
          1.133e-3 -111.054 2.899e-3 116.833 0.103 -23.041
1074.75 0.061 -58.558 0.921 -2.237 1.194e-3 -114.469
          0.92 -2.259 0.075 -24.161 2.985e-3 118.026
          1.181e-3 -112.054 3.003e-3 117.746 0.103 -20.975
1104.6 0.06 -59.445 0.919 -2.288 1.26e-3 -113.91
          0.919 -2.278 0.076 -24.072 3.08e-3 118.663
          1.226e-3 -114.185 3.079e-3 118.795 0.104 -18.903
1134.45 0.06 -60.425 0.918 -2.278 1.283e-3 -114.905
          0.918 -2.28 0.076 -24.093 3.169e-3 119.424
          1.306e-3 -116.526 3.195e-3 119.6 0.106 -16.936
1164.3 0.059 -61.639 0.917 -2.293 1.334e-3 -117.642
          0.918 -2.352 0.077 -24.16 3.258e-3 120.556
          1.339e-3 -117.854 3.29e-3 120.66 0.107 -15.002
1194.15 0.059 -63.198 0.917 -2.36 1.385e-3 -118.204
          0.918 -2.402 0.077 -24.258 3.345e-3 121.845
          1.388e-3 -118.823 3.372e-3 121.725 0.108 -13.121
1224 0.058 -64.793 0.917 -2.345 1.431e-3 -118.611
          0.917 -2.349 0.077 -24.399 3.439e-3 122.767
          1.438e-3 -119.019 3.502e-3 122.983 0.11 -11.341
1253.85 0.058 -66.434 0.917 -2.265 1.458e-3 -118.986
          0.918 -2.3 0.077 -24.651 3.559e-3 123.698
          1.468e-3 -118.95 3.604e-3 123.625 0.111 -9.589
1283.7 0.058 -67.908 0.918 -2.273 1.52e-3 -118.878
          0.92 -2.35 0.076 -24.724 3.67e-3 124.596
          1.569e-3 -120.293 3.687e-3 123.789 0.113 -7.834
1313.55 0.057 -68.802 0.919 -2.358 1.572e-3 -120.876
          0.92 -2.493 0.075 -24.377 3.786e-3 125.012
          1.621e-3 -121.291 3.781e-3 124.486 0.115 -6.038
1343.4 0.056 -69.396 0.919 -2.53 1.602e-3 -121.836
          0.92 -2.689 0.075 -23.697 3.877e-3 125.556
          1.624e-3 -121.025 3.886e-3 125.306 0.117 -4.25
1373.25 0.056 -69.92 0.917 -2.689 1.645e-3 -121.062
          0.917 -2.812 0.074 -23.072 3.977e-3 126.388
          1.667e-3 -120.413 3.995e-3 126.125 0.119 -2.528
1403.1 0.054 -70.337 0.915 -2.74 1.704e-3 -121.496
          0.915 -2.754 0.074 -22.422 4.092e-3 126.858
          1.722e-3 -122.08 4.075e-3 127.369 0.121 -0.779
1432.95 0.053 -70.953 0.913 -2.652 1.804e-3 -123.563
          0.915 -2.629 0.073 -21.772 4.172e-3 127.574
          1.801e-3 -122.603 4.18e-3 128.582 0.123 0.908
1462.8 0.051 -72.261 0.914 -2.61 1.878e-3 -124.187
          0.916 -2.61 0.073 -21.17 4.248e-3 128.539
          1.865e-3 -122.767 4.311e-3 129.051 0.125 2.543
1492.65 0.049 -74.015 0.916 -2.7 1.913e-3 -124.98
          0.918 -2.71 0.072 -20.586 4.366e-3 129.649
          1.959e-3 -124.95 4.408e-3 129.596 0.127 4.147
1522.5 0.046 -75.841 0.917 -2.8 1.982e-3 -126.178
          0.919 -2.9 0.071 -19.99 4.5e-3 130.766
          2.036e-3 -125.581 4.507e-3 130.532 0.129 5.67
1552.35 0.044 -77.801 0.918 -2.926 2.043e-3 -126.613
          0.918 -3.037 0.07 -19.373 4.599e-3 131.196
          2.076e-3 -126.755 4.612e-3 131.239 0.132 7.142
1582.2 0.043 -79.697 0.918 -3.02 2.1e-3 -127.713
          0.917 -3.089 0.069 -18.782 4.691e-3 131.571
          2.135e-3 -128.502 4.708e-3 131.839 0.134 8.553
1612.05 0.041 -81.503 0.917 -3.035 2.141e-3 -128.416
          0.916 -3.181 0.068 -18.057 4.787e-3 132.541
          2.159e-3 -128.121 4.802e-3 132.442 0.138 9.915
1641.9 0.04 -83.073 0.915 -3.077 2.194e-3 -128.688
          0.917 -3.201 0.066 -17.061 4.897e-3 133.641
          2.211e-3 -127.946 4.884e-3 133.261 0.141 11.188
1671.75 0.038 -84.006 0.913 -3.081 2.311e-3 -128.911
          0.916 -3.173 0.065 -15.781 5.004e-3 134.43
          2.278e-3 -128.617 4.98e-3 134.026 0.144 12.327
1701.6 0.036 -85.178 0.912 -2.987 2.371e-3 -129.871
          0.915 -3.215 0.064 -14.296 5.082e-3 135.177
          2.334e-3 -128.941 5.104e-3 134.92 0.148 13.352
1731.45 0.034 -87.219 0.913 -2.942 2.434e-3 -130.481
          0.916 -3.232 0.063 -12.668 5.167e-3 135.995
          2.404e-3 -129.498 5.225e-3 136.02 0.15 14.402
1761.3 0.03 -89.789 0.916 -2.999 2.493e-3 -130.165
          0.917 -3.264 0.061 -10.813 5.273e-3 137.007
          2.472e-3 -130.154 5.319e-3 136.786 0.153 15.522
1791.15 0.027 -92.442 0.919 -3.293 2.557e-3 -130.486
          0.917 -3.409 0.06 -8.469 5.419e-3 137.947
          2.564e-3 -130.616 5.437e-3 137.558 0.155 16.655
1821 0.023 -95.15 0.917 -3.65 2.678e-3 -131.601
          0.916 -3.588 0.059 -6.238 5.555e-3 138.542
          2.647e-3 -131.325 5.564e-3 137.862 0.157 17.797
1850.85 0.021 -99.646 0.915 -3.84 2.676e-3 -132.322
          0.915 -3.586 0.058 -4.561 5.667e-3 139.106
          2.697e-3 -131.875 5.64e-3 138.506 0.159 18.888
1880.7 0.018 -105.902 0.913 -3.893 2.683e-3 -132.349
          0.913 -3.521 0.056 -2.801 5.756e-3 139.276
          2.714e-3 -132.451 5.739e-3 139.633 0.161 19.933
1910.55 0.017 -114.966 0.911 -3.626 2.733e-3 -132.298
          0.914 -3.615 0.054 -0.602 5.87e-3 140.03
          2.745e-3 -132.654 5.861e-3 140.537 0.164 20.954
1940.4 0.015 -125.259 0.914 -3.563 2.808e-3 -131.898
          0.915 -3.787 0.052 2.039 5.938e-3 141.404
          2.843e-3 -132.213 5.973e-3 141.329 0.166 21.927
1970.25 0.013 -136.127 0.918 -3.642 2.924e-3 -131.792
          0.913 -4.023 0.051 5.463 6.055e-3 142.362
          2.913e-3 -132.458 6.13e-3 142.332 0.169 22.904
2000.1 0.012 -146.606 0.918 -3.801 3.029e-3 -132.017
          0.911 -4.211 0.05 9.184 6.219e-3 143.007
          2.967e-3 -132.691 6.242e-3 142.811 0.172 23.864
2029.95 0.011 -160.118 0.917 -3.968 3.078e-3 -132.971
          0.911 -4.187 0.049 13.001 6.343e-3 143.875
          3.033e-3 -131.807 6.368e-3 143.539 0.175 24.855
2059.8 0.011 -178.608 0.916 -4.087 3.126e-3 -133.643
          0.913 -4.117 0.049 17.154 6.509e-3 144.644
          3.12e-3 -132.079 6.492e-3 144.378 0.177 25.904
2089.65 0.012 162.028 0.914 -4.189 3.202e-3 -133.115
          0.917 -4.222 0.049 21.453 6.588e-3 145.523
          3.196e-3 -133.692 6.608e-3 144.848 0.18 26.983
2119.5 0.014 146.174 0.913 -4.363 3.249e-3 -133.616
          0.919 -4.397 0.049 25.659 6.731e-3 145.912
          3.273e-3 -133.745 6.719e-3 145.455 0.182 28.117
2149.35 0.016 135.718 0.91 -4.474 3.304e-3 -134.255
          0.916 -4.594 0.05 29.392 6.874e-3 146.567
          3.339e-3 -134.704 6.847e-3 146.123 0.185 29.191
2179.2 0.019 129.359 0.909 -4.454 3.377e-3 -134.35
          0.911 -4.816 0.05 33.01 6.968e-3 147.207
          3.373e-3 -135.302 6.947e-3 146.734 0.187 30.202
2209.05 0.023 126.092 0.909 -4.463 3.407e-3 -134.155
          0.908 -4.726 0.05 36.911 7.028e-3 147.822
          3.426e-3 -134.886 7.046e-3 147.742 0.189 31.136
2238.9 0.026 124.301 0.911 -4.515 3.495e-3 -134.276
          0.906 -4.516 0.051 41.046 7.119e-3 148.366
          3.507e-3 -134.223 7.17e-3 148.618 0.191 31.964
2268.75 0.029 123.091 0.912 -4.679 3.562e-3 -133.838
          0.906 -4.527 0.052 45.092 7.234e-3 149.333
          3.577e-3 -133.78 7.3e-3 149.638 0.194 32.725
2298.6 0.033 121.744 0.912 -4.907 3.688e-3 -133.996
          0.909 -4.733 0.054 48.609 7.352e-3 150.278
          3.697e-3 -134.026 7.438e-3 150.122 0.196 33.483
2328.45 0.038 118.711 0.91 -5.033 3.783e-3 -135.221
          0.912 -4.976 0.055 52.506 7.499e-3 150.996
          3.78e-3 -134.147 7.569e-3 150.753 0.198 34.312
2358.3 0.041 115.035 0.91 -5.115 3.806e-3 -135.139
          0.913 -5.303 0.057 56.951 7.619e-3 151.674
          3.779e-3 -135.083 7.695e-3 151.232 0.2 35.141
2388.15 0.045 112.212 0.909 -5.225 3.835e-3 -135.353
          0.912 -5.554 0.059 60.466 7.744e-3 152.318
          3.825e-3 -135.724 7.784e-3 152.036 0.203 35.994
2418 0.048 109.949 0.909 -5.376 3.944e-3 -135.695
          0.908 -5.819 0.062 63.469 7.853e-3 153.339
          3.88e-3 -135.697 7.871e-3 152.909 0.205 36.871
2447.85 0.051 108.442 0.908 -5.637 4.041e-3 -135.001
          0.903 -5.882 0.065 65.909 8.071e-3 154.088
          3.967e-3 -135.365 7.955e-3 153.537 0.208 37.705
2477.7 0.055 107.985 0.905 -5.674 4.068e-3 -135.953
          0.9 -5.669 0.067 68.861 8.192e-3 154.609
          4.004e-3 -135.617 8.082e-3 154.361 0.21 38.553
2507.55 0.058 107.517 0.903 -5.719 4.055e-3 -135.75
          0.899 -5.436 0.07 71.76 8.323e-3 154.822
          4.037e-3 -134.873 8.207e-3 155.482 0.212 39.406
2537.4 0.062 107.637 0.905 -5.603 4.087e-3 -136.031
          0.905 -5.235 0.073 74.802 8.379e-3 155.256
          4.122e-3 -134.507 8.452e-3 156.497 0.213 40.11
2567.25 0.066 107.712 0.909 -5.714 4.111e-3 -135.246
          0.913 -5.568 0.076 77.806 8.379e-3 156.672
          4.24e-3 -134.148 8.639e-3 157.062 0.215 40.863
2597.1 0.07 106.021 0.912 -6.022 4.184e-3 -134.619
          0.915 -6.159 0.081 79.725 8.512e-3 158.418
          4.384e-3 -134.938 8.763e-3 157.29 0.217 41.625
2626.95 0.073 103.435 0.912 -6.554 4.309e-3 -133.727
          0.911 -6.855 0.087 80.208 8.803e-3 159.582
          4.387e-3 -135.996 8.879e-3 157.729 0.218 42.328
2656.8 0.073 103.113 0.903 -6.918 4.418e-3 -133.581
          0.9 -7.141 0.088 80.816 9.077e-3 159.995
          4.375e-3 -135.65 8.987e-3 158.629 0.22 43.014
2686.65 0.076 103.91 0.899 -6.813 4.524e-3 -133.616
          0.892 -6.887 0.091 82.876 9.246e-3 159.904
          4.367e-3 -135.363 9.042e-3 159.321 0.222 43.645
2716.5 0.079 103.335 0.895 -6.569 4.541e-3 -135.473
          0.891 -6.484 0.095 84.823 9.268e-3 159.869
          4.434e-3 -134.462 9.123e-3 160.706 0.224 44.371
2746.35 0.083 102.753 0.897 -6.58 4.573e-3 -135.08
          0.896 -6.28 0.099 86.239 9.359e-3 160.489
          4.454e-3 -134.598 9.343e-3 161.827 0.226 45.023
2776.2 0.087 102.672 0.9 -6.768 4.538e-3 -134.144
          0.901 -6.71 0.103 87.498 9.46e-3 161.091
          4.56e-3 -134.144 9.529e-3 162.232 0.228 45.707
2806.05 0.091 102.375 0.9 -6.955 4.577e-3 -133.873
          0.902 -7.155 0.108 88.661 9.599e-3 162.663
          4.641e-3 -134.429 9.697e-3 162.2 0.229 46.419
2835.9 0.094 102.243 0.9 -7.241 4.654e-3 -133.036
          0.898 -7.431 0.112 89.629 9.729e-3 163.462
          4.655e-3 -133.59 9.819e-3 163.254 0.23 47.107
2865.75 0.097 102.395 0.898 -7.552 4.71e-3 -132.476
          0.897 -7.575 0.116 90.539 9.874e-3 164.768
          4.746e-3 -133.685 9.907e-3 163.704 0.231 47.8
2895.6 0.099 102.572 0.897 -7.806 4.836e-3 -131.74
          0.897 -7.688 0.12 91.612 0.01 165.585
          4.847e-3 -132.872 0.01 165.144 0.233 48.445
2925.45 0.101 102.396 0.893 -8.057 4.856e-3 -131.261
          0.893 -7.98 0.124 92.275 0.01 166.817
          4.922e-3 -132.399 0.01 165.578 0.234 49.018
2955.3 0.102 102.775 0.887 -8.136 5.073e-3 -131.2
          0.887 -8.168 0.127 93.14 0.011 167.189
          4.926e-3 -131.715 0.01 166.611 0.235 49.618
2985.15 0.104 102.695 0.886 -8.009 5.111e-3 -132.139
          0.883 -8.167 0.131 94.075 0.011 166.524
          4.989e-3 -131.312 0.01 166.974 0.236 50.184
3015 0.107 102.526 0.885 -7.959 5.078e-3 -131.711
          0.882 -7.83 0.136 94.959 0.011 166.759
          5.024e-3 -130.397 0.011 168.194 0.238 50.76
3044.85 0.11 102.26 0.887 -8.107 5.1e-3 -130.92
          0.887 -7.809 0.141 95.749 0.011 167.805
          5.084e-3 -129.876 0.011 168.759 0.239 51.47
3074.7 0.114 101.369 0.887 -8.509 5.029e-3 -129.122
          0.889 -8.434 0.147 96.044 0.011 169.621
          5.181e-3 -129.813 0.011 169.205 0.24 52.007
3104.55 0.116 100.574 0.881 -8.897 5.215e-3 -127.988
          0.886 -8.992 0.151 96.372 0.011 171.048
          5.217e-3 -129.017 0.011 170.143 0.242 52.715
3134.4 0.118 100.593 0.875 -9.086 5.368e-3 -127.032
          0.875 -9.263 0.154 96.828 0.011 172.09
          5.197e-3 -128.153 0.011 170.958 0.243 53.33
3164.25 0.121 101.691 0.869 -8.925 5.43e-3 -127.491
          0.867 -8.963 0.158 97.901 0.012 171.83
          5.293e-3 -127.653 0.011 171.914 0.244 53.895
3194.1 0.124 101.99 0.869 -8.866 5.489e-3 -127.133
          0.865 -8.54 0.163 98.663 0.012 171.835
          5.378e-3 -125.424 0.012 172.669 0.244 54.336
3223.95 0.126 102.366 0.869 -8.714 5.537e-3 -126.226
          0.869 -8.475 0.168 99.069 0.012 172.708
          5.485e-3 -124.69 0.012 173.425 0.245 54.883
3253.8 0.127 102.51 0.868 -9.044 5.543e-3 -125.271
          0.872 -8.823 0.174 99 0.012 174.124
          5.619e-3 -124.861 0.012 173.776 0.245 55.229
3283.65 0.127 102.617 0.862 -9.067 5.583e-3 -123.807
          0.869 -9.364 0.178 98.759 0.012 175.365
          5.671e-3 -124.419 0.012 175.157 0.246 55.513
3313.5 0.126 103.055 0.862 -9.049 5.714e-3 -123.063
          0.862 -9.444 0.182 98.559 0.012 176.329
          5.718e-3 -123.605 0.012 175.98 0.247 55.741
3343.35 0.126 103.597 0.862 -8.976 5.865e-3 -122.179
          0.858 -9.11 0.186 98.446 0.012 176.998
          5.77e-3 -121.989 0.012 177.147 0.247 56.095
3373.2 0.126 104.15 0.86 -9.048 5.932e-3 -121.245
          0.858 -8.885 0.189 98.327 0.013 177.815
          5.967e-3 -120.923 0.013 177.897 0.248 56.382
3403.05 0.127 104.621 0.859 -9.245 6.001e-3 -120.113
          0.861 -9.011 0.192 98.101 0.013 179.273
          6.127e-3 -120.107 0.013 178.8 0.249 56.664
3432.9 0.129 105.597 0.858 -9.047 6.182e-3 -119.157
          0.862 -9.313 0.195 98.134 0.013 -179.616
          6.17e-3 -119.485 0.013 179.643 0.249 56.983
3462.75 0.13 107.032 0.859 -9.022 6.357e-3 -118.282
          0.859 -9.466 0.197 98.425 0.013 -179.199
          6.237e-3 -118.554 0.013 -178.936 0.249 57.369
3492.6 0.133 108.637 0.862 -9.15 6.412e-3 -118.797
          0.853 -9.418 0.199 98.773 0.014 -178.984
          6.35e-3 -117.693 0.013 -178.067 0.249 57.667
3522.45 0.136 110.455 0.863 -9.534 6.48e-3 -117.988
          0.855 -9.209 0.202 99.165 0.014 -177.769
          6.458e-3 -116.568 0.014 -177.499 0.248 57.92
3552.3 0.14 112.505 0.863 -9.945 6.522e-3 -116.282
          0.862 -9.138 0.205 99.543 0.014 -176.564
          6.658e-3 -115.168 0.014 -176.424 0.247 58.133
3582.15 0.143 113.955 0.857 -10.234 6.671e-3 -114.457
          0.87 -9.723 0.207 99.559 0.014 -174.671
          6.927e-3 -114.77 0.014 -175.793 0.246 58.151
3612 0.145 115.99 0.852 -10.127 6.904e-3 -112.952
