!HMC452ST89 Small Signal S-parameters
!Reference planes Port1 input pin, Port2 output pin
!Vdd=5V, Idd=520mA
# MHz S MA R 50
10 0.869263 179.938 12.5355 177.01 0.0116132 2.7977 0.620911 -179.141 
10.8318 0.866207 -179.059 12.4758 177.306 0.0116309 3.47589 0.625021 -177.817 
11.6636 0.86315 -178.056 12.4161 177.603 0.0116485 4.15406 0.629132 -176.493 
12.4954 0.860094 -177.053 12.3563 177.899 0.0116661 4.83221 0.633244 -175.169 
13.3272 0.857038 -176.05 12.2965 178.195 0.0116836 5.51033 0.637357 -173.845 
14.159 0.853981 -175.047 12.2366 178.491 0.0117011 6.18841 0.641471 -172.521 
14.9908 0.850925 -174.044 12.1766 178.787 0.0117185 6.86644 0.645586 -171.197 
15.8226 0.847869 -173.042 12.1166 179.082 0.0117359 7.54442 0.649702 -169.873 
16.6544 0.844813 -172.039 12.0566 179.378 0.0117532 8.22234 0.653819 -168.55 
17.4862 0.841758 -171.036 11.9965 179.674 0.0117705 8.9002 0.657937 -167.226 
18.3181 0.838703 -170.034 11.9364 179.97 0.0117877 9.57798 0.662055 -165.903 
19.1499 0.835648 -169.031 11.8762 -179.735 0.0118049 10.2557 0.666174 -164.58 
19.9817 0.832594 -168.029 11.816 -179.439 0.011822 10.9333 0.670294 -163.257 
20.8135 0.829541 -167.027 11.7557 -179.144 0.0118391 11.6108 0.674414 -161.935 
21.6453 0.826488 -166.025 11.6954 -178.848 0.0118561 12.2883 0.678535 -160.612 
22.4771 0.823457 -165.026 11.6356 -178.554 0.0118735 12.964 0.682637 -159.294 
23.3089 0.829261 -165.378 11.7915 -178.839 0.0120493 13.0139 0.678878 -159.694 
24.1407 0.835064 -165.73 11.9475 -179.124 0.0122251 13.0639 0.675118 -160.094 
24.9725 0.840867 -166.083 12.1034 -179.408 0.0124009 13.1139 0.671357 -160.494 
25.8043 0.84667 -166.435 12.2594 -179.693 0.0125768 13.1639 0.667596 -160.894 
26.6361 0.852472 -166.788 12.4154 -179.977 0.0127526 13.214 0.663834 -161.294 
27.4679 0.858274 -167.14 12.5714 179.738 0.0129285 13.264 0.660071 -161.694 
28.2997 0.864076 -167.492 12.7274 179.454 0.0131044 13.3141 0.656307 -162.094 
29.1315 0.869878 -167.845 12.8835 179.169 0.0132804 13.3642 0.652542 -162.494 
29.9633 0.87568 -168.197 13.0396 178.885 0.0134563 13.4144 0.648777 -162.895 
30.7951 0.881483 -168.527 13.1957 178.623 0.0136323 13.4874 0.645012 -163.272 
31.6269 0.887286 -168.856 13.3518 178.363 0.0138083 13.5615 0.641247 -163.648 
32.4587 0.893089 -169.184 13.5079 178.102 0.0139843 13.6356 0.63748 -164.024 
33.2905 0.898892 -169.513 13.6641 177.842 0.0141604 13.7098 0.633713 -164.4 
34.1224 0.904696 -169.841 13.8203 177.582 0.0143364 13.784 0.629946 -164.777 
34.9542 0.910465 -170.171 13.9754 177.319 0.0145114 13.8564 0.626198 -165.153 
35.786 0.909426 -170.67 13.9154 176.662 0.0144635 13.581 0.626625 -165.571 
36.6178 0.908387 -171.169 13.8555 176.005 0.0144155 13.3055 0.627051 -165.99 
37.4496 0.907347 -171.667 13.7955 175.348 0.0143676 13.0301 0.627476 -166.408 
38.2814 0.906307 -172.166 13.7356 174.691 0.0143197 12.7546 0.6279 -166.826 
39.1132 0.905266 -172.665 13.6757 174.035 0.0142718 12.4791 0.628324 -167.244 
39.945 0.904224 -173.164 13.6158 173.378 0.0142239 12.2037 0.628747 -167.662 
40.7768 0.903182 -173.662 13.556 172.721 0.0141761 11.9282 0.629169 -168.081 
41.6086 0.90214 -174.161 13.4961 172.064 0.0141282 11.6526 0.62959 -168.499 
42.4404 0.901096 -174.66 13.4363 171.407 0.0140804 11.3771 0.63001 -168.917 
43.2722 0.900053 -175.159 13.3764 170.75 0.0140326 11.1016 0.63043 -169.335 
44.104 0.899008 -175.657 13.3166 170.093 0.0139848 10.826 0.630849 -169.753 
44.9358 0.897964 -176.156 13.2568 169.435 0.0139371 10.5504 0.631267 -170.171 
45.7676 0.896918 -176.655 13.197 168.778 0.0138893 10.2748 0.631684 -170.589 
46.5994 0.895872 -177.154 13.1373 168.121 0.0138416 9.99916 0.632101 -171.007 
47.4312 0.89482 -177.652 13.0774 167.464 0.0137938 9.72405 0.632517 -171.425 
48.263 0.893059 -178.072 12.996 166.856 0.0137334 9.52057 0.632958 -171.796 
49.0948 0.891298 -178.492 12.9147 166.248 0.013673 9.31707 0.633398 -172.166 
49.9267 0.889536 -178.912 12.8334 165.639 0.0136127 9.11354 0.633838 -172.537 
50.7585 0.887773 -179.331 12.7521 165.031 0.0135523 8.90998 0.634277 -172.908 
51.5903 0.88601 -179.751 12.6708 164.423 0.013492 8.7064 0.634715 -173.279 
52.4221 0.884247 179.829 12.5895 163.814 0.0134317 8.50278 0.635153 -173.649 
53.2539 0.882482 179.409 12.5083 163.206 0.0133714 8.29914 0.635591 -174.02 
54.0857 0.880718 178.989 12.427 162.597 0.013311 8.09547 0.636027 -174.391 
54.9175 0.878952 178.569 12.3457 161.988 0.0132507 7.89176 0.636464 -174.762 
55.7493 0.877186 178.149 12.2645 161.38 0.0131905 7.68803 0.636899 -175.132 
56.5811 0.87542 177.729 12.1832 160.771 0.0131302 7.48426 0.637335 -175.503 
57.4129 0.873653 177.309 12.1019 160.162 0.0130699 7.28045 0.637769 -175.874 
58.2447 0.871885 176.89 12.0207 159.554 0.0130096 7.07662 0.638204 -176.245 
59.0765 0.870117 176.47 11.9395 158.945 0.0129494 6.87274 0.638638 -176.615 
59.9083 0.868355 176.051 11.8585 158.338 0.0128892 6.66878 0.639071 -176.984 
60.7401 0.867352 175.81 11.8055 157.881 0.0128345 6.46013 0.639554 -177.163 
61.5719 0.866349 175.568 11.7524 157.424 0.0127798 6.25146 0.640036 -177.342 
62.4037 0.865345 175.327 11.6994 156.967 0.0127251 6.04277 0.640518 -177.521 
63.2355 0.864341 175.085 11.6463 156.51 0.0126704 5.83407 0.641 -177.699 
64.0673 0.863336 174.844 11.5933 156.053 0.0126158 5.62535 0.641482 -177.878 
64.8991 0.862331 174.602 11.5403 155.595 0.0125611 5.41661 0.641963 -178.057 
65.731 0.861326 174.36 11.4873 155.138 0.0125064 5.20786 0.642444 -178.236 
66.5628 0.860321 174.119 11.4342 154.681 0.0124517 4.9991 0.642925 -178.414 
67.3946 0.859315 173.877 11.3812 154.224 0.0123971 4.79031 0.643405 -178.593 
68.2264 0.858309 173.636 11.3282 153.767 0.0123424 4.58151 0.643886 -178.772 
69.0582 0.857302 173.394 11.2752 153.31 0.0122877 4.37269 0.644366 -178.951 
69.89 0.856296 173.152 11.2222 152.853 0.0122331 4.16386 0.644846 -179.129 
70.7218 0.855288 172.911 11.1691 152.395 0.0121784 3.955 0.645325 -179.308 
71.5536 0.854281 172.669 11.1161 151.938 0.0121237 3.74612 0.645805 -179.487 
72.3854 0.853283 172.43 11.0635 151.483 0.0120697 3.54011 0.646286 -179.664 
73.2172 0.853058 172.361 11.0401 151.195 0.0120656 3.56187 0.646935 -179.674 
74.049 0.852834 172.293 11.0168 150.906 0.0120614 3.58362 0.647583 -179.684 
74.8808 0.852609 172.225 10.9934 150.618 0.0120573 3.60537 0.648232 -179.694 
75.7126 0.852384 172.156 10.97 150.33 0.0120532 3.62713 0.64888 -179.705 
76.5444 0.852159 172.088 10.9467 150.041 0.012049 3.64888 0.649528 -179.715 
77.3762 0.851934 172.02 10.9233 149.753 0.0120449 3.67063 0.650177 -179.725 
78.208 0.851709 171.951 10.8999 149.465 0.0120408 3.69239 0.650825 -179.735 
79.0398 0.851484 171.883 10.8766 149.176 0.0120367 3.71414 0.651473 -179.745 
79.8716 0.851258 171.815 10.8532 148.888 0.0120325 3.73589 0.652121 -179.756 
80.7035 0.851033 171.747 10.8299 148.6 0.0120284 3.75764 0.652769 -179.766 
81.5353 0.850807 171.678 10.8065 148.311 0.0120243 3.77939 0.653417 -179.776 
82.3671 0.850581 171.61 10.7832 148.023 0.0120202 3.80115 0.654065 -179.786 
83.1989 0.850355 171.542 10.7598 147.735 0.0120161 3.8229 0.654712 -179.796 
84.0307 0.850129 171.473 10.7364 147.446 0.012012 3.84465 0.65536 -179.807 
84.8625 0.849912 171.407 10.7134 147.16 0.0120086 3.86838 0.65601 -179.815 
85.6943 0.850295 171.441 10.7106 146.988 0.0120543 4.0224 0.65683 -179.723 
86.5261 0.850678 171.476 10.7079 146.817 0.0120999 4.17644 0.65765 -179.631 
87.3579 0.851061 171.511 10.7051 146.645 0.0121456 4.33048 0.658469 -179.538 
88.1897 0.851445 171.545 10.7024 146.473 0.0121913 4.48453 0.659289 -179.446 
89.0215 0.851828 171.58 10.6996 146.302 0.0122369 4.63859 0.660109 -179.354 
89.8533 0.852211 171.615 10.6969 146.13 0.0122826 4.79265 0.660928 -179.261 
90.6851 0.852594 171.65 10.6941 145.959 0.0123282 4.94673 0.661748 -179.169 
91.5169 0.852977 171.684 10.6914 145.787 0.0123739 5.10081 0.662568 -179.077 
92.3487 0.85336 171.719 10.6886 145.616 0.0124196 5.25491 0.663387 -178.985 
93.1805 0.853742 171.754 10.6858 145.444 0.0124652 5.40901 0.664207 -178.892 
94.0123 0.854125 171.788 10.6831 145.273 0.0125109 5.56312 0.665027 -178.8 
94.8441 0.854508 171.823 10.6803 145.101 0.0125566 5.71724 0.665846 -178.708 
95.6759 0.854891 171.858 10.6776 144.93 0.0126022 5.87137 0.666666 -178.616 
96.5078 0.855273 171.892 10.6748 144.758 0.0126479 6.0255 0.667485 -178.523 
97.3396 0.855659 171.927 10.6721 144.587 0.0126933 6.18056 0.668306 -178.431 
98.1714 0.856206 171.986 10.6737 144.455 0.0127259 6.38693 0.669165 -178.329 
99.0032 0.856753 172.045 10.6753 144.323 0.0127584 6.59331 0.670024 -178.227 
99.835 0.8573 172.103 10.6769 144.19 0.012791 6.7997 0.670884 -178.125 
100.667 0.857846 172.162 10.6786 144.058 0.0128235 7.0061 0.671743 -178.023 
101.499 0.858393 172.22 10.6802 143.926 0.012856 7.21251 0.672603 -177.921 
102.33 0.85894 172.279 10.6818 143.793 0.0128886 7.41894 0.673462 -177.82 
103.162 0.859487 172.337 10.6834 143.661 0.0129211 7.62537 0.674322 -177.718 
103.994 0.860034 172.396 10.685 143.529 0.0129537 7.83181 0.675181 -177.616 
104.826 0.860581 172.454 10.6866 143.397 0.0129862 8.03826 0.676041 -177.514 
105.658 0.861128 172.513 10.6882 143.264 0.0130187 8.24473 0.6769 -177.412 
106.489 0.861675 172.571 10.6898 143.132 0.0130512 8.4512 0.67776 -177.31 
107.321 0.862222 172.63 10.6914 143 0.0130838 8.65768 0.67862 -177.208 
108.153 0.862769 172.688 10.693 142.868 0.0131163 8.86418 0.679479 -177.107 
108.985 0.863316 172.747 10.6946 142.735 0.0131488 9.07068 0.680339 -177.005 
109.817 0.863856 172.804 10.6959 142.602 0.013181 9.27587 0.681197 -176.904 
110.648 0.86407 172.811 10.6854 142.43 0.0131954 9.41618 0.681977 -176.868 
111.48 0.864284 172.817 10.6748 142.257 0.0132098 9.5565 0.682758 -176.831 
112.312 0.864498 172.824 10.6642 142.084 0.0132242 9.69683 0.683538 -176.794 
113.144 0.864712 172.831 10.6536 141.911 0.0132386 9.83716 0.684318 -176.757 
113.976 0.864926 172.837 10.643 141.739 0.013253 9.9775 0.685098 -176.72 
114.807 0.865139 172.844 10.6325 141.566 0.0132674 10.1178 0.685878 -176.684 
115.639 0.865353 172.851 10.6219 141.393 0.0132819 10.2582 0.686658 -176.647 
116.471 0.865567 172.857 10.6113 141.22 0.0132963 10.3985 0.687438 -176.61 
117.303 0.86578 172.864 10.6007 141.048 0.0133107 10.5389 0.688219 -176.573 
118.135 0.865994 172.871 10.5901 140.875 0.0133251 10.6793 0.688999 -176.536 
118.966 0.866208 172.877 10.5796 140.702 0.0133395 10.8197 0.689779 -176.5 
119.798 0.866421 172.884 10.569 140.529 0.0133539 10.96 0.690559 -176.463 
120.63 0.866635 172.891 10.5584 140.357 0.0133683 11.1004 0.691339 -176.426 
121.462 0.866848 172.897 10.5478 140.184 0.0133828 11.2408 0.692119 -176.389 
122.294 0.867056 172.903 10.537 140.01 0.0133969 11.3785 0.692896 -176.354 
123.126 0.867016 172.853 10.5157 139.792 0.0133989 11.3999 0.693562 -176.374 
123.957 0.866975 172.803 10.4945 139.573 0.013401 11.4214 0.694229 -176.395 
124.789 0.866934 172.753 10.4732 139.354 0.013403 11.4428 0.694895 -176.415 
125.621 0.866894 172.704 10.4519 139.135 0.013405 11.4642 0.69556 -176.436 
126.453 0.866853 172.654 10.4307 138.917 0.0134071 11.4856 0.696226 -176.456 
127.285 0.866812 172.604 10.4094 138.698 0.0134091 11.507 0.696892 -176.477 
128.116 0.866771 172.555 10.3882 138.479 0.0134112 11.5284 0.697558 -176.497 
128.948 0.86673 172.505 10.3669 138.26 0.0134132 11.5499 0.698224 -176.518 
129.78 0.866689 172.455 10.3456 138.042 0.0134153 11.5713 0.69889 -176.538 
130.612 0.866648 172.405 10.3244 137.823 0.0134173 11.5927 0.699555 -176.559 
131.444 0.866606 172.356 10.3031 137.604 0.0134194 11.6141 0.700221 -176.58 
132.275 0.866565 172.306 10.2819 137.385 0.0134215 11.6355 0.700887 -176.6 
133.107 0.866524 172.256 10.2606 137.167 0.0134235 11.657 0.701552 -176.621 
133.939 0.866482 172.206 10.2394 136.948 0.0134256 11.6784 0.702218 -176.641 
134.771 0.866434 172.156 10.218 136.728 0.0134281 11.7001 0.702884 -176.663 
135.603 0.86613 172.082 10.1907 136.479 0.0134459 11.7344 0.703556 -176.72 
136.434 0.865826 172.008 10.1634 136.229 0.0134637 11.7687 0.704227 -176.776 
137.266 0.865521 171.935 10.1361 135.98 0.0134815 11.803 0.704899 -176.833 
138.098 0.865216 171.861 10.1089 135.73 0.0134994 11.8373 0.705571 -176.89 
138.93 0.864912 171.787 10.0816 135.481 0.0135172 11.8716 0.706243 -176.947 
139.762 0.864607 171.713 10.0543 135.231 0.0135351 11.9059 0.706914 -177.004 
140.593 0.864302 171.64 10.027 134.982 0.0135529 11.9402 0.707586 -177.061 
141.425 0.863997 171.566 9.99976 134.732 0.0135708 11.9745 0.708257 -177.118 
142.257 0.863692 171.492 9.97248 134.483 0.0135886 12.0088 0.708929 -177.175 
143.089 0.863386 171.418 9.94521 134.233 0.0136065 12.0431 0.7096 -177.232 
143.921 0.863081 171.344 9.91793 133.984 0.0136244 12.0773 0.710272 -177.289 
144.752 0.862775 171.271 9.89066 133.734 0.0136423 12.1116 0.710943 -177.346 
145.584 0.86247 171.197 9.86339 133.485 0.0136602 12.1459 0.711614 -177.403 
146.416 0.862164 171.123 9.83611 133.235 0.0136781 12.1801 0.712286 -177.46 
147.248 0.861875 171.049 9.80885 132.989 0.0136954 12.2168 0.712967 -177.519 
148.08 0.862203 170.975 9.78198 132.846 0.0136932 12.3382 0.714018 -177.62 
148.911 0.86253 170.902 9.75512 132.703 0.013691 12.4597 0.715068 -177.721 
149.743 0.862858 170.828 9.72825 132.56 0.0136887 12.5811 0.716119 -177.823 
150.575 0.863185 170.754 9.70139 132.418 0.0136865 12.7026 0.717169 -177.924 
151.407 0.863513 170.68 9.67453 132.275 0.0136843 12.824 0.71822 -178.026 
152.239 0.86384 170.607 9.64767 132.132 0.0136821 12.9455 0.71927 -178.127 
153.071 0.864168 170.533 9.62081 131.989 0.0136799 13.0669 0.720321 -178.229 
153.902 0.864495 170.459 9.59395 131.846 0.0136777 13.1884 0.721371 -178.33 
154.734 0.864823 170.385 9.56709 131.704 0.0136755 13.3098 0.722422 -178.432 
155.566 0.86515 170.312 9.54023 131.561 0.0136733 13.4313 0.723472 -178.533 
156.398 0.865478 170.238 9.51337 131.418 0.0136712 13.5527 0.724523 -178.635 
157.23 0.865806 170.164 9.48652 131.275 0.013669 13.6742 0.725573 -178.736 
158.061 0.866133 170.09 9.45966 131.132 0.0136668 13.7956 0.726624 -178.838 
158.893 0.866461 170.016 9.43281 130.99 0.0136647 13.9171 0.727674 -178.94 
159.725 0.866758 169.942 9.4062 130.842 0.0136631 14.0351 0.728692 -179.039 
160.557 0.86608 169.864 9.38783 130.542 0.0136794 14.0407 0.728656 -179.084 
161.389 0.865401 169.786 9.36945 130.242 0.0136956 14.0464 0.72862 -179.129 
162.22 0.864722 169.708 9.35107 129.942 0.0137119 14.052 0.728583 -179.174 
163.052 0.864043 169.629 9.3327 129.642 0.0137282 14.0576 0.728547 -179.218 
163.884 0.863363 169.551 9.31432 129.342 0.0137445 14.0632 0.72851 -179.263 
164.716 0.862684 169.473 9.29594 129.042 0.0137608 14.0688 0.728473 -179.308 
165.548 0.862004 169.395 9.27756 128.741 0.0137771 14.0744 0.728436 -179.352 
166.379 0.861324 169.316 9.25919 128.441 0.0137934 14.08 0.728399 -179.397 
167.211 0.860644 169.238 9.24081 128.141 0.0138097 14.0855 0.728362 -179.442 
168.043 0.859964 169.16 9.22243 127.841 0.0138261 14.0911 0.728325 -179.487 
168.875 0.859283 169.081 9.20405 127.541 0.0138424 14.0966 0.728288 -179.531 
169.707 0.858602 169.003 9.18568 127.241 0.0138587 14.1021 0.72825 -179.576 
170.538 0.857922 168.925 9.1673 126.94 0.013875 14.1076 0.728213 -179.621 
171.37 0.85724 168.846 9.14892 126.64 0.0138914 14.1131 0.728176 -179.665 
172.202 0.856579 168.769 9.13044 126.344 0.0139073 14.1187 0.728158 -179.71 
173.034 0.856515 168.723 9.10883 126.159 0.0139118 14.1256 0.728753 -179.753 
173.866 0.85645 168.677 9.08722 125.975 0.0139162 14.1325 0.729347 -179.795 
174.697 0.856385 168.631 9.06561 125.791 0.0139207 14.1393 0.729942 -179.838 
175.529 0.856321 168.585 9.044 125.606 0.0139251 14.1462 0.730536 -179.88 
176.361 0.856256 168.539 9.02239 125.422 0.0139296 14.1531 0.731131 -179.923 
177.193 0.856191 168.494 9.00078 125.237 0.0139341 14.16 0.731725 -179.965 
178.025 0.856126 168.448 8.97917 125.053 0.0139385 14.1669 0.732319 179.992 
178.856 0.856061 168.402 8.95755 124.869 0.013943 14.1738 0.732914 179.949 
179.688 0.855996 168.356 8.93594 124.684 0.0139475 14.1806 0.733508 179.907 
180.52 0.855931 168.31 8.91433 124.5 0.013952 14.1875 0.734103 179.864 
181.352 0.855866 168.264 8.89272 124.315 0.0139564 14.1944 0.734697 179.822 
182.184 0.855801 168.218 8.8711 124.131 0.0139609 14.2013 0.735291 179.779 
183.016 0.855736 168.172 8.84949 123.947 0.0139654 14.2081 0.735886 179.737 
183.847 0.85567 168.126 8.82788 123.762 0.0139699 14.215 0.73648 179.694 
184.679 0.855608 168.08 8.80639 123.579 0.0139747 14.2236 0.737073 179.651 
185.511 0.855616 168.042 8.78854 123.42 0.0139882 14.2821 0.737622 179.611 
186.343 0.855624 168.005 8.77068 123.262 0.0140017 14.3406 0.738172 179.571 
187.175 0.855631 167.967 8.75283 123.103 0.0140152 14.399 0.738721 179.531 
188.006 0.855639 167.929 8.73497 122.944 0.0140287 14.4575 0.73927 179.491 
188.838 0.855647 167.891 8.71712 122.786 0.0140422 14.516 0.739819 179.451 
189.67 0.855655 167.854 8.69926 122.627 0.0140557 14.5744 0.740368 179.411 
190.502 0.855662 167.816 8.6814 122.469 0.0140692 14.6329 0.740918 179.371 
191.334 0.85567 167.778 8.66355 122.31 0.0140828 14.6913 0.741467 179.331 
192.165 0.855677 167.74 8.64569 122.152 0.0140963 14.7497 0.742016 179.291 
192.997 0.855685 167.703 8.62784 121.993 0.0141098 14.8082 0.742565 179.251 
193.829 0.855692 167.665 8.60998 121.834 0.0141234 14.8666 0.743114 179.211 
194.661 0.8557 167.627 8.59212 121.676 0.0141369 14.9251 0.743663 179.171 
195.493 0.855707 167.589 8.57427 121.517 0.0141504 14.9835 0.744212 179.131 
196.324 0.855715 167.552 8.55641 121.359 0.014164 15.0419 0.744762 179.091 
197.156 0.855722 167.514 8.53859 121.2 0.0141777 15.0999 0.745307 179.051 
197.988 0.855714 167.469 8.52173 121.041 0.0141937 15.1455 0.745746 179.014 
198.82 0.855706 167.425 8.50488 120.881 0.0142098 15.1912 0.746186 178.978 
199.652 0.855699 167.38 8.48802 120.722 0.0142258 15.2368 0.746625 178.942 
200.483 0.855691 167.336 8.47116 120.563 0.0142419 15.2824 0.747064 178.905 
201.315 0.855683 167.292 8.4543 120.404 0.014258 15.3281 0.747504 178.869 
202.147 0.855676 167.247 8.43745 120.244 0.014274 15.3737 0.747943 178.832 
202.979 0.855668 167.203 8.42059 120.085 0.0142901 15.4193 0.748383 178.796 
203.811 0.85566 167.158 8.40373 119.926 0.0143062 15.4649 0.748822 178.76 
204.642 0.855652 167.114 8.38687 119.766 0.0143223 15.5105 0.749261 178.723 
205.474 0.855644 167.069 8.37001 119.607 0.0143384 15.5562 0.749701 178.687 
206.306 0.855636 167.025 8.35315 119.448 0.0143545 15.6018 0.75014 178.65 
207.138 0.855628 166.98 8.33629 119.288 0.0143706 15.6474 0.750579 178.614 
207.97 0.85562 166.936 8.31943 119.129 0.0143867 15.693 0.751019 178.578 
208.801 0.855612 166.891 8.30257 118.97 0.0144029 15.7386 0.751458 178.541 
209.633 0.855601 166.847 8.2857 118.81 0.0144189 15.7857 0.751895 178.505 
210.465 0.855523 166.807 8.26846 118.655 0.0144336 15.8688 0.752273 178.465 
211.297 0.855444 166.767 8.25122 118.5 0.0144482 15.9519 0.75265 178.425 
212.129 0.855366 166.726 8.23397 118.345 0.0144628 16.035 0.753028 178.385 
212.96 0.855288 166.686 8.21673 118.19 0.0144774 16.1181 0.753406 178.345 
213.792 0.855209 166.646 8.19949 118.035 0.014492 16.2012 0.753784 178.306 
214.624 0.855131 166.606 8.18224 117.88 0.0145067 16.2843 0.754162 178.266 
215.456 0.855053 166.565 8.165 117.725 0.0145213 16.3674 0.754539 178.226 
216.288 0.854974 166.525 8.14775 117.57 0.014536 16.4505 0.754917 178.186 
217.12 0.854895 166.485 8.13051 117.415 0.0145506 16.5336 0.755295 178.146 
217.951 0.854817 166.444 8.11326 117.26 0.0145653 16.6167 0.755673 178.107 
218.783 0.854738 166.404 8.09602 117.105 0.0145799 16.6998 0.756051 178.067 
219.615 0.854659 166.364 8.07877 116.95 0.0145946 16.7828 0.756428 178.027 
220.447 0.854581 166.323 8.06152 116.795 0.0146093 16.8659 0.756806 177.987 
