!Hittite Microwave Corporation								
!12 Elizabeth Drive								
!Chelmsford, MA 01824								
!Tel: 978-250-3343								
!Fax: 978-250-3373								
!Device: HMC436MS8G, 4.9-5.9 GHz GaAs MMIC DPDT Diversity Switch in 8-lead Grounded Base surface Mount Plastic Package								
!Misc:  Port 1 = ANT1, Port 2 = ANT2, Port 3 = Tx, Port 4 = Rx, Vctl=+3V, State 2 selected, Room							
!
# MHZ S MA R 50

4000 0.301 64.816 0.328 -2.58 0.331 3.127 0.758 52.447
          0.305 -2.389 0.759 -7.656 0.114 -61.035 0.289 2.529
          0.307 3.191 0.109 -64.874 0.767 -7.056 0.277 -2.763
          0.773 51.051 0.304 -2.832 0.292 -8.183 0.31 68.374
4015 0.298 64.349 0.32 -6.328 0.324 -0.597 0.776 51.694
          0.303 -3.629 0.76 -8.298 0.11 -64.891 0.293 1.738
          0.305 2.024 0.103 -66.209 0.767 -7.653 0.282 -3.661
          0.776 50.094 0.288 -4.086 0.277 -9.563 0.307 67.84
4030 0.295 63.872 0.302 -8.794 0.306 -3.022 0.785 50.462
          0.298 -4.673 0.761 -8.994 0.104 -67.386 0.294 0.427
          0.301 1.172 0.097 -66.058 0.768 -8.27 0.282 -5.13
          0.771 49.316 0.274 -3.531 0.263 -9.183 0.302 67.35
4045 0.291 63.356 0.282 -9.108 0.285 -3.281 0.782 49.229
          0.292 -5.161 0.762 -9.645 0.096 -67.812 0.291 -0.928
          0.294 0.798 0.093 -64.611 0.769 -8.887 0.279 -6.603
          0.763 49.073 0.265 -1.785 0.254 -7.621 0.298 67.183
4060 0.287 62.766 0.265 -7.217 0.268 -1.304 0.771 48.438
          0.286 -5.145 0.763 -10.306 0.089 -66.09 0.284 -1.866
          0.289 0.863 0.091 -62.806 0.771 -9.531 0.272 -7.65
          0.756 49.287 0.262 0.266 0.251 -5.666 0.295 67.066
4075 0.283 62.121 0.258 -3.853 0.26 2.207 0.754 48.405
          0.282 -4.878 0.764 -11.038 0.086 -62.829 0.275 -2.032
          0.285 1.198 0.091 -61.628 0.772 -10.225 0.263 -7.962
          0.753 49.732 0.265 1.761 0.252 -4.163 0.293 66.687
4090 0.279 61.568 0.262 -0.488 0.264 5.816 0.742 49.214
          0.28 -4.612 0.765 -11.751 0.086 -59.382 0.267 -1.26
          0.283 1.581 0.091 -61.403 0.773 -10.922 0.255 -7.312
          0.755 50.335 0.269 2.165 0.257 -3.857 0.29 66.201
4105 0.275 60.92 0.275 0.956 0.277 7.402 0.741 50.53
          0.279 -4.699 0.767 -12.42 0.089 -58.165 0.264 0.065
          0.282 1.676 0.091 -62.144 0.775 -11.608 0.252 -6.101
          0.761 50.452 0.27 1.544 0.258 -4.517 0.286 65.794
4120 0.27 60.218 0.288 0.17 0.291 6.805 0.75 51.63
          0.278 -5.038 0.768 -13.1 0.093 -59.015 0.265 1.122
          0.28 1.528 0.089 -62.911 0.776 -12.188 0.252 -5.084
          0.765 50.361 0.267 1.219 0.255 -4.98 0.283 65.393
4135 0.266 59.53 0.297 -2.26 0.3 4.498 0.765 52.135
          0.274 -5.356 0.769 -13.765 0.095 -61.519 0.268 1.606
          0.278 1.286 0.086 -62.886 0.777 -12.882 0.255 -4.72
          0.765 50.25 0.263 1.658 0.25 -4.736 0.28 64.983
4150 0.263 58.799 0.296 -5.352 0.3 1.511 0.781 51.957
          0.27 -5.463 0.771 -14.414 0.094 -64.724 0.271 1.383
          0.274 1.269 0.084 -62.011 0.779 -13.598 0.257 -5.042
          0.762 50.373 0.261 2.821 0.248 -3.678 0.276 64.658
4165 0.259 57.985 0.287 -7.928 0.291 -0.948 0.791 51.254
          0.267 -5.249 0.773 -15.08 0.09 -67.416 0.272 0.572
          0.271 1.676 0.084 -60.791 0.78 -14.226 0.258 -5.852
          0.759 50.88 0.264 4.237 0.25 -2.221 0.273 64.446
4180 0.255 57.207 0.272 -8.814 0.276 -1.864 0.793 50.399
          0.265 -4.674 0.776 -15.828 0.084 -68.412 0.269 -0.364
          0.269 2.288 0.086 -60.085 0.782 -14.929 0.256 -6.922
          0.761 51.635 0.272 5.074 0.257 -1.421 0.27 64.144
4195 0.252 56.407 0.261 -7.556 0.265 -0.525 0.787 49.933
          0.266 -4.18 0.777 -16.459 0.08 -67.223 0.264 -0.92
          0.27 2.876 0.088 -61.266 0.783 -15.571 0.25 -7.649
          0.772 52.372 0.283 4.001 0.268 -2.597 0.268 63.619
4210 0.248 55.676 0.257 -5.758 0.261 1.389 0.78 50.024
          0.268 -4.37 0.778 -17.096 0.078 -65.335 0.259 -0.821
          0.273 2.803 0.089 -64.367 0.785 -16.305 0.245 -7.629
          0.787 52.597 0.289 1.241 0.274 -5.416 0.265 63.082
4225 0.245 54.895 0.26 -4.572 0.264 2.726 0.777 50.473
          0.27 -5.094 0.78 -17.768 0.078 -64.115 0.255 -0.34
          0.274 2.268 0.088 -68.03 0.786 -16.934 0.241 -7.259
          0.802 52.162 0.287 -2.233 0.271 -8.99 0.261 62.611
4240 0.241 54.144 0.265 -4.585 0.27 2.869 0.78 51.041
          0.27 -6.225 0.782 -18.43 0.078 -64.144 0.253 0.274
          0.274 1.279 0.083 -71.108 0.787 -17.531 0.239 -6.777
          0.812 51.218 0.274 -5.162 0.259 -12.106 0.258 62.236
4255 0.238 53.528 0.27 -5.854 0.274 1.731 0.788 51.445
          0.267 -7.55 0.784 -19.046 0.079 -65.397 0.253 0.742
          0.272 -7.835e-3 0.076 -72.537 0.788 -18.191 0.239 -6.423
          0.814 50.093 0.255 -6.331 0.24 -13.511 0.256 61.863
4270 0.235 52.995 0.268 -7.962 0.274 -0.259 0.798 51.361
          0.261 -8.672 0.785 -19.683 0.078 -67.422 0.254 0.69
          0.266 -0.974 0.07 -71.222 0.789 -18.776 0.24 -6.6
          0.806 49.158 0.236 -4.907 0.222 -12.219 0.253 61.194
4285 0.232 52.262 0.26 -9.632 0.265 -1.763 0.804 50.851
          0.253 -8.932 0.786 -20.328 0.075 -69.028 0.254 0.156
          0.258 -1.22 0.066 -68.099 0.789 -19.384 0.239 -7.234
          0.792 49.061 0.227 -1.294 0.214 -8.862 0.249 60.748
4300 0.229 51.591 0.25 -9.961 0.255 -1.945 0.805 50.368
          0.247 -8.612 0.789 -20.95 0.071 -69.569 0.252 -0.333
          0.252 -0.766 0.066 -65.271 0.791 -19.952 0.236 -7.91
          0.781 49.567 0.228 2.222 0.214 -5.514 0.246 60.302
4315 0.225 50.967 0.243 -9.223 0.247 -1.111 0.802 50.078
          0.243 -8.02 0.79 -21.588 0.068 -68.98 0.248 -0.613
          0.248 -4.219e-3 0.067 -63.354 0.794 -20.571 0.233 -8.287
          0.778 50.423 0.236 4.327 0.221 -3.365 0.242 59.802
4330 0.221 50.4 0.239 -8.094 0.243 0.154 0.798 50.098
          0.242 -7.449 0.792 -22.215 0.066 -67.832 0.244 -0.582
          0.247 0.762 0.069 -63.125 0.795 -21.154 0.229 -8.325
          0.783 51.265 0.247 4.591 0.231 -3.07 0.239 59.217
4345 0.217 49.855 0.24 -7.358 0.244 1.122 0.797 50.403
          0.243 -7.188 0.794 -22.824 0.066 -67.012 0.241 -0.271
          0.247 1.25 0.07 -64.853 0.796 -21.661 0.226 -8.15
          0.793 51.767 0.255 3.215 0.238 -4.601 0.236 58.592
4360 0.213 49.179 0.242 -7.603 0.246 1.081 0.801 50.748
          0.243 -7.519 0.796 -23.51 0.065 -67.388 0.24 0.092
          0.247 1.131 0.07 -67.603 0.798 -22.349 0.225 -7.895
          0.805 51.793 0.256 0.801 0.24 -7.091 0.231 58.105
4375 0.209 48.597 0.241 -9.019 0.246 -0.182 0.808 50.716
          0.242 -8.248 0.798 -24.102 0.064 -68.795 0.24 0.056
          0.246 0.558 0.067 -69.526 0.799 -22.924 0.224 -8.073
          0.814 51.224 0.25 -1.162 0.234 -9.24 0.228 57.637
4390 0.206 47.846 0.234 -10.154 0.239 -1.14 0.813 50.37
          0.239 -8.946 0.799 -24.68 0.062 -69.995 0.239 -0.302
          0.244 0.049 0.063 -70.28 0.8 -23.506 0.223 -8.63
          0.816 50.685 0.24 -1.752 0.225 -10.072 0.224 57.111
4405 0.202 47.041 0.224 -10.159 0.229 -1.012 0.812 49.861
          0.235 -9.399 0.802 -25.294 0.058 -70.004 0.236 -0.859
          0.241 -0.307 0.06 -69.931 0.803 -24.134 0.22 -9.316
          0.814 50.378 0.232 -1.147 0.218 -9.698 0.221 56.659
4420 0.198 46.202 0.216 -8.673 0.221 0.584 0.806 49.496
          0.231 -9.602 0.805 -25.927 0.055 -68.418 0.231 -1.266
          0.237 -0.418 0.059 -68.964 0.805 -24.764 0.216 -9.826
          0.812 50.35 0.229 -0.119 0.214 -8.793 0.218 56.194
4435 0.194 45.319 0.213 -5.971 0.217 3.41 0.797 49.578
          0.228 -9.656 0.807 -26.541 0.054 -65.5 0.226 -1.159
          0.234 -0.281 0.058 -68.096 0.807 -25.335 0.21 -9.874
          0.812 50.515 0.229 0.532 0.213 -8.18 0.215 55.598
4450 0.19 44.393 0.217 -3.105 0.222 6.378 0.788 50.236
          0.226 -9.659 0.809 -27.131 0.054 -62.275 0.221 -0.376
          0.232 -0.089 0.057 -68.104 0.807 -25.842 0.205 -9.269
          0.814 50.687 0.23 0.546 0.213 -8.413 0.212 54.89
4465 0.187 43.438 0.229 -2.083 0.234 7.634 0.789 51.346
          0.224 -10.007 0.811 -27.69 0.056 -61.069 0.219 0.803
          0.23 -0.331 0.055 -69.268 0.81 -26.505 0.203 -8.208
          0.818 50.616 0.227 -0.24 0.211 -9.409 0.208 54.233
4480 0.183 42.471 0.244 -3.388 0.249 6.609 0.799 52.364
          0.221 -10.428 0.813 -28.232 0.059 -62.014 0.219 1.843
          0.227 -0.55 0.053 -69.338 0.812 -27.062 0.203 -7.348
          0.82 50.265 0.221 -0.524 0.205 -9.817 0.206 53.485
4495 0.18 41.523 0.255 -6.864 0.26 3.388 0.816 52.897
          0.218 -10.835 0.814 -28.783 0.061 -65.177 0.222 2.359
          0.223 -0.71 0.051 -68.778 0.813 -27.58 0.205 -6.987
          0.818 50.066 0.215 0.263 0.199 -9.199 0.203 52.602
4510 0.177 40.621 0.256 -11.755 0.262 -1.269 0.835 52.774
          0.214 -11.005 0.817 -29.303 0.061 -69.853 0.224 2.195
          0.219 -0.64 0.049 -67.169 0.814 -28.084 0.207 -7.29
          0.812 50.137 0.211 2.15 0.195 -7.535 0.199 51.741
4525 0.175 39.755 0.246 -16.808 0.252 -6.082 0.852 52.024
          0.21 -10.773 0.819 -29.785 0.058 -74.776 0.226 1.394
          0.214 -0.211 0.049 -64.619 0.816 -28.585 0.209 -8.249
          0.809 50.492 0.213 4.524 0.195 -5.333 0.195 51.139
4540 0.172 38.824 0.226 -20.384 0.232 -9.408 0.862 50.863
          0.206 -10.236 0.822 -30.34 0.053 -78.333 0.226 0.164
          0.211 0.485 0.05 -63.151 0.818 -29.106 0.208 -9.653
          0.809 51.234 0.221 6.055 0.202 -3.735 0.191 50.999
4555 0.17 38.003 0.205 -20.371 0.21 -9.273 0.858 49.73
          0.206 -9.848 0.824 -30.85 0.048 -78.601 0.222 -0.921
          0.21 1.273 0.052 -63.937 0.819 -29.507 0.204 -10.95
          0.817 51.962 0.233 5.366 0.213 -4.444 0.191 50.516
4570 0.167 37.179 0.19 -18.205 0.195 -6.896 0.85 49.027
          0.206 -9.84 0.826 -31.401 0.044 -76.683 0.217 -1.571
          0.211 1.55 0.054 -67.019 0.822 -30.044 0.198 -11.768
          0.83 52.324 0.242 2.51 0.221 -7.379 0.189 49.469
4585 0.164 36.5 0.182 -15.346 0.187 -3.819 0.84 48.77
          0.206 -10.264 0.827 -31.855 0.041 -73.984 0.211 -1.707
          0.211 1.352 0.053 -71.466 0.824 -30.509 0.193 -12.093
          0.846 52.026 0.243 -1.799 0.223 -11.833 0.186 48.229
4600 0.162 35.905 0.18 -12.838 0.185 -1.1 0.832 48.854
          0.205 -11.062 0.829 -32.265 0.04 -71.47 0.206 -1.463
          0.211 0.696 0.05 -76.058 0.825 -30.93 0.189 -12.06
          0.859 51.194 0.233 -6.208 0.214 -16.483 0.182 47.219
4615 0.159 35.291 0.18 -11.219 0.185 0.75 0.828 49.1
          0.203 -12.117 0.832 -32.724 0.04 -69.799 0.203 -1.055
          0.209 -0.253 0.046 -79.341 0.828 -31.384 0.185 -11.871
          0.864 50.118 0.213 -9.029 0.196 -19.654 0.178 46.652
4630 0.157 34.695 0.179 -10.427 0.185 1.804 0.827 49.292
          0.198 -13.301 0.834 -33.209 0.039 -69.466 0.2 -0.657
          0.204 -1.033 0.04 -79.697 0.829 -31.797 0.182 -11.729
          0.859 49.001 0.191 -8.547 0.176 -19.582 0.175 46.255
4645 0.154 34.082 0.177 -9.644 0.183 2.915 0.826 49.291
          0.192 -13.804 0.836 -33.66 0.038 -68.35 0.197 -0.618
          0.198 -1.255 0.037 -75.679 0.831 -32.274 0.179 -11.811
          0.845 48.539 0.178 -4.421 0.162 -15.836 0.172 45.94
4660 0.151 33.426 0.176 -8.136 0.181 4.679 0.822 49.446
          0.187 -13.708 0.837 -34.135 0.037 -66.752 0.194 -0.342
          0.193 -0.829 0.035 -70.953 0.832 -32.695 0.176 -11.731
          0.832 48.675 0.174 0.29 0.159 -11.3 0.171 45.272
4675 0.148 32.717 0.178 -6.351 0.183 6.746 0.817 49.841
          0.183 -13.312 0.84 -34.648 0.037 -64.996 0.19 0.168
          0.189 -0.155 0.035 -67.46 0.834 -33.179 0.172 -11.401
          0.824 49.297 0.179 3.905 0.162 -7.828 0.169 44.267
4690 0.145 31.933 0.183 -4.925 0.189 8.494 0.816 50.489
          0.18 -12.84 0.842 -35.14 0.037 -63.505 0.188 0.927
          0.186 0.628 0.036 -65.898 0.837 -33.646 0.17 -10.817
          0.824 50.097 0.187 5.629 0.168 -6.205 0.167 43.044
4705 0.142 31.087 0.192 -4.611 0.199 9.153 0.819 51.3
          0.178 -12.478 0.844 -35.556 0.038 -62.953 0.186 1.839
          0.185 1.343 0.037 -66.399 0.838 -34.023 0.168 -10.09
          0.83 50.709 0.195 5.312 0.175 -6.535 0.163 41.835
4720 0.139 30.236 0.203 -6.213 0.21 7.944 0.83 52.052
          0.177 -12.409 0.847 -35.927 0.04 -64.386 0.186 2.591
          0.184 1.499 0.037 -69.195 0.84 -34.454 0.167 -9.478
          0.84 50.866 0.2 3.216 0.179 -8.617 0.159 40.993
4735 0.136 29.064 0.211 -10.484 0.219 3.963 0.846 52.27
          0.175 -13.001 0.848 -36.349 0.041 -68.359 0.188 2.842
          0.182 1.395 0.036 -71.404 0.842 -34.895 0.169 -9.428
          0.846 50.652 0.196 1.331 0.176 -11 0.156 40.64
4750 0.133 27.976 0.209 -16.119 0.217 -1.296 0.863 51.964
          0.173 -13.361 0.85 -36.781 0.041 -73.9 0.189 2.484
          0.18 1.29 0.034 -71.872 0.843 -35.319 0.169 -10.011
          0.85 50.331 0.19 0.442 0.17 -12.059 0.153 39.884
4765 0.13 26.898 0.196 -21.276 0.205 -6.126 0.875 51.172
          0.17 -13.584 0.852 -37.219 0.038 -79.294 0.189 1.673
          0.177 1.296 0.033 -71.768 0.845 -35.775 0.169 -11.081
          0.85 50.129 0.184 0.866 0.164 -11.898 0.15 39.147
4780 0.128 25.776 0.177 -24.157 0.185 -8.715 0.88 50.13
          0.166 -13.689 0.855 -37.654 0.033 -82.497 0.186 0.671
          0.174 1.478 0.031 -71.237 0.847 -36.214 0.166 -12.302
          0.848 50.132 0.181 2.026 0.161 -10.991 0.148 38.542
4795 0.126 24.647 0.157 -23.651 0.165 -7.905 0.877 49.15
          0.163 -13.682 0.856 -38.071 0.029 -82.195 0.182 -0.193
          0.171 1.866 0.031 -70.514 0.848 -36.591 0.162 -13.341
          0.848 50.306 0.182 2.965 0.162 -10.141 0.146 37.962
4810 0.124 23.702 0.144 -19.973 0.151 -3.951 0.866 48.5
          0.161 -13.626 0.859 -38.451 0.026 -78.86 0.177 -0.572
          0.168 2.449 0.031 -71.065 0.85 -36.972 0.158 -14.058
          0.852 50.514 0.185 2.839 0.164 -10.465 0.144 37.153
4825 0.122 22.632 0.141 -15.436 0.148 0.986 0.854 48.575
          0.159 -13.656 0.86 -38.827 0.025 -74.187 0.172 -0.194
          0.167 2.777 0.03 -72.633 0.852 -37.35 0.153 -13.921
          0.858 50.557 0.185 1.19 0.165 -12.193 0.142 35.885
4840 0.121 21.759 0.144 -12.552 0.151 4.273 0.848 49.032
          0.157 -13.961 0.861 -39.179 0.025 -71.578 0.168 0.551
          0.165 2.739 0.029 -75.129 0.856 -37.782 0.149 -13.438
          0.864 50.284 0.182 -0.729 0.162 -14.404 0.14 34.768
4855 0.12 20.99 0.148 -11.73 0.157 5.503 0.848 49.504
          0.154 -14.315 0.863 -39.508 0.025 -70.588 0.166 1.258
          0.163 2.712 0.027 -76.703 0.858 -38.133 0.146 -13.041
          0.867 49.885 0.174 -1.931 0.155 -16.111 0.138 33.785
4870 0.118 20.21 0.152 -12.633 0.161 4.979 0.853 49.813
          0.152 -14.676 0.866 -39.829 0.025 -71.198 0.164 1.799
          0.16 2.768 0.025 -76.669 0.859 -38.435 0.145 -12.815
          0.866 49.533 0.166 -1.858 0.147 -16.492 0.136 32.84
4885 0.117 19.408 0.151 -14.487 0.16 3.473 0.859 49.872
          0.148 -14.987 0.868 -40.153 0.025 -73.181 0.162 2.124
          0.157 2.907 0.024 -75.288 0.861 -38.758 0.144 -12.786
          0.864 49.359 0.159 -0.476 0.141 -15.372 0.135 31.85
4900 0.115 18.812 0.146 -16.377 0.155 2.002 0.864 49.595
          0.145 -14.981 0.869 -40.456 0.023 -75.467 0.161 2.067
          0.154 3.286 0.023 -73.585 0.863 -39.085 0.142 -13.22
          0.86 49.433 0.157 1.616 0.138 -13.746 0.133 30.845
4915 0.114 18.337 0.139 -16.28 0.147 2.471 0.863 49.25
          0.142 -14.795 0.871 -40.945 0.022 -75.254 0.158 1.96
          0.151 3.853 0.022 -73.673 0.866 -39.434 0.139 -13.687
          0.861 49.65 0.158 2.667 0.139 -12.937 0.13 29.97
4930 0.112 17.881 0.134 -14.866 0.142 4.262 0.86 49.093
          0.14 -14.93 0.873 -41.266 0.02 -74.068 0.155 2.125
          0.149 4.362 0.022 -74.528 0.867 -39.755 0.136 -13.827
          0.865 49.763 0.16 2.148 0.14 -13.736 0.128 28.806
4945 0.11 17.37 0.132 -13.03 0.141 6.596 0.857 49.181
          0.138 -15.188 0.874 -41.557 0.02 -72.223 0.152 2.539
          0.148 4.589 0.021 -76.27 0.869 -40.065 0.133 -13.759
          0.871 49.672 0.159 0.628 0.139 -15.612 0.126 27.708
4960 0.108 16.822 0.133 -11.703 0.142 8.45 0.856 49.446
          0.136 -15.473 0.875 -41.82 0.019 -70.756 0.149 3.139
          0.146 4.663 0.02 -78.299 0.87 -40.371 0.13 -13.62
          0.875 49.352 0.153 -0.987 0.134 -17.664 0.124 26.787
4975 0.106 16.327 0.135 -11.598 0.146 9.007 0.858 49.752
          0.133 -15.794 0.876 -42.059 0.019 -70.715 0.148 3.774
          0.143 4.733 0.018 -79.475 0.872 -40.701 0.128 -13.496
          0.876 48.895 0.144 -1.551 0.126 -18.739 0.121 25.983
4990 0.104 15.93 0.137 -12.946 0.149 8.087 0.863 49.939
          0.13 -16.278 0.879 -42.432 0.019 -72.441 0.146 4.164
          0.14 4.621 0.017 -78.382 0.875 -41.158 0.126 -13.358
          0.87 48.558 0.133 0.228 0.116 -17.532 0.119 25.085
5005 0.102 15.172 0.136 -15.175 0.147 6.334 0.87 49.884
          0.126 -16.416 0.88 -42.765 0.018 -74.38 0.145 4.355
          0.137 5.048 0.015 -74.031 0.875 -41.418 0.125 -13.689
          0.863 48.567 0.129 4.556 0.111 -13.802 0.117 23.846
5020 0.1 14.529 0.132 -16.866 0.142 5.061 0.874 49.619
          0.123 -16.265 0.881 -43.083 0.017 -76.231 0.142 4.407
          0.133 5.72 0.015 -70.521 0.876 -41.74 0.123 -14.085
          0.858 48.918 0.131 8.472 0.112 -10.165 0.114 22.889
5035 0.098 13.798 0.126 -17.545 0.137 4.973 0.875 49.372
          0.12 -15.953 0.883 -43.381 0.016 -76.602 0.14 4.469
          0.131 6.559 0.015 -68.644 0.878 -42.041 0.12 -14.387
          0.858 49.397 0.136 10.946 0.116 -7.969 0.111 22.017
5050 0.096 12.783 0.122 -17.27 0.133 5.962 0.874 49.236
          0.118 -15.64 0.885 -43.686 0.015 -76.183 0.138 4.652
          0.129 7.485 0.015 -69.097 0.879 -42.372 0.118 -14.582
          0.863 49.85 0.144 11.407 0.122 -7.807 0.108 21.116
5065 0.094 11.55 0.119 -16.603 0.131 7.354 0.874 49.228
          0.116 -15.498 0.886 -44.015 0.014 -75.842 0.135 5.018
          0.128 8.339 0.016 -71.602 0.881 -42.772 0.115 -14.701
          0.872 50.124 0.151 9.674 0.128 -9.833 0.105 20.124
5080 0.092 10.616 0.119 -16.615 0.131 8.144 0.875 49.341
          0.114 -15.693 0.889 -44.332 0.014 -74.696 0.133 5.561
          0.126 8.797 0.015 -74.055 0.883 -43.122 0.113 -14.715
          0.882 49.989 0.155 5.904 0.131 -14.107 0.103 19.03
5095 0.09 9.407 0.119 -18.162 0.132 7.196 0.879 49.379
          0.113 -16.021 0.891 -44.66 0.013 -76.815 0.131 5.936
          0.125 8.99 0.014 -78.6 0.884 -43.387 0.11 -14.881
          0.888 49.59 0.148 1.45 0.126 -19.008 0.1 18.287
5110 0.089 8.354 0.116 -20.65 0.129 5.272 0.884 49.223
          0.11 -16.569 0.892 -44.948 0.013 -79.142 0.129 6.182
          0.123 9.123 0.013 -82.157 0.886 -43.722 0.108 -15.185
          0.89 49.049 0.137 -1.039 0.116 -22.16 0.099 17.278
5125 0.087 7.476 0.11 -22.99 0.123 3.557 0.888 48.897
          0.107 -17.044 0.894 -45.231 0.012 -81.534 0.127 6.344
          0.12 9.303 0.011 -83.09 0.888 -44.045 0.106 -15.579
          0.889 48.564 0.125 -0.694 0.105 -22.705 0.097 15.97
5140 0.086 6.832 0.101 -23.881 0.113 3.37 0.889 48.478
          0.104 -17.373 0.895 -45.508 0.01 -83 0.124 6.523
          0.117 9.722 9.707e-3 -81.844 0.889 -44.34 0.103 -16.016
          0.885 48.304 0.116 1.975 0.097 -20.861 0.094 14.707
5155 0.085 6.325 0.092 -22.41 0.104 5.597 0.885 48.097
          0.102 -17.544 0.897 -45.763 9.181e-3 -82.469 0.121 6.833
          0.114 10.444 9.263e-3 -79.565 0.89 -44.614 0.101 -16.426
          0.88 48.327 0.112 5.546 0.093 -17.833 0.091 13.801
5170 0.084 5.626 0.087 -18.599 0.098 10.158 0.88 47.931
          0.099 -17.439 0.898 -45.985 8.132e-3 -79.508 0.118 7.35
          0.112 11.181 8.878e-3 -76.764 0.892 -44.833 0.098 -16.683
          0.879 48.505 0.112 8.189 0.093 -15.664 0.089 13.219
5185 0.083 5.458 0.087 -14.682 0.099 14.8 0.875 48.059
