!Hittite Microwave Corporation								
!12 Elizabeth Drive								
!Chelmsford, MA 01824								
!Tel: 978-250-3343								
!Fax: 978-250-3373								
!Device: HMC464, 2-20 GHz, GaAs PHEMT MMIC Driver Amlifier Die  															
!Misc: Vdd = 8V, Vgg2 = 3V, Idd = 290 mA, Data includes (two) K connectors, Room
!
# MHZ S MA R 50

50 0.988 -9.854 6.361 -175.738 843.6e-6 175.572 0.829 -32.696
449.5 0.625 -69.715 6.197 161.019 184.4e-6 10.025 0.176 -117.682
849 0.383 -101.677 6.142 142.543 79.4e-6 -40.855 0.075 -157.528
1248.5 0.265 -122.902 6.126 125.239 161.5e-6 126.739 0.03 169.863
1648 0.203 -139.282 6.186 107.858 466e-6 113.378 1.384e-3 -17.444
2047.5 0.171 -153.572 6.299 89.957 756e-6 98.312 0.031 -70.258
2447 0.155 -167.276 6.339 72.144 1.145e-3 76.842 0.056 -102.964
2846.5 0.149 177.854 6.405 53.12 1.361e-3 61.262 0.079 -131.126
3246 0.147 161.435 6.461 35.664 1.806e-3 42.341 0.101 -157.727
3645.5 0.146 143.611 6.409 16.407 2.177e-3 24.347 0.125 176.71
4045 0.146 124.928 6.582 -1.108 2.532e-3 9.883 0.145 150.432
4444.5 0.143 105.996 6.465 -20.994 2.966e-3 -5.262 0.164 124.712
4844 0.139 86.839 6.589 -39.285 3.284e-3 -19.743 0.176 99.458
5243.5 0.133 67.227 6.381 -55.808 3.776e-3 -33.934 0.187 75.786
5643 0.126 48.705 6.575 -77.539 4.023e-3 -49.754 0.195 50.79
6042.5 0.116 31.134 6.084 -93.171 4.547e-3 -63.591 0.197 25.622
6442 0.104 14.417 6.288 -114.592 4.997e-3 -78.192 0.194 -0.786
6841.5 0.093 -1.138 6.233 -129.041 5.503e-3 -94.081 0.182 -25.81
7241 0.082 -14.91 6.078 -150.268 6.228e-3 -110.938 0.147 -56.837
7640.5 0.073 -24.317 6.111 -165.58 6.857e-3 -125.64 0.157 -83.017
8040 0.066 -32.132 6.162 175.752 7.689e-3 -142.388 0.144 -115.509
8439.5 0.061 -39.09 6.195 157.831 8.329e-3 -159.244 0.127 -151.925
8839 0.062 -46.478 6.187 139.535 9.071e-3 -176.776 0.119 170.638
9238.5 0.065 -57.533 6.191 121.27 9.923e-3 165.84 0.12 132.419
9638 0.068 -68.097 6.247 103.029 0.011 148.28 0.13 96.974
10037.5 0.07 -83.477 6.241 84.893 0.012 130.503 0.141 62.055
10437 0.069 -102.757 6.252 65.598 0.012 112.567 0.148 31.097
10836.5 0.07 -121.653 6.318 47.494 0.013 94.801 0.149 0.917
11236 0.067 -142.801 6.172 28.219 0.014 77.629 0.142 -25.088
11635.5 0.062 -165.293 6.454 10.045 0.015 60.243 0.135 -55.465
12035 0.058 172.291 6.314 -9.259 0.016 42.541 0.116 -86.681
12434.5 0.053 148.283 6.497 -29.421 0.017 24.407 0.096 -124.912
12834 0.045 128.632 6.31 -48.059 0.018 6.115 0.077 -171.401
13233.5 0.041 107.719 6.338 -68.73 0.019 -11.546 0.079 130.538
13633 0.041 88.529 6.362 -86.203 0.021 -30.063 0.1 81.176
14032.5 0.041 74.943 6.256 -107.08 0.021 -47.68 0.141 45.136
14432 0.048 60.827 6.421 -126.639 0.022 -66.259 0.184 13.731
14831.5 0.057 41.288 5.97 -146.789 0.023 -84.391 0.223 -14.164
15231 0.071 24.01 6.232 -168.674 0.024 -101.682 0.25 -39.764
15630.5 0.09 4.802 5.76 176.166 0.025 -120.27 0.268 -60.806
16030 0.104 -15.508 5.726 152.808 0.026 -137.918 0.293 -81.89
16429.5 0.121 -36.561 5.848 138.199 0.027 -156.99 0.303 -104.614
16829 0.137 -60.757 5.769 114.258 0.028 -174.602 0.291 -126.369
17228.5 0.148 -80.563 5.744 96.963 0.029 167.055 0.267 -143.037
17628 0.151 -99.622 5.817 75.554 0.03 148.218 0.254 -159.199
18027.5 0.143 -118.959 5.754 54.923 0.031 128.367 0.221 -178.362
18427 0.134 -133.151 5.693 33.432 0.032 108.826 0.164 170.777
18826.5 0.135 -139.95 5.606 11.55 0.033 88.339 0.123 178.853
19226 0.146 -140.766 5.421 -10.03 0.033 68.038 0.142 -168.177
19625.5 0.177 -145.387 5.227 -32.791 0.033 47.901 0.18 -164.503
20025 0.22 -157.661 4.968 -53.48 0.033 27.59 0.251 -170.368
20424.5 0.267 -173.891 4.78 -75.357 0.032 9.178 0.331 174.548
20824 0.314 168.509 4.362 -96.58 0.033 -12.523 0.385 155.823
21223.5 0.345 150.87 4.307 -118.548 0.033 -30.085 0.415 138.573
21623 0.361 134.738 3.89 -135.875 0.032 -51.248 0.431 122.58
22022.5 0.367 119.502 3.787 -158.609 0.032 -69.144 0.432 106.802
22422 0.369 106.571 3.379 -178.984 0.03 -90.865 0.424 92.004
22821.5 0.372 96.406 3.279 156.015 0.03 -106.465 0.393 80.165
23221 0.385 88.254 3.053 140.963 0.029 -128.071 0.367 72.313
23620.5 0.41 80.097 2.704 116.461 0.028 -146.398 0.362 67.091
24020 0.448 70.137 2.603 99.089 0.027 -167.578 0.367 59.873
24419.5 0.492 58.948 2.189 74.701 0.026 176.99 0.379 56.189
24819 0.53 46.506 2.055 59.018 0.023 157.032 0.411 48.259
25218.5 0.557 34.494 1.857 37.137 0.023 138.586 0.437 39.815
25618 0.582 21.949 1.706 22.471 0.02 122.683 0.466 29.166
26017.5 0.591 9.163 1.596 0.114 0.02 104.523 0.477 18.594
26417 0.603 -3.332 1.427 -14.229 0.018 90.281 0.491 9.041
26816.5 0.616 -15.691 1.321 -35.542 0.017 71.562 0.505 -3.293
27216 0.615 -27.308 1.228 -52.58 0.017 54.814 0.509 -14.105
27615.5 0.623 -39.156 1.156 -70.823 0.016 39.181 0.512 -25.15
28015 0.629 -51.638 1.074 -88.538 0.015 22.476 0.507 -36.901
28414.5 0.636 -63.696 1.009 -106.477 0.014 7.015 0.512 -46.777
28814 0.642 -76.501 0.95 -124.511 0.014 -9.86 0.522 -59.326
29213.5 0.65 -89.717 0.859 -140.551 0.014 -25.853 0.509 -70.187
29613 0.655 -103.295 0.823 -161.68 0.014 -36.475 0.516 -80.955
30012.5 0.66 -117.697 0.77 -172.733 0.014 -55.963 0.516 -93.377
