!Hittite Microwave Corporation								
!12 Elizabeth Drive								
!Chelmsford, MA 01824								
!Tel: 978-250-3343								
!Fax: 978-250-3373								
!Device: HMC405, DC-10 GHz, InGaP HBT GAIN BLOCK MMIC AMPLIFIER																
!Misc:  Data includes (two) K connectors, Vs=+5V, Room
!
# MHZ S MA R 50

10 0.344 0.918 6.558 179.357 0.098 0.139 0.361 -0.19
59.95 0.335 -1.54 6.575 178.14 0.098 -0.418 0.359 -2.839
109.9 0.328 -3.772 6.587 176.912 0.098 -1.013 0.358 -5.447
159.85 0.33 -5.359 6.581 175.661 0.098 -1.66 0.357 -7.858
209.8 0.33 -7.837 6.576 174.49 0.098 -1.919 0.357 -10.144
259.75 0.33 -9.447 6.576 173.194 0.098 -2.289 0.357 -12.423
309.7 0.33 -11.031 6.572 171.854 0.098 -2.705 0.357 -14.736
359.65 0.328 -13.062 6.576 170.752 0.098 -3.016 0.356 -16.968
409.6 0.328 -14.585 6.581 169.398 0.098 -3.539 0.355 -19.362
459.55 0.327 -16.472 6.551 168.348 0.098 -3.78 0.354 -21.527
509.5 0.327 -18.316 6.569 166.933 0.098 -4.315 0.354 -23.951
559.45 0.326 -20.005 6.567 165.641 0.098 -4.667 0.354 -26.286
609.4 0.326 -21.855 6.573 164.563 0.098 -5.058 0.353 -28.586
659.35 0.326 -23.453 6.568 163.281 0.098 -5.436 0.353 -31.001
709.3 0.325 -25.37 6.57 161.906 0.098 -5.789 0.352 -33.189
759.25 0.325 -27.033 6.59 160.89 0.098 -6.153 0.352 -35.66
809.2 0.323 -28.817 6.561 159.319 0.098 -6.58 0.352 -37.895
859.15 0.323 -30.615 6.579 158.296 0.099 -6.993 0.351 -40.203
909.1 0.322 -32.329 6.633 156.87 0.099 -7.64 0.35 -42.71
959.05 0.323 -34.344 6.567 156.111 0.099 -7.959 0.349 -44.977
1009 0.322 -36.136 6.593 154.218 0.099 -8.742 0.348 -47.452
1058.95 0.32 -38.024 6.601 152.464 0.099 -9.138 0.347 -49.634
1108.9 0.32 -39.841 6.643 152.203 0.099 -9.994 0.347 -52.267
1158.85 0.318 -41.363 6.563 150.923 0.098 -9.854 0.346 -54.532
1208.8 0.318 -43.258 6.578 149.637 0.099 -10.241 0.347 -56.841
1258.75 0.316 -44.885 6.674 147.367 0.098 -10.756 0.345 -59.301
1308.7 0.317 -46.886 6.696 146.954 0.099 -11.096 0.346 -61.725
1358.65 0.317 -48.592 6.655 145.799 0.099 -11.935 0.345 -64.314
1408.6 0.315 -50.249 6.606 143.69 0.098 -12.111 0.345 -66.514
1458.55 0.315 -52.137 6.655 142.617 0.099 -12.159 0.345 -69.101
1508.5 0.312 -53.743 6.728 140.867 0.098 -13.103 0.343 -71.429
1558.45 0.313 -55.907 6.601 140.505 0.1 -13.111 0.345 -73.942
1608.4 0.311 -57.534 6.704 138.149 0.098 -13.941 0.343 -76.386
1658.35 0.311 -59.587 6.642 137.515 0.099 -14.262 0.344 -78.824
1708.3 0.311 -61.285 6.667 135.977 0.099 -14.618 0.343 -81.43
1758.25 0.309 -63.186 6.664 133.945 0.099 -14.686 0.343 -83.758
1808.2 0.309 -65.129 6.716 133.052 0.099 -15.104 0.343 -86.435
1858.15 0.307 -66.976 6.734 132.383 0.099 -16.064 0.342 -88.983
1908.1 0.308 -68.997 6.548 129.839 0.099 -15.64 0.344 -91.39
1958.05 0.307 -70.514 6.699 128.998 0.098 -16.498 0.342 -93.944
2008 0.307 -72.754 6.689 126.788 0.099 -15.686 0.344 -96.389
2057.95 0.306 -74.548 6.709 127.188 0.099 -17.026 0.343 -99.124
2107.9 0.305 -76.605 6.587 125.001 0.1 -17.346 0.343 -101.424
2157.85 0.306 -78.648 6.551 122.922 0.1 -17.494 0.344 -104.146
2207.8 0.303 -80.278 6.735 122.543 0.099 -18.291 0.343 -106.554
2257.75 0.305 -82.595 6.762 119.97 0.101 -17.421 0.346 -109.035
2307.7 0.304 -84.219 6.605 119.982 0.101 -19.394 0.344 -111.772
2357.65 0.303 -86.564 6.555 116.663 0.1 -18.013 0.346 -114.162
2407.6 0.304 -88.266 6.518 117.088 0.101 -20.155 0.345 -116.85
2457.55 0.302 -90.166 6.679 114.099 0.101 -19.12 0.345 -119.264
2507.5 0.303 -92.516 6.571 114.264 0.102 -19.528 0.346 -122.03
2557.45 0.301 -94.147 6.536 113.196 0.103 -20.654 0.345 -124.581
2607.4 0.3 -96.61 6.477 110.807 0.103 -21.105 0.347 -127.16
2657.35 0.3 -98.238 6.477 109.473 0.105 -22.452 0.345 -129.808
2707.3 0.299 -100.472 6.692 108.108 0.103 -21.999 0.349 -132.13
2757.25 0.299 -102.424 6.417 108.03 0.105 -22.942 0.348 -134.905
2807.2 0.298 -104.273 6.487 106.287 0.104 -23.13 0.349 -137.374
2857.15 0.297 -106.889 6.34 103.977 0.107 -24.276 0.349 -140.193
2907.1 0.298 -108.325 6.556 103.486 0.105 -25.305 0.35 -142.541
2957.05 0.297 -110.754 6.483 102.321 0.105 -25.92 0.352 -144.936
3007 0.299 -112.4 6.438 101.129 0.106 -26.537 0.352 -147.619
3056.95 0.296 -114.624 6.394 100.297 0.105 -26.21 0.354 -149.939
3106.9 0.297 -116.851 6.348 97.459 0.107 -27.872 0.353 -152.681
3156.85 0.298 -118.406 6.444 97.131 0.104 -28.808 0.355 -154.923
3206.8 0.298 -121.202 6.522 95.567 0.105 -28.917 0.357 -157.731
3256.75 0.301 -122.48 6.378 96.458 0.103 -29.06 0.359 -160.05
3306.7 0.297 -124.958 6.334 92.928 0.104 -28.599 0.361 -162.53
3356.65 0.299 -126.891 6.369 90.113 0.105 -29.964 0.36 -165.097
3406.6 0.298 -128.946 6.427 90.798 0.105 -30.932 0.362 -167.309
3456.55 0.302 -131.243 6.485 91.297 0.106 -30.666 0.366 -169.879
3506.5 0.302 -132.39 6.196 88.957 0.102 -32.113 0.366 -171.84
3556.45 0.3 -135.376 6.403 85.677 0.104 -30.749 0.367 -174.743
3606.4 0.302 -137.053 6.409 84.883 0.104 -32.783 0.367 -177.168
3656.35 0.301 -139.641 6.522 85.884 0.104 -32.046 0.371 -179.563
3706.3 0.305 -141.312 6.27 83.776 0.104 -32.99 0.372 178.108
3756.25 0.302 -143.143 6.35 81.149 0.102 -33.135 0.373 175.919
3806.2 0.304 -145.798 6.449 80.581 0.105 -32.408 0.375 173.154
3856.15 0.304 -147.119 6.421 78.564 0.104 -33.545 0.375 171.037
3906.1 0.304 -149.901 6.468 78.679 0.105 -33.605 0.377 168.51
3956.05 0.306 -151.502 6.417 75.259 0.104 -35.659 0.376 166.143
4006 0.305 -153.887 6.317 76.359 0.105 -33.535 0.38 163.926
4055.95 0.308 -155.687 6.386 71.911 0.105 -35.153 0.38 161.524
4105.9 0.306 -157.306 6.422 71.458 0.104 -34.208 0.382 159.466
4155.85 0.308 -159.998 6.497 70.681 0.108 -36.389 0.384 156.896
4205.8 0.31 -161.371 6.254 69.95 0.105 -36.391 0.384 154.855
4255.75 0.309 -163.921 6.15 68.169 0.107 -35.644 0.386 152.537
4305.7 0.31 -165.228 6.417 64.028 0.106 -36.882 0.385 150.195
4355.65 0.309 -167.525 6.439 66.175 0.109 -36.453 0.388 148.14
4405.6 0.313 -169.716 6.399 64.307 0.11 -37.808 0.389 145.752
4455.55 0.312 -171.22 6.063 63.317 0.11 -38.74 0.389 143.71
4505.5 0.313 -173.743 6.384 58.904 0.109 -39.286 0.391 141.243
4555.45 0.314 -175.221 6.492 58.752 0.109 -39.827 0.391 139.051
4605.4 0.313 -177.25 6.327 57.639 0.11 -39.102 0.394 137.016
4655.35 0.317 -179.21 6.226 57.337 0.112 -41.279 0.393 134.695
4705.3 0.315 179.058 6.048 52.194 0.111 -41.694 0.394 132.498
4755.25 0.318 176.734 6.264 53.466 0.112 -43.17 0.396 130.199
4805.2 0.317 175.607 6.12 49.999 0.109 -41.982 0.394 128.442
4855.15 0.319 173.234 6.195 52.713 0.111 -43.064 0.398 126.153
4905.1 0.32 171.652 5.96 48.239 0.111 -43.846 0.395 124.014
4955.05 0.319 169.652 6.012 48.172 0.112 -44.344 0.398 121.958
5005 0.321 167.712 5.996 45.027 0.111 -45.463 0.395 119.524
5054.95 0.321 165.816 6.231 45.75 0.107 -44.492 0.397 117.665
5104.9 0.323 163.999 5.889 44.732 0.113 -45.463 0.398 115.584
5154.85 0.322 162.619 6.036 41.916 0.108 -45.813 0.396 113.616
5204.8 0.323 160.343 5.692 40.354 0.114 -46.21 0.398 111.218
5254.75 0.323 158.52 6.168 38.517 0.108 -47.588 0.395 109.03
5304.7 0.325 157.158 5.749 38.668 0.111 -46.396 0.399 107.646
5354.65 0.328 155.179 5.903 38.408 0.11 -46.938 0.398 105.417
5404.6 0.326 154.02 5.613 35.715 0.112 -47.184 0.398 103.76
5454.55 0.328 151.826 5.752 33.526 0.113 -47.869 0.398 101.336
5504.5 0.328 150.249 5.896 33.331 0.112 -48.888 0.396 99.45
5554.45 0.329 148.36 5.704 32.758 0.113 -48.323 0.398 97.488
5604.4 0.333 146.703 5.726 33.197 0.111 -48.212 0.397 95.464
5654.35 0.329 145.362 5.448 27.53 0.115 -48.975 0.397 93.6
5704.3 0.33 143.201 5.851 29.231 0.114 -50.037 0.395 91.294
5754.25 0.33 141.722 5.722 26.111 0.117 -49.986 0.395 89.53
5804.2 0.332 139.69 5.637 28.791 0.115 -50.755 0.395 87.412
5854.15 0.332 138.804 5.458 24.117 0.115 -50.985 0.391 85.683
5904.1 0.33 136.72 5.663 22.377 0.119 -51.222 0.392 83.36
5954.05 0.33 135.168 5.609 22.338 0.118 -52.613 0.389 81.195
6004 0.329 133.538 5.682 20.664 0.119 -52.238 0.39 79.387
6053.95 0.33 132.05 5.316 21.472 0.118 -54.667 0.385 77.365
6103.9 0.329 130.486 5.67 17.561 0.12 -53.254 0.386 75.353
6153.85 0.33 128.727 5.283 17.894 0.12 -54.702 0.384 73.16
6203.8 0.33 127.417 5.745 15.433 0.12 -55.142 0.383 71.165
6253.75 0.328 125.688 5.389 15.144 0.121 -56.319 0.381 69.114
6303.7 0.327 124.087 5.55 15.345 0.123 -56.983 0.379 67.29
6353.65 0.326 122.729 5.29 11.901 0.12 -56.875 0.377 65.175
6403.6 0.326 120.851 5.496 9.141 0.121 -57.91 0.375 62.643
6453.55 0.326 119.596 5.642 9.554 0.122 -58.897 0.375 60.978
6503.5 0.324 117.931 5.344 8.709 0.122 -59.45 0.371 58.712
6553.45 0.324 116.519 5.233 7.892 0.122 -59.292 0.367 56.913
6603.4 0.319 114.705 5.249 2.796 0.12 -60.561 0.363 54.378
6653.35 0.323 113.144 5.464 5.035 0.122 -60.568 0.364 52.426
6703.3 0.32 111.871 5.298 3.709 0.123 -61.227 0.362 50.657
6753.25 0.32 110.407 5.191 2.877 0.121 -61.707 0.358 48.481
6803.2 0.318 108.814 5.218 0.193 0.122 -61.96 0.355 46.321
6853.15 0.317 106.956 5.312 -1.292 0.122 -62.753 0.355 43.941
6903.1 0.316 105.682 5.205 -1.297 0.124 -62.49 0.351 42.174
6953.05 0.314 103.951 5.316 -3.788 0.122 -63.026 0.35 39.815
7003 0.313 102.724 5.114 -3.362 0.125 -64.251 0.345 37.919
7052.95 0.311 101.285 5.146 -6.111 0.122 -64.346 0.342 35.895
7102.9 0.309 99.641 5.069 -8.161 0.125 -64.201 0.34 33.467
7152.85 0.307 97.967 5.246 -9.254 0.122 -64.727 0.335 31.197
7202.8 0.308 96.52 5.113 -7.982 0.126 -64.755 0.336 29.227
7252.75 0.306 95.528 4.906 -10.261 0.127 -65.754 0.33 27.278
7302.7 0.302 93.913 5.015 -12.814 0.127 -65.533 0.329 25.076
7352.65 0.3 92.248 5.14 -15.14 0.128 -66.641 0.323 22.238
7402.6 0.301 90.849 5.089 -12.378 0.127 -67.251 0.325 20.596
7452.55 0.298 89.473 4.891 -16.044 0.13 -67.149 0.319 18.118
7502.5 0.295 88.444 4.859 -17.208 0.13 -68.112 0.315 16.121
7552.45 0.29 86.496 5.081 -19.9 0.131 -68.698 0.313 13.173
7602.4 0.29 85.144 4.925 -19.106 0.131 -69.743 0.309 11.054
7652.35 0.286 83.559 4.906 -20.124 0.133 -69.635 0.308 8.793
7702.3 0.284 82.406 4.83 -23.188 0.133 -70.903 0.303 6
7752.25 0.281 80.906 4.828 -23.113 0.133 -71.082 0.301 4.05
7802.2 0.28 79.442 4.896 -25.677 0.136 -72.55 0.298 0.916
7852.15 0.275 78.334 4.757 -26.01 0.135 -72.515 0.293 -1.106
7902.1 0.271 76.224 4.859 -27.101 0.136 -73.475 0.292 -3.925
7952.05 0.271 75.692 4.631 -28.43 0.135 -74.391 0.286 -6.697
8002 0.264 73.86 4.735 -29.705 0.138 -74.909 0.287 -9.124
8051.95 0.264 72.679 4.724 -32.199 0.137 -75.418 0.282 -12.13
8101.9 0.258 71.398 4.736 -31.563 0.137 -76.212 0.28 -14.489
8151.85 0.256 69.485 4.653 -32.89 0.138 -76.94 0.278 -17.308
8201.8 0.253 68.689 4.543 -35.302 0.139 -77.759 0.273 -20.142
8251.75 0.248 66.861 4.654 -36.139 0.139 -77.717 0.274 -22.767
8301.7 0.247 66.095 4.614 -37.795 0.139 -79.071 0.269 -25.736
8351.65 0.241 64.634 4.59 -37.263 0.14 -79.493 0.268 -28.097
8401.6 0.239 63.034 4.513 -40.187 0.141 -80.354 0.266 -31.514
8451.55 0.233 62.076 4.506 -40.89 0.14 -80.931 0.262 -33.892
8501.5 0.231 60.093 4.51 -42.749 0.141 -81.606 0.262 -37.187
8551.45 0.227 59.398 4.514 -43.234 0.141 -82.613 0.258 -39.769
8601.4 0.223 57.417 4.438 -44.311 0.142 -82.648 0.259 -42.72
8651.35 0.221 56.904 4.418 -45.862 0.141 -83.708 0.256 -45.761
8701.3 0.213 55.399 4.373 -47.511 0.142 -84.112 0.254 -48.614
8751.25 0.212 53.461 4.443 -48.465 0.143 -85.084 0.254 -51.87
8801.2 0.206 53.094 4.355 -49.441 0.143 -85.211 0.252 -54.395
8851.15 0.202 50.354 4.347 -50.559 0.144 -85.896 0.252 -57.645
8901.1 0.2 49.971 4.284 -52.396 0.144 -86.75 0.248 -60.338
8951.05 0.191 47.88 4.31 -53.56 0.145 -87.2 0.249 -63.638
9001 0.192 46.742 4.281 -54.452 0.145 -88.063 0.249 -66.871
9050.95 0.185 46.211 4.242 -55.723 0.145 -88.359 0.249 -69.184
9100.9 0.182 43.74 4.219 -56.9 0.146 -89.329 0.248 -72.957
9150.85 0.178 43.685 4.195 -58.567 0.146 -89.854 0.247 -75.549
9200.8 0.171 41.156 4.181 -59.451 0.147 -90.599 0.248 -78.594
9250.75 0.17 40.111 4.157 -60.919 0.147 -91.346 0.247 -81.921
9300.7 0.163 39.367 4.119 -61.88 0.148 -92.138 0.248 -84.28
9350.65 0.162 37.003 4.099 -63.28 0.148 -92.693 0.248 -87.853
9400.6 0.157 37.53 4.074 -64.517 0.148 -93.383 0.25 -90.346
9450.55 0.151 35.169 4.051 -65.677 0.149 -94.211 0.251 -93.442
9500.5 0.149 34.767 4.017 -66.93 0.149 -94.942 0.25 -96.336
9550.45 0.141 32.929 4.006 -68.284 0.15 -95.561 0.253 -99.121
9600.4 0.141 31.653 3.968 -69.362 0.15 -96.278 0.253 -102.232
9650.35 0.134 31.151 3.948 -70.516 0.15 -96.892 0.256 -104.479
9700.3 0.132 29.465 3.893 -71.824 0.151 -97.63 0.257 -107.735
9750.25 0.126 29.709 3.895 -73.071 0.15 -98.318 0.258 -110.201
9800.2 0.12 26.752 3.867 -74.258 0.151 -98.976 0.261 -112.989
9850.15 0.119 26.238 3.842 -75.236 0.151 -99.654 0.261 -115.74
9900.1 0.113 25.603 3.8 -76.377 0.151 -100.385 0.265 -118.207
9950.05 0.111 24.237 3.763 -77.955 0.152 -101.105 0.265 -121.145
10000 0.105 24.003 3.764 -78.916 0.152 -101.666 0.269 -123.357
