!Hittite Microwave Corporation								
!12 Elizabeth Drive								
!Chelmsford, MA 01824								
!Tel: 978-250-3343								
!Fax: 978-250-3373	
!Device: HMC427LP3, DC - 8 GHz GaAs MMIC Positive Control Transfer Switch in Leadless LP3 SMT Package
!Misc: Port 1 = RF1, Port 2 = RF2, Port 3 = RF3, Port 4 = RF4, Vctl=+5V, CtlA=High, CtlB=Low, Room  									
!
# MHZ S MA R 50

90 0.073 -20.47 1.025e-3 22.926 663.9e-6 6.958 0.915 0.505
          662e-6 -151.478 0.096 -11.223 0.908 0.799 588.5e-6 77.915
          463.3e-6 -135.133 0.909 0.739 0.081 -16.762 558.6e-6 27.303
          0.908 0.778 183.6e-6 10.233 304.4e-6 -47.113 0.074 -18.656
139.55 0.065 -9.271 145.9e-6 -4.388 355.5e-6 -52.191 0.911 -0.682
          313.9e-6 -98.192 0.091 -5.575 0.913 -0.684 221.1e-6 26.039
          197.8e-6 -28.741 0.913 -0.656 0.074 -7.993 367.3e-6 26.241
          0.908 -0.507 379.9e-6 45.114 31.71e-6 -113.004 0.066 -8.814
189.1 0.064 -11.165 80.1e-6 7.442 524e-6 73.271 0.909 -0.641
          179.2e-6 40.079 0.09 -8.391 0.91 -0.702 275e-6 1.053
          889e-6 73.017 0.91 -0.632 0.073 -10.938 124.1e-6 -40.24
          0.912 -1.012 451.6e-6 61.896 98.13e-6 -137.896 0.066 -9.267
238.65 0.065 -14.002 54.75e-6 -64.165 374.7e-6 112.299 0.912 -0.732
          436.2e-6 8.844 0.092 -12.529 0.914 -0.805 335.1e-6 64.832
          267.4e-6 90.098 0.914 -0.808 0.074 -15.506 153.9e-6 -163.907
          0.911 -0.649 355.1e-6 45.067 310.9e-6 -61.376 0.068 -13.636
288.2 0.065 -17.07 176.8e-6 -5.612 765.7e-6 114.612 0.911 -0.751
          769.8e-6 64.936 0.093 -15.877 0.913 -0.925 409.5e-6 54.955
          937.5e-6 98.809 0.913 -0.971 0.075 -19.476 115.5e-6 122.025
          0.911 -0.752 527e-6 45.35 558.7e-6 -26.103 0.068 -16.857
337.75 0.066 -20.217 194.3e-6 29.814 943.8e-6 87.835 0.911 -0.845
          761e-6 163.316 0.093 -19.334 0.911 -1.053 609.4e-6 54.32
          1.07e-3 80.852 0.912 -1.113 0.075 -23.112 89.13e-6 31.592
          0.91 -0.89 723.9e-6 76.559 510.9e-6 -47.082 0.069 -19.46
387.3 0.067 -22.766 170.2e-6 37.968 870e-6 64.432 0.91 -0.959
          361.4e-6 -92.623 0.093 -22.772 0.911 -1.189 819.4e-6 76.485
          684.1e-6 58.124 0.913 -1.212 0.075 -26.611 159.3e-6 -33.042
          0.91 -0.906 765.7e-6 102.972 305e-6 -79.083 0.069 -22.019
436.85 0.067 -24.95 300.7e-6 42.914 847.9e-6 73.302 0.908 -0.934
          334.7e-6 7.292 0.094 -25.654 0.91 -1.301 854.7e-6 72.924
          507.7e-6 60.417 0.911 -1.232 0.076 -30.064 195e-6 -36.702
          0.909 -0.86 704.4e-6 77.778 209.8e-6 -42.52 0.07 -24.917
486.4 0.066 -28.71 445.8e-6 -48.143 757e-6 75.388 0.91 -0.897
          398.5e-6 105.039 0.095 -28.206 0.912 -1.32 1.268e-3 103.18
          966.9e-6 80.474 0.913 -1.26 0.076 -33.079 466.5e-6 62.017
          0.909 -1.088 1.139e-3 93.409 565.3e-6 12.887 0.071 -26.915
535.95 0.068 -30.889 214e-6 -24.039 715.9e-6 71.562 0.91 -1.06
          458.3e-6 63.265 0.095 -31.065 0.911 -1.452 938.9e-6 75.003
          973.7e-6 64.847 0.911 -1.522 0.077 -36.268 383.4e-6 68.41
          0.908 -1.047 1.389e-3 93.295 313.8e-6 9.007 0.073 -29.974
585.5 0.068 -33.08 315.5e-6 21.568 945.8e-6 74.534 0.908 -1.197
          351e-6 36.973 0.096 -33.937 0.909 -1.611 922.5e-6 69.932
          1.106e-3 71.51 0.908 -1.627 0.077 -39.546 98.72e-6 -25.035
          0.908 -1.117 1.278e-3 89.469 345.3e-6 15.94 0.073 -32.772
635.05 0.068 -36.027 403.3e-6 37.277 1.185e-3 80.246 0.906 -1.168
          257.2e-6 51.511 0.096 -36.517 0.908 -1.649 1.059e-3 78.425
          1.071e-3 80.743 0.907 -1.565 0.077 -42.592 58.61e-6 -144.163
          0.908 -1.125 1.158e-3 91.186 294.6e-6 62.918 0.073 -34.916
684.6 0.069 -38.703 326.8e-6 23.544 1.25e-3 85.261 0.907 -1.101
          268.6e-6 71.942 0.096 -38.733 0.907 -1.612 1.177e-3 85.7
          965.8e-6 79.156 0.909 -1.553 0.077 -45.216 112.4e-6 -100.87
          0.908 -1.15 1.205e-3 94.368 176.4e-6 116.553 0.075 -36.801
734.15 0.069 -39.633 270.7e-6 1.333 1.129e-3 88.844 0.91 -1.3
          325.3e-6 41.857 0.097 -40.739 0.911 -1.726 1.213e-3 86.484
          1.171e-3 72.635 0.911 -1.874 0.077 -47.502 187.7e-6 -31.52
          0.908 -1.422 1.313e-3 88.234 329.2e-6 89.312 0.075 -39.37
783.7 0.069 -42.586 294.8e-6 15.228 1.323e-3 80.701 0.905 -1.514
          162e-6 57.886 0.097 -42.54 0.908 -2.149 1.373e-3 85.713
          1.154e-3 77.933 0.905 -2.147 0.077 -49.989 121.6e-6 48.17
          0.905 -1.075 1.215e-3 86.605 310.4e-6 41.795 0.075 -40.981
833.25 0.07 -44.28 210.3e-6 15.305 1.292e-3 76.989 0.904 -1.345
          175.3e-6 -1.656 0.097 -44.502 0.904 -2.04 1.401e-3 88.16
          1.375e-3 82.451 0.906 -1.89 0.076 -52.149 149.4e-6 -6.48
          0.907 -1.434 1.248e-3 88.707 113.1e-6 76.827 0.077 -43.223
882.8 0.07 -45.184 158.4e-6 16.766 1.291e-3 80.255 0.906 -1.403
          243.3e-6 52.089 0.097 -46.032 0.905 -2.041 1.522e-3 90.852
          1.479e-3 85.857 0.908 -1.95 0.076 -53.977 107.3e-6 -30.619
          0.906 -1.373 1.259e-3 85.958 94.95e-6 82.745 0.077 -45.204
932.35 0.07 -46.727 143.8e-6 50.192 1.404e-3 81.1 0.905 -1.502
          185.4e-6 60.439 0.097 -47.327 0.906 -2.153 1.567e-3 90.003
          1.538e-3 87.547 0.907 -2.124 0.075 -55.707 71.6e-6 1.902
          0.905 -1.349 1.397e-3 84.405 124.4e-6 15.045 0.078 -46.571
981.9 0.07 -48.77 145.6e-6 89.97 1.544e-3 79.336 0.904 -1.488
          84.67e-6 -42.677 0.097 -48.585 0.905 -2.228 1.51e-3 86.934
          1.594e-3 89.485 0.904 -2.186 0.075 -57.368 119.8e-6 29.592
          0.906 -1.615 1.647e-3 87.039 191e-6 -80.463 0.079 -47.732
1031.45 0.071 -48.993 78.34e-6 56.38 1.466e-3 91.113 0.906 -1.519
          297.1e-6 3.64 0.097 -49.802 0.906 -2.13 1.654e-3 89.351
          1.528e-3 95.561 0.908 -2.24 0.074 -58.706 124.5e-6 -43.611
          0.907 -1.622 1.69e-3 88.002 291.2e-6 -97.069 0.08 -49.973
1081 0.07 -49.987 20.44e-6 -73.78 1.542e-3 89.335 0.904 -1.712
          214e-6 111.769 0.097 -50.609 0.907 -2.479 1.737e-3 90.216
          1.659e-3 82.408 0.904 -2.581 0.073 -59.681 153e-6 -46.203
          0.903 -1.567 1.717e-3 90.78 281.9e-6 25.747 0.079 -50.722
1130.55 0.071 -51.533 68.21e-6 10.802 1.709e-3 89.51 0.902 -1.666
          139.5e-6 22.46 0.097 -51.398 0.903 -2.571 1.791e-3 90.252
          1.799e-3 85.903 0.903 -2.34 0.073 -60.588 60.57e-6 -44.035
          0.906 -1.685 1.809e-3 89.675 254.7e-6 33.529 0.081 -51.463
1180.1 0.071 -51.965 72.39e-6 32.753 1.833e-3 87.708 0.902 -1.597
          160.1e-6 -1.138 0.097 -51.931 0.901 -2.474 1.823e-3 91.086
          1.856e-3 86.093 0.905 -2.355 0.072 -61.132 78.17e-6 -73.21
          0.903 -1.687 1.898e-3 87.076 175.2e-6 -9.271 0.081 -52.818
1229.65 0.07 -52.329 78.24e-6 34.899 1.83e-3 85.774 0.904 -1.681
          138.5e-6 18.147 0.096 -52.226 0.902 -2.409 1.88e-3 91.445
          1.91e-3 84.304 0.905 -2.609 0.071 -61.432 135.6e-6 -69.923
          0.901 -1.61 1.994e-3 87.596 122.4e-6 -46.497 0.08 -53.741
1279.2 0.07 -53.471 129.5e-6 6.206 1.755e-3 85.304 0.903 -1.912
          89.75e-6 -31.101 0.095 -52.375 0.904 -2.538 2.016e-3 90.552
          1.998e-3 85.825 0.901 -2.774 0.07 -61.612 134.1e-6 -45.335
          0.906 -1.633 2.1e-3 93.364 75.64e-6 -30.477 0.08 -53.703
1328.75 0.072 -53.363 126.1e-6 -155.799 1.93e-3 82.043 0.901 -1.895
          203.1e-6 -1.924 0.095 -52.443 0.904 -2.738 2.281e-3 91.904
          1.896e-3 85.209 0.899 -2.627 0.069 -61.462 192.5e-6 -144.706
          0.901 -1.947 2.108e-3 98.98 33.65e-6 148.673 0.081 -55.001
1378.3 0.07 -52.716 80.64e-6 -155.6 2.12e-3 85.937 0.899 -1.837
          121.3e-6 66.705 0.095 -52.158 0.901 -2.835 2.247e-3 94.39
          1.926e-3 81.026 0.904 -2.571 0.068 -60.984 149.5e-6 -151.266
          0.904 -1.711 2.107e-3 96.012 39.67e-6 124.778 0.08 -55.471
1427.85 0.07 -53.478 92.87e-6 -112.958 2.197e-3 87.75 0.901 -1.753
          132.2e-6 53.753 0.095 -51.86 0.899 -2.725 2.209e-3 93.82
          2.157e-3 85.096 0.905 -2.772 0.067 -60.292 109.7e-6 -105.763
          0.904 -1.98 2.273e-3 95.09 189e-6 163.413 0.08 -54.974
1477.4 0.071 -53.32 29.75e-6 -38.222 2.275e-3 87.284 0.903 -2.038
          126.2e-6 -45.776 0.095 -51.377 0.901 -2.717 2.22e-3 92.818
          2.352e-3 88.048 0.902 -2.963 0.066 -59.274 79.2e-6 -104.309
          0.901 -2.028 2.389e-3 95.835 180.3e-6 -138.723 0.08 -54.924
1526.95 0.072 -52.528 56.02e-6 136.098 2.312e-3 85.42 0.899 -2.331
          187.5e-6 -144.688 0.095 -50.768 0.902 -2.906 2.344e-3 93.472
          2.408e-3 87.766 0.898 -2.949 0.066 -57.985 130.7e-6 -135.663
          0.899 -1.968 2.482e-3 96.035 132.3e-6 -128.124 0.079 -54.933
1576.5 0.072 -52.807 100.9e-6 147.978 2.258e-3 84.155 0.892 -2.071
          194e-6 164.852 0.096 -50.157 0.897 -3.126 2.584e-3 95.589
          2.367e-3 86.674 0.895 -2.721 0.065 -56.558 268.6e-6 -164.27
          0.901 -2.225 2.663e-3 93.704 174e-6 -128.4 0.079 -53.916
1626.05 0.076 -54.494 240.3e-6 -167.262 2.432e-3 89.479 0.895 -1.903
          266.4e-6 -144.044 0.096 -49.272 0.898 -2.744 2.587e-3 91.959
          2.421e-3 83.601 0.903 -2.761 0.065 -54.965 244.7e-6 -156.115
          0.889 -2.016 2.641e-3 92.703 202.5e-6 -132.483 0.082 -52.831
1675.6 0.075 -54.834 164.8e-6 -145.112 2.471e-3 87.051 0.892 -1.916
          145.1e-6 -86.028 0.097 -48.266 0.901 -3.01 2.694e-3 94.294
          2.493e-3 84.888 0.902 -3.234 0.065 -53.063 289.9e-6 -130.502
          0.896 -1.966 2.684e-3 92.676 172.6e-6 -156.82 0.084 -54.885
1725.15 0.073 -55.583 124.3e-6 -166.895 2.525e-3 86.719 0.893 -1.696
          51.87e-6 -80.72 0.098 -47.309 0.899 -3.175 2.769e-3 94.268
          2.551e-3 85.18 0.897 -3.173 0.066 -51.222 225.6e-6 -138.215
          0.895 -1.674 2.799e-3 93.796 231e-6 -132.903 0.083 -55.76
1774.7 0.072 -55.38 138.4e-6 156.49 2.588e-3 86.164 0.896 -1.591
          40.05e-6 144.917 0.099 -46.438 0.897 -3.185 2.84e-3 93.499
          2.538e-3 85.802 0.897 -3.014 0.066 -49.354 283.3e-6 -151.26
          0.895 -1.634 2.886e-3 94.572 272.8e-6 -118.901 0.082 -55.945
1824.25 0.072 -53.912 203.6e-6 125.782 2.629e-3 85.606 0.899 -1.771
          136.8e-6 171.926 0.1 -45.545 0.897 -3.118 2.911e-3 94.323
          2.556e-3 87.614 0.9 -3.074 0.068 -47.33 391.5e-6 -161.685
          0.898 -1.838 2.926e-3 94.119 308.7e-6 -142.792 0.081 -55.866
1873.8 0.071 -52.332 286.5e-6 -130.347 2.633e-3 87.965 0.898 -2.067
          165.1e-6 -109.035 0.101 -44.448 0.9 -3.116 2.961e-3 97.41
          2.795e-3 89.833 0.9 -3.315 0.069 -45.09 230e-6 -163.221
          0.897 -1.767 3e-3 92.6 389.3e-6 -173.879 0.08 -55.344
1923.35 0.072 -52.614 243.3e-6 -123.618 2.746e-3 86.709 0.891 -1.753
          224.2e-6 -118.763 0.103 -43.354 0.897 -3.533 3.105e-3 94.59
          2.683e-3 89.347 0.896 -3.336 0.07 -43.168 418.6e-6 -134.049
          0.898 -1.841 3.116e-3 93.356 299.4e-6 -179.504 0.079 -54.333
1972.9 0.073 -50.74 274.1e-6 -137.123 2.794e-3 89.564 0.9 -1.633
          322.3e-6 -176.363 0.104 -42.577 0.895 -3.173 3.121e-3 95.11
          2.73e-3 85.019 0.898 -3.309 0.072 -41.471 390.1e-6 -177.041
          0.898 -1.887 3.154e-3 94.904 333.3e-6 171.965 0.078 -53.542
2022.45 0.072 -49.36 335e-6 -153.352 2.78e-3 88.146 0.9 -1.998
          284.6e-6 174.037 0.106 -41.697 0.899 -3.26 3.193e-3 96.843
          2.855e-3 85.076 0.897 -3.409 0.074 -39.931 428.3e-6 179.678
          0.898 -2 3.203e-3 95.415 421.5e-6 -169.686 0.078 -52.078
2072 0.072 -48.861 306.1e-6 -149.034 2.849e-3 86.735 0.897 -2.075
          299.3e-6 -179.041 0.108 -40.847 0.9 -3.585 3.217e-3 96.538
          2.982e-3 86.149 0.896 -3.358 0.077 -38.579 472.3e-6 -166.728
          0.899 -1.986 3.273e-3 97.079 429.7e-6 -151.674 0.077 -50.627
2121.55 0.073 -48.43 216.1e-6 -135.07 3.011e-3 88.04 0.898 -1.744
          367.8e-6 176.47 0.11 -40.13 0.893 -3.699 3.217e-3 94.161
          3.033e-3 85.996 0.899 -3.25 0.079 -37.347 404.8e-6 -162.467
          0.899 -1.926 3.37e-3 98.792 376e-6 -157.505 0.077 -49.511
2171.1 0.074 -46.377 360.4e-6 -154.27 3.034e-3 87.428 0.9 -2.228
          245.2e-6 -175.428 0.112 -39.4 0.895 -3.388 3.482e-3 94.826
          2.936e-3 88.278 0.906 -3.869 0.082 -36.028 239.4e-6 -154.672
          0.892 -2.37 3.538e-3 93.448 425.2e-6 -169.083 0.077 -47.908
2220.65 0.074 -46.471 332.2e-6 -162.105 3.212e-3 85.94 0.896 -2.126
          325.6e-6 -164.427 0.114 -38.748 0.896 -3.57 3.503e-3 97.566
          3.008e-3 88.35 0.892 -4.101 0.084 -35.06 362.6e-6 -165.168
          0.902 -1.896 3.712e-3 96.34 465.2e-6 -164.396 0.077 -46.179
2270.2 0.076 -45.555 371.8e-6 -171.483 3.221e-3 86.154 0.895 -2.082
          411.7e-6 -161.144 0.116 -38.338 0.898 -3.673 3.524e-3 96.353
          3.175e-3 84.08 0.89 -3.536 0.087 -34.32 515.4e-6 -167.49
          0.898 -2.325 3.706e-3 98.193 583.2e-6 -163.231 0.077 -44.734
2319.75 0.077 -44.273 426.9e-6 -164.798 3.2e-3 88.626 0.896 -1.979
          400.9e-6 -164.689 0.117 -37.765 0.897 -3.807 3.693e-3 97.164
          3.205e-3 85.406 0.896 -3.346 0.09 -33.707 518.5e-6 -162.052
          0.895 -2.231 3.728e-3 97.371 612.9e-6 -163.151 0.077 -43.375
2369.3 0.077 -43.479 475.7e-6 -157.803 3.222e-3 89.578 0.898 -2.001
          381.6e-6 -168.938 0.119 -37.199 0.895 -3.913 3.85e-3 98.266
          3.16e-3 87.99 0.902 -3.704 0.093 -33.207 469.2e-6 -160.569
          0.898 -2.158 3.771e-3 96.099 616.1e-6 -167.823 0.078 -42.009
2418.85 0.078 -43.353 495.3e-6 -165.492 3.296e-3 86.414 0.9 -2.247
          458.3e-6 -167.296 0.121 -36.907 0.896 -3.923 3.838e-3 96.991
          3.166e-3 87.195 0.9 -4.242 0.096 -32.874 515e-6 -169.176
          0.9 -2.649 3.798e-3 96.228 664.1e-6 -176.151 0.079 -40.655
2468.4 0.08 -41.995 386.2e-6 -154.682 3.345e-3 84.147 0.902 -2.268
          538.6e-6 -149.363 0.124 -36.75 0.892 -3.934 3.841e-3 96.815
          3.18e-3 93.505 0.889 -4.36 0.099 -32.82 622.8e-6 -175.068
          0.89 -2.067 3.942e-3 94.271 606e-6 -166.575 0.079 -39.422
2517.95 0.08 -41.026 539.6e-6 -152.93 3.45e-3 87.776 0.894 -2.746
          542.8e-6 -175.435 0.125 -36.54 0.899 -3.842 3.912e-3 98.263
          3.31e-3 86.809 0.891 -3.896 0.101 -32.718 622.5e-6 -168.392
          0.9 -2.422 3.991e-3 96.583 497.2e-6 -172.602 0.08 -37.942
2567.5 0.081 -40.853 560.8e-6 -167.991 3.472e-3 88.617 0.892 -2.215
          466.3e-6 -169.86 0.126 -36.359 0.896 -4.309 3.982e-3 97.703
          3.422e-3 85.981 0.893 -3.812 0.104 -32.795 573.6e-6 -176.363
          0.897 -2.64 4.006e-3 97.33 569.2e-6 -173.338 0.08 -36.595
2617.05 0.083 -39.892 509.9e-6 -169.209 3.5e-3 88.639 0.896 -2.124
          506.4e-6 -163.329 0.128 -36.195 0.892 -4.236 4.078e-3 96.791
          3.474e-3 88.519 0.897 -4.002 0.106 -32.892 656.9e-6 177.67
          0.894 -2.433 4.028e-3 98.073 605.9e-6 -178.497 0.081 -35.214
2666.6 0.083 -38.665 501.1e-6 -161.241 3.541e-3 88.772 0.9 -2.451
          556.2e-6 -168.019 0.129 -36.037 0.893 -3.995 4.219e-3 96.103
          3.518e-3 89.726 0.896 -4.354 0.109 -33.024 744.1e-6 179.731
          0.896 -2.375 4.097e-3 98.115 633.7e-6 -179.135 0.082 -33.821
2716.15 0.083 -38.559 610.1e-6 -163.131 3.554e-3 88.475 0.896 -2.384
          451.7e-6 -176.027 0.13 -35.868 0.897 -4.509 4.388e-3 95.605
          3.619e-3 87.095 0.888 -4.65 0.111 -33.271 625.5e-6 -173.552
          0.894 -3.029 4.247e-3 96.135 797.9e-6 -163.849 0.083 -32.493
2765.7 0.085 -38.084 712.8e-6 -159.996 3.578e-3 85.437 0.903 -2.663
          805.8e-6 -157.476 0.129 -35.673 0.891 -4.301 4.47e-3 96.829
          3.596e-3 91.706 0.892 -3.963 0.112 -33.49 770.8e-6 -166.818
          0.894 -2.3 4.476e-3 96.22 968.2e-6 -176.486 0.083 -31.017
2815.25 0.085 -36.769 765.2e-6 -162.1 3.672e-3 85.83 0.896 -2.934
          735.7e-6 -171.404 0.13 -35.488 0.894 -4.327 4.264e-3 95.59
          3.58e-3 88.619 0.895 -4.437 0.114 -33.75 718.6e-6 -176.269
          0.895 -2.725 4.268e-3 93.817 786.3e-6 -169.083 0.085 -30.061
2864.8 0.085 -36.891 726.7e-6 -167.105 3.766e-3 85.769 0.891 -2.935
          755.7e-6 -168.149 0.13 -35.538 0.897 -4.503 4.305e-3 96.262
          3.744e-3 86.068 0.895 -4.582 0.115 -34.119 816.4e-6 -177.918
          0.893 -3.008 4.397e-3 93.881 758.8e-6 -170.404 0.086 -29.281
2914.35 0.086 -36.625 673.9e-6 -164.481 3.784e-3 86.145 0.89 -2.555
          727.3e-6 -165.324 0.13 -35.489 0.894 -4.949 4.448e-3 96.054
          3.831e-3 84.611 0.892 -4.723 0.116 -34.507 853.7e-6 -171.632
          0.892 -2.913 4.5e-3 96.987 769.9e-6 -175.639 0.086 -28.091
2963.9 0.087 -35.506 663.1e-6 -160.425 3.791e-3 86.781 0.897 -2.357
          691.4e-6 -169.589 0.129 -35.242 0.886 -5.132 4.574e-3 94.665
          3.811e-3 84.509 0.889 -4.854 0.117 -34.894 799.6e-6 -168.551
          0.892 -2.765 4.437e-3 99.268 744.2e-6 -175.269 0.086 -26.835
3013.45 0.086 -34.998 698e-6 -173.189 3.935e-3 86.168 0.905 -3.281
          891.8e-6 -168.841 0.128 -34.99 0.882 -4.178 4.684e-3 95.077
          3.921e-3 86.294 0.888 -4.534 0.117 -35.326 869.4e-6 179.053
          0.889 -3.173 4.448e-3 94.74 744.7e-6 -163.078 0.088 -26.538
3063 0.088 -35.257 710.7e-6 -167.377 3.788e-3 87.428 0.887 -3.504
          889.9e-6 -167.921 0.126 -34.421 0.899 -4.683 4.67e-3 96.803
          3.994e-3 86.682 0.888 -4.99 0.117 -35.337 954.8e-6 -165.956
          0.886 -3.281 4.592e-3 95.019 938.8e-6 -168.335 0.087 -25.233
3112.55 0.089 -33.834 755.3e-6 -158.165 3.977e-3 86.851 0.886 -3.193
          761.1e-6 -155.492 0.125 -33.873 0.89 -5.289 4.638e-3 96.8
          3.812e-3 87.11 0.887 -4.823 0.117 -35.555 780.1e-6 -155.408
          0.888 -3.074 4.817e-3 96.377 888.1e-6 -162.501 0.087 -23.499
3162.1 0.09 -33.298 865.7e-6 -153.804 3.966e-3 86.796 0.884 -2.921
          855.4e-6 -153.919 0.123 -33.128 0.881 -5.568 4.641e-3 97.477
          3.826e-3 87.534 0.884 -5.195 0.117 -35.596 823.9e-6 -154.057
          0.88 -3.097 4.739e-3 96.761 865.3e-6 -155.672 0.087 -22.56
3211.65 0.091 -32.819 961e-6 -156.849 3.941e-3 86.491 0.884 -2.865
          1.014e-3 -158.172 0.121 -32.225 0.872 -5.203 4.618e-3 97.332
          3.921e-3 89.117 0.877 -5.226 0.117 -35.611 879.2e-6 -155.299
          0.876 -3.096 4.592e-3 96.622 921.3e-6 -158.75 0.087 -21.016
3261.2 0.094 -31.668 991.3e-6 -162.029 4.038e-3 85.842 0.886 -2.988
          1.054e-3 -160.229 0.119 -31.195 0.866 -4.338 4.554e-3 95.837
          3.936e-3 91.28 0.871 -4.532 0.116 -35.66 800.2e-6 -154.641
          0.881 -2.876 4.598e-3 97.243 993.8e-6 -168.305 0.086 -18.479
3310.75 0.095 -30.72 1.025e-3 -155.595 4.006e-3 86.965 0.873 -3.046
          1.005e-3 -160.951 0.118 -29.848 0.887 -3.807 4.564e-3 95.667
          3.886e-3 90.286 0.879 -4.391 0.115 -35.344 842.5e-6 -155.418
          0.874 -2.671 4.672e-3 99.899 964.4e-6 -156.371 0.088 -17.257
3360.3 0.096 -32.091 1.006e-3 -151.448 4.185e-3 85.964 0.879 -2.261
          980.1e-6 -162.887 0.118 -28.719 0.882 -4.617 5.205e-3 97.221
          3.931e-3 89.803 0.883 -4.169 0.115 -35.574 919.8e-6 -157.747
          0.874 -2.217 4.836e-3 100.638 1.052e-3 -154.927 0.089 -15.953
3409.85 0.098 -31.968 1.05e-3 -156.74 4.22e-3 88.742 0.881 -2.243
          993.2e-6 -162.83 0.118 -27.972 0.884 -4.598 5.112e-3 98.092
          3.933e-3 89.721 0.882 -4.891 0.115 -35.64 1.154e-3 -153.442
          0.878 -2.641 4.835e-3 100.128 1.222e-3 -147.233 0.091 -14.249
3459.4 0.098 -32.087 973e-6 -157.472 4.254e-3 88.873 0.885 -2.229
          996.6e-6 -165.354 0.117 -27.515 0.88 -4.638 4.921e-3 97.959
          4.111e-3 91.369 0.875 -4.403 0.114 -35.942 1.237e-3 -152.187
          0.881 -2.05 4.91e-3 100.128 1.234e-3 -151.089 0.092 -13.282
3508.95 0.097 -32.919 972.7e-6 -157.94 4.278e-3 87.005 0.89 -2.268
          956.6e-6 -163.33 0.115 -26.983 0.877 -4.523 4.892e-3 97.903
          4.192e-3 90.248 0.881 -3.666 0.112 -36.272 1.215e-3 -154.733
          0.882 -1.803 5.04e-3 100.475 1.148e-3 -158.834 0.093 -12.8
3558.5 0.098 -33.948 1.185e-3 -162.797 4.253e-3 86.125 0.889 -2.558
          937.8e-6 -154.518 0.113 -26.116 0.881 -3.912 5.026e-3 98.372
