!Hittite Microwave Corporation								
!12 Elizabeth Drive								
!Chelmsford, MA 01824								
!Tel: 978-250-3343								
!Fax: 978-250-3373							
!Device: HMC414MS8G, 2.2-2.8 GHz GaAs InGap HBT MMIC Power Amplifier in 8-lead Grounded Base surface Mount Plastic Package							
!Misc: Input reference is the input pin of the device, output reference is the last component on output line, Vs=5V, Vpd=5V, Room							
!
# MHZ S MA R 50

1000 0.99 -82.75 0.037 -102.386 4.755e-3 125.284 0.793 92.444
1020 0.988 -84.459 0.039 -102.252 4.927e-3 122.529 0.791 89.886
1040 0.985 -86.171 0.042 -102.119 5.098e-3 119.774 0.789 87.328
1060 0.984 -87.913 0.046 -102.25 5.339e-3 118.514 0.786 84.784
1080 0.982 -89.665 0.05 -102.469 5.602e-3 117.752 0.782 82.245
1100 0.982 -91.275 0.054 -102.35 5.979e-3 117.227 0.778 79.683
1120 0.982 -92.742 0.06 -101.891 6.469e-3 116.939 0.773 77.1
1140 0.981 -94.242 0.065 -101.281 6.849e-3 116.072 0.768 74.519
1160 0.978 -95.84 0.072 -100.216 6.9e-3 113.47 0.763 71.946
1180 0.975 -97.439 0.078 -99.152 6.951e-3 110.868 0.758 69.372
1200 0.974 -99.131 0.089 -99.805 7.255e-3 109.464 0.752 66.812
1220 0.973 -100.823 0.101 -100.458 7.558e-3 108.06 0.745 64.251
1240 0.972 -102.519 0.113 -101.058 8.225e-3 105.575 0.738 61.658
1260 0.971 -104.217 0.126 -101.64 9.012e-3 102.731 0.732 59.054
1280 0.969 -105.912 0.142 -102.156 9.414e-3 100.549 0.725 56.457
1300 0.965 -107.605 0.161 -102.604 9.429e-3 99.029 0.717 53.866
1320 0.961 -109.265 0.182 -103.367 9.602e-3 97.416 0.71 51.268
1340 0.962 -110.824 0.208 -105.077 0.01 95.52 0.701 48.651
1360 0.963 -112.383 0.234 -106.786 0.011 93.624 0.693 46.034
1380 0.961 -113.992 0.264 -108.34 0.011 91.226 0.683 43.434
1400 0.958 -115.6 0.293 -109.893 0.012 88.828 0.674 40.834
1420 0.954 -117.375 0.341 -111.317 0.012 86.957 0.665 38.201
1440 0.949 -119.205 0.395 -112.697 0.013 85.261 0.656 35.557
1460 0.948 -121.022 0.453 -115.327 0.013 83.931 0.647 32.902
1480 0.95 -122.825 0.516 -119.207 0.014 82.967 0.637 30.235
1500 0.95 -124.586 0.584 -122.701 0.014 81.548 0.628 27.576
1520 0.947 -126.221 0.666 -125.041 0.015 78.764 0.619 24.943
1540 0.944 -127.854 0.747 -127.38 0.015 75.98 0.61 22.31
1560 0.94 -129.672 0.883 -131.928 0.016 74.636 0.6 19.548
1580 0.937 -131.487 1.018 -136.475 0.017 73.294 0.591 16.784
1600 0.936 -133.639 1.156 -141.197 0.017 70.74 0.583 13.891
1620 0.937 -135.901 1.294 -145.976 0.018 67.783 0.574 10.954
1640 0.936 -137.955 1.467 -150.521 0.018 65.653 0.566 8.012
1660 0.934 -139.801 1.673 -154.832 0.019 64.351 0.559 5.062
1680 0.931 -141.766 1.89 -159.666 0.02 62.726 0.551 1.952
1700 0.929 -144.096 2.144 -166.072 0.021 60.129 0.542 -1.639
1720 0.927 -146.421 2.397 -172.476 0.022 57.534 0.533 -5.235
1740 0.926 -148.969 2.69 -178.292 0.023 54.953 0.525 -9.292
1760 0.925 -151.51 2.982 175.893 0.024 52.375 0.516 -13.355
1780 0.918 -154.223 3.371 169.93 0.024 50.68 0.506 -17.909
1800 0.91 -156.988 3.791 163.918 0.025 49.282 0.495 -22.633
1820 0.901 -160.157 4.211 157.024 0.027 46.521 0.481 -27.913
1840 0.891 -163.728 4.631 149.248 0.028 42.398 0.466 -33.752
1860 0.879 -167.335 5.08 141.674 0.03 38.306 0.449 -39.89
1880 0.861 -171.071 5.621 134.697 0.03 34.298 0.428 -46.901
1900 0.843 -174.796 6.161 127.725 0.031 30.295 0.407 -53.928
1920 0.81 -178.762 6.805 119.182 0.033 26.957 0.378 -62.888
1940 0.777 177.281 7.448 110.644 0.034 23.623 0.349 -71.889
1960 0.736 172.931 7.989 102.146 0.035 18.7 0.315 -82.981
1980 0.693 168.455 8.498 93.664 0.036 13.249 0.279 -94.824
2000 0.643 164.394 9.007 84.926 0.036 8.28 0.245 -108.991
2020 0.588 160.735 9.516 75.931 0.037 3.791 0.212 -125.512
2040 0.531 157.356 9.969 66.946 0.037 -0.655 0.183 -144.041
2060 0.47 154.825 10.25 57.989 0.037 -4.976 0.169 -168.055
2080 0.409 152.251 10.533 49.034 0.037 -9.296 0.155 168.143
2100 0.356 152.445 10.756 40.855 0.037 -13.311 0.169 147.054
2120 0.302 152.533 10.98 32.681 0.036 -17.32 0.182 126.03
2140 0.259 157.127 11.023 24.847 0.035 -20.869 0.203 110.405
2160 0.22 163.063 11.005 17.137 0.034 -24.255 0.226 96.483
2180 0.192 171.382 11.006 10.032 0.033 -27.625 0.249 84.666
2200 0.177 -177.606 11.027 3.531 0.032 -30.979 0.271 74.992
2220 0.167 -167.083 11.031 -3.08 0.031 -34.151 0.292 65.883
2240 0.178 -158.284 10.987 -10.048 0.031 -36.804 0.308 58.555
2260 0.188 -149.413 10.944 -17.012 0.03 -39.452 0.325 51.217
2280 0.21 -144.629 10.861 -22.433 0.029 -41.757 0.338 45
2300 0.232 -139.971 10.779 -27.852 0.028 -44.061 0.351 38.774
2320 0.253 -137.503 10.828 -33.206 0.027 -45.849 0.36 33.149
2340 0.274 -135.802 10.922 -38.538 0.027 -47.466 0.368 27.723
2360 0.295 -135.006 10.907 -43.968 0.026 -49.04 0.373 22.577
2380 0.317 -135.101 10.783 -49.496 0.025 -50.573 0.376 17.713
2400 0.338 -135.313 10.72 -54.808 0.024 -51.969 0.378 12.928
2420 0.359 -135.809 10.844 -59.472 0.024 -52.957 0.379 8.383
2440 0.38 -136.324 10.969 -64.136 0.023 -53.946 0.379 3.835
2460 0.399 -137.264 11.083 -69.261 0.023 -55.52 0.375 -0.387
2480 0.418 -138.213 11.198 -74.387 0.023 -57.095 0.371 -4.611
2500 0.437 -139.51 11.239 -79.397 0.023 -57.637 0.364 -8.708
2520 0.456 -140.925 11.256 -84.369 0.022 -57.836 0.357 -12.763
2540 0.475 -142.347 11.373 -89.171 0.022 -57.873 0.347 -16.646
2560 0.494 -143.774 11.59 -93.801 0.021 -57.748 0.336 -20.355
2580 0.514 -145.345 11.801 -98.691 0.021 -57.603 0.323 -23.818
2600 0.532 -147.34 12 -104.364 0.02 -57.399 0.307 -26.538
2620 0.55 -149.335 12.198 -110.035 0.02 -57.195 0.29 -29.261
2640 0.57 -151.546 12.293 -115.035 0.02 -57.32 0.271 -31.364
2660 0.59 -153.757 12.388 -120.034 0.021 -57.442 0.252 -33.475
2680 0.609 -156.025 12.617 -125.417 0.021 -57.434 0.233 -33.497
2700 0.627 -158.312 12.889 -130.928 0.021 -57.38 0.212 -32.817
2720 0.644 -160.94 13.129 -136.751 0.022 -57.299 0.194 -29.65
2740 0.661 -163.905 13.335 -142.885 0.022 -57.189 0.178 -23.931
2760 0.677 -166.967 13.513 -149.09 0.023 -57.582 0.167 -17.233
2780 0.692 -170.329 13.606 -155.508 0.023 -59.489 0.173 -7.819
2800 0.707 -173.686 13.698 -161.923 0.024 -61.393 0.178 1.647
2820 0.716 -177.11 13.772 -168.225 0.025 -62.375 0.212 6.656
2840 0.725 179.471 13.845 -174.523 0.026 -63.353 0.246 11.608
2860 0.729 175.776 13.847 178.478 0.027 -65.268 0.291 12.412
2880 0.731 171.993 13.824 171.248 0.028 -67.494 0.34 11.845
2900 0.729 168.161 13.653 164.207 0.029 -70.309 0.391 9.645
2920 0.723 164.281 13.333 157.354 0.029 -73.713 0.444 5.822
2940 0.714 160.403 13.053 150.638 0.029 -76.963 0.497 1.666
2960 0.699 156.516 12.891 144.336 0.03 -79.75 0.55 -3.5
2980 0.684 152.634 12.729 138.03 0.031 -82.54 0.602 -8.659
3000 0.664 149.288 12.262 130.154 0.031 -86.856 0.644 -14.099
3020 0.644 145.948 11.795 122.273 0.031 -91.177 0.686 -19.546
3040 0.621 143.228 11.183 116.57 0.03 -94.097 0.72 -25.065
3060 0.596 140.717 10.522 111.588 0.03 -96.554 0.752 -30.604
3080 0.572 138.331 10.139 105.818 0.03 -99.422 0.781 -36.01
3100 0.547 136.072 10.034 99.26 0.03 -102.7 0.806 -41.288
3120 0.523 134.003 9.756 92.944 0.03 -105.979 0.828 -46.487
3140 0.503 132.495 8.959 87.37 0.029 -109.247 0.843 -51.435
3160 0.483 130.993 8.161 81.792 0.028 -112.518 0.858 -56.383
3180 0.466 130.252 7.836 77.611 0.028 -113.771 0.869 -60.993
3200 0.449 129.514 7.509 73.427 0.027 -115.025 0.881 -65.604
3220 0.435 129.005 7.236 67.838 0.027 -116.965 0.889 -69.953
3240 0.421 128.574 6.98 61.78 0.027 -119.134 0.896 -74.216
3260 0.41 128.326 6.566 56.743 0.026 -121.398 0.902 -78.36
3280 0.4 128.257 5.995 52.727 0.025 -123.757 0.907 -82.382
3300 0.392 128.158 5.53 49.018 0.024 -125.684 0.912 -86.363
3320 0.385 127.974 5.385 46.234 0.024 -126.317 0.917 -90.226
3340 0.378 127.79 5.239 43.45 0.024 -126.95 0.921 -94.088
3360 0.376 127.601 4.925 37.343 0.023 -130.177 0.924 -97.713
3380 0.374 127.411 4.611 31.236 0.022 -133.404 0.927 -101.337
3400 0.373 127.388 4.364 28.365 0.022 -134.605 0.929 -104.905
3420 0.373 127.42 4.138 26.573 0.022 -135.13 0.932 -108.456
3440 0.373 127.339 3.942 23.56 0.021 -136.023 0.934 -111.955
3460 0.374 127.144 3.775 19.326 0.021 -137.284 0.936 -115.402
3480 0.374 126.842 3.592 15.06 0.02 -138.834 0.938 -118.797
3500 0.377 126.216 3.359 10.693 0.02 -141.253 0.939 -122.037
3520 0.38 125.589 3.127 6.328 0.02 -143.672 0.939 -125.276
3540 0.384 125.03 2.99 4.762 0.019 -143.629 0.94 -128.524
3560 0.388 124.471 2.852 3.197 0.019 -143.585 0.941 -131.772
3580 0.393 123.697 2.741 -0.492 0.018 -144.592 0.943 -134.889
3600 0.397 122.852 2.638 -4.888 0.018 -145.948 0.944 -137.961
3620 0.402 121.94 2.494 -8.335 0.018 -147.737 0.945 -140.983
3640 0.408 120.963 2.307 -10.83 0.017 -149.957 0.945 -143.954
3660 0.414 119.977 2.151 -13.31 0.017 -151.594 0.945 -146.919
3680 0.419 118.973 2.082 -15.747 0.017 -151.483 0.947 -149.87
3700 0.424 117.967 2.013 -18.182 0.017 -151.372 0.948 -152.819
3720 0.43 116.613 1.922 -21.396 0.017 -153.083 0.949 -155.671
3740 0.436 115.257 1.832 -24.608 0.016 -154.794 0.949 -158.521
3760 0.442 113.969 1.725 -27.05 0.016 -155.963 0.949 -161.285
3780 0.45 112.702 1.613 -29.234 0.016 -156.952 0.949 -164.019
3800 0.456 111.436 1.539 -31.573 0.016 -157.704 0.95 -166.78
3820 0.462 110.169 1.503 -34.067 0.015 -158.22 0.95 -169.568
3840 0.468 108.808 1.455 -36.709 0.015 -159.002 0.951 -172.317
3860 0.474 107.161 1.37 -39.797 0.015 -160.584 0.951 -174.953
3880 0.48 105.513 1.285 -42.885 0.014 -162.165 0.952 -177.586
3900 0.487 104.102 1.232 -44.613 0.014 -163.444 0.952 179.845
3920 0.495 102.69 1.18 -46.34 0.014 -164.723 0.953 177.277
3940 0.501 101.24 1.128 -48.8 0.014 -165.936 0.953 174.658
3960 0.508 99.778 1.075 -51.502 0.014 -167.128 0.953 172.022
3980 0.514 98.221 1.026 -54.037 0.013 -168.46 0.953 169.472
4000 0.52 96.57 0.98 -56.403 0.013 -169.933 0.954 167.008
4020 0.527 94.947 0.935 -58.671 0.013 -171.286 0.954 164.54
4040 0.533 93.411 0.894 -60.644 0.013 -172.282 0.954 162.06
4060 0.54 91.874 0.852 -62.617 0.013 -173.277 0.954 159.582
4080 0.546 90.171 0.816 -65.059 0.013 -173.546 0.955 157.119
4100 0.552 88.469 0.78 -67.5 0.013 -173.813 0.955 154.656
4120 0.559 86.839 0.745 -69.62 0.012 -174.797 0.956 152.291
4140 0.566 85.233 0.71 -71.634 0.012 -176.019 0.956 149.958
4160 0.572 83.703 0.678 -73.802 0.011 -177.386 0.956 147.596
4180 0.578 82.25 0.648 -76.127 0.012 -178.897 0.956 145.204
4200 0.583 80.709 0.619 -78.339 0.011 179.875 0.956 142.822
4220 0.589 78.905 0.591 -80.214 0.011 179.492 0.956 140.472
4240 0.594 77.101 0.564 -82.089 0.01 179.111 0.956 138.122
4260 0.6 75.455 0.539 -84.356 0.01 178.28 0.956 135.879
4280 0.606 73.808 0.514 -86.621 0.011 177.45 0.956 133.636
4300 0.612 72.296 0.49 -88.584 0.011 177.072 0.956 131.355
4320 0.617 70.828 0.466 -90.446 0.011 176.846 0.955 129.061
4340 0.622 69.269 0.444 -92.405 0.01 175.909 0.955 126.79
4360 0.626 67.617 0.424 -94.46 0.01 174.263 0.955 124.541
4380 0.631 65.983 0.405 -96.533 9.852e-3 172.928 0.955 122.303
4400 0.636 64.401 0.386 -98.659 9.724e-3 172.526 0.955 120.099
4420 0.64 62.819 0.367 -100.785 9.597e-3 172.125 0.955 117.896
4440 0.644 61.152 0.349 -102.537 9.521e-3 170.342 0.954 115.64
4460 0.647 59.486 0.331 -104.289 9.446e-3 168.559 0.952 113.384
4480 0.652 57.808 0.314 -106.143 9.298e-3 168.154 0.953 111.231
4500 0.657 56.127 0.299 -108.031 9.126e-3 168.208 0.954 109.112
4520 0.661 54.637 0.283 -109.945 8.993e-3 167.332 0.954 106.974
4540 0.665 53.338 0.269 -111.885 8.899e-3 165.525 0.953 104.815
4560 0.668 51.96 0.254 -113.742 8.803e-3 164.13 0.952 102.68
4580 0.671 50.343 0.242 -115.349 8.7e-3 163.973 0.953 100.614
4600 0.673 48.725 0.229 -116.955 8.596e-3 163.815 0.953 98.548
4620 0.676 47.027 0.216 -118.883 8.317e-3 163.815 0.952 96.284
4640 0.68 45.329 0.202 -120.812 8.037e-3 163.816 0.95 94.021
4660 0.683 43.921 0.191 -122.593 7.942e-3 161 0.949 91.855
4680 0.686 42.609 0.181 -124.325 7.909e-3 157.247 0.948 89.723
4700 0.689 41.181 0.17 -126.148 7.839e-3 155.523 0.948 87.555
4720 0.69 39.636 0.159 -128.063 7.732e-3 155.831 0.947 85.351
4740 0.692 38.093 0.148 -129.736 7.625e-3 155.648 0.947 83.179
4760 0.695 36.562 0.139 -130.682 7.518e-3 153.995 0.946 81.102
4780 0.698 35.03 0.13 -131.628 7.411e-3 152.342 0.946 79.025
4800 0.699 33.674 0.121 -133.912 7.278e-3 152.769 0.945 76.929
4820 0.7 32.318 0.113 -136.195 7.145e-3 153.197 0.944 74.833
4840 0.701 30.759 0.104 -137.722 6.927e-3 150.428 0.943 72.72
4860 0.703 29.132 0.096 -138.998 6.681e-3 146.592 0.942 70.601
4880 0.704 27.621 0.088 -140.116 6.597e-3 144.974 0.941 68.5
4900 0.706 26.228 0.081 -141.077 6.677e-3 145.573 0.94 66.419
4920 0.708 24.847 0.074 -142.252 6.665e-3 145.762 0.939 64.336
4940 0.708 23.507 0.067 -144.067 6.375e-3 144.725 0.938 62.249
4960 0.708 22.166 0.06 -145.882 6.084e-3 143.688 0.937 60.161
4980 0.709 20.492 0.053 -146.596 6.099e-3 146.783 0.936 58.002
5000 0.709 18.816 0.047 -147.311 6.115e-3 149.876 0.935 55.842
