!Hittite Microwave Corporation								
!20 Alpha Road								
!Chelmsford, MA 01824								
!Tel: 978-250-3343								
!Fax: 978-250-3373								
!Device: HMC465LP5, DC-20 GHz, GaAs PHEMT MMIC Modulator Driver Amlifier in 5x5 mm SMT package  															
!Misc: Vdd = 8V, Vgg2 = 1.5V, Idd = 160 mA, Room
!
# MHZ S MA R 50

50 0.083 -9.774 7.035 177.347 1.919e-3 81.289 0.039 -175.36
179.75 0.087 -16.501 7.022 174.933 503e-6 -116.348 0.039 148.948
309.5 0.1 -27.401 7.167 171.219 1.015e-3 -155.686 0.03 111.201
439.25 0.114 -39.837 7.306 166.592 1.345e-3 179.504 0.024 51.337
569 0.123 -51.64 7.306 161.242 1.524e-3 149.275 0.02 -7.014
698.75 0.13 -61.033 7.239 156.425 1.632e-3 134.032 0.022 -32.812
828.5 0.133 -67.797 7.164 152.094 1.335e-3 116.989 0.027 -34.401
958.25 0.137 -73.423 7.107 147.964 1.345e-3 108.588 0.03 -39.901
1088 0.139 -77.957 7.039 143.962 1.342e-3 104.058 0.032 -29.505
1217.75 0.138 -82.08 7.002 140.079 1.336e-3 104.312 0.041 -22.892
1347.5 0.137 -85.614 6.975 136.065 1.33e-3 103.776 0.047 -25.757
1477.25 0.131 -89.197 6.943 132.225 1.53e-3 96.49 0.051 -19.731
1607 0.126 -92.895 6.896 128.265 1.496e-3 97.182 0.063 -18.759
1736.75 0.118 -96.961 6.888 124.233 1.588e-3 95.194 0.066 -21.396
1866.5 0.109 -100.434 6.853 120.716 1.584e-3 92.003 0.071 -18.073
1996.25 0.098 -105.039 6.821 116.351 1.594e-3 88.421 0.081 -18.861
2126 0.087 -110.598 6.875 112.863 1.865e-3 84.298 0.083 -22.675
2255.75 0.075 -116.948 6.761 108.818 1.906e-3 88.229 0.083 -21.436
2385.5 0.063 -124.903 6.811 104.628 2.193e-3 88.223 0.091 -22.438
2515.25 0.051 -135.681 6.752 101.159 2.221e-3 81.878 0.091 -27.508
2645 0.042 -153.009 6.715 96.949 2.295e-3 81.243 0.087 -27.256
2774.75 0.037 -173.417 6.741 93.354 2.44e-3 79.601 0.092 -28.63
2904.5 0.035 164.341 6.657 89.185 2.436e-3 73.272 0.09 -34.184
3034.25 0.039 143.652 6.746 85.436 2.694e-3 73.22 0.085 -34.773
3164 0.044 125.406 6.632 81.874 2.736e-3 72.465 0.087 -36.178
3293.75 0.05 114.902 6.674 77.227 2.932e-3 67.044 0.085 -42.457
3423.5 0.056 102.991 6.695 73.956 3.008e-3 67.669 0.078 -42.843
3553.25 0.062 96.673 6.559 69.761 3.238e-3 67.664 0.081 -43.51
3683 0.068 87.536 6.61 65.583 3.198e-3 60.165 0.078 -50.275
3812.75 0.072 84.49 6.535 62.343 3.508e-3 61.031 0.069 -49.714
3942.5 0.077 77.523 6.526 58.031 3.615e-3 56.87 0.072 -48.485
4072.25 0.078 75.096 6.584 54.602 3.839e-3 54.732 0.068 -55.536
4202 0.082 69.088 6.472 50.427 3.76e-3 53.086 0.058 -52.456
4331.75 0.08 65.435 6.513 46.576 4.129e-3 49.637 0.06 -48.169
4461.5 0.081 60.78 6.42 43.143 4.197e-3 46.882 0.056 -54.307
4591.25 0.08 58.859 6.454 38.818 4.277e-3 47.597 0.045 -49.713
4721 0.079 54.448 6.441 35.392 4.455e-3 41.968 0.047 -41.059
4850.75 0.076 52.887 6.38 31.428 4.579e-3 39.833 0.042 -46.943
4980.5 0.075 50.783 6.412 27.649 5.174e-3 39.32 0.031 -33.073
5110.25 0.071 50.555 6.372 23.871 5.242e-3 34.313 0.033 -20.791
5240 0.068 51.983 6.374 19.995 5.375e-3 32.358 0.025 -26.443
5369.75 0.063 53.373 6.352 15.945 5.714e-3 28.105 0.016 19.968
5499.5 0.059 60.176 6.359 12.331 5.946e-3 27.68 0.025 29.763
5629.25 0.056 63.859 6.309 8.719 5.805e-3 23.53 0.016 57.329
5759 0.056 75.462 6.307 4.47 5.854e-3 20.069 0.032 86.852
5888.75 0.054 80.737 6.312 0.829 6.232e-3 20.321 0.036 89.468
6018.5 0.06 91.476 6.292 -3.531 6.257e-3 17.011 0.047 113.545
6148.25 0.064 97.889 6.304 -6.213 6.954e-3 19.051 0.075 113.468
6278 0.072 102.172 6.209 -11.081 7.752e-3 15.207 0.085 108.638
6407.75 0.072 103.59 6.361 -14.537 8.395e-3 9.074 0.093 110.225
6537.5 0.078 106.626 6.234 -17.405 8.725e-3 2.927 0.103 109.868
6667.25 0.076 111.081 6.21 -23.067 9.026e-3 -4.203 0.101 109.563
6797 0.08 112.427 6.33 -25.346 9.055e-3 -5.487 0.1 116.721
6926.75 0.079 115.845 6.138 -29.935 9.123e-3 -10.158 0.107 120.561
7056.5 0.08 115.015 6.32 -34.304 9.123e-3 -13.905 0.105 122.877
7186.25 0.075 116.656 6.225 -37.082 9.391e-3 -16.258 0.101 131.444
7316 0.072 114.661 6.182 -42.214 9.725e-3 -19.668 0.108 137.065
7445.75 0.062 113.093 6.274 -45.248 9.809e-3 -24.257 0.101 140.198
7575.5 0.052 109.005 6.167 -49.071 9.926e-3 -25.549 0.099 151.994
7705.25 0.04 106.333 6.238 -53.023 0.011 -29.748 0.103 155.238
7835 0.029 89.168 6.22 -56.816 0.011 -33.458 0.094 161.664
7964.75 0.022 51.337 6.25 -61.05 0.011 -37.986 0.097 171.99
8094.5 0.026 15.759 6.222 -64.693 0.011 -41.269 0.097 173.754
8224.25 0.039 -7.157 6.202 -69.134 0.011 -44.994 0.085 -178.564
8354 0.055 -16.023 6.24 -72.907 0.011 -49.18 0.083 -166.996
8483.75 0.078 -19.794 6.199 -76.859 0.012 -49.156 0.081 -162.929
8613.5 0.093 -20.251 6.197 -81.206 0.012 -56.443 0.061 -152.19
8743.25 0.114 -21.434 6.191 -85.01 0.012 -56.924 0.064 -132.787
8873 0.131 -21.085 6.156 -89.124 0.013 -61.132 0.052 -126.75
9002.75 0.154 -19.609 6.156 -93.252 0.013 -65.86 0.05 -87.933
9132.5 0.165 -20.103 6.128 -97.318 0.013 -68.328 0.064 -79.918
9262.25 0.185 -18.357 6.115 -101.327 0.013 -73.552 0.063 -59.711
9392 0.197 -18.286 6.086 -105.248 0.013 -74.754 0.089 -43.194
9521.75 0.215 -16.217 6.036 -109.365 0.014 -79.019 0.101 -44.751
9651.5 0.219 -15.931 6.025 -113.382 0.014 -82.954 0.113 -33.047
9781.25 0.23 -14.205 5.986 -117.253 0.014 -84.538 0.134 -28.565
9911 0.228 -13.661 5.963 -121.238 0.014 -89.647 0.143 -26.811
10040.75 0.232 -11.072 5.966 -125.014 0.015 -93.466 0.148 -19.802
10170.5 0.223 -9.849 5.933 -129.046 0.015 -95.969 0.157 -16.626
10300.25 0.219 -7.997 5.961 -132.941 0.015 -98.218 0.159 -13.115
10430 0.206 -5.995 5.907 -136.838 0.016 -103.731 0.157 -8.269
10559.75 0.201 -2.676 5.971 -141.204 0.016 -106.42 0.164 -2.196
10689.5 0.184 1.227 5.928 -144.501 0.016 -110.507 0.164 0.92
10819.25 0.172 4.905 5.922 -149.369 0.017 -113.85 0.158 9.119
10949 0.156 8.853 5.937 -153.085 0.017 -118.115 0.172 14.796
11078.75 0.151 13.703 5.884 -157.455 0.017 -121.771 0.166 17.603
11208.5 0.138 18.204 5.956 -161.706 0.018 -125.115 0.169 27.224
11338.25 0.129 24.155 5.848 -164.892 0.018 -129.448 0.185 29.412
11468 0.115 25.82 5.894 -169.762 0.018 -134.845 0.179 31.384
11597.75 0.113 28.279 5.892 -172.451 0.018 -138.73 0.182 35.19
11727.5 0.098 28.677 5.814 -177.992 0.018 -141.001 0.184 35.572
11857.25 0.089 27.648 5.942 177.942 0.019 -145.347 0.171 36.605
11987 0.071 20.329 5.796 175.061 0.019 -148.452 0.164 39.351
12116.75 0.069 13.735 5.752 169.522 0.019 -151.621 0.161 39.939
12246.5 0.054 -8.508 5.904 166.938 0.02 -154.655 0.142 41.154
12376.25 0.06 -23.384 5.728 162.581 0.02 -158.97 0.139 48.056
12506 0.07 -50.213 5.888 157.801 0.02 -161.745 0.14 44.675
12635.75 0.086 -54.963 5.812 154.44 0.021 -166.149 0.115 46.514
12765.5 0.108 -64.922 5.802 149.254 0.02 -170.992 0.125 53.343
12895.25 0.125 -67.934 5.823 145.693 0.021 -173.746 0.121 43.031
13025 0.153 -71.775 5.783 141.666 0.02 -176.13 0.105 46.725
13154.75 0.168 -71.043 5.789 137.288 0.022 179.89 0.115 42.169
13284.5 0.19 -71.402 5.748 133.666 0.021 175.373 0.107 29.975
13414.25 0.203 -72.239 5.748 129.094 0.022 172.67 0.103 29.07
13544 0.226 -72.326 5.753 125.47 0.021 170.577 0.108 17.487
13673.75 0.23 -71.786 5.703 120.932 0.023 164.468 0.11 8.532
13803.5 0.252 -70.995 5.723 116.617 0.023 160.816 0.113 -4.574
13933.25 0.257 -71.259 5.72 112.722 0.023 153.18 0.109 -13.854
14063 0.276 -71.314 5.611 108.466 0.023 156.653 0.123 -18.255
14192.75 0.276 -71.444 5.72 103.838 0.024 147.677 0.133 -36.012
14322.5 0.288 -71.391 5.604 99.706 0.024 147.575 0.115 -42.93
14452.25 0.28 -74.944 5.683 96.292 0.024 139.988 0.139 -45.194
14582 0.285 -76.382 5.515 92.148 0.023 140.972 0.146 -62.062
14711.75 0.275 -80.211 5.704 86.197 0.024 136.467 0.132 -62.892
14841.5 0.266 -81.344 5.67 84.032 0.025 133.689 0.158 -70.842
14971.25 0.256 -89.022 5.551 78.421 0.025 128.48 0.15 -81.8
15101 0.244 -91.724 5.566 73.128 0.025 124.886 0.153 -83.401
15230.75 0.237 -99.75 5.549 69.062 0.025 120.798 0.167 -89.415
15360.5 0.221 -103.418 5.611 65.09 0.026 118.169 0.168 -92.183
15490.25 0.215 -113.231 5.417 61.528 0.025 112.731 0.183 -98.245
15620 0.211 -117.149 5.555 54.174 0.027 110.259 0.178 -97.066
15749.75 0.208 -126.074 5.549 52.932 0.026 105.217 0.209 -96.161
15879.5 0.203 -126.646 5.341 46.066 0.027 102.878 0.213 -102.462
16009.25 0.199 -134.461 5.499 42.678 0.026 96.472 0.216 -94.866
16139 0.2 -133.167 5.301 39.079 0.027 94.85 0.257 -97.323
16268.75 0.198 -136.507 5.232 31.814 0.027 90.281 0.246 -97.831
16398.5 0.198 -134.345 5.475 30.783 0.028 86.958 0.28 -92.721
16528.25 0.196 -133.792 4.983 25.124 0.028 83.636 0.295 -97.825
16658 0.205 -128.623 5.314 18.663 0.029 79.51 0.282 -89.963
16787.75 0.208 -127.087 5.267 17.694 0.029 74.44 0.33 -89.347
16917.5 0.23 -121.364 4.919 10.962 0.03 70.765 0.312 -88.741
17047.25 0.239 -118.105 5.264 6.1 0.03 66.128 0.336 -81.689
17177 0.262 -115.39 4.891 3.922 0.03 61.012 0.348 -84.117
17306.75 0.281 -114.605 4.935 -3.512 0.03 56.302 0.344 -75.539
17436.5 0.294 -113.494 4.974 -5.218 0.03 52.074 0.382 -77.419
17566.25 0.314 -114.497 4.809 -10.578 0.031 47.997 0.344 -74.12
17696 0.319 -113.807 4.942 -14.952 0.031 41.995 0.39 -68.657
17825.75 0.324 -117.696 4.804 -17.984 0.031 39.198 0.357 -73.446
17955.5 0.311 -119.652 4.842 -23.896 0.03 34.857 0.356 -62.261
18085.25 0.317 -123.237 4.842 -26.783 0.031 32.08 0.375 -68.491
18215 0.291 -125.464 4.84 -31.909 0.032 25.88 0.305 -63.99
18344.75 0.29 -132.041 4.871 -36.792 0.033 20.98 0.334 -60.405
18474.5 0.261 -136.535 4.916 -41.049 0.033 16.605 0.274 -67.92
18604.25 0.258 -144.514 4.887 -46.58 0.033 10.157 0.251 -58.236
18734 0.228 -150.701 4.942 -51.515 0.033 3.303 0.215 -69.235
18863.75 0.222 -161.453 4.935 -57.415 0.032 -0.729 0.143 -59.351
18993.5 0.213 -173.159 4.912 -62.433 0.033 -5.096 0.14 -74.01
19123.25 0.229 177.178 4.891 -69.394 0.033 -9.974 0.052 -108.834
19253 0.236 164.54 4.88 -74.257 0.033 -17.294 0.038 -108.735
19382.75 0.273 160.194 4.718 -80.3 0.032 -22.133 0.105 174.31
19512.5 0.305 154.938 4.697 -86.574 0.033 -28.87 0.127 144.918
19642.25 0.346 154.952 4.66 -90.026 0.031 -31.778 0.179 159.218
19772 0.367 153.236 4.415 -96.927 0.032 -40.151 0.272 146.657
19901.75 0.41 151.217 4.487 -102.814 0.029 -43.993 0.271 145.287
20031.5 0.427 152.682 4.238 -104.572 0.03 -49.131 0.354 150.98
20161.25 0.466 149.711 4.073 -114.533 0.028 -50.248 0.39 145.395
20291 0.427 149.449 4.379 -113.843 0.029 -55.16 0.396 150.393
20420.75 0.49 139.932 3.707 -120.228 0.028 -59.511 0.455 150.532
20550.5 0.488 145.062 4.081 -129.499 0.027 -64.569 0.444 155.346
20680.25 0.554 142.64 3.784 -123.182 0.026 -66.072 0.526 157.763
20810 0.51 146.222 3.505 -141.303 0.027 -71.39 0.519 153.382
20939.75 0.524 149.833 4.27 -134.525 0.025 -72.696 0.507 167.164
21069.5 0.479 151.796 3.221 -143.499 0.027 -77.175 0.56 161.591
21199.25 0.478 154.193 4.049 -152.061 0.028 -76.257 0.505 170.683
21329 0.439 154.804 3.478 -143.785 0.028 -83.387 0.567 175.74
21458.75 0.437 156.697 3.437 -164.407 0.03 -87.134 0.536 176.396
21588.5 0.429 159.337 3.771 -155.772 0.028 -89.256 0.561 -175.03
21718.25 0.406 161.097 3.133 -166.866 0.03 -95.394 0.562 -175.124
21848 0.394 161.563 3.667 -171.918 0.029 -101.105 0.543 -167.794
21977.75 0.374 163.335 3.129 -170.445 0.029 -105.675 0.575 -165.345
22107.5 0.375 162.119 3.212 176.748 0.027 -107.052 0.538 -163.535
22237.25 0.355 164.153 3.209 -179.163 0.03 -110.984 0.542 -158.36
22367 0.342 159.489 3.057 173.725 0.028 -117.634 0.528 -157.446
22496.75 0.323 156.123 3.127 170.396 0.029 -119.975 0.507 -153.576
22626.5 0.331 147.159 3.137 168.478 0.028 -121.896 0.499 -151.955
22756.25 0.302 142.607 3.177 160.064 0.032 -127.958 0.473 -151.94
22886 0.307 130.67 3.389 159.441 0.029 -130.767 0.444 -151.213
23015.75 0.296 121.381 3.228 151.565 0.032 -139.486 0.403 -152.095
23145.5 0.325 113.381 3.451 145.798 0.033 -140.731 0.372 -152.773
23275.25 0.326 106.179 3.461 144.127 0.032 -154.154 0.342 -160.764
23405 0.352 99.703 3.273 132.158 0.031 -158.367 0.264 -166.751
23534.75 0.389 90.114 3.67 126.665 0.027 -165.983 0.265 -173.516
23664.5 0.416 90.268 3.253 123.886 0.029 -165.889 0.239 155.278
23794.25 0.441 86.756 3.142 108.665 0.025 -172.875 0.175 139.221
23924 0.465 86.804 3.491 107.049 0.023 -176.085 0.254 129.803
24053.75 0.499 83.546 2.679 102.232 0.023 -176.697 0.304 97.266
24183.5 0.523 86.072 2.978 86.872 0.025 -174.556 0.298 95.634
24313.25 0.534 84.113 2.756 99.797 0.026 179.411 0.413 88.477
24443 0.563 83.735 2.144 79.562 0.029 170.201 0.439 75.873
24572.75 0.577 81.11 3.04 79.912 0.025 158.974 0.486 82.331
24702.5 0.586 82.059 2.039 84.743 0.027 149.799 0.542 69.797
24832.25 0.58 80.011 2.347 61.231 0.021 139.796 0.53 74.056
24962 0.586 80.099 2.321 76.434 0.021 137.823 0.584 73.078
25091.75 0.58 75.976 1.959 63.999 0.017 130.46 0.571 71.317
25221.5 0.571 76.899 2.391 60.179 0.016 134.01 0.603 76.062
25351.25 0.56 73.866 2.051 60.939 0.013 132.132 0.6 71.57
25481 0.525 73.084 2.155 46.341 0.015 132.307 0.594 79.85
25610.75 0.53 67.926 2.141 51.098 0.015 137.301 0.64 76.35
25740.5 0.504 68.248 1.886 39.397 0.015 134.175 0.585 78.097
25870.25 0.508 63.721 2.172 37.375 0.014 133.03 0.64 83.216
26000 0.482 62.463 1.764 35.896 0.016 124.311 0.613 77.071
