!Hittite Microwave Corporation								
!20 Alpha Rd								
!Chelmsford, MA 01824								
!Tel: 978-250-3343								
!Fax: 978-250-3373
!Device: HMC469MS8G, DC - 5 GHz SiGe HBT Dual Channel Gain Block in 8 lead MSOP SMT package
!Misc: Data taken on a part mounted evaluation PCB 104421-2,Bias: +8VDC	thru Bias Tee on the output; Channel 1
# MHZ S MA R 50

0.01 0.261 174.85 5.834 177.714 0.104 -2.325 0.133 171.766
50.01 0.262 175.659 5.846 176.508 0.105 -1.58 0.131 176.441
100.01 0.264 173.533 5.83 174.213 0.105 -2.256 0.132 176.254
150.01 0.264 170.148 5.807 171.446 0.105 -3.361 0.133 174.565
200.01 0.267 167.383 5.797 168.793 0.105 -4.332 0.136 173.185
250.01 0.266 164.994 5.793 166.221 0.105 -5.258 0.136 170.632
300.01 0.269 161.307 5.77 163.49 0.104 -6.307 0.141 170.451
350.01 0.272 158.94 5.745 160.842 0.104 -7.349 0.146 168.229
400.01 0.275 156.065 5.718 158.135 0.104 -8.272 0.151 166.751
450.01 0.278 153.781 5.706 155.548 0.103 -9.08 0.156 164.445
500.01 0.281 151.175 5.673 153.013 0.103 -10.008 0.161 163.533
550.009 0.286 148.67 5.661 150.388 0.103 -10.855 0.168 162.081
600.009 0.291 146.38 5.622 147.844 0.102 -11.71 0.175 160.811
650.009 0.295 144.621 5.591 145.289 0.102 -12.481 0.183 159.006
700.009 0.3 142.635 5.569 142.802 0.102 -13.265 0.189 157.356
750.009 0.304 140.521 5.539 140.314 0.102 -13.991 0.197 156.057
800.009 0.31 138.725 5.498 137.773 0.101 -14.734 0.205 154.425
850.009 0.315 137.098 5.478 135.364 0.101 -15.433 0.214 153.147
900.009 0.319 135.652 5.44 132.879 0.101 -16.164 0.221 151.561
950.009 0.322 134.028 5.404 130.435 0.1 -16.764 0.227 150.149
1000.009 0.328 132.531 5.379 127.99 0.1 -17.469 0.237 148.791
1050.009 0.331 130.899 5.344 125.623 0.1 -18.198 0.244 147.511
1100.009 0.336 129.728 5.306 123.19 0.1 -18.797 0.251 146.176
1150.009 0.339 128.299 5.287 120.781 0.1 -19.448 0.259 144.742
1200.009 0.345 127.085 5.24 118.407 0.099 -20.034 0.268 143.425
1250.009 0.348 125.807 5.199 116.097 0.099 -20.601 0.275 142.165
1300.009 0.353 124.799 5.174 113.764 0.099 -21.241 0.284 140.903
1350.009 0.354 123.432 5.138 111.419 0.099 -21.761 0.29 139.795
1400.009 0.359 122.422 5.103 109.1 0.099 -22.404 0.298 138.516
1450.009 0.363 121.238 5.068 106.808 0.099 -22.919 0.306 137.424
1500.008 0.366 120.51 5.034 104.569 0.099 -23.505 0.314 136.107
1550.008 0.366 119.136 4.999 102.291 0.099 -24.045 0.318 135.363
1600.008 0.37 118.429 4.96 100.07 0.099 -24.594 0.326 134.005
1650.008 0.373 117.077 4.938 97.765 0.1 -25.1 0.332 133.116
1700.008 0.374 116.512 4.898 95.622 0.1 -25.622 0.338 131.868
1750.008 0.375 115.616 4.862 93.421 0.1 -26.203 0.342 130.782
1800.008 0.376 114.894 4.831 91.222 0.1 -26.633 0.348 129.828
1850.008 0.377 113.739 4.805 88.955 0.101 -27.252 0.353 128.768
1900.008 0.377 112.844 4.778 86.843 0.101 -27.783 0.357 127.919
1950.008 0.378 112.151 4.738 84.619 0.101 -28.356 0.362 126.659
2000.008 0.378 111.419 4.719 82.49 0.102 -28.818 0.366 125.78
2050.008 0.377 110.647 4.688 80.288 0.102 -29.442 0.369 124.572
2100.008 0.374 109.83 4.656 78.163 0.103 -30.016 0.371 123.577
2150.008 0.374 108.893 4.626 76.037 0.103 -30.562 0.374 122.63
2200.008 0.372 108.261 4.604 73.918 0.103 -31.093 0.376 121.413
2250.008 0.37 107.464 4.581 71.813 0.104 -31.613 0.378 120.541
2300.008 0.365 106.937 4.556 69.678 0.104 -32.242 0.378 119.235
2350.008 0.362 105.812 4.529 67.52 0.105 -32.919 0.379 118.678
2400.008 0.36 105.037 4.515 65.317 0.106 -33.521 0.381 117.347
2450.008 0.356 104.035 4.493 63.246 0.107 -34.171 0.379 116.376
2500.007 0.353 103.429 4.46 61.037 0.107 -34.841 0.381 115.18
2550.007 0.347 102.618 4.44 58.918 0.108 -35.512 0.378 114.15
2600.007 0.342 101.643 4.419 56.704 0.109 -36.209 0.379 113.312
2650.007 0.34 100.5 4.398 54.6 0.11 -36.906 0.378 111.89
2700.007 0.335 99.521 4.378 52.49 0.111 -37.688 0.378 110.913
2750.007 0.33 98.967 4.354 50.302 0.112 -38.465 0.377 109.48
2800.007 0.324 97.7 4.334 48.172 0.113 -39.165 0.375 108.536
2850.007 0.32 96.531 4.32 45.93 0.114 -39.967 0.375 107.134
2900.007 0.316 95.308 4.302 43.711 0.115 -40.753 0.373 105.932
2950.007 0.312 94.347 4.278 41.526 0.116 -41.615 0.373 104.568
3000.007 0.308 93.476 4.256 39.391 0.117 -42.494 0.371 103.02
3050.007 0.301 92.344 4.237 37.159 0.117 -43.381 0.37 102.108
3100.007 0.298 90.839 4.223 34.943 0.119 -44.33 0.369 100.615
3150.007 0.295 89.542 4.196 32.8 0.12 -45.232 0.37 99.426
3200.007 0.293 88.403 4.174 30.573 0.12 -46.117 0.37 97.73
3250.007 0.289 87.116 4.152 28.397 0.122 -46.987 0.368 96.234
3300.007 0.284 85.902 4.133 26.146 0.123 -47.991 0.368 94.605
3350.007 0.279 83.923 4.111 23.873 0.124 -49.061 0.366 93.288
3400.007 0.28 82.407 4.096 21.668 0.125 -50.052 0.368 91.713
3450.007 0.279 81.299 4.07 19.407 0.126 -51.133 0.368 89.808
3500.006 0.276 80.182 4.049 17.156 0.127 -52.158 0.367 88.207
3550.006 0.274 78.143 4.023 14.86 0.128 -53.251 0.369 86.209
3600.006 0.273 76.297 3.997 12.6 0.129 -54.365 0.371 84.66
3650.006 0.276 74.492 3.98 10.313 0.13 -55.513 0.374 82.636
3700.006 0.278 73.631 3.956 8.066 0.131 -56.542 0.377 80.386
3750.006 0.278 71.925 3.927 5.796 0.132 -57.699 0.38 78.473
3800.006 0.279 69.934 3.902 3.489 0.133 -58.936 0.384 76.415
3850.006 0.283 67.49 3.871 1.158 0.134 -60.167 0.389 74.738
3900.006 0.288 65.848 3.842 -1.189 0.135 -61.408 0.395 72.478
3950.006 0.295 64.483 3.814 -3.414 0.136 -62.599 0.401 70.521
4000.006 0.298 62.903 3.779 -5.722 0.137 -63.795 0.408 68.152
4050.006 0.302 60.811 3.749 -8.032 0.137 -65.023 0.413 66.48
4100.006 0.31 58.1 3.714 -10.333 0.138 -66.388 0.423 64.638
4150.006 0.322 56.59 3.673 -12.626 0.139 -67.604 0.432 62.691
4200.006 0.329 55.068 3.638 -14.85 0.139 -68.885 0.44 60.6
4250.006 0.336 53.7 3.605 -17.103 0.14 -70.068 0.448 58.48
4300.006 0.346 51.251 3.571 -19.317 0.14 -71.279 0.458 56.956
4350.006 0.356 49.689 3.533 -21.605 0.141 -72.637 0.467 54.841
4400.006 0.368 47.936 3.491 -23.839 0.141 -73.842 0.478 53.112
4450.006 0.378 47.146 3.449 -25.99 0.142 -74.97 0.486 50.862
4500.005 0.385 45.547 3.41 -28.12 0.142 -76.176 0.494 49.232
4550.005 0.395 43.661 3.371 -30.391 0.142 -77.582 0.505 47.522
4600.005 0.41 41.689 3.332 -32.564 0.143 -78.784 0.516 45.719
4650.005 0.422 40.774 3.284 -34.666 0.143 -79.99 0.527 43.889
4700.005 0.434 39.755 3.24 -36.704 0.143 -81.114 0.536 41.874
4750.005 0.44 38.985 3.201 -38.686 0.143 -82.206 0.543 40.257
4800.005 0.449 37.13 3.157 -40.804 0.143 -83.486 0.553 38.699
4850.005 0.462 35.531 3.111 -42.864 0.143 -84.641 0.563 37.178
4900.005 0.475 34.853 3.067 -44.789 0.143 -85.615 0.573 35.545
4950.005 0.483 34.259 3.032 -46.599 0.143 -86.599 0.58 34.041
5000.005 0.491 33.191 2.994 -48.515 0.143 -87.685 0.587 32.56
5050.005 0.498 31.682 2.955 -50.479 0.143 -88.832 0.594 31.339
5100.005 0.51 30.345 2.911 -52.325 0.143 -89.844 0.603 30.113
5150.005 0.521 29.709 2.869 -54.064 0.143 -90.751 0.61 28.681
5200.005 0.527 29.402 2.831 -55.768 0.143 -91.609 0.614 27.379
5250.005 0.529 28.443 2.81 -57.516 0.144 -92.542 0.618 26.208
5300.005 0.536 26.922 2.777 -59.329 0.144 -93.591 0.624 25.244
5350.005 0.545 25.829 2.738 -61.098 0.144 -94.603 0.629 24.06
5400.005 0.553 25.471 2.701 -62.699 0.144 -95.444 0.633 22.821
5450.005 0.557 25.267 2.673 -64.27 0.144 -96.196 0.635 21.611
5500.005 0.557 24.514 2.652 -65.964 0.145 -97.082 0.635 20.575
5550.004 0.561 22.981 2.631 -67.801 0.146 -98.131 0.639 19.604
5600.004 0.57 22.049 2.598 -69.477 0.146 -99.064 0.642 18.422
5650.004 0.575 22.004 2.569 -70.965 0.146 -99.835 0.643 17.244
5700.004 0.575 21.778 2.549 -72.507 0.147 -100.674 0.642 16.109
5750.004 0.573 20.909 2.535 -74.167 0.148 -101.585 0.64 15.108
5800.004 0.575 19.656 2.517 -75.858 0.149 -102.551 0.64 14.013
5850.004 0.579 18.631 2.492 -77.559 0.149 -103.548 0.641 12.856
5900.004 0.584 18.463 2.468 -79.089 0.15 -104.364 0.64 11.572
5950.004 0.581 18.538 2.457 -80.646 0.151 -105.196 0.635 10.383
6000.004 0.575 17.393 2.45 -82.406 0.153 -106.268 0.631 9.349
6050.004 0.576 15.929 2.436 -84.212 0.154 -107.419 0.63 8.156
6100.004 0.581 15.3 2.423 -85.832 0.155 -108.34 0.629 6.92
6150.004 0.581 15.104 2.406 -87.467 0.156 -109.271 0.626 5.477
6200.004 0.577 14.947 2.397 -89.1 0.157 -110.226 0.62 4.123
6250.004 0.569 13.744 2.396 -90.942 0.159 -111.41 0.614 2.865
6300.004 0.568 11.924 2.385 -92.91 0.16 -112.751 0.611 1.53
6350.004 0.573 11.013 2.372 -94.725 0.161 -113.936 0.61 -0.161
6400.004 0.572 11.014 2.361 -96.412 0.163 -114.951 0.605 -1.92
6450.004 0.563 10.393 2.358 -98.238 0.165 -116.134 0.599 -3.453
6500.004 0.556 8.673 2.357 -100.291 0.167 -117.543 0.594 -4.947
6550.003 0.554 6.472 2.347 -102.427 0.168 -119.063 0.592 -6.54
6600.003 0.559 5.239 2.336 -104.398 0.169 -120.443 0.591 -8.525
6650.003 0.558 4.733 2.324 -106.194 0.17 -121.636 0.586 -10.519
6700.003 0.551 4.167 2.322 -108.121 0.172 -122.959 0.58 -12.424
6750.003 0.541 1.621 2.321 -110.442 0.175 -124.682 0.577 -14.028
6800.003 0.543 -1.333 2.308 -112.816 0.176 -126.475 0.578 -15.983
6850.003 0.548 -3.175 2.287 -115.021 0.176 -128.094 0.578 -18.239
6900.003 0.55 -3.955 2.278 -117.027 0.178 -129.513 0.577 -20.612
6950.003 0.542 -5.338 2.275 -119.17 0.179 -131.11 0.574 -22.772
7000.003 0.537 -8.755 2.265 -121.729 0.181 -133.063 0.576 -24.685
7050.003 0.544 -12.074 2.243 -124.257 0.181 -135.008 0.58 -26.986
7100.003 0.552 -13.935 2.218 -126.466 0.181 -136.7 0.584 -29.518
7150.003 0.556 -15.462 2.2 -128.68 0.182 -138.345 0.587 -32.213
7200.003 0.556 -17.381 2.188 -130.942 0.183 -140.083 0.591 -34.548
7250.003 0.556 -20.976 2.171 -133.561 0.184 -142.146 0.598 -36.704
7300.003 0.565 -24.836 2.14 -136.276 0.183 -144.314 0.605 -39.096
7350.003 0.579 -26.832 2.104 -138.571 0.182 -146.182 0.614 -41.684
7400.003 0.585 -28.43 2.076 -140.709 0.182 -147.814 0.621 -44.244
7450.003 0.588 -30.422 2.049 -142.928 0.182 -149.518 0.628 -46.515
7500.003 0.589 -34.147 2.03 -145.621 0.182 -151.662 0.639 -48.649
7550.002 0.606 -38.48 1.988 -148.324 0.181 -153.841 0.652 -50.788
7600.002 0.624 -39.921 1.946 -150.498 0.179 -155.576 0.664 -53.13
7650.002 0.63 -41.46 1.91 -152.478 0.177 -157.086 0.673 -55.372
7700.002 0.634 -43.817 1.879 -154.678 0.177 -158.793 0.683 -57.342
7750.002 0.64 -47.841 1.843 -157.265 0.175 -160.909 0.694 -58.993
7800.002 0.66 -51.037 1.794 -159.661 0.172 -162.82 0.709 -60.829
7850.002 0.678 -52.473 1.746 -161.658 0.17 -164.325 0.72 -62.982
7900.002 0.686 -53.119 1.716 -163.337 0.168 -165.488 0.731 -64.634
7950.002 0.689 -55.897 1.687 -165.418 0.167 -167.129 0.741 -66.17
8000.002 0.702 -58.789 1.646 -167.522 0.165 -168.683 0.751 -67.561
8050.002 0.718 -61.436 1.595 -169.666 0.162 -170.426 0.764 -68.952
8100.002 0.735 -62.261 1.549 -171.209 0.159 -171.603 0.773 -70.429
8150.002 0.741 -62.846 1.514 -172.657 0.157 -172.501 0.782 -71.708
8200.002 0.743 -64.712 1.486 -174.318 0.155 -173.738 0.788 -72.722
8250.002 0.754 -67.639 1.446 -176.267 0.153 -175.323 0.799 -73.705
8300.002 0.772 -68.762 1.399 -177.816 0.15 -176.279 0.808 -74.823
8350.002 0.78 -68.489 1.365 -178.768 0.148 -176.906 0.814 -75.706
8400.002 0.786 -69.013 1.341 -179.909 0.146 -177.644 0.821 -76.577
8450.002 0.785 -70.491 1.318 178.695 0.146 -178.564 0.826 -77.113
8500.002 0.793 -73.092 1.283 177.031 0.144 -179.926 0.834 -77.642
8550.001 0.81 -73.986 1.243 175.871 0.14 179.349 0.84 -78.305
8600.001 0.819 -73.444 1.212 175.161 0.138 179.112 0.845 -78.852
8650.001 0.818 -73.156 1.194 174.421 0.137 178.745 0.847 -79.347
8700.001 0.816 -74.421 1.177 173.319 0.136 178.078 0.851 -79.58
8750.001 0.823 -76.429 1.151 172.04 0.135 177.286 0.856 -79.876
8800.001 0.838 -76.627 1.118 171.194 0.133 176.616 0.86 -80.117
8850.001 0.842 -75.387 1.096 170.774 0.131 176.774 0.862 -80.497
8900.001 0.837 -75.098 1.084 170.262 0.131 176.699 0.861 -80.638
8950.001 0.837 -76.385 1.076 169.215 0.132 176.159 0.866 -80.659
9000.001 0.845 -77.449 1.059 168.276 0.13 175.585 0.866 -80.68
9050.001 0.852 -77.481 1.038 167.596 0.129 175.46 0.869 -80.815
9100.001 0.856 -76.296 1.02 167.302 0.129 175.571 0.867 -80.984
9150.001 0.848 -75.689 1.018 166.98 0.13 175.658 0.865 -80.921
9200.001 0.845 -76.544 1.015 166.12 0.131 175.03 0.864 -80.912
9250.001 0.848 -78.023 1.005 164.974 0.131 174.314 0.863 -80.877
9300.001 0.858 -77.811 0.986 164.505 0.13 174.142 0.864 -81.031
9350.001 0.859 -76.18 0.981 164.31 0.13 174.477 0.857 -80.975
9400.001 0.853 -75.254 0.984 163.841 0.132 174.19 0.858 -81.252
9450.001 0.841 -76.147 0.991 162.919 0.134 173.662 0.852 -81.016
9500.001 0.844 -77.95 0.986 161.768 0.135 172.707 0.849 -81.207
9550 0.852 -77.683 0.976 161.001 0.135 172.481 0.846 -81.696
9600 0.852 -75.937 0.97 161.089 0.135 172.951 0.841 -81.458
9650 0.839 -74.873 0.983 160.511 0.138 172.746 0.831 -81.834
9700 0.829 -76.153 0.992 159.325 0.141 171.797 0.826 -82.361
9750 0.826 -77.872 0.991 157.922 0.143 170.819 0.821 -82.662
9800 0.838 -77.658 0.989 157.284 0.144 170.516 0.818 -82.714
9850 0.832 -75.996 0.994 156.842 0.146 170.504 0.806 -83.531
9900 0.821 -75.152 1.008 156.155 0.15 170.131 0.797 -83.984
9950 0.802 -76.786 1.022 154.653 0.153 168.802 0.788 -84.442
10000 0.783 -78.518 1.037 153.101 0.157 167.421 0.779 -84.943
