!Hittite Microwave Corporation								
!12 Elizabeth Drive								
!Chelmsford, MA 01824								
!Tel: 978-250-3343								
!Fax: 978-250-3373								
!Device: HMC463, 2-20 GHz, GaAs PHEMT MMIC LOW NOISE AGC AMPLIFIER																
!Misc:  Data includes (two) K connectors, Vdd=+5V, Room
!
# MHZ S MA R 50

50 0.978 -8.906 0.095 -39.925 2.026e-3 -86.226 1.001 -15.925
249.75 0.839 -36.625 1.946 -67.786 938.8e-6 140.774 0.822 -86.523
449.5 0.673 -57.849 2.199 -119.895 866.1e-6 -35.456 0.621 -130.879
649.25 0.545 -72.877 4.295 -130.792 1.458e-3 -109.009 0.494 153.516
849 0.459 -85.387 5.375 -158.923 1.695e-3 -150.813 0.386 93.294
1048.75 0.401 -96.668 5.828 179.349 2.275e-3 -173.09 0.341 49.717
1248.5 0.356 -106.927 5.888 163.325 2.263e-3 166.66 0.321 19.926
1448.25 0.32 -117.421 6.014 150.258 2.369e-3 147.471 0.308 -4.01
1648 0.295 -128.141 6.029 137.063 2.463e-3 144.543 0.3 -23.638
1847.75 0.272 -138.845 6.162 126.229 2.61e-3 124.52 0.293 -39.949
2047.5 0.255 -150.151 6.222 114.489 2.829e-3 115.361 0.285 -55.404
2247.25 0.24 -159.951 6.052 102.7 2.805e-3 106.236 0.279 -70.216
2447 0.225 -171.532 6.067 91.503 3.022e-3 90.249 0.276 -83.661
2646.75 0.213 177.541 5.802 80.503 2.293e-3 92.18 0.269 -96.549
2846.5 0.203 167.518 5.775 72.245 2.93e-3 79.619 0.264 -109.715
3046.25 0.19 157.209 5.693 64.371 3.493e-3 71.763 0.263 -123.014
3246 0.182 147.483 5.311 55.933 3.447e-3 68.968 0.261 -134.365
3445.75 0.171 138.853 5.396 47.202 3.617e-3 57.992 0.258 -145.928
3645.5 0.159 129.642 5.657 36.674 3.776e-3 46.718 0.257 -158.201
3845.25 0.152 122.171 5.532 31.928 4.173e-3 48.539 0.261 -168.71
4045 0.14 115.657 5.397 21.879 4.991e-3 39.816 0.259 -178.269
4244.75 0.128 110.111 5.392 12.698 4.792e-3 35.766 0.256 171.916
4444.5 0.119 107.238 5.374 4.768 5.008e-3 26.762 0.257 162.325
4644.25 0.109 105.99 5.377 -5.598 5.271e-3 18.192 0.258 154.208
4844 0.101 102.847 5.375 -11.768 5.55e-3 6.214 0.253 146.813
5043.75 0.097 106.408 5.316 -19.324 5.648e-3 1.954 0.246 138.963
5243.5 0.093 111.148 5.067 -30.414 5.766e-3 -5.561 0.245 131.773
5443.25 0.098 110.062 5.284 -36.801 6.647e-3 -6.087 0.242 126.336
5643 0.106 112.592 5.211 -45.355 7.062e-3 -18.211 0.228 120.141
5842.75 0.111 114.973 5.052 -54.007 7.037e-3 -21.175 0.222 113.321
6042.5 0.122 110.279 5.132 -60.286 7.435e-3 -30.568 0.218 107.983
6242.25 0.139 107.798 4.92 -68.745 8.464e-3 -37.48 0.213 104.467
6442 0.145 104.713 5.046 -75.906 8.273e-3 -42.817 0.205 99.474
6641.75 0.156 98.406 5.106 -84.157 9.001e-3 -53.514 0.197 94.294
6841.5 0.166 94.466 5.05 -90.384 9.234e-3 -59.904 0.198 91.466
7041.25 0.166 87.756 5.128 -99.251 9.433e-3 -66.652 0.192 89.743
7241 0.173 79.981 5.209 -107.632 9.891e-3 -75.462 0.182 85.302
7440.75 0.176 74.121 5.118 -115.828 0.01 -80.732 0.18 80.527
7640.5 0.172 65.996 5.21 -124.21 0.011 -91.055 0.18 77.262
7840.25 0.171 58.283 5.164 -132.772 0.012 -96.577 0.179 74.642
8040 0.161 52.586 5.175 -139.904 0.012 -107.354 0.175 70.985
8239.75 0.152 41.988 5.143 -148.616 0.012 -115.167 0.175 65.344
8439.5 0.145 33.326 5.13 -156.466 0.012 -123.844 0.179 61.68
8639.25 0.127 26.933 5.205 -164.442 0.013 -130.851 0.176 59.407
8839 0.115 16.693 5.222 -172.642 0.014 -138.332 0.167 54.748
9038.75 0.1 11.513 5.214 179.644 0.014 -150.301 0.164 47.937
9238.5 0.077 -2.304 5.235 170.758 0.014 -154.678 0.158 42.739
9438.25 0.058 -19.067 5.266 162.493 0.015 -163.465 0.147 36.029
9638 0.043 -28.76 5.275 154.233 0.015 -171.108 0.137 29.599
9837.75 0.029 -66.341 5.293 145.665 0.016 176.865 0.128 19.515
10037.5 0.031 -101.349 5.313 137.348 0.017 171.558 0.119 11.027
10237.25 0.029 -140.512 5.277 129.043 0.017 161.314 0.103 3.622
10437 0.042 -166.44 5.297 120.161 0.018 153.04 0.089 -11.12
10636.75 0.041 -178.493 5.258 111.768 0.018 142.924 0.079 -24.255
10836.5 0.05 163.413 5.241 103.227 0.018 138.158 0.07 -38.433
11036.25 0.057 157.904 5.236 95.027 0.019 131.979 0.063 -59.725
11236 0.052 141.839 5.191 87.166 0.02 122.919 0.063 -76.997
11435.75 0.053 132.401 5.176 78.857 0.02 109.984 0.062 -87.33
11635.5 0.048 126.078 5.197 70.553 0.021 106.155 0.062 -100.999
11835.25 0.038 115.552 5.182 62.428 0.022 98.839 0.062 -109.478
12035 0.037 111.775 5.237 53.824 0.023 89.436 0.064 -117.831
12234.75 0.024 112.372 5.259 46.335 0.022 82.526 0.061 -121.058
12434.5 9.003e-3 83.822 5.113 37.255 0.024 73.231 0.058 -121.207
12634.25 0.012 -179.677 5.219 27.528 0.024 66.315 0.066 -119.145
12834 0.021 -134.677 5.274 20.276 0.025 57.392 0.071 -117.606
13033.75 0.027 -125.422 5.119 13.041 0.026 50.805 0.077 -108.93
13233.5 0.045 -138.4 5.104 2.643 0.027 41.399 0.093 -104.65
13433.25 0.062 -138.289 5.111 -5.57 0.028 33.899 0.112 -107.011
13633 0.067 -145.43 5.221 -12.541 0.028 22.221 0.131 -108.238
13832.75 0.076 -157.136 5.201 -20.001 0.029 16.117 0.151 -112.525
14032.5 0.087 -157.707 5.062 -28.806 0.031 5.297 0.176 -118.782
14232.25 0.091 -168.266 5.193 -39.831 0.03 -0.583 0.209 -126.509
14432 0.105 179.265 5.192 -48.402 0.031 -10.752 0.236 -134.473
14631.75 0.101 177.954 5.171 -55.686 0.03 -18.835 0.262 -143.433
14831.5 0.102 161.494 4.879 -64.285 0.031 -27.615 0.297 -150.606
15031.25 0.107 159.627 4.828 -73.742 0.031 -34.266 0.318 -160.122
15231 0.091 153.182 4.971 -79.179 0.032 -42.579 0.346 -168.458
15430.75 0.094 141.293 4.656 -89.61 0.032 -51.881 0.362 -176.067
15630.5 0.076 143.287 5.081 -95.026 0.034 -58.976 0.377 173.061
15830.25 0.058 140.263 4.847 -103.044 0.035 -66.906 0.397 165.072
16030 0.052 141.952 4.864 -110.161 0.034 -75.861 0.395 156.513
16229.75 0.037 164.594 4.89 -121.615 0.035 -83.507 0.41 145.932
16429.5 0.031 -163.221 5.085 -128.609 0.034 -92.045 0.409 137.89
16629.25 0.045 -151.116 4.968 -134.408 0.036 -99.104 0.387 128.675
16829 0.078 -135.91 4.896 -146.523 0.036 -107.738 0.39 116.378
17028.75 0.087 -136.473 5.136 -152.762 0.036 -114.725 0.363 107.926
17228.5 0.11 -140.304 5.111 -161.973 0.037 -122.706 0.33 94.169
17428.25 0.15 -136.732 4.983 -170.956 0.037 -130.158 0.319 81.144
17628 0.159 -144.425 5.087 178.452 0.039 -139.104 0.263 66.028
17827.75 0.189 -149.096 5.12 171.32 0.04 -148.053 0.238 45.774
18027.5 0.21 -149.799 5.057 162.941 0.039 -155.787 0.212 29.015
18227.25 0.225 -155.456 5.065 152.685 0.04 -165.796 0.174 -5.931
18427 0.245 -158.775 5.095 143.983 0.041 -172.454 0.183 -36.536
18626.75 0.257 -161.659 5.056 134.832 0.041 179.473 0.188 -63.112
18826.5 0.26 -166.521 4.989 125.702 0.041 169.265 0.24 -94.491
19026.25 0.27 -168.944 4.922 116.923 0.042 160.94 0.283 -109.555
19226 0.276 -170.919 4.875 108.416 0.042 152.231 0.309 -131.184
19425.75 0.271 -177.219 4.911 100.085 0.042 144.607 0.367 -145.987
19625.5 0.278 -178.166 4.848 91.584 0.044 135.288 0.375 -159.497
19825.25 0.26 -179.859 4.841 82.481 0.044 128.171 0.412 -176.304
20025 0.271 175.528 4.832 73.57 0.044 119.792 0.435 171.844
20224.75 0.278 173.848 4.832 64.845 0.045 109.671 0.429 155.392
20424.5 0.261 170.258 4.837 56.354 0.046 101.08 0.453 142.171
20624.25 0.276 168.495 4.869 46.843 0.047 91.733 0.439 129.462
20824 0.293 167.355 4.889 38.128 0.049 82.068 0.424 109.749
21023.75 0.284 161.98 4.653 28.515 0.05 71.286 0.43 94.434
21223.5 0.302 158.77 4.81 18.325 0.048 62.193 0.393 76.191
21423.25 0.319 158.649 4.752 10.782 0.051 49.584 0.402 54.954
21623 0.318 150.948 4.713 2.371 0.049 42.511 0.388 36.416
21822.75 0.352 147.571 4.637 -9.496 0.051 33.141 0.383 12.894
22022.5 0.343 144.966 4.753 -18.164 0.049 21.125 0.384 -8.611
22222.25 0.357 136.137 4.547 -27.949 0.048 12.912 0.381 -30.443
22422 0.391 134.307 4.171 -39.704 0.046 2.036 0.407 -53.611
22621.75 0.383 125.997 4.371 -49.874 0.044 -6.436 0.425 -75.087
22821.5 0.405 118.292 4.178 -54.857 0.044 -15.397 0.428 -97.79
23021.25 0.409 114.255 4.051 -61.695 0.043 -22.264 0.46 -117.542
23221 0.407 105.21 3.964 -73.063 0.043 -29.349 0.469 -136.15
23420.75 0.43 97.976 3.873 -80.216 0.04 -38.448 0.506 -157.56
23620.5 0.427 92.329 3.706 -92.693 0.043 -47.11 0.531 -176.501
23820.25 0.408 82.541 3.871 -99.688 0.044 -51.341 0.549 164.148
24020 0.429 77.995 3.998 -105.437 0.04 -52.884 0.559 147.569
24219.75 0.405 70.828 3.612 -108.453 0.04 -67.05 0.563 130.988
24419.5 0.402 60.398 3.375 -122.955 0.042 -73.555 0.576 112.198
24619.25 0.395 57.231 3.781 -137.047 0.043 -78.943 0.564 93.358
24819 0.366 48.562 3.912 -138.094 0.046 -87.394 0.518 75.728
25018.75 0.366 40.92 3.47 -149.826 0.046 -96.968 0.51 59.25
25218.5 0.354 34.618 3.587 -157.936 0.044 -105.23 0.468 42.905
25418.25 0.335 21.72 3.615 -167.585 0.045 -117.472 0.427 24.553
25618 0.322 15.142 3.455 -174.695 0.05 -121.91 0.375 13.802
25817.75 0.33 11.087 3.54 170.872 0.048 -135.043 0.319 -3.055
26017.5 0.323 -3.964 3.622 161.928 0.048 -143.32 0.279 -13.87
26217.25 0.344 -8.793 3.489 154.307 0.05 -151.161 0.229 -19.45
26417 0.338 -11.662 3.384 141.998 0.049 -162.783 0.211 -27.294
26616.75 0.361 -21.744 3.293 132.153 0.048 -171.24 0.184 -25.264
26816.5 0.398 -22.17 3.31 121.807 0.045 179.669 0.179 -22.204
27016.25 0.397 -28.214 3.114 112.246 0.046 170.634 0.195 -17.836
27216 0.437 -35.379 2.97 102.986 0.046 165.545 0.231 -11.647
27415.75 0.466 -34.701 2.877 92.461 0.045 154.984 0.257 -15.576
27615.5 0.466 -42.512 2.754 83.389 0.039 150.89 0.291 -18.312
27815.25 0.516 -49.014 2.629 74.694 0.042 135.096 0.327 -18.2
28015 0.534 -50.251 2.522 65.914 0.038 127.604 0.357 -27.133
28214.75 0.514 -60.459 2.39 57.719 0.038 116.593 0.383 -31.954
28414.5 0.568 -64.251 2.302 49.093 0.036 113.07 0.387 -38.043
28614.25 0.562 -66.53 2.243 41.544 0.037 103.311 0.406 -44.386
28814 0.56 -79.787 2.109 32.279 0.036 91.839 0.406 -48.295
29013.75 0.591 -80.687 2.11 24.89 0.033 87.659 0.422 -55.17
29213.5 0.549 -84.256 2.126 17.421 0.037 80.837 0.417 -61.397
29413.25 0.574 -94.763 1.948 10.089 0.035 76.047 0.404 -64.675
29613 0.586 -95.426 2.011 -1.636 0.035 62.784 0.416 -69.066
29812.75 0.528 -102.947 1.983 -9.639 0.033 49.853 0.411 -73.833
30012.5 0.554 -111.93 1.88 -19.724 0.034 46.773 0.398 -75.326
30212.25 0.566 -111.382 1.866 -30.657 0.03 36.647 0.415 -78.917
30412 0.513 -120.916 1.698 -37.335 0.032 25.157 0.412 -82.056
30611.75 0.551 -130.705 1.544 -47.104 0.029 17.288 0.407 -82.266
30811.5 0.538 -130.239 1.568 -59.099 0.03 8.831 0.427 -86.922
31011.25 0.501 -139.36 1.509 -64.638 0.031 -1.204 0.444 -91.779
31211 0.56 -146.319 1.408 -68.067 0.029 -0.684 0.451 -96.073
31410.75 0.537 -147.339 1.245 -78.935 0.028 -14.905 0.472 -101.599
31610.5 0.524 -158.113 1.255 -91.213 0.026 -11.409 0.504 -105.654
31810.25 0.553 -162.072 1.273 -96.884 0.028 -30.267 0.515 -113.27
32010 0.542 -162.649 1.244 -101.467 0.025 -47.768 0.549 -119.226
32209.75 0.53 -174.715 0.984 -104.878 0.02 -38.628 0.54 -122.405
32409.5 0.551 -178.084 0.971 -121.099 0.022 -48.917 0.578 -129.549
32609.25 0.505 179.245 1.067 -127.846 0.022 -45.733 0.606 -135.61
32809 0.512 167.32 0.991 -125.001 0.029 -63.264 0.579 -142.988
33008.75 0.525 165.9 0.902 -140.441 0.025 -59.279 0.606 -150.776
33208.5 0.474 155.914 0.892 -143.842 0.023 -80.407 0.604 -155.877
33408.25 0.501 146.954 0.917 -150.124 0.027 -94.806 0.611 -164.478
33608 0.468 144.052 0.814 -158.31 0.027 -87.405 0.63 -170.998
33807.75 0.466 129.987 0.84 -166.182 0.026 -109.811 0.613 -178
34007.5 0.497 122.998 0.87 -172.182 0.024 -101.545 0.612 173.438
34207.25 0.451 117.285 0.756 -176.788 0.028 -95.447 0.608 169.296
34407 0.474 100.399 0.804 176.899 0.022 -109.854 0.589 158.404
34606.75 0.478 96.136 0.746 168.731 0.034 -122.731 0.602 151.761
34806.5 0.43 84.126 0.764 159.578 0.036 -111.98 0.552 142.813
35006.25 0.511 72.942 0.837 154.507 0.026 -114.204 0.547 131.565
35206 0.487 63.476 0.791 149.118 0.04 -106.824 0.542 127.934
35405.75 0.499 49.53 0.75 138.537 0.049 -115.333 0.519 116.579
35605.5 0.531 45.024 0.755 125.639 0.071 -111.45 0.512 107.52
35805.25 0.52 27.733 0.736 119.361 0.178 -114.526 0.447 96.704
36005 0.445 44.339 0.74 121.174 0.237 125.864 0.466 115.953
36204.75 0.531 28.696 0.748 108.561 0.095 108.447 0.486 97.426
36404.5 0.534 20.539 0.715 101.186 0.059 112.547 0.466 94.943
36604.25 0.541 14.383 0.712 91.723 0.044 107.585 0.459 88.606
36804 0.589 6.636 0.719 83.795 0.04 117.175 0.46 86.522
37003.75 0.577 -2.142 0.691 75.574 0.033 98.119 0.434 83.84
37203.5 0.575 -11.642 0.682 67.202 0.032 125.532 0.437 81.631
37403.25 0.588 -15.411 0.665 58.485 0.042 108.432 0.448 78.828
37603 0.579 -21.229 0.641 49.671 0.033 111.857 0.445 73.869
37802.75 0.579 -30.488 0.624 41.769 0.037 97.702 0.463 70.823
38002.5 0.592 -37.057 0.6 33.806 0.039 102.116 0.468 68.178
38202.25 0.524 -45.323 0.581 26.187 0.037 99.399 0.486 61.632
38402 0.575 -50.313 0.548 19.03 0.026 72.649 0.539 56.212
38601.75 0.536 -56.992 0.547 13.143 0.029 84.218 0.47 50.181
38801.5 0.579 -70.406 0.529 5.718 0.023 73.222 0.517 39.138
39001.25 0.58 -73.231 0.503 -4.61 0.042 63.743 0.553 46
39201 0.539 -90.213 0.527 -10.836 0.028 73.026 0.558 26.157
39400.75 0.59 -86.396 0.522 -19.149 0.032 65.869 0.657 18.924
39600.5 0.554 -89.357 0.477 -21.027 0.024 81.085 0.513 15.447
39800.25 0.659 -108.015 0.415 -33.75 0.021 43.812 0.599 5.609
40000 0.55 -104.514 0.383 -41.872 0.03 40.889 0.665 7.084
