# MHZ S MA R 50

0.01 0.261 173.846 12.56 176.729 0.055 -1.662 0.189 172.756
50.01 0.26 173.491 12.585 174.997 0.055 -0.637 0.183 175.431
100.01 0.259 169.837 12.539 171.838 0.055 -0.578 0.18 175.342
150.01 0.259 165.463 12.462 168.066 0.055 -0.791 0.179 174.284
200.01 0.26 161.258 12.401 164.381 0.055 -0.971 0.183 172.781
250.01 0.26 157.239 12.324 160.837 0.055 -1.142 0.188 171.058
300.01 0.258 153.152 12.227 157.019 0.055 -1.376 0.187 169.967
350.01 0.259 149.024 12.12 153.401 0.055 -1.573 0.19 168.437
400.01 0.26 145.302 11.983 149.733 0.055 -1.649 0.193 167.298
450.01 0.262 141.692 11.876 146.261 0.055 -1.686 0.197 165.56
500.01 0.263 138.583 11.737 142.743 0.055 -1.933 0.203 164.184
550.009 0.264 135.315 11.62 139.324 0.056 -1.868 0.207 162.937
600.009 0.264 132.662 11.447 135.951 0.056 -1.99 0.214 161.421
650.009 0.265 129.84 11.305 132.558 0.056 -2.121 0.219 160.178
700.009 0.265 127.278 11.16 129.204 0.056 -2.171 0.225 158.697
750.009 0.265 124.929 11.009 125.99 0.056 -2.2 0.231 157.467
800.009 0.265 122.461 10.83 122.698 0.057 -2.268 0.237 156.016
850.009 0.266 120.557 10.681 119.504 0.057 -2.342 0.245 154.542
900.009 0.265 118.417 10.531 116.354 0.057 -2.319 0.251 153.437
950.009 0.265 116.718 10.357 113.206 0.058 -2.389 0.258 152.067
1000.009 0.265 114.983 10.205 110.144 0.058 -2.411 0.266 150.84
1050.009 0.266 113.529 10.023 107.119 0.059 -2.434 0.274 149.595
1100.009 0.264 112.187 9.87 104.115 0.059 -2.571 0.279 148.335
1150.009 0.264 110.925 9.725 101.124 0.06 -2.723 0.286 147.042
1200.009 0.264 109.629 9.552 98.225 0.06 -2.775 0.294 145.701
1250.009 0.263 108.56 9.392 95.41 0.061 -2.991 0.301 144.408
1300.009 0.264 107.956 9.242 92.563 0.061 -3.09 0.31 143.015
1350.009 0.261 106.859 9.083 89.765 0.062 -3.315 0.315 141.933
1400.009 0.261 106.248 8.92 87.009 0.063 -3.496 0.322 140.513
1450.009 0.261 105.425 8.778 84.269 0.063 -3.767 0.331 139.319
1500.008 0.26 105.009 8.631 81.581 0.064 -4.03 0.337 137.982
1550.008 0.258 104.542 8.483 78.888 0.065 -4.278 0.343 136.784
1600.008 0.257 103.845 8.332 76.295 0.066 -4.595 0.349 135.719
1650.008 0.258 103.464 8.2 73.658 0.067 -4.979 0.357 134.411
1700.008 0.256 102.901 8.059 71.122 0.068 -5.301 0.362 133.367
1750.008 0.256 102.689 7.916 68.59 0.068 -5.591 0.368 132.05
1800.008 0.255 102.449 7.776 66.157 0.069 -5.98 0.374 131.016
1850.008 0.253 102.207 7.655 63.611 0.07 -6.356 0.379 129.764
1900.008 0.252 101.642 7.533 61.149 0.071 -6.77 0.384 128.645
1950.008 0.25 101.417 7.401 58.628 0.072 -7.391 0.387 127.655
2000.008 0.252 101 7.286 56.287 0.073 -7.878 0.394 126.348
2050.008 0.249 100.934 7.164 53.912 0.074 -8.327 0.397 125.438
2100.008 0.247 100.671 7.055 51.536 0.075 -8.923 0.401 124.163
2150.008 0.245 100.194 6.938 49.293 0.076 -9.538 0.403 123.184
2200.008 0.244 100.119 6.84 46.852 0.078 -10.062 0.406 122.015
2250.008 0.242 99.382 6.733 44.582 0.079 -10.654 0.41 120.969
2300.008 0.24 99.36 6.619 42.288 0.08 -11.429 0.411 119.967
2350.008 0.238 99.002 6.518 39.994 0.081 -12.073 0.413 118.799
2400.008 0.235 98.441 6.428 37.707 0.083 -12.738 0.415 117.745
2450.008 0.233 97.725 6.331 35.444 0.084 -13.545 0.416 116.542
2500.007 0.231 97.1 6.232 33.216 0.085 -14.256 0.417 115.602
2550.007 0.228 96.636 6.139 30.998 0.086 -14.978 0.416 114.543
2600.007 0.226 96.072 6.053 28.814 0.088 -15.79 0.419 113.452
2650.007 0.223 95.399 5.979 26.611 0.089 -16.66 0.419 112.393
2700.007 0.221 94.541 5.891 24.427 0.091 -17.428 0.419 111.098
2750.007 0.219 94.102 5.809 22.244 0.092 -18.405 0.419 110.322
2800.007 0.216 93.056 5.73 20.078 0.093 -19.237 0.418 108.887
2850.007 0.214 92.021 5.663 17.844 0.095 -20.094 0.42 107.877
2900.007 0.212 90.712 5.586 15.601 0.096 -21.016 0.418 106.658
2950.007 0.21 89.659 5.51 13.49 0.098 -22.066 0.421 105.374
3000.007 0.208 88.716 5.432 11.361 0.099 -23.064 0.419 104.285
3050.007 0.205 87.794 5.369 9.189 0.1 -24.119 0.419 102.986
3100.007 0.204 86.197 5.308 6.998 0.102 -25.144 0.42 102.007
3150.007 0.204 84.953 5.241 4.791 0.103 -26.207 0.419 100.297
3200.007 0.204 83.702 5.168 2.686 0.105 -27.27 0.422 99.121
3250.007 0.203 82.155 5.108 0.541 0.106 -28.373 0.42 97.498
3300.007 0.203 80.899 5.042 -1.625 0.108 -29.582 0.422 96.104
3350.007 0.202 79.07 4.984 -3.798 0.109 -30.694 0.421 94.823
3400.007 0.204 77.341 4.933 -6.061 0.111 -31.88 0.425 92.972
3450.007 0.206 75.688 4.866 -8.202 0.112 -33.096 0.427 91.739
3500.006 0.207 74.363 4.805 -10.408 0.114 -34.361 0.427 89.745
3550.006 0.209 72.178 4.742 -12.588 0.115 -35.551 0.43 88.205
3600.006 0.211 70.324 4.685 -14.789 0.117 -36.805 0.432 86.317
3650.006 0.216 67.994 4.636 -16.987 0.118 -38.101 0.437 84.666
3700.006 0.221 66.198 4.578 -19.181 0.12 -39.364 0.44 82.807
3750.006 0.226 64.579 4.518 -21.393 0.121 -40.721 0.445 80.764
3800.006 0.231 62.405 4.459 -23.545 0.123 -42.054 0.448 79.091
3850.006 0.238 60.39 4.395 -25.8 0.124 -43.511 0.454 76.806
3900.006 0.245 58.344 4.34 -28.002 0.125 -44.786 0.46 75.04
3950.006 0.252 56.735 4.294 -30.215 0.127 -46.266 0.466 72.796
4000.006 0.262 54.637 4.226 -32.436 0.128 -47.53 0.473 70.784
4050.006 0.269 52.783 4.169 -34.661 0.129 -49.036 0.478 68.656
4100.006 0.278 50.749 4.109 -36.769 0.13 -50.51 0.486 66.634
4150.006 0.29 48.828 4.048 -39.01 0.131 -51.971 0.494 64.579
4200.006 0.302 47.211 3.986 -41.237 0.132 -53.395 0.503 62.317
4250.006 0.312 45.555 3.924 -43.397 0.133 -54.829 0.512 60.358
4300.006 0.324 43.905 3.874 -45.549 0.134 -56.253 0.522 58.226
4350.006 0.336 42.077 3.811 -47.73 0.135 -57.756 0.53 56.281
4400.006 0.348 40.353 3.746 -49.853 0.135 -59.127 0.539 54.122
4450.006 0.361 38.657 3.685 -51.953 0.136 -60.58 0.55 52.138
4500.005 0.373 37.175 3.618 -54.025 0.137 -62.018 0.559 50.253
4550.005 0.386 35.813 3.558 -56.131 0.137 -63.453 0.569 48.284
4600.005 0.4 34.238 3.499 -58.139 0.138 -64.804 0.579 46.369
4650.005 0.412 33.073 3.437 -60.099 0.138 -66.135 0.589 44.518
4700.005 0.423 31.623 3.377 -62.028 0.139 -67.441 0.597 42.695
4750.005 0.434 30.405 3.316 -63.931 0.139 -68.694 0.605 40.93
4800.005 0.446 29.2 3.257 -65.873 0.139 -70.052 0.614 39.193
4850.005 0.456 27.937 3.197 -67.719 0.14 -71.328 0.622 37.584
4900.005 0.466 26.991 3.144 -69.551 0.14 -72.519 0.629 36.021
4950.005 0.478 25.788 3.092 -71.322 0.14 -73.716 0.638 34.487
5000.005 0.487 24.765 3.039 -73.126 0.141 -74.922 0.645 32.938
5050.005 0.496 23.652 2.987 -74.863 0.141 -76.126 0.651 31.505
5100.005 0.505 22.651 2.935 -76.544 0.141 -77.239 0.657 30.095
5150.005 0.514 21.777 2.882 -78.232 0.142 -78.363 0.664 28.639
5200.005 0.521 20.903 2.834 -79.84 0.142 -79.451 0.668 27.33
5250.005 0.528 20.132 2.798 -81.469 0.143 -80.56 0.674 26.007
5300.005 0.534 19.173 2.755 -83.048 0.143 -81.555 0.679 24.822
5350.005 0.539 18.302 2.712 -84.665 0.144 -82.62 0.682 23.619
5400.005 0.544 17.406 2.669 -86.21 0.144 -83.652 0.685 22.502
5450.005 0.549 16.628 2.632 -87.717 0.144 -84.655 0.688 21.377
5500.005 0.552 15.875 2.599 -89.268 0.145 -85.699 0.691 20.234
5550.004 0.556 14.932 2.569 -90.791 0.146 -86.703 0.694 19.197
5600.004 0.559 14.006 2.536 -92.325 0.147 -87.758 0.696 18.082
5650.004 0.562 13.161 2.505 -93.815 0.148 -88.791 0.698 17.096
5700.004 0.564 12.436 2.474 -95.314 0.149 -89.821 0.698 16.031
5750.004 0.565 11.663 2.448 -96.767 0.149 -90.787 0.699 15.044
5800.004 0.565 10.745 2.426 -98.227 0.151 -91.778 0.699 14.072
5850.004 0.565 9.723 2.4 -99.745 0.152 -92.824 0.699 13.026
5900.004 0.565 8.821 2.378 -101.301 0.153 -93.893 0.698 12.078
5950.004 0.563 7.947 2.357 -102.806 0.154 -94.991 0.698 11.017
6000.004 0.561 6.885 2.339 -104.353 0.156 -96.103 0.697 10.043
6050.004 0.559 5.713 2.322 -105.976 0.157 -97.26 0.694 8.992
6100.004 0.558 4.599 2.307 -107.526 0.159 -98.308 0.694 8.107
6150.004 0.556 3.494 2.29 -109.184 0.16 -99.494 0.691 6.99
6200.004 0.553 2.334 2.276 -110.811 0.162 -100.707 0.689 5.921
6250.004 0.549 0.919 2.261 -112.497 0.163 -102.027 0.687 4.89
6300.004 0.546 -0.489 2.244 -114.207 0.165 -103.37 0.685 3.685
6350.004 0.544 -1.986 2.236 -115.91 0.167 -104.682 0.683 2.623
6400.004 0.54 -3.519 2.225 -117.699 0.169 -106.019 0.681 1.385
6450.004 0.536 -5.178 2.212 -119.499 0.171 -107.439 0.678 0.234
6500.004 0.532 -7.062 2.2 -121.37 0.172 -108.912 0.676 -1.008
6550.003 0.528 -9.023 2.189 -123.309 0.174 -110.455 0.674 -2.289
6600.003 0.527 -11.098 2.181 -125.231 0.176 -111.987 0.673 -3.605
6650.003 0.524 -13.138 2.167 -127.207 0.178 -113.566 0.672 -5.061
6700.003 0.521 -15.337 2.154 -129.194 0.179 -115.193 0.67 -6.432
6750.003 0.519 -17.707 2.14 -131.254 0.181 -116.87 0.67 -7.95
6800.003 0.519 -20.239 2.124 -133.33 0.182 -118.587 0.67 -9.51
6850.003 0.519 -22.679 2.108 -135.437 0.184 -120.35 0.67 -11.134
6900.003 0.52 -25.123 2.096 -137.593 0.185 -122.154 0.67 -12.889
6950.003 0.519 -27.873 2.08 -139.775 0.187 -123.971 0.671 -14.554
7000.003 0.523 -30.703 2.059 -142.05 0.188 -125.905 0.673 -16.471
7050.003 0.525 -33.621 2.039 -144.291 0.189 -127.799 0.676 -18.308
7100.003 0.53 -36.444 2.017 -146.578 0.189 -129.736 0.679 -20.233
7150.003 0.534 -39.301 1.994 -148.84 0.19 -131.716 0.682 -22.235
7200.003 0.541 -42.202 1.974 -151.144 0.191 -133.708 0.688 -24.208
7250.003 0.549 -45.139 1.947 -153.482 0.191 -135.697 0.693 -26.346
7300.003 0.557 -48.097 1.919 -155.789 0.191 -137.673 0.698 -28.411
7350.003 0.566 -50.835 1.887 -158.136 0.19 -139.691 0.703 -30.729
7400.003 0.575 -53.673 1.857 -160.366 0.19 -141.644 0.71 -32.687
7450.003 0.585 -56.449 1.824 -162.746 0.189 -143.71 0.715 -34.98
7500.003 0.598 -59.118 1.793 -165.071 0.188 -145.728 0.726 -37.188
7550.002 0.609 -61.695 1.758 -167.325 0.187 -147.676 0.732 -39.354
7600.002 0.622 -63.965 1.72 -169.504 0.185 -149.6 0.741 -41.527
7650.002 0.633 -66.281 1.684 -171.57 0.184 -151.399 0.747 -43.477
7700.002 0.646 -68.581 1.646 -173.734 0.182 -153.245 0.754 -45.839
7750.002 0.658 -70.8 1.607 -175.812 0.18 -155.042 0.763 -47.722
7800.002 0.671 -72.876 1.567 -177.881 0.178 -156.858 0.77 -49.903
7850.002 0.683 -74.782 1.527 -179.798 0.176 -158.53 0.779 -51.648
7900.002 0.697 -76.432 1.492 178.335 0.174 -160.156 0.787 -53.529
7950.002 0.709 -78.044 1.451 176.554 0.172 -161.68 0.795 -55.383
8000.002 0.72 -79.55 1.415 174.916 0.17 -163.094 0.801 -56.993
8050.002 0.732 -80.947 1.375 173.17 0.167 -164.584 0.808 -58.747
8100.002 0.742 -82.242 1.341 171.674 0.164 -165.799 0.815 -60.116
8150.002 0.752 -83.551 1.304 170.04 0.162 -167.183 0.82 -61.778
8200.002 0.762 -84.649 1.269 168.673 0.16 -168.261 0.827 -62.882
8250.002 0.771 -85.565 1.235 167.373 0.157 -169.26 0.831 -64.364
8300.002 0.78 -86.361 1.201 166.035 0.155 -170.344 0.838 -65.536
8350.002 0.787 -86.992 1.173 164.897 0.153 -171.233 0.841 -66.579
8400.002 0.797 -87.682 1.145 163.75 0.151 -172.088 0.849 -67.74
8450.002 0.803 -88.271 1.118 162.693 0.15 -172.949 0.852 -68.471
8500.002 0.808 -88.831 1.091 161.652 0.148 -173.77 0.856 -69.531
8550.001 0.814 -89.147 1.064 160.801 0.146 -174.347 0.861 -70.137
8600.001 0.819 -89.471 1.042 159.888 0.145 -175.104 0.862 -71.027
8650.001 0.824 -89.761 1.021 159.064 0.143 -175.646 0.867 -71.584
8700.001 0.827 -90.121 1.001 158.222 0.142 -176.168 0.868 -72.136
8750.001 0.833 -90.533 0.98 157.414 0.141 -176.747 0.871 -72.794
8800.001 0.838 -90.545 0.962 156.821 0.14 -177.155 0.873 -73.15
8850.001 0.84 -90.629 0.945 156.088 0.139 -177.561 0.875 -73.621
8900.001 0.841 -90.702 0.929 155.518 0.138 -178.013 0.876 -74.005
8950.001 0.846 -90.763 0.918 154.849 0.138 -178.356 0.878 -74.408
9000.001 0.848 -90.861 0.904 154.24 0.137 -178.823 0.879 -74.649
9050.001 0.85 -90.74 0.894 153.725 0.137 -179.095 0.877 -74.982
9100.001 0.851 -90.658 0.881 153.193 0.137 -179.348 0.878 -75.269
9150.001 0.849 -90.649 0.874 152.709 0.138 -179.558 0.876 -75.409
9200.001 0.849 -90.792 0.864 152.077 0.138 179.99 0.876 -75.8
9250.001 0.85 -90.679 0.857 151.63 0.138 179.879 0.875 -75.806
9300.001 0.847 -90.45 0.852 151.16 0.139 179.651 0.872 -76.136
9350.001 0.847 -90.508 0.847 150.537 0.14 179.269 0.871 -76.338
9400.001 0.847 -90.449 0.848 150.019 0.142 178.834 0.87 -76.639
9450.001 0.845 -90.68 0.843 149.369 0.143 178.413 0.869 -76.865
9500.001 0.843 -90.438 0.842 148.932 0.144 178.152 0.865 -76.8
9550 0.838 -90.556 0.845 148.177 0.146 177.568 0.862 -77.295
9600 0.835 -90.999 0.843 147.436 0.148 177.017 0.859 -77.595
9650 0.833 -90.823 0.842 146.87 0.149 176.585 0.858 -77.996
9700 0.826 -91.292 0.846 146.086 0.151 175.96 0.852 -77.884
9750 0.823 -91.942 0.85 145.187 0.154 175.223 0.847 -78.351
9800 0.82 -92.018 0.852 144.433 0.156 174.668 0.844 -78.695
9850 0.815 -92.286 0.858 143.579 0.159 174.045 0.836 -79.34
9900 0.81 -92.49 0.864 142.611 0.162 173.21 0.835 -80.014
9950 0.801 -93.119 0.87 141.747 0.165 172.606 0.827 -80.105
10000 0.793 -93.798 0.875 140.854 0.168 171.974 0.818 -80.23
