!Hittite Microwave Corporation								
!12 Elizabeth Drive								
!Chelmsford, MA 01824								
!Tel: 978-250-3343								
!Fax: 978-250-3373							 	
!Device: HMC415LP3, 4.9-5.9 GHz, GaAS InGaP HBT MMIC Power Amplifier in Leadless LP3 SMT Package								
!Misc: Input reference is the input pin of the device, output reference is the last component on output line, Vs=3V, Vpd=3V, Room							
!
# MHZ S MA R 50

1000 0.976 -48.024 0.036 -80.749 804.4e-6 175.191 0.801 -152.055
1045 0.973 -49.825 0.039 -84.443 457.3e-6 150.647 0.797 -155.503
1090 0.972 -51.437 0.042 -85.566 477.4e-6 -176.436 0.795 -158.927
1135 0.968 -52.739 0.047 -85.327 851.1e-6 140.653 0.794 -162.255
1180 0.966 -54.364 0.053 -89.425 421.3e-6 162.355 0.789 -165.468
1225 0.961 -56.049 0.058 -88.634 532.9e-6 167.106 0.786 -168.819
1270 0.958 -57.129 0.067 -88.917 621.1e-6 173.063 0.782 -172.166
1315 0.954 -58.51 0.075 -89.828 595.9e-6 158.542 0.777 -175.376
1360 0.952 -59.96 0.084 -89.105 1.219e-3 162.445 0.771 -178.663
1405 0.948 -61.004 0.1 -90.288 635.4e-6 158.522 0.765 178.156
1450 0.943 -62.517 0.113 -92.627 865.8e-6 -176.717 0.758 175
1495 0.94 -63.875 0.133 -92.244 851.8e-6 171.146 0.753 171.686
1540 0.935 -64.757 0.155 -95.975 774.8e-6 157.055 0.747 168.347
1585 0.931 -66.266 0.175 -97.182 1.171e-3 172.808 0.74 165.173
1630 0.928 -67.538 0.207 -99.235 1.114e-3 -178.955 0.732 161.83
1675 0.922 -68.473 0.239 -103.773 1.304e-3 153.567 0.725 158.683
1720 0.916 -70.013 0.278 -105.478 1.17e-3 142.742 0.718 155.257
1765 0.912 -71.286 0.325 -109.447 1.046e-3 161.943 0.71 151.964
1810 0.907 -72.122 0.372 -114.805 1.305e-3 164.935 0.705 148.475
1855 0.9 -73.73 0.432 -119.277 1.411e-3 143.123 0.697 144.965
1900 0.897 -75.352 0.486 -126.314 1.223e-3 162.386 0.688 141.569
1945 0.891 -76.245 0.513 -131.149 1.924e-3 146.541 0.68 137.642
1990 0.884 -77.981 0.586 -134.109 1.775e-3 152.891 0.671 134.397
2035 0.877 -79.649 0.671 -139.867 1.987e-3 155.733 0.664 130.905
2080 0.869 -80.96 0.697 -145.872 1.811e-3 155.858 0.655 127.211
2125 0.86 -82.833 0.782 -149.275 2.307e-3 147.735 0.649 123.461
2170 0.851 -84.79 0.863 -156.485 2.177e-3 158.175 0.641 119.83
2215 0.843 -86.281 0.914 -160.843 2.02e-3 146.707 0.632 116.378
2260 0.83 -88.416 1.005 -165.343 2.042e-3 153.217 0.626 113.227
2305 0.821 -90.656 1.062 -171.289 2.942e-3 146.061 0.619 109.3
2350 0.809 -92.584 1.113 -173.37 2.736e-3 146.76 0.618 105.857
2395 0.793 -94.978 1.256 -179.741 2.653e-3 141.519 0.612 102.281
2440 0.78 -97.434 1.3 173.68 2.992e-3 140.53 0.605 98.549
2485 0.764 -99.748 1.364 171.078 3.116e-3 130.168 0.599 94.585
2530 0.747 -102.489 1.529 166.932 3.079e-3 144.792 0.592 91.009
2575 0.728 -105.213 1.533 159.841 2.959e-3 130.141 0.586 87.573
2620 0.71 -107.915 1.592 157.677 3.33e-3 129.817 0.579 84.113
2665 0.689 -111.274 1.763 152.564 3.333e-3 130.194 0.572 80.786
2710 0.67 -114.426 1.81 147.128 3.32e-3 127.048 0.562 77.949
2755 0.647 -117.499 1.91 143.709 3.072e-3 119.009 0.558 75.252
2800 0.625 -121.281 2.017 138.071 3.089e-3 128.021 0.565 73.481
2845 0.604 -124.882 1.946 135.263 3.428e-3 107.803 0.565 70.029
2890 0.58 -128.544 2.149 134.633 2.752e-3 118.693 0.574 66.731
2935 0.558 -132.794 2.379 125.887 3.221e-3 125.047 0.575 63.837
2980 0.536 -137.127 2.307 122.415 2.938e-3 117.465 0.573 60.255
3025 0.512 -141.349 2.49 122.314 3.382e-3 122.234 0.573 57.366
3070 0.488 -146.243 2.644 113.408 3.739e-3 115.068 0.567 54.334
3115 0.468 -150.963 2.62 112.17 3.449e-3 115.64 0.569 51.654
3160 0.445 -155.905 2.819 106.828 3.429e-3 122.088 0.565 49.394
3205 0.425 -161.398 2.858 100.858 4.3e-3 117.208 0.563 46.662
3250 0.407 -166.548 2.903 101.821 3.744e-3 117.241 0.563 44.384
3295 0.387 -171.698 3.285 97.272 3.798e-3 112.242 0.561 42.051
3340 0.371 -177.802 3.116 88.495 4.042e-3 105.625 0.559 40.016
3385 0.358 177.103 3.198 89.716 3.907e-3 101.116 0.556 37.905
3430 0.341 171.534 3.498 84.976 4.177e-3 113.066 0.554 35.76
3475 0.33 165.346 3.534 79.461 3.957e-3 102.811 0.551 33.972
3520 0.321 160.316 3.592 78.514 4.101e-3 97.784 0.548 32.058
3565 0.309 155.337 3.788 73.429 4.419e-3 99.379 0.545 30.397
3610 0.301 149.341 3.688 71.003 3.684e-3 96.293 0.54 28.722
3655 0.295 145.037 4.054 68.692 3.822e-3 95.392 0.537 27.124
3700 0.284 140.683 4.285 62.035 3.885e-3 93.715 0.53 25.686
3745 0.277 135.486 4.12 59.349 3.775e-3 90.719 0.523 24.299
3790 0.271 131.823 4.345 60.127 3.762e-3 96.227 0.522 23.317
3835 0.26 127.986 4.624 53.279 3.882e-3 91.249 0.519 22.032
3880 0.254 123.699 4.695 50.475 3.619e-3 90.405 0.513 20.979
3925 0.245 121.295 4.886 47.157 3.98e-3 89.197 0.507 19.969
3970 0.233 117.943 5.125 43.786 3.654e-3 99.396 0.5 18.938
4015 0.224 114.686 5.254 41.43 3.229e-3 92 0.495 18.03
4060 0.213 113.225 5.617 38.123 3.173e-3 95.073 0.489 17.377
4105 0.198 110.353 5.708 31.002 3.08e-3 97.462 0.482 16.721
4150 0.188 108.036 5.821 28.771 3.444e-3 101.911 0.476 15.908
4195 0.174 108.395 6.205 27.571 3.279e-3 94.011 0.47 15.386
4240 0.156 107.473 6.638 21.248 3.312e-3 95.978 0.463 14.915
4285 0.144 107.359 6.574 17.001 3.506e-3 101.191 0.458 14.332
4330 0.128 110.241 6.955 14.103 3.186e-3 105.453 0.452 14.004
4375 0.108 112.243 7.216 8.054 3.246e-3 108.234 0.445 13.347
4420 0.095 115.777 7.349 4.857 2.507e-3 123.257 0.442 12.838
4465 0.083 127.358 7.97 1.609 3.338e-3 112.859 0.436 12.257
4510 0.071 141.841 7.957 -6.28 3.298e-3 119.03 0.43 11.647
4555 0.069 157.041 7.906 -7.179 3.101e-3 121.001 0.426 10.862
4600 0.078 174.479 8.726 -12.154 4.143e-3 124.146 0.421 10.13
4645 0.089 -171.275 8.927 -19.439 4.2e-3 124.291 0.414 9.39
4690 0.107 -164.863 8.914 -22.067 4.306e-3 125.453 0.408 8.213
4735 0.133 -159.602 9.532 -27.197 4.917e-3 127.953 0.4 6.337
4780 0.156 -155.728 9.275 -33.472 5.68e-3 127.228 0.392 4.403
4825 0.178 -155.172 9.88 -35.861 5.343e-3 129.959 0.383 2.587
4870 0.205 -154.994 10.255 -44.356 6.032e-3 123.624 0.368 0.238
4915 0.229 -154.318 10.004 -48.794 5.757e-3 126.896 0.354 -3.021
4960 0.251 -154.943 10.525 -51.386 6.049e-3 126.484 0.338 -5.826
5005 0.276 -156.311 10.895 -59.321 6.962e-3 124.369 0.318 -9.061
5050 0.299 -157.463 10.576 -64.779 7.25e-3 120.561 0.298 -13.538
5095 0.32 -159.057 11.034 -69.851 8.151e-3 123.469 0.275 -18.319
5140 0.342 -160.96 11.016 -76.199 8.63e-3 115.161 0.247 -23.956
5185 0.36 -162.291 11.012 -80.479 8.306e-3 114.151 0.223 -31.828
5230 0.374 -164.528 11.382 -87.024 9.359e-3 112.936 0.194 -40.198
5275 0.39 -166.579 10.941 -93.451 9.819e-3 111.029 0.164 -53.452
5320 0.4 -168.383 11.059 -97.254 9.666e-3 105.406 0.144 -70.886
5365 0.409 -170.585 11.179 -104.928 0.011 107.312 0.129 -92.169
5410 0.418 -172.782 10.81 -110.503 0.011 98.327 0.132 -117.361
5455 0.423 -174.397 10.84 -115.059 0.011 99.291 0.152 -139.738
5500 0.424 -175.935 10.624 -122.063 0.012 95.787 0.184 -158
5545 0.422 -177.919 10.38 -126.477 0.012 88.463 0.229 -171.171
5590 0.422 -179.277 10.268 -133.464 0.012 88.826 0.271 179.285
5635 0.417 179.726 9.666 -138.382 0.013 85.778 0.317 169.822
5680 0.411 178.263 9.678 -142.819 0.012 79.071 0.369 162.818
5725 0.407 177.239 9.514 -150.412 0.013 79.108 0.412 157.079
5770 0.401 177.02 8.714 -154.804 0.013 75.746 0.456 151.092
5815 0.393 176.443 8.639 -158.183 0.012 72.687 0.5 145.971
5860 0.387 176.3 8.305 -165.31 0.013 69.08 0.537 141.278
5905 0.378 176.255 7.765 -169.189 0.012 61.291 0.575 136.84
5950 0.373 175.807 7.579 -173.712 0.012 65.008 0.607 133.005
5995 0.37 176.024 7.051 -179.189 0.012 59.591 0.633 129.232
6040 0.364 176.127 6.736 179.313 0.012 56.533 0.663 125.475
6085 0.361 175.89 6.619 173.745 0.011 55.185 0.689 122.789
6130 0.36 176.252 5.985 168.53 0.012 52.12 0.707 119.777
6175 0.355 176.125 5.692 167.829 0.011 53.019 0.728 116.573
6220 0.353 175.389 5.656 163.356 0.011 48.496 0.746 114.231
6265 0.354 175.042 5.142 159.006 0.011 52.886 0.761 111.736
6310 0.351 174.478 4.935 158.249 0.011 46.869 0.776 109.375
6355 0.353 173.486 4.749 153.569 0.011 45.539 0.788 107.379
6400 0.354 172.987 4.392 151.804 0.011 45.984 0.798 105.044
6445 0.35 172.055 4.323 149.76 0.01 47.55 0.81 103.068
6490 0.35 170.168 4.092 145.221 0.01 42.531 0.818 101.356
6535 0.352 169.114 3.813 144.639 0.01 43.689 0.826 99.22
6580 0.349 167.618 3.744 142.642 9.995e-3 42.442 0.835 97.426
6625 0.351 165.376 3.554 139.276 0.01 41.556 0.842 95.868
6670 0.354 163.813 3.38 137.849 0.01 41.249 0.848 94.069
6715 0.353 161.812 3.265 135.655 9.524e-3 41.225 0.852 92.617
6760 0.355 159.488 3.131 133.669 9.879e-3 40.089 0.856 90.965
6805 0.355 157.76 3.013 131.532 9.594e-3 38.132 0.861 89.032
6850 0.355 154.957 2.89 129.865 9.603e-3 38.305 0.865 87.838
6895 0.36 152.297 2.809 127.916 0.01 37.696 0.868 86.403
6940 0.364 150.305 2.683 125.538 9.899e-3 36.148 0.869 84.599
6985 0.364 147.509 2.579 124.401 9.704e-3 35.311 0.873 83.324
7030 0.37 144.975 2.518 122.294 9.943e-3 35.234 0.873 81.777
7075 0.372 142.674 2.411 120.076 9.688e-3 32.346 0.875 80.325
7120 0.376 139.949 2.344 118.841 0.01 29.851 0.876 79.121
7165 0.381 137.182 2.27 116.121 0.01 33.541 0.876 77.292
7210 0.386 134.841 2.147 115.32 9.623e-3 32.32 0.879 75.935
7255 0.391 132.15 2.114 113.996 0.01 30.576 0.878 74.867
7300 0.398 129.721 2.06 110.716 9.648e-3 29.016 0.876 73.177
7345 0.402 127.547 1.953 109.115 9.305e-3 22.875 0.88 71.666
7390 0.408 124.713 1.903 108.888 8.89e-3 20.558 0.879 70.456
7435 0.417 121.913 1.857 106.435 8.971e-3 23.505 0.881 68.756
7480 0.421 119.46 1.782 104.178 9.362e-3 19.648 0.882 67.405
7525 0.427 117.052 1.697 102.559 9.488e-3 19.839 0.88 65.787
7570 0.433 115.283 1.649 100.812 9.06e-3 19.142 0.88 63.962
7615 0.435 113.56 1.581 100.875 8.759e-3 20.835 0.883 62.623
7660 0.439 111.507 1.568 99.779 9.297e-3 18.689 0.881 61.267
7705 0.443 110.665 1.5 97.085 8.443e-3 14.965 0.881 59.391
7750 0.448 110.45 1.399 96.452 8.469e-3 21.682 0.882 57.78
7795 0.47 110.143 1.408 97.917 8.308e-3 19.457 0.88 56.223
7840 0.504 108.906 1.44 94.569 7.541e-3 19.469 0.88 54.433
7885 0.529 106.188 1.367 93.479 7.676e-3 20.739 0.881 52.671
7930 0.545 102.831 1.331 92.322 7.561e-3 25.032 0.879 50.944
7975 0.554 100.194 1.305 90.754 7.383e-3 24.654 0.878 49.213
8020 0.555 97.77 1.281 89.035 8.075e-3 29.185 0.878 47.699
8065 0.562 95.339 1.31 85.776 8.341e-3 29.766 0.878 45.709
8110 0.572 93.812 1.214 82.701 8.587e-3 26.121 0.88 43.285
8155 0.577 92.622 1.159 86.121 9.728e-3 26.621 0.881 41.541
8200 0.581 90.92 1.184 82.104 9.332e-3 21.004 0.881 39.754
8245 0.588 89.213 1.133 77.933 9.108e-3 16.543 0.882 37.274
8290 0.592 87.602 1.08 78.202 9.928e-3 12.622 0.879 34.727
8335 0.599 85.858 1.065 75.713 9.458e-3 12.843 0.883 32.438
8380 0.607 84.846 1.033 78.055 9.638e-3 13.505 0.881 30.532
8425 0.613 83.946 1.054 75.528 9.349e-3 8.528 0.876 28.237
8470 0.62 82.392 0.963 70.152 8.842e-3 9.732 0.877 25.082
8515 0.624 81.368 0.923 71.627 9.261e-3 11.677 0.876 22.434
8560 0.626 79.889 0.989 73.561 8.926e-3 3.221 0.871 20.291
8605 0.634 77.953 0.969 67.276 8.636e-3 4.036 0.87 17.428
8650 0.641 77.034 0.943 67.154 9.505e-3 -2.136 0.87 14.232
8695 0.641 76.07 0.875 63.391 0.01 0.561 0.868 11.002
8740 0.646 74.628 0.852 64.97 0.01 6.83 0.867 8.724
8785 0.65 73.275 0.912 60.678 8.53e-3 0.048 0.864 5.393
8830 0.654 72.375 0.857 58.251 9.389e-3 -2.879 0.863 2.254
8875 0.657 71.216 0.802 58.359 9.011e-3 -2.641 0.861 -1.245
8920 0.663 70.27 0.808 55.724 8.458e-3 -3.425 0.86 -4.9
8965 0.664 68.923 0.746 54.613 7.736e-3 -11.277 0.854 -8.311
9010 0.672 67.665 0.808 52.881 9.079e-3 -1.149 0.858 -11.438
9055 0.677 67.218 0.76 45.446 8.38e-3 -8.514 0.851 -15.223
9100 0.677 65.984 0.672 52.269 9.157e-3 -7.191 0.854 -18.938
9145 0.68 64.613 0.781 49.924 8.902e-3 -9.686 0.853 -22.546
9190 0.683 63.354 0.69 38.44 9.244e-3 -9.96 0.852 -26.389
9235 0.687 62.333 0.636 42.767 8.917e-3 -7.623 0.848 -30.351
9280 0.691 61.414 0.652 38.465 8.784e-3 -12.635 0.848 -34.981
9325 0.692 60.9 0.62 40.216 9.275e-3 -10.164 0.852 -39.195
9370 0.693 59.895 0.648 40.067 9.556e-3 -17.883 0.852 -42.123
9415 0.693 58.482 0.599 27.998 0.01 -22.222 0.85 -46.261
9460 0.697 57.507 0.483 32.468 0.011 -20.312 0.849 -51.561
9505 0.697 56.873 0.602 38.334 0.011 -34.136 0.853 -55.276
9550 0.698 56.225 0.565 23.014 0.01 -35.076 0.854 -58.88
9595 0.704 55.869 0.489 28.668 9.685e-3 -42.372 0.852 -63.185
9640 0.711 55.307 0.511 28.748 7.392e-3 -54.082 0.856 -67.694
9685 0.715 54.369 0.453 23.354 7.538e-3 -51.826 0.859 -72.077
9730 0.72 53.51 0.49 25.77 7.059e-3 -54.77 0.864 -75.605
9775 0.719 52.295 0.496 16.37 5.812e-3 -47.55 0.865 -79.265
9820 0.72 51.173 0.392 17.937 6.09e-3 -40.453 0.867 -84.152
9865 0.724 50.219 0.436 24.527 5.729e-3 -47.513 0.876 -88.126
9910 0.725 49.807 0.459 13.158 6.233e-3 -34.982 0.877 -91.131
9955 0.723 49.055 0.364 10.262 6.004e-3 -36.028 0.877 -94.999
10000 0.724 47.757 0.385 12.355 5.479e-3 -48.595 0.882 -99.152
