!Hittite Microwave Corporation								
!12 Elizabeth Drive								
!Chelmsford, MA 01824								
!Tel: 978-250-3343								
!Fax: 978-250-3373							
!Device: HMC413QS8G, 1.7-2.2 GHz GaAs InGap HBT MMIC Power Amplifier in 16-lead Grounded Base surface Mount Plastic Package							
!Misc: Input reference is the input pin of the device, output reference is the last component on output line, Vs=5V, Vpd=3.6V, Room							
!
# MHZ S MA R 50

1000 0.888 -137.978 1.494 113.995 871.2e-6 92.497 0.738 124.447
1035 0.873 -143.249 1.713 110.519 993.6e-6 74.1 0.728 118.416
1070 0.855 -148.418 1.99 107.564 1.036e-3 78.451 0.715 112.364
1105 0.834 -153.617 2.347 103.204 939.4e-6 89.401 0.701 106.185
1140 0.811 -158.781 2.758 97.541 1.148e-3 62.276 0.685 100.019
1175 0.787 -163.916 3.198 92.384 850e-6 55.486 0.669 93.752
1210 0.759 -168.869 3.856 85.833 832.2e-6 44.075 0.65 87.447
1245 0.732 -173.775 4.485 77.052 1.014e-3 45.399 0.631 80.973
1280 0.706 -178.595 5.139 68.649 1.252e-3 34.03 0.609 74.464
1315 0.68 176.606 5.936 60.304 1.19e-3 34.477 0.586 67.855
1350 0.654 171.822 6.818 50.285 992.7e-6 33.664 0.56 61.058
1385 0.627 166.744 7.567 39.61 682.7e-6 2.543 0.535 54.203
1420 0.598 161.483 8.28 30.694 1.105e-3 -11.49 0.508 47.285
1455 0.564 156.092 9.382 20.709 845.3e-6 0.463 0.481 39.876
1490 0.525 150.559 10.212 8.901 886.4e-6 -24.148 0.454 32.372
1525 0.48 144.896 10.875 -1.195 545.7e-6 -24.685 0.426 24.436
1560 0.431 139.542 11.871 -11.572 730.1e-6 -37.09 0.4 15.863
1595 0.377 135.048 12.592 -23.786 742.1e-6 -48.049 0.373 6.799
1630 0.32 131.973 13.049 -34.439 717.4e-6 -57.563 0.346 -3.233
1665 0.264 131.223 13.689 -44.667 532.9e-6 -146.608 0.322 -13.72
1700 0.215 134.438 14.182 -56.244 574.2e-6 -174.164 0.299 -25.83
1735 0.178 143.382 14.34 -67.252 908.9e-6 -159.597 0.279 -39.147
1770 0.162 157.371 14.472 -77.408 707.4e-6 176.299 0.264 -53.427
1805 0.17 170.866 14.719 -87.85 723.5e-6 109.149 0.256 -68.584
1840 0.198 178.728 14.475 -98.579 1.198e-3 122.549 0.253 -84.854
1875 0.233 -178.103 14.312 -107.656 1.377e-3 124.306 0.26 -101.037
1910 0.267 -178.13 14.242 -117.445 1.42e-3 110.967 0.271 -116.434
1945 0.299 179.66 13.839 -127.313 1.455e-3 84.238 0.289 -131.089
1980 0.329 176.291 13.439 -135.432 1.625e-3 92.497 0.311 -144.687
2015 0.355 172.34 13.195 -144.426 1.337e-3 75.068 0.337 -157.213
2050 0.376 168.011 12.775 -153.276 1.469e-3 59.441 0.363 -168.558
2085 0.393 163.214 12.086 -161.412 1.654e-3 65.08 0.389 -179.692
2120 0.407 158.364 11.706 -168.284 1.402e-3 51.303 0.413 170.049
2155 0.415 153.666 11.15 -175.919 1.33e-3 50.893 0.423 159.563
2190 0.417 149.327 10.43 178.351 869.6e-6 59.184 0.418 150.459
2225 0.426 146.049 10.617 173.988 1.258e-3 82.286 0.425 150.987
2260 0.437 141.787 10.806 166.241 2.574e-3 72.945 0.461 147.101
2295 0.444 136.888 10.341 156.896 2.648e-3 55.642 0.51 139.997
2330 0.447 132.152 9.798 150.305 2.807e-3 45.688 0.543 133.256
2365 0.447 127.236 9.607 144.313 2.754e-3 43.276 0.572 126.248
2400 0.447 122.635 9.228 135.483 2.808e-3 29.045 0.599 120.019
2435 0.444 118.123 8.649 130.335 2.508e-3 30.235 0.618 113.749
2470 0.44 113.467 8.33 124.759 2.71e-3 17.363 0.641 107.685
2505 0.437 108.931 8.124 118.72 2.777e-3 21.599 0.658 101.903
2540 0.431 104.527 7.719 111.67 2.775e-3 14.503 0.675 96.198
2575 0.425 100.101 7.244 106.897 2.978e-3 9.762 0.69 90.592
2610 0.419 95.573 7.077 103.029 3.316e-3 4.869 0.704 85.07
2645 0.413 91.265 6.967 95.878 2.979e-3 1.126 0.716 79.977
2680 0.406 87.032 6.481 90.153 3.128e-3 -4.925 0.727 74.739
2715 0.398 82.738 6.213 86.392 3.057e-3 -3.13 0.74 69.557
2750 0.391 78.448 6.124 81.779 3.326e-3 -7.277 0.75 64.529
2785 0.384 74.348 5.964 75.051 2.936e-3 -23.985 0.76 59.484
2820 0.376 70.307 5.521 69.729 2.9e-3 -19.098 0.767 54.556
2855 0.368 66.132 5.361 66.911 3.298e-3 -26.96 0.775 49.628
2890 0.361 62.208 5.275 61.331 2.943e-3 -31.699 0.783 44.747
2925 0.354 58.417 4.978 55.907 3.262e-3 -31.875 0.79 39.905
2960 0.346 54.597 4.731 53.155 3.441e-3 -30.639 0.796 35.069
2995 0.339 50.699 4.779 49.601 3.45e-3 -33.185 0.802 30.272
3030 0.333 47.148 4.653 42.486 3.459e-3 -35.359 0.806 25.538
3065 0.326 43.665 4.308 38.166 3.242e-3 -41.69 0.811 20.753
3100 0.319 40.171 4.26 36.41 3.326e-3 -40.845 0.815 15.921
3135 0.314 36.803 4.28 29.773 3.871e-3 -51.411 0.821 11.186
3170 0.309 33.702 4.002 24.782 3.767e-3 -55.09 0.825 6.419
3205 0.303 30.686 3.854 21.694 3.716e-3 -51.516 0.829 1.565
3240 0.298 27.638 3.877 18.366 3.691e-3 -56.144 0.832 -3.27
3275 0.294 24.804 3.833 11.17 3.796e-3 -60.412 0.835 -8.107
3310 0.29 22.232 3.549 6.303 3.424e-3 -59.28 0.839 -12.981
3345 0.286 19.698 3.465 4.619 3.149e-3 -60.817 0.842 -17.873
3380 0.283 17.144 3.544 -1.611 3.58e-3 -68.262 0.845 -22.842
3415 0.28 14.946 3.268 -7.45 3.451e-3 -63.081 0.848 -27.76
3450 0.278 12.911 3.191 -9.816 3.446e-3 -74.75 0.85 -32.78
3485 0.276 10.894 3.169 -14.435 3.47e-3 -77.13 0.853 -37.77
3520 0.275 8.953 3.091 -20.736 3.404e-3 -80.191 0.856 -42.862
3555 0.274 7.297 2.89 -25.058 3.466e-3 -86.244 0.859 -47.929
3590 0.274 5.699 2.842 -27.665 3.178e-3 -89.445 0.862 -53.12
3625 0.275 4.041 2.84 -33.679 3.409e-3 -89.207 0.864 -58.352
3660 0.277 2.677 2.674 -39.743 3.302e-3 -94.686 0.867 -63.597
3695 0.279 1.366 2.556 -43.096 3.627e-3 -97.34 0.868 -68.859
3730 0.281 -0.012 2.501 -47.269 3.669e-3 -99.629 0.871 -74.213
3765 0.284 -1.388 2.441 -52.843 3.786e-3 -103.656 0.875 -79.615
3800 0.288 -2.586 2.268 -57.736 3.739e-3 -104.556 0.877 -84.918
3835 0.293 -3.849 2.215 -60.296 3.512e-3 -110.883 0.88 -90.374
3870 0.298 -5.146 2.172 -65.747 3.146e-3 -114.96 0.882 -95.949
3905 0.304 -6.426 2.055 -70.558 3.328e-3 -114.746 0.886 -101.464
3940 0.31 -7.654 1.983 -74.461 3.641e-3 -112.579 0.889 -106.963
3975 0.316 -9.005 1.908 -79.184 3.53e-3 -117.53 0.89 -112.612
4010 0.324 -10.523 1.835 -83.412 3.662e-3 -125.677 0.895 -118.191
4045 0.332 -12.001 1.753 -88.006 3.33e-3 -133.846 0.897 -123.871
4080 0.34 -13.488 1.679 -92.04 3.034e-3 -126.953 0.899 -129.487
4115 0.349 -15.153 1.611 -96.506 3.062e-3 -135.399 0.903 -135.247
4150 0.357 -17.004 1.535 -100.691 3.034e-3 -129.352 0.906 -140.975
4185 0.366 -18.761 1.472 -104.883 2.727e-3 -134.696 0.909 -146.625
4220 0.374 -20.653 1.39 -109.145 3.326e-3 -125.992 0.912 -152.405
4255 0.38 -22.49 1.323 -112.371 3.453e-3 -119.959 0.913 -158.325
4290 0.386 -24.125 1.269 -116.033 3.952e-3 -128.592 0.913 -164.146
4325 0.393 -25.497 1.217 -119.462 4.401e-3 -139.012 0.913 -169.84
4360 0.401 -26.885 1.171 -122.776 4.349e-3 -142.96 0.913 -175.561
4395 0.411 -28.426 1.136 -126.857 5.063e-3 -150.22 0.912 178.788
4430 0.422 -30.063 1.095 -131.293 4.599e-3 -160.534 0.911 173.258
4465 0.433 -31.786 1.05 -135.323 4.26e-3 -168.1 0.912 167.621
4500 0.443 -33.751 1.006 -139.272 4.154e-3 -176.584 0.913 162.078
4535 0.454 -35.774 0.963 -143.349 4.123e-3 -171.389 0.915 156.802
4570 0.465 -38.029 0.918 -147.797 4.081e-3 177.193 0.915 150.998
4605 0.475 -39.579 0.876 -151.406 3.55e-3 -178.72 0.916 145.739
4640 0.482 -41.742 0.833 -155.541 3.575e-3 171.149 0.914 139.889
4675 0.493 -43.839 0.797 -159.275 3.781e-3 165.277 0.916 134.585
4710 0.501 -45.986 0.76 -163.471 3.671e-3 165.043 0.915 128.969
4745 0.511 -48.147 0.718 -167.824 3.147e-3 164.285 0.915 123.512
4780 0.521 -50.332 0.679 -170.639 3.349e-3 158.622 0.915 118.11
4815 0.53 -52.509 0.657 -174.895 2.799e-3 152.798 0.915 112.762
4850 0.538 -54.687 0.617 -179.238 2.752e-3 148.29 0.914 107.315
4885 0.546 -56.997 0.581 177.389 2.673e-3 140.981 0.913 101.939
4920 0.554 -59.238 0.555 174.152 2.549e-3 146.689 0.913 96.565
4955 0.562 -61.523 0.528 169.744 2.426e-3 143.353 0.911 91.268
4990 0.569 -63.844 0.495 165.804 2.438e-3 153.74 0.91 85.859
5025 0.576 -66.239 0.464 163.13 2.241e-3 133.293 0.909 80.475
5060 0.584 -68.584 0.45 159.708 2.474e-3 136.219 0.909 75.169
5095 0.59 -70.908 0.422 155.089 2.584e-3 133.233 0.908 69.808
5130 0.597 -73.324 0.393 151.481 2.292e-3 130.763 0.905 64.414
5165 0.603 -75.752 0.372 149.359 2.198e-3 129.068 0.905 59.014
5200 0.61 -78.101 0.36 144.477 2.141e-3 127.557 0.904 53.655
5235 0.616 -80.524 0.329 140.173 2.106e-3 131.814 0.901 48.268
5270 0.622 -83.016 0.307 138.4 2.228e-3 126.903 0.9 42.865
5305 0.628 -85.471 0.299 134.629 1.93e-3 118.016 0.899 37.437
5340 0.634 -87.952 0.276 129.455 1.858e-3 119.731 0.898 32.017
5375 0.639 -90.493 0.256 126.572 1.961e-3 122.64 0.897 26.572
5410 0.644 -93.059 0.238 123.866 1.924e-3 111.819 0.897 21.032
5445 0.65 -95.609 0.23 119.959 1.548e-3 107.338 0.896 15.593
5480 0.656 -98.175 0.209 114.597 1.444e-3 109.304 0.895 10.042
5515 0.661 -100.752 0.191 113.14 1.745e-3 93.487 0.895 4.419
5550 0.667 -103.349 0.184 109.39 1.73e-3 88.748 0.895 -1.088
5585 0.672 -105.998 0.167 103.096 1.313e-3 106.099 0.894 -6.694
5620 0.677 -108.703 0.149 101.339 1.235e-3 102.362 0.895 -12.407
5655 0.683 -111.405 0.139 98.375 1.188e-3 99.77 0.896 -18.081
5690 0.688 -114.05 0.129 94.468 1.122e-3 99.852 0.897 -23.755
5725 0.693 -116.722 0.115 89.52 1.431e-3 76.396 0.898 -29.42
5760 0.699 -119.511 0.101 87.589 1.207e-3 57.776 0.898 -35.103
5795 0.704 -122.275 0.093 85.13 1.11e-3 64.018 0.9 -40.879
5830 0.709 -124.951 0.084 79.406 554.6e-6 38.268 0.902 -46.57
5865 0.715 -127.706 0.07 77.01 704.1e-6 64.613 0.903 -52.251
5900 0.72 -130.552 0.061 76.089 675.7e-6 72.604 0.906 -58
5935 0.725 -133.385 0.055 73.371 538.9e-6 46.33 0.908 -63.764
5970 0.731 -136.17 0.046 68.386 784.2e-6 72.545 0.912 -69.39
6005 0.736 -138.991 0.036 69.449 514e-6 86.752 0.915 -75.035
6040 0.741 -141.802 0.027 70.569 239.4e-6 100.777 0.917 -80.678
6075 0.746 -144.601 0.018 71.695 34.38e-6 -65.193 0.92 -86.318
6110 0.751 -147.387 8.216e-3 72.826 307.2e-6 -51.158 0.922 -91.955
6145 0.756 -150.16 1.05e-3 -106.036 579e-6 -37.116 0.925 -97.586
6180 0.761 -152.918 0.01 -104.891 849.6e-6 -23.067 0.928 -103.212
6215 0.767 -155.663 0.019 -103.738 1.119e-3 -9.01 0.93 -108.83
6250 0.772 -158.392 0.029 -102.576 1.387e-3 5.056 0.933 -114.441
6285 0.777 -161.105 0.038 -101.404 1.654e-3 19.131 0.936 -120.044
6320 0.782 -163.803 0.047 -100.223 1.919e-3 33.217 0.938 -125.638
6355 0.787 -166.484 0.056 -99.031 2.182e-3 47.313 0.941 -131.223
6390 0.792 -169.148 0.065 -97.828 2.444e-3 61.42 0.943 -136.798
6425 0.797 -171.796 0.074 -96.614 2.705e-3 75.538 0.946 -142.362
6460 0.802 -174.427 0.082 -95.388 2.964e-3 89.668 0.949 -147.916
6495 0.807 -177.04 0.091 -94.149 3.221e-3 103.811 0.951 -153.46
6530 0.812 -179.636 0.1 -92.899 3.477e-3 117.965 0.954 -158.993
6565 0.817 177.785 0.109 -91.636 3.732e-3 132.132 0.957 -164.515
6600 0.822 175.223 0.117 -90.36 3.985e-3 146.312 0.959 -170.027
6635 0.827 172.678 0.126 -89.073 4.237e-3 160.503 0.962 -175.528
6670 0.832 170.149 0.134 -87.773 4.488e-3 174.707 0.964 178.98
6705 0.837 167.637 0.143 -86.461 4.737e-3 -171.077 0.967 173.499
6740 0.841 165.141 0.152 -85.137 4.986e-3 -156.849 0.97 168.026
6775 0.846 162.66 0.16 -83.802 5.235e-3 -142.61 0.972 162.561
6810 0.851 160.194 0.168 -82.456 5.483e-3 -128.36 0.975 157.104
6845 0.855 157.743 0.177 -81.1 5.73e-3 -114.099 0.977 151.653
6880 0.86 155.305 0.185 -79.733 5.977e-3 -99.829 0.98 146.207
6915 0.864 152.88 0.194 -78.358 6.225e-3 -85.549 0.982 140.766
6950 0.869 150.468 0.202 -76.974 6.472e-3 -71.261 0.985 135.328
6985 0.873 148.067 0.211 -75.582 6.72e-3 -56.966 0.987 129.892
7020 0.877 145.677 0.219 -74.184 6.969e-3 -42.663 0.99 124.457
7055 0.882 143.297 0.228 -72.779 7.219e-3 -28.354 0.992 119.021
7090 0.886 140.926 0.236 -71.369 7.47e-3 -14.04 0.995 113.585
7125 0.89 138.563 0.245 -69.955 7.722e-3 0.278 0.997 108.148
7160 0.894 136.207 0.253 -68.537 7.975e-3 14.6 1 102.707
7195 0.898 133.858 0.262 -67.117 8.231e-3 28.924 1.002 97.264
7230 0.902 131.514 0.271 -65.696 8.488e-3 43.249 1.005 91.816
7265 0.906 129.173 0.28 -64.274 8.747e-3 57.575 1.007 86.364
7300 0.91 126.836 0.288 -62.853 9.009e-3 71.9 1.01 80.905
7335 0.914 124.502 0.297 -61.433 9.274e-3 86.224 1.012 75.439
7370 0.918 122.168 0.306 -60.015 9.541e-3 100.546 1.015 69.965
7405 0.922 119.833 0.316 -58.601 9.81e-3 114.864 1.017 64.482
7440 0.925 117.498 0.325 -57.191 0.01 129.178 1.02 58.988
7475 0.929 115.16 0.334 -55.787 0.01 143.486 1.022 53.482
7510 0.933 112.818 0.344 -54.388 0.011 157.789 1.025 47.963
7545 0.937 110.471 0.353 -52.997 0.011 172.085 1.027 42.431
7580 0.94 108.117 0.363 -51.612 0.011 -173.627 1.03 36.885
7615 0.944 105.756 0.373 -50.237 0.011 -159.347 1.032 31.325
7650 0.948 103.386 0.382 -48.87 0.012 -145.076 1.035 25.752
7685 0.952 101.006 0.392 -47.512 0.012 -130.815 1.038 20.166
7720 0.955 98.614 0.403 -46.165 0.012 -116.563 1.04 14.568
7755 0.959 96.211 0.413 -44.828 0.013 -102.322 1.043 8.959
7790 0.963 93.794 0.423 -43.502 0.013 -88.092 1.046 3.341
7825 0.967 91.363 0.433 -42.187 0.013 -73.873 1.048 -2.286
7860 0.97 88.916 0.444 -40.883 0.014 -59.666 1.051 -7.919
7895 0.974 86.454 0.455 -39.592 0.014 -45.47 1.054 -13.559
7930 0.978 83.974 0.465 -38.312 0.014 -31.286 1.057 -19.205
7965 0.982 81.476 0.476 -37.043 0.015 -17.113 1.059 -24.856
8000 0.986 78.959 0.487 -35.787 0.015 -2.953 1.062 -30.513
