# MHZ S MA R 50

0.01 0.261 174.986 12.511 177.305 0.052 -0.945 0.209 169.549
50.01 0.263 174.177 12.638 175.341 0.054 -0.454 0.198 173.917
100.01 0.263 170.178 12.623 172.08 0.055 -0.288 0.193 174.268
150.01 0.263 165.556 12.536 168.237 0.055 -0.297 0.192 173.135
200.01 0.264 161.219 12.484 164.547 0.055 -0.394 0.194 171.631
250.01 0.264 157.131 12.397 160.963 0.055 -0.347 0.198 169.891
300.01 0.263 152.896 12.309 157.153 0.055 -0.347 0.197 168.661
350.01 0.263 148.684 12.192 153.563 0.055 -0.523 0.199 167.022
400.01 0.264 144.844 12.063 149.901 0.055 -0.509 0.202 165.754
450.01 0.265 141.174 11.946 146.438 0.055 -0.545 0.206 163.92
500.01 0.265 137.96 11.792 142.93 0.055 -0.613 0.21 162.434
550.009 0.266 134.621 11.673 139.514 0.055 -0.484 0.214 161.141
600.009 0.266 131.874 11.499 136.159 0.056 -0.478 0.22 159.584
650.009 0.267 129.036 11.344 132.805 0.056 -0.467 0.224 158.248
700.009 0.266 126.431 11.208 129.466 0.056 -0.348 0.229 156.706
750.009 0.266 123.989 11.047 126.245 0.056 -0.32 0.235 155.428
800.009 0.266 121.51 10.866 122.999 0.057 -0.266 0.24 154.059
850.009 0.266 119.582 10.706 119.829 0.057 -0.244 0.248 152.55
900.009 0.265 117.42 10.543 116.709 0.058 -0.239 0.252 151.479
950.009 0.264 115.723 10.368 113.611 0.058 -0.227 0.258 150.058
1000.009 0.264 113.97 10.205 110.564 0.058 -0.184 0.265 148.83
1050.009 0.264 112.552 10.023 107.597 0.059 -0.211 0.272 147.574
1100.009 0.262 111.201 9.87 104.626 0.06 -0.189 0.278 146.248
1150.009 0.261 109.991 9.715 101.713 0.06 -0.329 0.284 144.985
1200.009 0.261 108.75 9.541 98.858 0.061 -0.456 0.291 143.606
1250.009 0.26 107.67 9.371 96.084 0.062 -0.532 0.298 142.395
1300.009 0.26 107.128 9.222 93.278 0.062 -0.604 0.306 141.028
1350.009 0.257 106.132 9.063 90.538 0.063 -0.684 0.311 139.954
1400.009 0.257 105.58 8.901 87.804 0.064 -0.878 0.317 138.545
1450.009 0.257 104.829 8.76 85.124 0.065 -1.17 0.326 137.34
1500.008 0.256 104.512 8.604 82.477 0.066 -1.384 0.331 136.073
1550.008 0.254 104.127 8.455 79.833 0.066 -1.652 0.337 134.851
1600.008 0.253 103.479 8.305 77.301 0.067 -1.959 0.343 133.74
1650.008 0.254 103.159 8.174 74.723 0.068 -2.194 0.35 132.528
1700.008 0.252 102.725 8.024 72.246 0.069 -2.557 0.355 131.507
1750.008 0.253 102.551 7.882 69.785 0.07 -2.886 0.362 130.105
1800.008 0.251 102.441 7.743 67.382 0.071 -3.236 0.367 129.159
1850.008 0.25 102.248 7.622 64.895 0.072 -3.614 0.372 127.997
1900.008 0.248 101.824 7.501 62.519 0.073 -4.029 0.377 126.974
1950.008 0.247 101.719 7.37 60.028 0.074 -4.61 0.381 126.027
2000.008 0.249 101.35 7.255 57.726 0.075 -5.012 0.388 124.829
2050.008 0.247 101.334 7.133 55.394 0.076 -5.506 0.391 123.882
2100.008 0.245 101.146 7.018 53.102 0.078 -6.026 0.394 122.695
2150.008 0.244 100.726 6.907 50.891 0.079 -6.624 0.398 121.79
2200.008 0.243 100.72 6.802 48.509 0.08 -7.17 0.402 120.689
2250.008 0.242 100.054 6.689 46.301 0.081 -7.774 0.405 119.736
2300.008 0.24 99.991 6.583 44.092 0.082 -8.452 0.406 118.766
2350.008 0.238 99.696 6.482 41.833 0.084 -9.159 0.409 117.692
2400.008 0.236 99.174 6.4 39.622 0.085 -9.792 0.412 116.696
2450.008 0.234 98.558 6.302 37.41 0.086 -10.547 0.412 115.588
2500.007 0.233 97.964 6.198 35.249 0.088 -11.183 0.414 114.756
2550.007 0.23 97.488 6.111 33.073 0.089 -11.959 0.413 113.776
2600.007 0.228 97.011 6.019 30.949 0.09 -12.681 0.416 112.799
2650.007 0.226 96.328 5.945 28.807 0.092 -13.474 0.417 111.874
2700.007 0.224 95.51 5.857 26.677 0.093 -14.264 0.417 110.707
2750.007 0.221 95.089 5.777 24.582 0.095 -15.2 0.417 109.995
2800.007 0.219 94.132 5.702 22.481 0.096 -15.994 0.416 108.745
2850.007 0.217 93.148 5.629 20.344 0.098 -16.842 0.419 107.843
2900.007 0.215 92.07 5.553 18.167 0.099 -17.797 0.417 106.759
2950.007 0.214 91.097 5.477 16.101 0.1 -18.718 0.418 105.696
3000.007 0.212 90.196 5.4 14.044 0.102 -19.611 0.417 104.781
3050.007 0.208 89.289 5.341 11.941 0.104 -20.642 0.417 103.682
3100.007 0.208 87.88 5.276 9.828 0.105 -21.577 0.418 102.841
3150.007 0.207 86.762 5.215 7.744 0.107 -22.578 0.417 101.361
3200.007 0.207 85.555 5.147 5.651 0.108 -23.625 0.419 100.317
3250.007 0.205 84.167 5.087 3.634 0.11 -24.679 0.417 98.881
3300.007 0.204 82.989 5.021 1.498 0.111 -25.822 0.418 97.687
3350.007 0.202 81.474 4.963 -0.562 0.113 -26.879 0.417 96.604
3400.007 0.203 79.878 4.913 -2.733 0.115 -27.985 0.419 95.005
3450.007 0.205 78.399 4.851 -4.812 0.116 -29.168 0.42 93.929
3500.006 0.204 77.269 4.794 -6.931 0.118 -30.284 0.42 92.216
3550.006 0.206 75.372 4.733 -9.041 0.119 -31.436 0.422 90.818
3600.006 0.207 73.795 4.68 -11.13 0.121 -32.698 0.422 89.196
3650.006 0.21 71.767 4.632 -13.238 0.123 -33.94 0.427 87.644
3700.006 0.214 70.115 4.579 -15.361 0.124 -35.129 0.428 86.036
3750.006 0.217 68.816 4.524 -17.495 0.126 -36.411 0.431 84.087
3800.006 0.22 66.851 4.469 -19.562 0.127 -37.636 0.434 82.614
3850.006 0.225 65.14 4.411 -21.751 0.129 -39.08 0.437 80.505
3900.006 0.231 63.278 4.36 -23.885 0.13 -40.28 0.442 78.831
3950.006 0.237 61.927 4.314 -26.02 0.132 -41.675 0.446 76.763
4000.006 0.244 60.143 4.254 -28.174 0.133 -43.052 0.452 74.748
4050.006 0.25 58.409 4.206 -30.306 0.135 -44.409 0.455 72.831
4100.006 0.258 56.497 4.153 -32.385 0.136 -45.8 0.462 70.747
4150.006 0.268 54.628 4.094 -34.561 0.137 -47.17 0.469 68.759
4200.006 0.278 53.184 4.04 -36.734 0.138 -48.601 0.476 66.493
4250.006 0.288 51.611 3.983 -38.866 0.139 -49.977 0.483 64.558
4300.006 0.298 50.049 3.938 -40.972 0.141 -51.427 0.491 62.352
4350.006 0.308 48.359 3.88 -43.125 0.142 -52.893 0.499 60.369
4400.006 0.319 46.717 3.821 -45.216 0.143 -54.286 0.507 58.201
4450.006 0.331 45.094 3.763 -47.307 0.144 -55.7 0.516 56.143
4500.005 0.343 43.583 3.703 -49.37 0.145 -57.102 0.525 54.164
4550.005 0.355 42.245 3.648 -51.495 0.145 -58.541 0.535 52.043
4600.005 0.369 40.674 3.591 -53.518 0.146 -59.967 0.545 50.043
4650.005 0.381 39.518 3.534 -55.512 0.147 -61.346 0.554 48.072
4700.005 0.391 38.056 3.476 -57.471 0.147 -62.672 0.563 46.118
4750.005 0.402 36.823 3.42 -59.403 0.148 -63.967 0.571 44.224
4800.005 0.414 35.583 3.364 -61.397 0.149 -65.35 0.579 42.331
4850.005 0.425 34.241 3.305 -63.29 0.149 -66.678 0.588 40.591
4900.005 0.435 33.256 3.252 -65.148 0.15 -67.976 0.596 38.852
4950.005 0.447 31.989 3.204 -66.99 0.15 -69.24 0.605 37.188
5000.005 0.457 30.918 3.153 -68.832 0.151 -70.506 0.612 35.48
5050.005 0.467 29.75 3.099 -70.636 0.151 -71.803 0.62 33.895
5100.005 0.477 28.607 3.048 -72.41 0.151 -72.981 0.627 32.331
5150.005 0.487 27.633 2.995 -74.163 0.152 -74.167 0.635 30.7
5200.005 0.495 26.657 2.945 -75.858 0.152 -75.31 0.641 29.254
5250.005 0.503 25.795 2.906 -77.535 0.153 -76.463 0.647 27.764
5300.005 0.51 24.754 2.861 -79.149 0.153 -77.587 0.653 26.427
5350.005 0.517 23.781 2.817 -80.822 0.154 -78.716 0.657 25.088
5400.005 0.524 22.796 2.771 -82.429 0.154 -79.784 0.662 23.843
5450.005 0.529 21.917 2.732 -84.002 0.155 -80.861 0.667 22.591
5500.005 0.535 21.071 2.697 -85.611 0.155 -81.975 0.671 21.342
5550.004 0.539 20.017 2.666 -87.178 0.156 -83.074 0.676 20.206
5600.004 0.544 18.989 2.627 -88.74 0.157 -84.159 0.679 18.995
5650.004 0.548 18.029 2.59 -90.273 0.157 -85.209 0.683 17.945
5700.004 0.552 17.199 2.557 -91.797 0.158 -86.26 0.684 16.805
5750.004 0.555 16.349 2.527 -93.273 0.159 -87.263 0.686 15.747
5800.004 0.556 15.338 2.501 -94.772 0.16 -88.324 0.688 14.73
5850.004 0.558 14.234 2.471 -96.29 0.161 -89.404 0.689 13.656
5900.004 0.559 13.255 2.447 -97.821 0.162 -90.453 0.69 12.688
5950.004 0.559 12.316 2.422 -99.334 0.163 -91.508 0.691 11.627
6000.004 0.559 11.198 2.399 -100.861 0.164 -92.618 0.691 10.65
6050.004 0.558 10.007 2.379 -102.451 0.165 -93.759 0.69 9.621
6100.004 0.559 8.857 2.36 -103.974 0.167 -94.772 0.692 8.773
6150.004 0.558 7.717 2.339 -105.586 0.168 -95.937 0.691 7.708
6200.004 0.556 6.558 2.322 -107.16 0.17 -97.101 0.69 6.692
6250.004 0.554 5.143 2.303 -108.778 0.171 -98.348 0.689 5.735
6300.004 0.553 3.756 2.283 -110.427 0.173 -99.607 0.688 4.624
6350.004 0.551 2.287 2.271 -112.064 0.174 -100.853 0.688 3.667
6400.004 0.549 0.804 2.258 -113.752 0.176 -102.131 0.686 2.543
6450.004 0.546 -0.793 2.243 -115.45 0.178 -103.452 0.685 1.52
6500.004 0.543 -2.611 2.228 -117.225 0.179 -104.782 0.683 0.461
6550.003 0.54 -4.469 2.213 -119.042 0.181 -106.226 0.683 -0.654
6600.003 0.539 -6.432 2.203 -120.848 0.183 -107.668 0.682 -1.768
6650.003 0.537 -8.327 2.188 -122.695 0.184 -109.131 0.681 -3.045
6700.003 0.535 -10.39 2.174 -124.549 0.186 -110.668 0.681 -4.208
6750.003 0.534 -12.609 2.159 -126.478 0.187 -112.229 0.68 -5.515
6800.003 0.533 -14.937 2.142 -128.396 0.189 -113.776 0.68 -6.824
6850.003 0.533 -17.199 2.124 -130.375 0.19 -115.37 0.68 -8.16
6900.003 0.533 -19.438 2.114 -132.378 0.192 -117.024 0.681 -9.646
6950.003 0.532 -21.958 2.1 -134.399 0.193 -118.701 0.682 -11.014
7000.003 0.536 -24.577 2.081 -136.532 0.194 -120.497 0.684 -12.669
7050.003 0.537 -27.301 2.06 -138.614 0.195 -122.206 0.686 -14.183
7100.003 0.541 -29.913 2.039 -140.76 0.196 -124.015 0.689 -15.811
7150.003 0.544 -32.54 2.017 -142.869 0.197 -125.815 0.691 -17.517
7200.003 0.549 -35.255 2 -145.009 0.198 -127.637 0.696 -19.192
7250.003 0.556 -38 1.976 -147.204 0.198 -129.517 0.7 -21.059
7300.003 0.561 -40.789 1.949 -149.367 0.199 -131.361 0.704 -22.782
7350.003 0.569 -43.355 1.921 -151.567 0.198 -133.253 0.708 -24.843
7400.003 0.576 -46.092 1.894 -153.675 0.198 -135.038 0.713 -26.539
7450.003 0.585 -48.763 1.866 -155.926 0.198 -136.978 0.718 -28.588
7500.003 0.596 -51.352 1.84 -158.143 0.198 -138.928 0.727 -30.599
7550.002 0.606 -53.883 1.809 -160.3 0.197 -140.799 0.731 -32.538
7600.002 0.617 -56.125 1.774 -162.411 0.196 -142.643 0.739 -34.551
7650.002 0.626 -58.458 1.742 -164.414 0.195 -144.315 0.745 -36.342
7700.002 0.638 -60.732 1.707 -166.54 0.193 -146.217 0.75 -38.596
7750.002 0.649 -62.963 1.672 -168.559 0.192 -147.926 0.759 -40.373
7800.002 0.661 -65.045 1.635 -170.634 0.19 -149.742 0.764 -42.528
7850.002 0.672 -67.029 1.598 -172.554 0.188 -151.329 0.773 -44.282
7900.002 0.684 -68.791 1.566 -174.43 0.187 -152.93 0.779 -46.131
7950.002 0.696 -70.463 1.528 -176.25 0.185 -154.525 0.787 -48.006
8000.002 0.707 -72.043 1.493 -177.884 0.183 -155.96 0.792 -49.624
8050.002 0.718 -73.549 1.455 -179.687 0.18 -157.419 0.799 -51.51
8100.002 0.728 -74.97 1.423 178.775 0.178 -158.703 0.805 -52.946
8150.002 0.737 -76.394 1.388 177.066 0.176 -160.138 0.81 -54.703
8200.002 0.747 -77.665 1.353 175.617 0.174 -161.343 0.818 -55.947
8250.002 0.757 -78.775 1.32 174.169 0.172 -162.552 0.822 -57.603
8300.002 0.766 -79.649 1.286 172.743 0.169 -163.712 0.829 -58.968
8350.002 0.773 -80.419 1.257 171.524 0.168 -164.66 0.831 -60.157
8400.002 0.783 -81.19 1.229 170.264 0.166 -165.761 0.84 -61.509
8450.002 0.79 -81.895 1.202 169.116 0.164 -166.616 0.842 -62.478
8500.002 0.798 -82.575 1.175 167.965 0.163 -167.443 0.846 -63.74
8550.001 0.804 -83.138 1.147 166.944 0.16 -168.274 0.851 -64.56
8600.001 0.809 -83.619 1.123 165.905 0.159 -169.06 0.853 -65.646
8650.001 0.815 -84.095 1.101 164.958 0.158 -169.745 0.857 -66.422
8700.001 0.817 -84.543 1.081 164.036 0.157 -170.455 0.859 -67.132
8750.001 0.824 -85.055 1.058 163.08 0.155 -171.218 0.863 -68.028
8800.001 0.829 -85.254 1.039 162.357 0.154 -171.725 0.865 -68.62
8850.001 0.832 -85.452 1.02 161.476 0.153 -172.229 0.866 -69.391
8900.001 0.834 -85.673 1.002 160.848 0.152 -172.637 0.866 -69.901
8950.001 0.839 -85.834 0.989 160.094 0.152 -173.182 0.87 -70.46
9000.001 0.842 -86.046 0.973 159.397 0.151 -173.712 0.871 -70.881
9050.001 0.844 -86.085 0.962 158.762 0.151 -174.169 0.871 -71.404
9100.001 0.845 -86.115 0.948 158.08 0.15 -174.563 0.871 -71.904
9150.001 0.845 -86.202 0.938 157.501 0.15 -174.893 0.87 -72.285
9200.001 0.846 -86.389 0.928 156.821 0.151 -175.332 0.87 -72.776
9250.001 0.848 -86.4 0.919 156.263 0.151 -175.74 0.87 -72.972
9300.001 0.846 -86.212 0.912 155.686 0.152 -176.075 0.869 -73.485
9350.001 0.846 -86.394 0.907 154.944 0.153 -176.731 0.867 -73.911
9400.001 0.847 -86.468 0.904 154.311 0.154 -177.174 0.867 -74.401
9450.001 0.845 -86.716 0.897 153.607 0.154 -177.583 0.866 -74.803
9500.001 0.844 -86.549 0.894 153.133 0.155 -177.84 0.863 -74.918
9550 0.84 -86.631 0.893 152.358 0.157 -178.384 0.859 -75.528
9600 0.839 -87.174 0.891 151.607 0.159 -178.999 0.856 -75.953
9650 0.836 -87.048 0.887 151.004 0.16 -179.376 0.857 -76.479
9700 0.83 -87.469 0.89 150.228 0.162 179.973 0.852 -76.506
9750 0.829 -88.103 0.892 149.294 0.164 179.228 0.848 -77.094
9800 0.827 -88.176 0.893 148.547 0.166 178.624 0.846 -77.499
9850 0.823 -88.505 0.896 147.659 0.169 177.886 0.839 -78.245
9900 0.819 -88.649 0.9 146.727 0.171 177.194 0.837 -79.004
9950 0.812 -89.243 0.904 145.878 0.174 176.567 0.83 -79.16
10000 0.805 -89.889 0.908 144.998 0.176 175.908 0.823 -79.351
