!Hittite Microwave Corporation								
!12 Elizabeth Drive								
!Chelmsford, MA 01824								
!Tel: 978-250-3343								
!Fax: 978-250-3373								
!Device: HMC442, 17.5-25.5 GHz GaAs PHEMT MMIc Medium Power Amplifier								
!Misc: Vdd = +5V, Room								
!
# MHZ S MA R 50

1000 1.005 -40.739 283.2e-6 -9.035 117.4e-6 -90.825 0.984 -51.237
1195 1.004 -48.692 1.239e-3 -13.335 50.94e-6 -93.707 0.994 -61.387
1390 1.005 -56.706 3.182e-3 -34.335 28.82e-6 -110.815 0.991 -72.282
1585 1.004 -64.509 4.259e-3 -80.247 130.6e-6 -109.946 0.974 -82.651
1780 1.003 -72.383 4.816e-3 -105.337 227.5e-6 -130.619 0.962 -92.401
1975 1.002 -80.266 5.481e-3 -119.625 229.5e-6 -161.493 0.96 -102.815
2170 1 -87.991 6.023e-3 -126.697 291e-6 -173.311 0.944 -113.746
2365 0.996 -95.743 6.585e-3 -137.051 488.4e-6 178.578 0.913 -124.499
2560 0.997 -103.492 7.325e-3 -141.63 513e-6 169.616 0.886 -134.543
2755 0.993 -111.164 8.142e-3 -140.144 774.5e-6 161.52 0.86 -145.054
2950 0.988 -119.061 9.395e-3 -136.824 863.1e-6 148.378 0.826 -155.888
3145 0.985 -126.839 0.013 -133.647 857.8e-6 144.844 0.786 -166.498
3340 0.979 -134.523 0.017 -132.303 1.016e-3 139.569 0.749 -176.605
3535 0.975 -142.203 0.024 -139.577 1.212e-3 128.416 0.713 172.819
3730 0.969 -149.989 0.035 -152.639 1.438e-3 124.012 0.674 161.769
3925 0.964 -157.746 0.046 -160.259 1.595e-3 108.815 0.627 150.746
4120 0.957 -165.538 0.053 -171.785 1.763e-3 97.037 0.578 139.937
4315 0.952 -173.491 0.065 172.805 1.706e-3 95.708 0.53 128.689
4510 0.944 178.529 0.074 160.416 2.1e-3 81.985 0.479 116.861
4705 0.937 170.549 0.082 150.548 1.919e-3 74.8 0.423 105.506
4900 0.932 162.417 0.096 142.233 1.89e-3 68.648 0.369 94.32
5095 0.926 154.191 0.108 133.994 2.144e-3 52.376 0.313 83.467
5290 0.919 145.926 0.115 122.992 1.937e-3 51.453 0.259 72.938
5485 0.914 137.852 0.128 113.034 1.968e-3 52.531 0.207 63.662
5680 0.907 129.356 0.142 105.434 1.669e-3 42.695 0.159 56.431
5875 0.901 120.837 0.152 97.264 1.921e-3 36.661 0.117 53.454
6070 0.896 112.436 0.163 88.729 1.831e-3 20.339 0.085 58.497
6265 0.89 103.695 0.177 81.213 1.555e-3 20.066 0.068 74.88
6460 0.886 95.098 0.193 73.662 1.701e-3 27.051 0.074 93.738
6655 0.881 86.715 0.208 66.378 1.44e-3 12.963 0.095 101.935
6850 0.879 77.863 0.222 58.633 1.351e-3 10.895 0.124 101.265
7045 0.877 69.23 0.237 50.798 1.331e-3 16.345 0.155 96.221
7240 0.872 60.844 0.255 43.458 1.114e-3 16.596 0.187 89.31
7435 0.869 52.264 0.269 37.236 1.129e-3 20.576 0.215 81.431
7630 0.866 43.695 0.281 29.998 971.3e-6 17.451 0.246 72.699
7825 0.865 35.625 0.305 22.303 878.5e-6 24.092 0.278 63.93
8020 0.86 27.256 0.327 16.265 850e-6 25.641 0.307 55.433
8215 0.857 19.128 0.337 10.193 938.6e-6 40.543 0.336 46.448
8410 0.855 11.1 0.355 3.114 1.019e-3 35.35 0.365 37.949
8605 0.85 3.622 0.377 -3.594 1.144e-3 42.066 0.391 29.932
8800 0.847 -4.292 0.398 -9.527 1.06e-3 42.25 0.416 21.887
8995 0.843 -11.926 0.419 -15.66 1.237e-3 41.215 0.437 14.034
9190 0.84 -19.201 0.438 -21.601 1.334e-3 47.888 0.459 6.214
9385 0.835 -26.529 0.462 -26.925 1.518e-3 48.82 0.477 -1.16
9580 0.829 -33.93 0.49 -33.055 1.691e-3 47.884 0.495 -8.859
9775 0.822 -40.736 0.521 -38.366 1.809e-3 41.753 0.511 -16.145
9970 0.814 -47.745 0.55 -43.735 1.946e-3 48.267 0.525 -23.346
10165 0.805 -54.897 0.588 -49.822 1.979e-3 41.642 0.537 -30.473
10360 0.796 -61.449 0.625 -54.306 2.143e-3 39.542 0.546 -37.597
10555 0.787 -68.378 0.665 -59.954 2.326e-3 42.699 0.555 -44.698
10750 0.774 -75.262 0.727 -67.877 2.587e-3 38.458 0.562 -51.623
10945 0.763 -81.923 0.762 -73.945 2.634e-3 37.245 0.569 -58.914
11140 0.753 -88.474 0.768 -77.755 2.907e-3 33.093 0.573 -66.214
11335 0.736 -95.691 0.831 -83.664 3.336e-3 32.596 0.58 -73.314
11530 0.72 -102.082 0.967 -88.468 3.093e-3 28.49 0.584 -80.457
11725 0.704 -109.164 1.026 -93.544 3.803e-3 29.202 0.587 -87.748
11920 0.687 -115.901 1.054 -100.334 3.775e-3 24.518 0.587 -94.806
12115 0.666 -123.249 1.168 -106.661 4.244e-3 18.82 0.586 -102.189
12310 0.646 -130.414 1.322 -110.736 4.232e-3 18.681 0.583 -109.444
12505 0.626 -137.886 1.377 -116.272 4.628e-3 13.2 0.579 -117.082
12700 0.602 -145.532 1.538 -126.059 5.083e-3 8.985 0.573 -125.052
12895 0.577 -153.27 1.763 -135.352 5.239e-3 4.376 0.566 -133.03
13090 0.554 -161.141 1.84 -145.997 5.388e-3 2.211 0.56 -141.435
13285 0.529 -169.667 1.992 -153.921 5.174e-3 -5.863 0.55 -150.195
13480 0.498 -178.123 2.039 -154.975 5.394e-3 -4.618 0.539 -159.411
13675 0.475 173.048 2.109 -163.661 5.735e-3 -7.501 0.52 -168.764
13870 0.446 163.677 2.326 -174.28 6.294e-3 -11.19 0.505 -178.936
14065 0.413 154.521 2.502 178.187 6.028e-3 -14.9 0.486 169.822
14260 0.39 144.382 2.591 171.172 6.487e-3 -17.272 0.471 157.629
14455 0.364 133.553 2.847 164.732 7.023e-3 -20.842 0.456 144.972
14650 0.335 123.723 3.143 160.03 7.071e-3 -26.013 0.441 132.105
14845 0.314 113.352 3.464 147.707 7.512e-3 -27.695 0.431 118.781
15040 0.291 101.63 3.93 135.989 7.763e-3 -33.702 0.42 104.741
15235 0.269 90.676 3.991 128.034 8.336e-3 -38.635 0.412 90.648
15430 0.251 79.346 4.056 118.414 8.285e-3 -46.072 0.405 76.5
15625 0.235 67.4 4.326 108.978 8.459e-3 -47.275 0.403 62.137
15820 0.222 56.151 4.755 99.506 8.671e-3 -54.665 0.402 48.52
16015 0.206 45.059 5.054 87.296 9.125e-3 -59.469 0.4 35.164
16210 0.198 35.203 5.002 75.085 9.238e-3 -62.42 0.398 22.269
16405 0.186 24.602 5 65.722 9.501e-3 -67.447 0.395 10.396
16600 0.172 14.441 5 57.785 9.372e-3 -70.687 0.386 -1.347
16795 0.164 5.705 5.102 47.788 9.583e-3 -75.651 0.373 -12.931
16990 0.157 -4.276 5.323 39.648 9.932e-3 -79.925 0.361 -25.107
17185 0.145 -14.524 5.41 31.583 9.983e-3 -86.545 0.346 -37.244
17380 0.136 -21.841 5.383 21.736 0.01 -90.643 0.326 -49.366
17575 0.13 -31.338 5.44 12.357 0.01 -95.256 0.308 -61.88
17770 0.112 -42.389 5.59 3.963 0.01 -101.319 0.288 -74.581
17965 0.102 -48.553 5.656 -5.051 0.01 -105.763 0.264 -88.201
18160 0.091 -59.585 5.698 -14.064 0.01 -112.458 0.244 -103.087
18355 0.071 -74.787 5.744 -22.9 0.01 -117.282 0.23 -118.279
18550 0.056 -87.341 5.764 -31.978 0.01 -123.936 0.215 -134.018
18745 0.048 -111.729 5.77 -40.43 9.997e-3 -128.09 0.21 -150.287
18940 0.039 -150.373 5.751 -48.971 0.01 -133.162 0.209 -166.537
19135 0.041 176.968 5.788 -57.898 9.944e-3 -139.475 0.207 177.641
19330 0.055 144.984 5.835 -66.743 9.616e-3 -144.653 0.208 162.244
19525 0.075 127.241 5.777 -74.891 9.269e-3 -150.358 0.217 148.691
19720 0.101 112.944 5.609 -84.21 8.999e-3 -156.015 0.225 135.51
19915 0.118 101.525 5.504 -92.906 8.641e-3 -161.29 0.232 123.851
20110 0.135 90.547 5.418 -100.576 8.336e-3 -165.816 0.253 111.097
20305 0.165 80.74 5.364 -106.272 8.005e-3 -170.876 0.261 107.613
20500 0.192 72.273 5.297 -114.139 7.778e-3 -175.58 0.265 98.139
20695 0.199 65.59 5.175 -123.054 7.42e-3 179.54 0.277 81.569
20890 0.227 59.342 5.103 -130.672 6.985e-3 173.921 0.296 75.524
21085 0.246 50.14 5.015 -136.835 6.666e-3 167.854 0.313 67.04
21280 0.256 44.744 4.986 -142.219 6.111e-3 163.751 0.329 59.821
21475 0.278 37.643 4.906 -148.728 5.969e-3 159.228 0.344 52.259
21670 0.283 30.052 5.004 -155.537 5.567e-3 153.417 0.354 45.4
21865 0.289 24.793 5.056 -161.92 4.945e-3 145.573 0.363 39.383
22060 0.3 18.16 5.179 -167.474 4.645e-3 141.075 0.373 32.724
22255 0.296 11.05 5.3 -174.353 4.193e-3 133.52 0.384 27.134
22450 0.295 4.781 5.474 175.487 3.725e-3 126.345 0.392 21.794
22645 0.292 -2.161 5.553 167.214 3.415e-3 120.684 0.399 16.55
22840 0.284 -9.5 5.387 159.876 2.946e-3 114.476 0.403 12.102
23035 0.275 -16.923 5.344 151.38 2.557e-3 104.551 0.403 7.623
23230 0.258 -25.469 5.355 144.72 2.134e-3 94.795 0.403 3.535
23425 0.241 -33.116 5.385 139.207 1.951e-3 79.698 0.402 -0.379
23620 0.22 -44.033 5.499 133.027 1.654e-3 51.821 0.395 -4.016
23815 0.187 -56.83 5.708 124.595 1.828e-3 24.177 0.388 -7.444
24010 0.161 -70.551 5.785 115.439 1.886e-3 2.924 0.376 -10.931
24205 0.136 -94.318 5.891 106.704 2.224e-3 -16.153 0.363 -13.836
24400 0.113 -128.042 6.083 100.427 2.733e-3 -36.543 0.342 -16.884
24595 0.123 -161.829 6.137 92.121 3.402e-3 -52.232 0.318 -20.108
24790 0.172 167.601 6.387 81.158 4.201e-3 -65.722 0.292 -23.176
24985 0.232 143.604 6.64 71.222 4.842e-3 -79.543 0.263 -24.809
25180 0.296 127.484 6.653 62.028 5.61e-3 -87.486 0.232 -25.766
25375 0.382 114.465 6.703 51.152 6.373e-3 -96.694 0.198 -24.802
25570 0.454 100.867 6.732 40.285 6.803e-3 -104.926 0.166 -18.759
25765 0.527 88.434 6.617 29.145 7.478e-3 -117.874 0.15 -5.497
25960 0.606 77.835 6.523 17.9 8.437e-3 -126.325 0.149 9.678
26155 0.666 67.324 6.2 6.167 8.891e-3 -136.06 0.169 22.64
26350 0.713 57.758 6.015 -4.315 9.472e-3 -144.528 0.209 29.625
26545 0.763 49.637 5.806 -14.22 0.01 -151.163 0.255 31.102
26740 0.795 40.416 5.372 -25.227 0.011 -163.321 0.305 28.294
26935 0.823 32.605 5.027 -35.656 0.01 -171.34 0.355 23.825
27130 0.842 24.813 4.734 -44.558 0.01 -178.984 0.403 18.018
27325 0.858 18.05 4.41 -53.112 0.01 173.162 0.45 11.823
27520 0.872 11.285 4.104 -61.895 0.01 167.385 0.495 5.211
27715 0.876 4.788 3.806 -70.215 9.986e-3 159.344 0.53 -1.345
27910 0.885 -0.987 3.542 -78.292 0.01 154.518 0.564 -8.396
28105 0.889 -6.954 3.292 -85.365 9.995e-3 149.081 0.592 -15.645
28300 0.884 -13.225 3.007 -92.811 9.849e-3 142.873 0.614 -22.607
28495 0.884 -18.028 2.851 -99.691 9.328e-3 137.614 0.632 -29.799
28690 0.891 -23.772 2.766 -104.287 9.139e-3 132.221 0.65 -37.174
28885 0.882 -29.91 2.617 -111.355 9.356e-3 129.969 0.665 -44.599
29080 0.884 -34.915 2.465 -120.124 9.602e-3 121.792 0.68 -51.386
29275 0.885 -41 2.328 -125.43 8.99e-3 114.313 0.692 -58.27
29470 0.883 -46.802 2.172 -131.463 9.202e-3 109.318 0.699 -65.335
29665 0.879 -52.401 2.271 -139.956 8.545e-3 107.413 0.702 -72.958
29860 0.879 -58.144 2.339 -143.992 8.108e-3 105.875 0.705 -81.063
30055 0.879 -65.009 2.03 -152.01 8.649e-3 102.167 0.703 -89.363
30250 0.877 -70.934 2.057 -166.047 8.603e-3 94.682 0.709 -98.059
30445 0.877 -78.244 2.114 -177.191 9.421e-3 89.323 0.717 -107.194
30640 0.877 -85.792 1.794 174.16 9.225e-3 86.669 0.722 -116.946
30835 0.88 -94.184 1.532 167.005 9.002e-3 80.624 0.732 -127.058
31030 0.852 -103.237 1.513 159.467 9.188e-3 75.326 0.734 -137.788
31225 0.814 -110.536 1.435 150.727 0.011 67.475 0.74 -149.077
31420 0.795 -117.202 1.263 143.269 0.01 56.995 0.751 -160.751
31615 0.79 -124.089 1.139 142.475 0.011 51.217 0.772 -173.348
31810 0.786 -131.82 1.085 134.381 0.01 46.17 0.792 174.985
32005 0.778 -140.845 1.045 120.351 9.763e-3 34.733 0.81 163.724
32200 0.763 -148.85 0.966 111.139 0.01 28.216 0.84 153.492
32395 0.769 -157.487 0.827 107.77 8.875e-3 21.187 0.859 143.113
32590 0.751 -166.344 0.733 105.927 8.842e-3 14.783 0.882 133.041
32785 0.752 -173.862 0.705 100.669 8.866e-3 3.35 0.895 123.552
32980 0.747 177.344 0.666 93.359 8.335e-3 1.352 0.903 114.925
33175 0.751 169.217 0.642 84.188 8.017e-3 -6.087 0.925 106.556
33370 0.747 161.175 0.609 74.849 8.141e-3 -16.152 0.934 98.357
33565 0.751 154.009 0.533 62.57 6.915e-3 -16.103 0.937 91.098
33760 0.749 145.449 0.453 56.724 7.21e-3 -23.651 0.948 83.666
33955 0.75 138.857 0.37 58.22 6.514e-3 -31.61 0.956 77.48
34150 0.754 130.93 0.324 46.73 6.452e-3 -39.408 0.952 71.102
34345 0.758 124.346 0.324 40.323 6.102e-3 -36.113 0.946 64.427
34540 0.766 118.008 0.284 43.152 6.509e-3 -39.396 0.945 58.428
34735 0.76 112.376 0.234 40.465 6.524e-3 -43.941 0.943 51.981
34930 0.773 106.01 0.212 31.8 6.06e-3 -53.996 0.944 45.64
35125 0.773 99.622 0.192 30.471 5.62e-3 -49.927 0.945 40.021
35320 0.776 94.91 0.18 27.747 4.985e-3 -57.878 0.942 34.484
35515 0.785 89.327 0.174 25.289 5.426e-3 -58.053 0.944 29.289
35710 0.79 83.955 0.148 21.948 6.01e-3 -60.273 0.941 24.222
35905 0.788 79.344 0.131 15.674 5.918e-3 -66.732 0.936 18.993
36100 0.803 74.59 0.126 13.764 5.721e-3 -71.478 0.936 13.804
36295 0.799 68.771 0.113 12.414 5.749e-3 -75.935 0.939 8.818
36490 0.806 65.481 0.1 8.568 5.625e-3 -79.685 0.939 3.451
36685 0.813 60.217 0.092 5.419 5.933e-3 -75.713 0.94 -1.624
36880 0.814 56.181 0.083 3.773 6.552e-3 -78.716 0.943 -6.411
37075 0.82 51.307 0.075 2.485 6.473e-3 -78.424 0.95 -11.8
37270 0.823 47.314 0.068 0.881 6.423e-3 -79.49 0.955 -16.878
37465 0.831 42.271 0.064 -1.639 6.298e-3 -84.604 0.95 -22.168
37660 0.823 38.334 0.06 -0.31 6.464e-3 -87.31 0.952 -27.836
37855 0.836 34.02 0.053 0.584 7.173e-3 -90.444 0.96 -33.821
38050 0.833 29.351 0.05 -6.834 7.103e-3 -92.879 0.961 -39.952
38245 0.847 24.5 0.051 -11.085 7.878e-3 -92.897 0.964 -46.785
38440 0.832 19.715 0.044 -8.967 8.518e-3 -100.624 0.982 -54.102
38635 0.847 15.646 0.038 -8.863 8.093e-3 -105.22 0.983 -62.396
38830 0.834 9.469 0.037 -9.746 8.465e-3 -105.933 0.991 -70.264
39025 0.841 6.124 0.034 -12.896 8.883e-3 -109.638 0.982 -79.208
39220 0.836 -0.162 0.029 -19.124 8.457e-3 -113.823 0.978 -88.011
39415 0.836 -4.122 0.031 -12.873 9.446e-3 -124.825 0.956 -98.483
39610 0.824 -11.07 0.024 -2.619 9.791e-3 -122.265 0.957 -108.769
39805 0.829 -13.907 0.021 -15.696 9.528e-3 -133.148 0.942 -119.33
40000 0.826 -22.496 0.024 -12.659 0.01 -131.003 0.938 -129.195
