!Hittite Microwave Corporation								
!20 Alpha Rd								
!Chelmsford, MA 01824								
!Tel: 978-250-3343								
!Fax: 978-250-3373
!Device: HMC462LP3, 2 - 20 GHz GaAs pHEMT MMIC LNA  in leadless QFN SMT package
!Misc: Data taken on a part mounted evaluation PCB 108336-1,Bias: +5VDC	
# MHZ S MA R 50

50 0.985 -7.744 0.029 -24.698 1.566e-3 -80.353 1.028 -15.477
251.007 0.867 -33.572 0.715 -25.308 606.6e-6 -10.83 0.889 -81.397
452.013 0.723 -53.113 2.464 -75.04 956.4e-6 -121.365 0.425 -152.739
653.02 0.609 -65.608 3.439 -102.911 1.587e-3 -146.478 0.298 141.635
854.027 0.528 -74.328 4.141 -134.376 1.723e-3 158.57 0.132 55.628
1055.034 0.469 -80.305 4.285 -152.433 1.612e-3 131.258 0.124 13.24
1256.04 0.424 -84.613 4.401 -165.48 1.509e-3 123.9 0.141 0.84
1457.047 0.386 -87.844 4.514 -176.079 1.702e-3 119.15 0.173 -5.093
1658.054 0.352 -90.381 4.61 174.652 1.871e-3 117.596 0.21 -10.766
1859.06 0.32 -92.783 4.723 165.76 2.143e-3 110.899 0.248 -16.549
2060.067 0.286 -95.583 4.74 157.39 2.36e-3 109.379 0.276 -21.776
2261.074 0.252 -98.983 4.834 150.307 2.888e-3 104.96 0.296 -27.471
2462.081 0.214 -103.568 4.903 143.389 3.175e-3 100.097 0.312 -33.124
2663.087 0.181 -109.632 4.948 137.297 3.489e-3 95.352 0.322 -38.003
2864.094 0.147 -117.871 5.042 128.813 3.794e-3 91.808 0.324 -42.477
3065.101 0.115 -129.238 5.103 121.28 4.226e-3 87.604 0.32 -46.796
3266.107 0.089 -149.297 5.157 114.737 4.744e-3 82.253 0.311 -51.058
3467.114 0.082 -176.252 5.078 109.394 5.038e-3 76.906 0.296 -54.699
3668.121 0.088 160.172 5.173 103.093 5.355e-3 73.411 0.275 -58.679
3869.128 0.102 142.931 5.21 95.31 5.751e-3 67.14 0.252 -63.3
4070.134 0.114 132.836 5.132 89.845 6.04e-3 63.455 0.225 -68.777
4271.141 0.126 126.204 5.17 82.75 6.363e-3 59.38 0.201 -75.066
4472.148 0.132 120.344 5.045 75.967 6.81e-3 56.04 0.176 -81.545
4673.154 0.129 116.065 5.111 70.24 6.957e-3 52.171 0.152 -89.339
4874.161 0.126 112.582 5.053 65.543 7.502e-3 48.017 0.126 -99.495
5075.168 0.116 110.367 5.113 59.91 7.935e-3 44.531 0.109 -114.408
5276.174 0.103 112.091 5.025 53.513 8.441e-3 39.811 0.102 -131.748
5477.181 0.087 114.728 5.024 47.725 8.737e-3 36.604 0.103 -149.456
5678.188 0.064 121.315 4.971 41.108 9.008e-3 32.764 0.113 -163.549
5879.195 0.045 128.227 4.865 36.327 9.577e-3 29.144 0.128 -172.089
6080.201 0.032 150.714 4.957 32.11 0.01 25.717 0.136 -178.169
6281.208 0.029 -173.16 4.951 27.082 0.01 21.781 0.144 176.872
6482.215 0.03 -147.052 4.969 20.919 0.011 18.077 0.148 173.55
6683.221 0.029 -126.915 4.928 14.584 0.012 14.718 0.153 172.569
6884.228 0.036 -125.533 4.926 8.982 0.012 10.165 0.154 171.426
7085.235 0.039 -116.835 4.854 3.721 0.013 6.599 0.154 172.336
7286.242 0.042 -94.815 4.773 -1.401 0.013 2.546 0.151 177.821
7487.248 0.034 -73.877 4.736 -6.031 0.014 -1.355 0.146 -174.455
7688.255 0.037 -41.411 4.8 -10.526 0.015 -5.876 0.132 -167.2
7889.262 0.043 -21.861 4.788 -16.185 0.015 -9.43 0.122 -158.299
8090.268 0.052 -8.228 4.781 -21.924 0.016 -14.682 0.113 -153.019
8291.275 0.072 9.033 4.788 -27.597 0.017 -19.069 0.098 -144.718
8492.282 0.087 17.446 4.752 -32.862 0.017 -23.469 0.084 -132.617
8693.289 0.113 20.29 4.74 -38.296 0.018 -27.836 0.079 -121.442
8894.295 0.138 24.708 4.728 -43.817 0.019 -32.99 0.08 -100.227
9095.302 0.163 30.016 4.705 -48.989 0.019 -37.642 0.086 -69.77
9296.309 0.186 30.823 4.683 -54.324 0.02 -42.437 0.097 -47.911
9497.315 0.205 33.037 4.666 -59.549 0.021 -46.46 0.109 -37.347
9698.322 0.213 31.41 4.637 -64.846 0.021 -51.043 0.131 -34.109
9899.329 0.218 29.422 4.651 -69.782 0.022 -55.74 0.15 -27
10100.336 0.204 26.48 4.65 -75.127 0.023 -59.756 0.144 -23.69
10301.342 0.203 23.98 4.639 -80.241 0.024 -64.267 0.13 -22.84
10502.349 0.176 21.408 4.625 -85.711 0.025 -69.599 0.118 -25.074
10703.356 0.139 13.086 4.63 -90.925 0.026 -74.584 0.103 -23.926
10904.362 0.122 3.304 4.653 -96.302 0.027 -79.366 0.073 -22.993
11105.369 0.083 -5.432 4.669 -101.714 0.028 -84.51 0.04 -22.471
11306.376 0.063 -45.616 4.656 -107.343 0.028 -89.42 0.014 -18.654
11507.383 0.078 -72.602 4.668 -112.969 0.029 -94.561 0.027 158.161
11708.389 0.114 -88.482 4.672 -118.459 0.03 -100.349 0.064 163.484
11909.396 0.136 -93.068 4.624 -124.427 0.031 -105.346 0.105 176.332
12110.403 0.157 -97.904 4.504 -130.258 0.032 -109.428 0.135 -179.434
12311.409 0.193 -95.336 4.469 -135.698 0.032 -115.534 0.175 176.754
12512.416 0.219 -90.014 4.502 -140.602 0.032 -120.572 0.207 175.938
12713.423 0.237 -92.314 4.467 -145.593 0.034 -124.991 0.236 174.587
12914.43 0.261 -89.082 4.517 -148.979 0.035 -130.66 0.256 166.478
13115.436 0.27 -83.533 4.468 -155.195 0.035 -135.268 0.288 158.37
13316.443 0.274 -78.363 4.438 -161.779 0.036 -139.959 0.299 153.473
13517.45 0.272 -72.031 4.431 -169.054 0.036 -145.255 0.298 143.989
13718.456 0.268 -68.038 4.445 -172.603 0.038 -150.54 0.289 130.401
13919.463 0.262 -60.083 4.349 -176.771 0.039 -155.864 0.289 117.349
14120.47 0.26 -46.563 4.389 178.594 0.039 -161.041 0.28 98.792
14321.477 0.264 -39.333 4.433 171.643 0.039 -165.962 0.29 77.858
14522.483 0.29 -34.173 4.317 164.908 0.04 -173.972 0.335 62.103
14723.49 0.287 -26.286 4.248 159.265 0.039 -176.853 0.362 51.788
14924.497 0.27 -24.075 4.417 154.72 0.04 178.715 0.374 40.735
15125.503 0.258 -24.077 4.57 147.688 0.041 174.899 0.414 29.353
15326.51 0.23 -25.85 4.28 140.141 0.042 168.266 0.456 21.637
15527.517 0.183 -33.795 3.997 135.769 0.043 161.77 0.471 14.297
15728.523 0.124 -49.196 3.879 131.385 0.042 156.821 0.49 8.469
15929.53 0.075 -77.712 3.828 124.134 0.042 152.897 0.504 2.48
16130.537 0.073 -138.119 3.929 120.733 0.043 148.703 0.49 -5.977
16331.544 0.162 -166.717 4.024 119.408 0.043 141.762 0.476 -15.774
16532.55 0.245 -171.8 4.132 114.923 0.043 135.927 0.477 -29.092
16733.557 0.306 -173.459 4.172 102.751 0.043 129.641 0.476 -45.775
16934.564 0.345 -176.212 4.038 94.157 0.043 125.156 0.468 -63.446
17135.57 0.417 -175.334 3.883 88.987 0.041 120.21 0.497 -77.392
17336.577 0.457 -170.94 3.509 85.496 0.04 117.385 0.528 -88.308
17537.584 0.46 -166.993 3.539 82.801 0.041 114.625 0.531 -99.239
17738.591 0.469 -166.098 3.481 77.807 0.041 110.626 0.538 -110.36
17939.597 0.481 -160.961 3.552 75.189 0.043 107.915 0.536 -119.329
18140.604 0.46 -153.597 3.576 70.646 0.044 104.507 0.513 -129.111
18341.611 0.448 -148.097 3.626 66.2 0.046 100.662 0.489 -144.091
18542.617 0.428 -144.219 3.7 61.236 0.048 95.771 0.484 -156.573
18743.624 0.398 -136.608 3.822 56.592 0.05 90.176 0.462 -169.781
18944.631 0.385 -127.005 3.985 50.499 0.053 83.835 0.4 175.491
19145.638 0.36 -115.464 4.11 42.948 0.055 76.153 0.365 149.827
19346.644 0.344 -111.014 4.21 35.024 0.057 68.493 0.343 124.075
19547.651 0.337 -108.234 4.268 27.118 0.057 60.363 0.35 94.881
19748.658 0.297 -103.439 4.245 18.624 0.057 51.981 0.383 70.572
19949.664 0.276 -99.855 4.178 10.3 0.056 44.012 0.445 54.141
20150.671 0.253 -88.621 4.059 2.964 0.054 36.172 0.449 33.642
20351.678 0.152 -96.043 3.916 -5.045 0.053 29.907 0.497 18.948
20552.685 0.091 179.436 3.994 -13.149 0.052 23.406 0.552 -2.741
20753.691 0.07 162.538 3.848 -20.994 0.049 16.734 0.593 -14.361
20954.698 0.105 132.19 3.681 -27.677 0.046 10.153 0.604 -32.235
21155.705 0.154 95.048 3.251 -34.075 0.042 7.367 0.624 -48.994
21356.711 0.274 98.888 2.9 -41.043 0.041 4.363 0.588 -65.486
21557.718 0.317 112.062 2.839 -43.655 0.038 0.04 0.583 -88.29
21758.725 0.35 110.365 2.759 -41.436 0.038 1.906 0.552 -106.211
21959.732 0.427 111.652 2.742 -44.458 0.038 1.623 0.522 -118.587
22160.738 0.498 116.399 2.798 -49.548 0.041 -0.461 0.488 -133.28
22361.745 0.537 117.248 3.041 -54.477 0.044 -4.78 0.476 -144.797
22562.752 0.536 117.993 3.207 -62.371 0.047 -11.342 0.437 -151.862
22763.758 0.507 116.77 3.072 -67.393 0.049 -9.654 0.351 -161.654
22964.765 0.517 118.537 3.007 -74.956 0.053 -21.094 0.302 -166.587
23165.772 0.487 126.094 3.064 -80.267 0.052 -26.999 0.226 -165.418
23366.779 0.451 124.831 3.142 -85.582 0.054 -31.74 0.153 -161.538
23567.785 0.473 128.669 3.107 -91.595 0.056 -40.045 0.085 -159.467
23768.792 0.432 134.737 3.109 -98.83 0.055 -44.99 0.122 -160.285
23969.799 0.369 134.163 3.102 -105.067 0.058 -48.874 0.141 -157.898
24170.805 0.373 133.589 3.035 -111.628 0.058 -55.664 0.148 -158.238
24371.812 0.36 129.117 3.035 -117.617 0.059 -62.556 0.202 -177.277
24572.819 0.339 126.152 3.06 -125.535 0.059 -69.683 0.301 171.618
24773.826 0.318 127.872 2.97 -132.754 0.057 -74.772 0.37 168.86
24974.832 0.32 128.656 2.704 -137.676 0.056 -79.775 0.444 172.798
25175.839 0.311 130.882 2.529 -143.858 0.054 -83.579 0.528 171.776
25376.846 0.288 125.858 2.454 -148.431 0.054 -89.705 0.556 175.272
25577.852 0.314 113.945 2.497 -151.864 0.055 -94.759 0.549 177.983
25778.859 0.324 114.43 2.52 -155.346 0.055 -98.955 0.558 178.633
25979.866 0.31 108.589 2.531 -161.711 0.056 -103.311 0.573 -178.434
26180.872 0.205 97.485 2.675 -171.288 0.061 -105.963 0.567 -178.847
26381.879 0.103 67.829 2.809 178.576 0.066 -109.175 0.55 -179.993
26582.886 0.092 -14.811 2.931 168.048 0.071 -112.779 0.528 177.482
26783.893 0.184 -48.046 3.034 157.194 0.076 -116.707 0.504 172.605
26984.899 0.274 -58.042 3.124 146.121 0.08 -120.857 0.486 164.313
27185.906 0.342 -61.721 3.196 134.673 0.084 -125.38 0.483 151.598
27386.913 0.382 -61.771 3.245 122.756 0.087 -130.373 0.512 135.266
27587.919 0.398 -58.361 3.249 110.315 0.089 -135.889 0.583 117.838
27788.926 0.402 -51.311 3.189 97.534 0.09 -141.746 0.688 102.11
27989.933 0.408 -41.147 3.05 85.032 0.087 -147.323 0.806 89.681
28190.94 0.429 -29.841 2.857 73.412 0.083 -152.019 0.913 80.617
28391.946 0.459 -19.162 2.637 63.108 0.078 -155.398 0.997 74.809
28592.953 0.492 -9.614 2.429 54.342 0.073 -157.239 1.057 71.961
28793.96 0.52 -0.788 2.249 46.904 0.069 -157.754 1.096 71.439
28994.966 0.541 7.75 2.103 40.576 0.065 -157.157 1.118 72.856
29195.973 0.555 16.322 1.998 35.097 0.063 -155.712 1.132 75.759
29396.98 0.562 25.092 1.927 30.249 0.062 -153.635 1.138 79.833
29597.987 0.563 34.204 1.894 25.858 0.061 -151.102 1.139 84.802
29798.993 0.557 43.735 1.894 21.739 0.062 -148.297 1.138 90.442
30000 0.544 53.865 1.928 17.728 0.064 -145.383 1.136 96.605
