!Hittite Microwave Corporation								
!12 Elizabeth Drive								
!Chelmsford, MA 01824								
!Tel: 978-250-3343								
!Fax: 978-250-3373								
!Device: HMC474MP86, DC-6 GHz, SiGe HBT Gain Block MMIC Amplifier in Micro-P package								
!Misc: Vs = 5V, Room, Rb=110Ohms Is=25mA							
!

# MHZ S MA R 50

50 0.194 176.043 6.463 178.716 0.104 1.2 0.239 -175.918
99.75 0.194 172.797 6.468 177.069 0.106 1.177 0.222 -172.695
149.5 0.194 170.104 6.439 175.885 0.106 1.871 0.197 -169.443
199.25 0.192 166 6.442 174.464 0.107 2.834 0.168 -168.219
249 0.192 162.511 6.415 173.092 0.108 3.432 0.139 -170.897
298.75 0.19 159.311 6.41 171.835 0.109 4.864 0.11 -179.814
348.5 0.189 155.747 6.395 170.425 0.11 6.046 0.097 163.882
398.25 0.187 152.605 6.373 169.191 0.11 7.642 0.103 144.665
448 0.184 148.761 6.353 167.981 0.11 8.814 0.122 134.592
497.75 0.184 145.616 6.325 166.639 0.11 10.11 0.147 131.243
547.5 0.18 142.067 6.287 165.282 0.109 11.267 0.166 131.55
597.25 0.179 138.413 6.257 164.245 0.109 12.326 0.18 134.687
647 0.176 135.266 6.218 162.81 0.108 13.168 0.185 137.69
696.75 0.174 131.109 6.199 161.739 0.109 14.041 0.182 141.838
746.5 0.173 128.219 6.165 160.405 0.108 14.626 0.171 144.574
796.25 0.17 123.831 6.114 159.272 0.109 15.578 0.155 147.012
846 0.169 120.559 6.091 158.019 0.109 15.79 0.135 146.749
895.75 0.166 116.754 6.03 156.989 0.11 17.13 0.113 143.438
945.5 0.165 112.544 6.002 155.679 0.111 17.357 0.096 135.71
995.25 0.164 109.547 5.945 154.609 0.112 18.903 0.086 120.276
1045 0.163 104.867 5.93 153.509 0.113 19.251 0.089 107.213
1094.75 0.162 101.868 5.85 152.263 0.113 20.934 0.103 96.143
1144.5 0.16 97.54 5.841 151.565 0.115 21.716 0.117 92.445
1194.25 0.16 94.052 5.772 149.938 0.114 22.769 0.129 92.226
1244 0.158 90.052 5.705 149.192 0.115 24.129 0.139 92.648
1293.75 0.159 86.061 5.69 148.167 0.115 24.619 0.14 95.692
1343.5 0.159 82.902 5.593 147.053 0.115 26.142 0.137 97.058
1393.25 0.159 78.388 5.576 146.213 0.116 26.157 0.128 98.72
1443 0.16 75.715 5.518 144.964 0.115 27.405 0.116 97.598
1492.75 0.159 71.324 5.471 144.308 0.117 27.837 0.103 93.559
1542.5 0.16 68.112 5.427 143.075 0.116 28.276 0.092 86.313
1592.25 0.161 64.789 5.348 142.542 0.119 29.413 0.088 74.406
1642 0.162 60.797 5.331 141.144 0.118 29.167 0.091 64.457
1691.75 0.163 58.279 5.242 140.436 0.12 30.764 0.101 54.853
1741.5 0.164 54.581 5.229 140.008 0.121 31.107 0.113 51.004
1791.25 0.166 51.671 5.126 138.23 0.122 32.074 0.124 48.987
1841 0.166 48.395 5.11 138.368 0.123 33.621 0.135 49.175
1890.75 0.168 45.672 5.071 136.694 0.123 33.469 0.139 50.531
1940.5 0.17 43.05 4.992 136.566 0.124 35.364 0.141 51.439
1990.25 0.17 40.15 4.979 135.368 0.125 35.291 0.138 52.566
2040 0.172 37.95 4.87 134.566 0.123 36.686 0.13 51.745
2089.75 0.172 34.947 4.891 133.881 0.127 36.728 0.125 50.036
2139.5 0.174 32.693 4.79 133.236 0.122 37.882 0.117 45.226
2189.25 0.175 30.239 4.745 132.525 0.127 38.077 0.115 39.661
2239 0.176 27.474 4.709 131.181 0.124 38.356 0.117 33.433
2288.75 0.177 25.987 4.645 131.254 0.127 40.031 0.123 28.129
2338.5 0.178 23.587 4.629 130.203 0.128 38.888 0.131 25.164
2388.25 0.178 21.626 4.547 129.567 0.128 41.381 0.14 22.72
2438 0.179 19.576 4.522 129.075 0.132 40.418 0.149 22.686
2487.75 0.178 17.271 4.483 127.982 0.129 41.911 0.154 22.632
2537.5 0.179 15.791 4.412 127.838 0.134 43.118 0.158 24.019
2587.25 0.178 14.029 4.384 127.051 0.129 42.817 0.157 25.012
2637 0.178 12.564 4.311 125.831 0.135 45.676 0.154 25.716
2686.75 0.177 10.838 4.306 126.337 0.131 43.96 0.15 25.692
2736.5 0.176 8.891 4.232 124.814 0.132 47.278 0.144 23.835
2786.25 0.177 7.456 4.172 125.102 0.135 45.296 0.141 21.87
2836 0.175 5.398 4.187 123.789 0.131 48.002 0.139 17.942
2885.75 0.176 4.185 4.085 123.788 0.137 46.929 0.141 15.422
2935.5 0.172 3.034 4.1 123.207 0.131 47.969 0.144 12.757
2985.25 0.172 1.19 3.99 122.502 0.138 49.047 0.15 10.638
3035 0.17 0.571 4.007 122.263 0.135 48.037 0.155 10.409
3084.75 0.167 -1.494 3.937 121.479 0.137 51.049 0.16 9.747
3134.5 0.168 -2.461 3.902 121.551 0.14 49.454 0.164 11.047
3184.25 0.162 -3.755 3.865 120.635 0.137 52.312 0.165 11.974
3234 0.164 -5.317 3.819 120.813 0.143 51.775 0.165 13.141
3283.75 0.159 -5.769 3.831 119.585 0.139 52.812 0.162 14.519
3333.5 0.158 -7.59 3.726 120.325 0.142 54.545 0.159 14.629
3383.25 0.156 -7.478 3.765 118.857 0.142 53.271 0.154 15.358
3433 0.15 -9.33 3.681 118.954 0.14 56.57 0.15 13.544
3482.75 0.151 -10.042 3.703 119.094 0.145 54.305 0.148 12.763
3532.5 0.143 -11.235 3.603 117.206 0.14 56.397 0.147 10.359
3582.25 0.146 -12.689 3.637 118.96 0.148 56.995 0.151 9.058
3632 0.14 -11.816 3.588 116.691 0.143 55.503 0.152 9.203
3681.75 0.138 -13.567 3.516 117.568 0.15 59.729 0.159 8.276
3731.5 0.135 -12.644 3.603 117.029 0.147 56.192 0.159 10.096
3781.25 0.127 -14.181 3.403 115.712 0.148 60.47 0.163 10.281
3831 0.129 -15.223 3.588 117.109 0.152 58.991 0.166 11.516
3880.75 0.121 -14.456 3.381 114.727 0.147 60.091 0.165 13.271
3930.5 0.123 -17.022 3.439 116.789 0.156 61.396 0.169 13.836
3980.25 0.118 -13.909 3.475 113.368 0.148 60.504 0.167 16.831
4030 0.114 -15.465 3.301 116.504 0.153 63.266 0.166 17.052
4079.75 0.113 -14.191 3.455 113.03 0.155 61.538 0.162 18.923
4129.5 0.103 -14.04 3.247 114.335 0.15 63.844 0.158 17.557
4179.25 0.105 -15.26 3.415 114.347 0.16 63.07 0.159 17.089
4229 0.099 -11.783 3.243 111.877 0.153 63.704 0.161 17.055
4278.75 0.098 -14.561 3.288 115.063 0.16 65.163 0.168 15.086
4328.5 0.097 -9.274 3.281 110.354 0.158 63.771 0.172 18.122
4378.25 0.09 -9.184 3.185 113.949 0.159 66.687 0.178 17.252
4428 0.09 -6.867 3.347 111.558 0.164 65.351 0.18 19.961
4477.75 0.085 -3.329 3.061 111.246 0.159 66.711 0.184 20.427
4527.5 0.085 -5.088 3.318 111.901 0.165 67.885 0.19 20.957
4577.25 0.085 2.17 3.123 109.196 0.161 66.565 0.195 23.372
4627 0.081 1.579 3.154 113.188 0.163 69.376 0.201 23.396
4676.75 0.085 6.449 3.16 107.646 0.167 67.244 0.203 26.34
4726.5 0.08 12.302 3.07 110.945 0.162 69.414 0.202 26.494
4776.25 0.081 12.553 3.227 109.565 0.171 69.188 0.202 28.476
4826 0.082 18.653 2.947 107.827 0.164 69.029 0.203 27.291
4875.75 0.08 18.718 3.163 110.311 0.171 71.091 0.207 26.613
4925.5 0.091 24.299 3.028 105.379 0.172 69.629 0.22 27.308
4975.25 0.088 27.897 3.045 109.946 0.17 72.217 0.224 26.27
5025 0.096 29.978 3.066 105.559 0.176 71.43 0.235 28.385
5074.75 0.098 36.002 2.848 107.784 0.17 71.987 0.239 28.453
5124.5 0.098 35.952 3.159 105.752 0.175 73.704 0.245 29.613
5174.25 0.109 39.46 2.848 106.558 0.174 71.498 0.253 29.956
5224 0.109 40.455 2.964 106.74 0.172 74.895 0.26 29.635
5273.75 0.123 41.766 2.953 102.948 0.18 71.778 0.273 30.981
5323.5 0.124 45.568 2.853 107.217 0.172 74.464 0.273 31.465
5373.25 0.134 45.772 3.011 102.982 0.184 74.183 0.285 32.973
5423 0.14 48.19 2.746 104.746 0.176 73.189 0.281 33
5472.75 0.143 49.299 2.955 104.024 0.185 76.485 0.29 33.456
5522.5 0.156 48.399 2.767 100.938 0.182 73.481 0.294 32.416
5572.25 0.158 51.385 2.918 106.469 0.184 77.166 0.299 32.556
5622 0.171 50.392 2.724 98.259 0.188 76.096 0.314 32.17
5671.75 0.177 51.977 2.761 104.083 0.181 76.446 0.316 32.157
5721.5 0.187 52.912 2.858 99.533 0.189 78.596 0.333 33.359
5771.25 0.194 52.955 2.595 101.81 0.181 75.984 0.332 33.235
5821 0.2 54.048 2.833 101.452 0.184 79.051 0.344 33.207
5870.75 0.211 53.049 2.565 97.947 0.188 76.39 0.348 33.579
5920.5 0.219 54.501 2.734 102.015 0.18 78.304 0.358 33.307
5970.25 0.23 53.533 2.687 97.032 0.195 77.064 0.369 33.879
6020 0.236 55.383 2.465 101.653 0.184 77.521 0.367 34.912
6069.75 0.247 54.444 2.742 96.085 0.194 78.716 0.381 34.383
6119.5 0.252 54.696 2.443 98.859 0.193 77.378 0.374 35.144
6169.25 0.263 55.735 2.646 100.242 0.191 80.345 0.386 34.574
6219 0.269 54.451 2.409 95.394 0.198 78.817 0.387 34.327
6268.75 0.279 55.965 2.514 100.603 0.191 81.008 0.395 34.328
6318.5 0.29 55.516 2.524 94.573 0.198 81.905 0.408 34.264
6368.25 0.296 56.201 2.361 100.435 0.191 80.095 0.409 35.078
6418 0.306 56.371 2.546 96.372 0.194 83.703 0.421 34.47
6467.75 0.308 56.534 2.246 96.009 0.191 80.278 0.421 35.806
6517.5 0.322 56.234 2.594 99.474 0.19 82.798 0.43 34.611
6567.25 0.324 56.454 2.243 93.964 0.194 81.438 0.434 35.84
6617 0.339 56.632 2.372 100.824 0.188 81.572 0.44 35.881
6666.75 0.341 56.345 2.364 91.205 0.197 83.104 0.445 35.441
6716.5 0.35 57.241 2.226 101.099 0.194 81.582 0.447 37.494
6766.25 0.358 56.728 2.491 94.923 0.195 84.091 0.449 35.384
6816 0.358 57.153 2.072 95.969 0.202 82.637 0.447 37.338
6865.75 0.372 56.956 2.476 98.643 0.193 85.06 0.452 35.481
6915.5 0.374 56.826 2.136 91.981 0.205 85.332 0.461 35.941
6965.25 0.385 57.194 2.278 101.573 0.195 85.7 0.461 36.295
7015 0.391 57.498 2.278 90.104 0.203 88.104 0.473 35.621
7064.75 0.396 57.769 2.085 100.406 0.196 86.049 0.474 37.517
7114.5 0.399 57.8 2.469 93.354 0.197 89.001 0.472 35.664
7164.25 0.405 58.24 1.957 97.184 0.198 87.426 0.482 37.929
7214 0.41 57.487 2.383 97.922 0.194 88.385 0.474 36.069
7263.75 0.412 58.344 2.024 90.925 0.202 88.543 0.483 37.351
7313.5 0.421 57.887 2.211 101.736 0.197 88.393 0.483 37.452
7363.25 0.419 58.576 2.169 88.912 0.201 89.275 0.479 37.008
7413 0.425 58.674 2.053 101.093 0.205 89.425 0.486 38.467
7462.75 0.427 58.349 2.334 92.436 0.2 90.715 0.47 36.765
7512.5 0.428 58.824 1.948 96.484 0.212 90.799 0.484 37.833
7562.25 0.434 58.358 2.332 97.677 0.206 91.824 0.474 36.805
7612 0.44 59.19 1.925 92.045 0.21 93.611 0.487 36.892
7661.75 0.437 59.179 2.205 99.58 0.212 91.598 0.482 37.556
7711.5 0.443 59.657 2.114 90.881 0.207 95.664 0.477 36.537
7761.25 0.438 59.715 2.017 98.494 0.214 92.706 0.489 37.705
7811 0.44 59.229 2.262 93 0.207 95.697 0.465 36.698
7860.75 0.442 59.476 1.941 96.598 0.219 96.01 0.491 36.492
7910.5 0.444 59.028 2.234 96.318 0.209 93.841 0.469 37.257
7960.25 0.446 59.567 2.014 92.154 0.225 97.388 0.479 35.731
8010 0.445 59.867 2.112 98.431 0.216 93.769 0.478 38.139
8059.75 0.447 59.974 2.137 89.76 0.223 98.194 0.458 36.197
8109.5 0.439 60.506 2.018 97.415 0.23 95.52 0.477 37.302
8159.25 0.442 59.47 2.207 92.767 0.219 98.191 0.438 36.614
8209 0.436 60.005 1.97 93.459 0.239 97.04 0.465 34.587
8258.75 0.439 58.996 2.183 95.753 0.223 97.877 0.443 36.68
8308.5 0.44 59.362 1.975 89.9 0.238 99.009 0.449 32.65
8358.25 0.437 59.807 2.099 96.236 0.231 96.998 0.456 35.952
8408 0.436 59.338 2.119 89.47 0.235 99.8 0.426 33.416
8457.75 0.43 60.422 1.997 94.989 0.241 96.61 0.456 33.664
8507.5 0.428 58.625 2.186 90.945 0.236 99.666 0.413 34.578
8557.25 0.42 59.427 1.966 92.389 0.249 98.397 0.437 30.09
8607 0.425 57.91 2.157 92.905 0.241 98.279 0.42 34.554
8656.75 0.418 57.978 1.997 89.409 0.252 99.75 0.406 28.858
8706.5 0.421 58.023 2.091 92.945 0.248 97.694 0.433 31.706
8756.25 0.413 56.82 2.089 87.716 0.253 100.16 0.38 31.044
8806 0.41 58.014 2.04 91.826 0.256 98.285 0.423 25.947
8855.75 0.404 55.139 2.13 88.789 0.253 99.613 0.377 32.516
8905.5 0.397 56.975 2.01 89.468 0.263 98.402 0.385 20.16
8955.25 0.398 53.444 2.131 89.081 0.256 98.57 0.407 29.378
9005 0.386 54.559 2.032 87.05 0.264 98.399 0.337 20.922
9054.75 0.398 53.203 2.082 88.075 0.264 97.393 0.425 19.566
9104.5 0.374 51.491 2.059 85.655 0.264 98.279 0.331 27.856
9154.25 0.392 52.832 2.052 85.784 0.269 96.184 0.384 8.152
9204 0.367 47.344 2.056 85.15 0.265 97.677 0.383 27.984
9253.75 0.38 51.778 2.033 83.39 0.27 95.556 0.292 3.585
9303.5 0.371 43.453 2.008 83.803 0.266 96.454 0.424 14.557
9353.25 0.364 48.951 2.019 82.087 0.27 95.422 0.25 21.273
9403 0.383 40.479 1.92 81.333 0.261 94.897 0.364 -6.778
9452.75 0.343 44.107 1.974 82.546 0.268 96.082 0.354 27.56
9502.5 0.396 37.916 1.829 79.508 0.251 94.539 0.19 -19.059
9552.25 0.323 36.9 1.864 83.876 0.262 97.587 0.424 6.789
9602 0.404 35.435 1.808 80.492 0.247 96.311 0.187 41.873
9651.75 0.313 29.065 1.765 85.461 0.255 100.629 0.301 -19.448
9701.5 0.406 32.959 1.872 83.789 0.252 98.97 0.412 31.255
9751.25 0.324 19.511 1.761 87.064 0.253 105.326 0.084 43.495
9801 0.391 29.102 1.996 86.662 0.278 100.654 0.457 -2.224
9850.75 0.344 13.735 1.952 86.434 0.275 106.733 0.408 52.098
9900.5 0.379 24.951 2.025 86.271 0.303 101.008 0.276 -11.687
9950.25 0.37 10.153 2.15 81.414 0.297 102.418 0.587 15.767
10000 0.367 19.201 2.018 80.46 0.32 99.366 0.341 25.963
