!Hittite Microwave Corporation								
!12 Elizabeth Drive								
!Chelmsford, MA 01824								
!Tel: 978-250-3343								
!Fax: 978-250-3373							
!Device: HMC414MS8G, 2.2-2.8 GHz GaAs InGap HBT MMIC Power Amplifier in 8-lead Grounded Base surface Mount Plastic Package							
!Misc: Input reference is the input pin of the device, output reference is the last component on output line, Vs=5V, Vpd=3.6V, Room							
!
# MHZ S MA R 50

1000 0.99 -82.729 0.033 -100.275 5.274e-3 125.815 0.811 91.617
1020 0.988 -84.439 0.036 -100.531 5.276e-3 122.727 0.808 89.059
1040 0.986 -86.15 0.038 -100.789 5.279e-3 119.639 0.806 86.501
1060 0.985 -87.888 0.042 -100.341 5.57e-3 117.032 0.803 83.93
1080 0.984 -89.636 0.046 -99.658 5.957e-3 114.586 0.799 81.355
1100 0.983 -91.246 0.05 -99.241 6.276e-3 114.228 0.795 78.772
1120 0.982 -92.718 0.055 -99.089 6.525e-3 115.958 0.791 76.18
1140 0.981 -94.223 0.06 -98.702 6.763e-3 116.383 0.786 73.587
1160 0.978 -95.825 0.066 -97.611 6.971e-3 112.897 0.781 70.99
1180 0.975 -97.429 0.072 -96.519 7.179e-3 109.411 0.777 68.394
1200 0.974 -99.111 0.083 -97.252 7.48e-3 107.936 0.77 65.799
1220 0.973 -100.794 0.094 -97.985 7.782e-3 106.461 0.764 63.203
1240 0.973 -102.488 0.106 -98.572 8.435e-3 105.305 0.758 60.574
1260 0.972 -104.186 0.118 -99.11 9.207e-3 104.256 0.751 57.934
1280 0.97 -105.879 0.133 -99.585 9.69e-3 102.44 0.744 55.295
1300 0.966 -107.567 0.151 -99.998 9.887e-3 99.859 0.737 52.655
1320 0.962 -109.224 0.171 -100.743 0.01 97.744 0.729 50.01
1340 0.963 -110.783 0.196 -102.488 0.011 97.025 0.721 47.348
1360 0.963 -112.342 0.221 -104.233 0.011 96.307 0.713 44.686
1380 0.961 -113.946 0.249 -105.822 0.012 92.616 0.704 42.041
1400 0.958 -115.55 0.278 -107.41 0.012 88.926 0.695 39.397
1420 0.955 -117.327 0.324 -108.853 0.013 87.047 0.686 36.686
1440 0.95 -119.162 0.375 -110.247 0.013 85.773 0.676 33.953
1460 0.949 -120.979 0.431 -112.888 0.014 84.894 0.667 31.226
1480 0.95 -122.777 0.491 -116.776 0.014 84.41 0.657 28.505
1500 0.95 -124.532 0.555 -120.267 0.015 83.158 0.648 25.786
1520 0.947 -126.158 0.634 -122.567 0.015 79.601 0.639 23.073
1540 0.944 -127.782 0.713 -124.866 0.016 76.044 0.629 20.36
1560 0.94 -129.587 0.843 -129.472 0.016 75.096 0.621 17.552
1580 0.937 -131.388 0.972 -134.076 0.017 74.149 0.612 14.744
1600 0.936 -133.527 1.104 -138.773 0.018 71.867 0.603 11.79
1620 0.937 -135.775 1.236 -143.499 0.019 69.141 0.594 8.787
1640 0.936 -137.813 1.403 -148.011 0.019 66.794 0.586 5.775
1660 0.934 -139.642 1.603 -152.308 0.02 64.825 0.579 2.755
1680 0.931 -141.587 1.814 -157.136 0.02 62.781 0.571 -0.419
1700 0.93 -143.89 2.057 -163.556 0.022 60.508 0.563 -4.049
1720 0.928 -146.188 2.3 -169.973 0.023 58.237 0.555 -7.684
1740 0.927 -148.704 2.585 -175.733 0.024 55.637 0.547 -11.76
1760 0.927 -151.215 2.87 178.51 0.025 53.04 0.54 -15.84
1780 0.921 -153.884 3.25 172.583 0.025 51.41 0.53 -20.421
1800 0.912 -156.6 3.661 166.603 0.026 50.105 0.52 -25.173
1820 0.904 -159.719 4.072 159.734 0.027 47.434 0.509 -30.46
1840 0.895 -163.237 4.482 151.978 0.029 43.398 0.495 -36.287
1860 0.884 -166.796 4.925 144.438 0.03 39.355 0.481 -42.412
1880 0.867 -170.497 5.467 137.539 0.031 35.282 0.463 -49.412
1900 0.851 -174.187 6.008 130.644 0.032 31.214 0.445 -56.428
1920 0.819 -178.14 6.655 122.036 0.034 27.828 0.42 -65.293
1940 0.788 177.917 7.301 113.433 0.035 24.447 0.395 -74.19
1960 0.749 173.537 7.852 104.94 0.036 19.577 0.364 -84.889
1980 0.707 169.016 8.373 96.487 0.037 14.213 0.332 -96.224
2000 0.659 164.861 8.901 87.704 0.038 9.196 0.299 -109.218
2020 0.605 161.061 9.438 78.588 0.038 4.525 0.267 -123.888
2040 0.549 157.521 9.916 69.448 0.039 -0.09 0.237 -139.902
2060 0.487 154.759 10.217 60.231 0.039 -4.543 0.217 -159.696
2080 0.425 151.962 10.519 51.015 0.039 -8.995 0.196 -179.448
2100 0.371 151.742 10.764 42.795 0.038 -13.362 0.198 160.508
2120 0.317 151.431 11.01 34.579 0.037 -17.725 0.199 140.603
2140 0.272 155.367 11.062 26.543 0.036 -21.417 0.212 124.083
2160 0.23 160.562 11.05 18.577 0.036 -24.876 0.227 108.632
2180 0.199 168.22 11.048 11.277 0.035 -28.245 0.244 95.324
2200 0.181 178.586 11.058 4.645 0.034 -31.521 0.263 84.159
2220 0.168 -171.355 11.056 -2.089 0.033 -34.625 0.28 73.72
2240 0.176 -162.217 11.023 -9.154 0.032 -37.237 0.295 65.563
2260 0.184 -152.96 10.992 -16.215 0.031 -39.845 0.309 57.389
2280 0.205 -147.679 10.903 -21.794 0.031 -42.215 0.32 50.527
2300 0.225 -142.508 10.814 -27.372 0.03 -44.585 0.331 43.654
2320 0.245 -139.679 10.859 -32.822 0.029 -46.665 0.339 37.569
2340 0.266 -137.672 10.947 -38.228 0.028 -48.649 0.346 31.744
2360 0.286 -136.633 10.932 -43.764 0.028 -50.394 0.351 26.283
2380 0.307 -136.55 10.813 -49.429 0.026 -51.899 0.353 21.186
2400 0.327 -136.592 10.752 -54.87 0.025 -53.227 0.354 16.168
2420 0.348 -136.932 10.865 -59.639 0.025 -54.022 0.353 11.39
2440 0.368 -137.294 10.978 -64.409 0.025 -54.819 0.352 6.608
2460 0.387 -138.14 11.093 -69.635 0.024 -56.703 0.347 2.381
2480 0.405 -138.997 11.208 -74.862 0.024 -58.588 0.341 -1.845
2500 0.424 -140.209 11.25 -80.014 0.023 -59.571 0.333 -5.871
2520 0.442 -141.543 11.267 -85.141 0.023 -60.254 0.324 -9.833
2540 0.461 -142.909 11.374 -90.108 0.023 -60.318 0.313 -13.5
2560 0.48 -144.305 11.573 -94.915 0.022 -59.765 0.301 -16.874
2580 0.499 -145.845 11.767 -99.962 0.022 -59.393 0.287 -19.897
2600 0.517 -147.809 11.946 -105.731 0.021 -59.567 0.269 -21.861
2620 0.535 -149.775 12.125 -111.499 0.021 -59.739 0.252 -23.824
2640 0.554 -151.961 12.201 -116.746 0.021 -59.937 0.234 -24.274
2660 0.573 -154.148 12.277 -121.991 0.022 -60.134 0.215 -24.719
2680 0.591 -156.417 12.459 -127.531 0.022 -60.341 0.2 -22.241
2700 0.608 -158.711 12.676 -133.169 0.022 -60.552 0.185 -18.743
2720 0.625 -161.342 12.87 -139.104 0.023 -60.601 0.176 -12.978
2740 0.639 -164.307 13.039 -145.337 0.023 -60.487 0.175 -4.933
2760 0.654 -167.361 13.17 -151.662 0.023 -60.933 0.18 2.685
2780 0.667 -170.692 13.187 -158.264 0.024 -63.059 0.202 8.815
2800 0.681 -174.018 13.203 -164.862 0.025 -65.182 0.225 14.892
2820 0.688 -177.352 13.187 -171.051 0.026 -66.188 0.266 15.686
2840 0.694 179.32 13.172 -177.236 0.026 -67.191 0.308 16.477
2860 0.696 175.77 13.103 175.832 0.027 -69.484 0.355 14.785
2880 0.697 172.149 13.016 168.653 0.028 -72.206 0.404 12.268
2900 0.694 168.527 12.786 161.768 0.029 -74.873 0.454 8.771
2920 0.686 164.902 12.412 155.175 0.029 -77.489 0.503 4.302
2940 0.677 161.293 12.092 148.736 0.029 -80.024 0.552 -0.359
2960 0.663 157.711 11.93 142.757 0.029 -82.323 0.598 -5.61
2980 0.649 154.135 11.769 136.775 0.03 -84.625 0.644 -10.859
3000 0.631 151.069 11.309 129.143 0.03 -88.728 0.68 -16.204
3020 0.614 148.009 10.849 121.508 0.03 -92.834 0.717 -21.556
3040 0.594 145.533 10.282 116.135 0.03 -95.705 0.747 -26.912
3060 0.573 143.254 9.678 111.513 0.029 -98.167 0.775 -32.268
3080 0.552 141.046 9.339 106.014 0.029 -100.899 0.799 -37.484
3100 0.53 138.91 9.265 99.64 0.029 -103.9 0.82 -42.566
3120 0.51 136.935 9.028 93.516 0.029 -106.985 0.84 -47.577
3140 0.492 135.431 8.302 88.151 0.028 -110.315 0.854 -52.365
3160 0.475 133.932 7.575 82.783 0.028 -113.647 0.868 -57.151
3180 0.46 133.109 7.293 78.745 0.027 -114.761 0.877 -61.668
3200 0.445 132.288 7.011 74.705 0.026 -115.876 0.887 -66.185
3220 0.432 131.658 6.773 69.194 0.026 -117.713 0.895 -70.441
3240 0.42 131.094 6.55 63.191 0.026 -119.791 0.902 -74.612
3260 0.41 130.701 6.177 58.22 0.025 -122.011 0.907 -78.68
3280 0.401 130.476 5.654 54.281 0.024 -124.372 0.912 -82.645
3300 0.393 130.228 5.23 50.635 0.024 -126.284 0.916 -86.573
3320 0.386 129.912 5.105 47.865 0.024 -126.849 0.921 -90.399
3340 0.38 129.595 4.981 45.096 0.024 -127.414 0.925 -94.224
3360 0.377 129.275 4.691 38.994 0.023 -130.044 0.927 -97.812
3380 0.375 128.954 4.401 32.893 0.022 -132.675 0.93 -101.399
3400 0.374 128.854 4.172 30.014 0.022 -134.676 0.932 -104.939
3420 0.374 128.829 3.962 28.209 0.021 -136.467 0.935 -108.463
3440 0.374 128.704 3.78 25.181 0.021 -137.911 0.937 -111.942
3460 0.373 128.48 3.626 20.93 0.021 -139.007 0.939 -115.375
3480 0.374 128.154 3.455 16.641 0.021 -140.244 0.941 -118.758
3500 0.376 127.519 3.236 12.239 0.02 -141.909 0.942 -121.998
3520 0.379 126.883 3.018 7.838 0.02 -143.572 0.943 -125.236
3540 0.383 126.343 2.889 6.241 0.019 -144.129 0.943 -128.498
3560 0.387 125.802 2.761 4.645 0.019 -144.685 0.943 -131.76
3580 0.391 125.05 2.657 0.921 0.018 -145.896 0.945 -134.87
3600 0.395 124.226 2.561 -3.512 0.018 -147.324 0.946 -137.929
3620 0.4 123.345 2.424 -7.003 0.018 -148.886 0.947 -140.939
3640 0.406 122.406 2.244 -9.552 0.017 -150.582 0.947 -143.901
3660 0.411 121.458 2.093 -12.082 0.017 -151.735 0.947 -146.863
3680 0.416 120.483 2.027 -14.554 0.017 -151.261 0.949 -149.832
3700 0.422 119.507 1.962 -17.025 0.017 -150.785 0.95 -152.799
3720 0.428 118.189 1.875 -20.297 0.016 -153.377 0.951 -155.629
3740 0.434 116.868 1.788 -23.568 0.016 -155.968 0.951 -158.456
3760 0.441 115.602 1.685 -26.041 0.016 -157.594 0.952 -161.225
3780 0.448 114.353 1.577 -28.248 0.016 -158.899 0.952 -163.973
3800 0.455 113.111 1.506 -30.625 0.016 -159.758 0.952 -166.745
3820 0.46 111.876 1.47 -33.173 0.015 -160.173 0.952 -169.542
3840 0.466 110.543 1.424 -35.867 0.015 -160.566 0.953 -172.296
3860 0.473 108.918 1.342 -39.005 0.015 -160.899 0.953 -174.921
3880 0.48 107.292 1.261 -42.141 0.015 -161.231 0.953 -177.546
3900 0.488 105.885 1.21 -43.909 0.014 -163.271 0.953 179.885
3920 0.495 104.477 1.158 -45.677 0.013 -165.309 0.954 177.317
3940 0.502 103.029 1.107 -48.193 0.013 -166.559 0.954 174.694
3960 0.509 101.568 1.057 -50.958 0.014 -167.546 0.954 172.054
3980 0.515 100.016 1.008 -53.543 0.014 -168.634 0.954 169.502
4000 0.522 98.374 0.963 -55.949 0.013 -169.823 0.955 167.038
4020 0.529 96.753 0.919 -58.26 0.013 -171.053 0.955 164.573
4040 0.536 95.196 0.879 -60.287 0.013 -172.414 0.955 162.107
4060 0.543 93.638 0.838 -62.313 0.012 -173.773 0.955 159.642
4080 0.549 91.94 0.803 -64.799 0.013 -174.588 0.955 157.169
4100 0.556 90.242 0.768 -67.284 0.013 -175.401 0.956 154.698
4120 0.563 88.601 0.733 -69.455 0.012 -175.825 0.956 152.32
4140 0.57 86.979 0.699 -71.521 0.012 -176.118 0.956 149.975
4160 0.577 85.43 0.667 -73.747 0.011 -177.139 0.956 147.612
4180 0.583 83.956 0.638 -76.133 0.012 -178.89 0.956 145.233
4200 0.589 82.394 0.609 -78.397 0.011 179.848 0.956 142.855
4220 0.595 80.569 0.583 -80.294 0.011 -179.951 0.956 140.479
4240 0.601 78.743 0.556 -82.189 0.011 -179.749 0.956 138.103
4260 0.607 77.08 0.531 -84.509 0.011 179.914 0.956 135.877
4280 0.614 75.418 0.506 -86.827 0.011 179.577 0.956 133.652
4300 0.62 73.879 0.482 -88.866 0.011 178.191 0.956 131.385
4320 0.625 72.381 0.459 -90.812 0.01 176.454 0.955 129.104
4340 0.63 70.796 0.437 -92.807 0.01 174.958 0.955 126.835
4360 0.635 69.124 0.418 -94.853 0.01 173.704 0.956 124.577
4380 0.64 67.465 0.398 -96.942 0.01 172.498 0.956 122.325
4400 0.646 65.849 0.38 -99.165 9.909e-3 171.435 0.956 120.091
4420 0.651 64.233 0.361 -101.387 9.748e-3 170.373 0.955 117.856
4440 0.655 62.546 0.343 -103.164 9.471e-3 169.364 0.954 115.609
4460 0.658 60.858 0.326 -104.942 9.193e-3 168.356 0.953 113.362
4480 0.663 59.149 0.309 -106.805 9.108e-3 167.629 0.953 111.205
4500 0.669 57.434 0.294 -108.696 9.087e-3 166.995 0.954 109.077
4520 0.673 55.914 0.279 -110.64 9.095e-3 166.08 0.954 106.938
4540 0.678 54.59 0.264 -112.637 9.13e-3 164.883 0.953 104.789
4560 0.682 53.188 0.25 -114.548 9.109e-3 164.02 0.953 102.667
4580 0.684 51.555 0.238 -116.203 8.92e-3 164.156 0.953 100.627
4600 0.686 49.92 0.225 -117.857 8.732e-3 164.293 0.953 98.587
4620 0.69 48.193 0.212 -119.825 8.626e-3 163.205 0.952 96.306
4640 0.693 46.465 0.199 -121.792 8.52e-3 162.118 0.95 94.025
4660 0.697 45.017 0.188 -123.585 8.335e-3 160.772 0.95 91.868
4680 0.7 43.663 0.177 -125.32 8.123e-3 159.339 0.949 89.753
4700 0.703 42.203 0.167 -127.173 7.901e-3 157.986 0.948 87.585
4720 0.705 40.636 0.156 -129.144 7.667e-3 156.712 0.948 85.364
4740 0.707 39.072 0.146 -130.877 7.452e-3 155.622 0.947 83.181
4760 0.709 37.515 0.136 -131.889 7.292e-3 155.086 0.946 81.113
4780 0.712 35.958 0.127 -132.901 7.132e-3 154.549 0.946 79.045
4800 0.714 34.576 0.119 -135.201 7.166e-3 153.2 0.944 76.949
4820 0.716 33.194 0.11 -137.501 7.2e-3 151.851 0.943 74.853
4840 0.717 31.606 0.102 -139.055 7.12e-3 150.649 0.942 72.73
4860 0.718 29.949 0.094 -140.36 7.003e-3 149.494 0.942 70.597
4880 0.72 28.411 0.086 -141.531 6.917e-3 148.648 0.941 68.497
4900 0.722 26.992 0.079 -142.567 6.862e-3 148.11 0.94 66.429
4920 0.724 25.587 0.072 -143.783 6.695e-3 147.493 0.939 64.354
4940 0.724 24.224 0.065 -145.539 6.189e-3 146.645 0.938 62.258
4960 0.725 22.861 0.058 -147.295 5.683e-3 145.795 0.937 60.161
4980 0.725 21.171 0.052 -148.177 5.742e-3 148.335 0.936 58.024
5000 0.726 19.478 0.046 -149.061 5.8e-3 150.874 0.935 55.886
