!Hittite Microwave Corporation								
!12 Elizabeth Drive								
!Chelmsford, MA 01824								
!Tel: 978-250-3343								
!Fax: 978-250-3373
!Device: HMC484MS8G, DC - 3 GHz GaAs MMIC 10 Watt T/R Switch in 8-lead MSOP grounded base package
!Misc: Port1=RFC, Port2= RF1, Port3=RF2, RF2 ON, Bias: +5VDC								
!
# MHZ S MA R 50

50 0.025 61.28 7.609e-3 69.876 0.976 -3.078
          7.8e-3 68.247 0.964 -19.781 7.205e-3 69.664
          0.976 -3.12 7.359e-3 70.49 0.02 80.879
67.25 0.015 25.026 6.208e-3 69.775 0.971 -3.339
          6.464e-3 67.125 0.959 -26.75 6.469e-3 63.938
          0.972 -3.339 6.418e-3 65.142 0.011 35.722
84.5 0.013 9.988 7.994e-3 74.081 0.97 -3.861
          8.019e-3 74.735 0.953 -33.102 7.674e-3 75.75
          0.971 -3.858 7.627e-3 72.398 8.681e-3 11.442
101.75 0.012 -5.673 0.01 73.564 0.969 -4.379
          0.011 74.906 0.946 -39.362 0.01 75.263
          0.97 -4.377 0.01 73.586 8.359e-3 -6.103
119 0.013 -14.278 0.013 69.842 0.968 -4.912
          0.013 69.29 0.94 -45.454 0.013 68.568
          0.968 -4.929 0.013 68.83 9.045e-3 -11.299
136.25 0.014 -20.721 0.014 65.615 0.968 -5.546
          0.014 65.044 0.935 -51.362 0.014 67.446
          0.969 -5.561 0.014 67.264 9.619e-3 -17.959
153.5 0.015 -26.241 0.016 60.734 0.969 -6.227
          0.016 60.672 0.93 -57.027 0.015 62.885
          0.969 -6.248 0.016 63.245 0.01 -21.294
170.75 0.017 -31.295 0.017 54.364 0.97 -6.867
          0.017 55.005 0.926 -62.588 0.017 58.876
          0.969 -6.866 0.017 58.659 0.011 -24.817
188 0.018 -39.1 0.017 53.247 0.97 -7.524
          0.017 53.536 0.919 -67.967 0.018 52.784
          0.97 -7.57 0.018 52.562 0.012 -37.241
205.25 0.018 -43.32 0.019 51.488 0.968 -8.116
          0.019 51.613 0.911 -73.033 0.018 52.671
          0.969 -8.215 0.018 52.172 0.012 -37.699
222.5 0.018 -47.926 0.02 50.025 0.968 -8.745
          0.02 49.953 0.904 -77.777 0.019 51.586
          0.969 -8.779 0.019 51.878 0.014 -46.518
239.75 0.019 -52.468 0.021 47.55 0.967 -9.387
          0.021 47.623 0.9 -82.413 0.021 49.4
          0.967 -9.354 0.021 49.416 0.014 -50.375
257 0.019 -54.784 0.022 45.153 0.968 -9.994
          0.022 45.273 0.896 -86.884 0.022 47.134
          0.968 -10.005 0.022 47.262 0.015 -51.74
274.25 0.02 -58.055 0.024 42.149 0.967 -10.571
          0.024 42.321 0.889 -91.045 0.023 44.513
          0.967 -10.643 0.023 44.197 0.016 -56.57
291.5 0.022 -58.953 0.024 37.416 0.967 -11.279
          0.024 37.53 0.885 -95.054 0.023 41.214
          0.967 -11.357 0.023 41.218 0.019 -60.162
308.75 0.024 -63.027 0.024 36.372 0.967 -11.964
          0.024 36.196 0.881 -98.952 0.024 39.913
          0.967 -11.965 0.024 39.698 0.019 -63.769
326 0.025 -65.482 0.025 35.306 0.967 -12.584
          0.025 35.146 0.876 -102.53 0.025 38.243
          0.967 -12.601 0.024 38.096 0.02 -65.616
343.25 0.026 -68.004 0.025 33.631 0.967 -13.206
          0.025 33.626 0.871 -105.954 0.025 36.656
          0.968 -13.278 0.025 36.562 0.021 -66.701
360.5 0.027 -70.532 0.026 31.962 0.966 -13.828
          0.026 31.623 0.867 -109.37 0.026 35.145
          0.967 -13.912 0.026 35.148 0.02 -68.35
377.75 0.026 -71.913 0.027 29.769 0.966 -14.46
          0.027 29.66 0.864 -112.623 0.026 33.464
          0.967 -14.475 0.026 33.299 0.02 -67.255
395 0.027 -74.68 0.027 27.564 0.967 -15.088
          0.027 27.545 0.86 -115.762 0.027 31.48
          0.967 -15.039 0.027 31.578 0.02 -64.727
412.25 0.028 -78.275 0.027 26.85 0.966 -15.767
          0.027 26.77 0.856 -118.695 0.027 29.918
          0.967 -15.74 0.027 30.045 0.022 -67.978
429.5 0.029 -81.557 0.028 25.364 0.966 -16.398
          0.028 25.299 0.852 -121.533 0.027 28.583
          0.966 -16.417 0.027 28.664 0.024 -69.778
446.75 0.03 -84.714 0.028 23.786 0.966 -17.051
          0.028 23.668 0.85 -124.212 0.028 27.309
          0.966 -17.051 0.028 27.218 0.026 -72.995
464 0.032 -87.291 0.028 22.337 0.966 -17.676
          0.028 22.253 0.848 -126.786 0.028 26.232
          0.966 -17.686 0.028 26.101 0.027 -74.29
481.25 0.034 -89.728 0.029 21.083 0.964 -18.302
          0.029 20.958 0.846 -129.269 0.028 24.911
          0.965 -18.332 0.028 24.827 0.029 -77.944
498.5 0.036 -90.275 0.029 19.75 0.964 -18.907
          0.029 19.72 0.843 -131.596 0.029 23.731
          0.965 -18.927 0.029 23.681 0.031 -79.945
515.75 0.037 -91.637 0.029 18.507 0.964 -19.59
          0.029 18.402 0.84 -133.818 0.029 22.61
          0.964 -19.601 0.029 22.585 0.033 -81.019
533 0.037 -92.06 0.029 17.282 0.964 -20.233
          0.029 17.266 0.838 -136.057 0.029 21.495
          0.965 -20.263 0.029 21.539 0.033 -81.656
550.25 0.039 -92.373 0.03 16.233 0.964 -20.883
          0.029 16.045 0.836 -138.198 0.029 20.393
          0.965 -20.904 0.029 20.4 0.033 -82.767
567.5 0.039 -94.411 0.03 14.944 0.964 -21.509
          0.03 14.915 0.834 -140.268 0.029 19.403
          0.964 -21.5 0.029 19.224 0.035 -83.96
584.75 0.04 -95.762 0.03 13.717 0.963 -22.121
          0.03 13.798 0.832 -142.278 0.03 18.411
          0.963 -22.092 0.03 18.434 0.034 -85.957
602 0.04 -97.358 0.03 12.746 0.964 -22.766
          0.03 12.624 0.831 -144.256 0.03 17.518
          0.965 -22.763 0.03 17.549 0.035 -86.397
619.25 0.041 -99.74 0.03 11.671 0.964 -23.465
          0.03 11.731 0.83 -146.221 0.03 16.497
          0.965 -23.437 0.03 16.654 0.036 -88.136
636.5 0.042 -101.8 0.03 10.684 0.963 -24.081
          0.03 10.691 0.828 -148.082 0.03 15.756
          0.965 -24.069 0.03 15.853 0.037 -88.667
653.75 0.044 -103.498 0.03 9.824 0.963 -24.699
          0.03 9.753 0.826 -149.802 0.03 15.014
          0.964 -24.68 0.03 14.882 0.039 -89.75
671 0.045 -104.927 0.03 8.877 0.963 -25.333
          0.03 8.929 0.826 -151.531 0.03 14.149
          0.963 -25.304 0.03 14.112 0.041 -91.925
688.25 0.046 -105.91 0.03 8.116 0.962 -25.963
          0.03 8.064 0.824 -153.118 0.031 13.268
          0.962 -25.924 0.031 13.37 0.043 -93.581
705.5 0.047 -106.396 0.03 7.159 0.962 -26.551
          0.031 7.149 0.822 -154.748 0.031 12.522
          0.962 -26.545 0.031 12.47 0.043 -94.281
722.75 0.049 -107.08 0.031 6.346 0.962 -27.193
          0.031 6.287 0.821 -156.296 0.031 11.921
          0.963 -27.21 0.031 11.908 0.044 -94.854
740 0.049 -108.042 0.031 5.576 0.962 -27.841
          0.031 5.481 0.821 -157.859 0.031 11.073
          0.962 -27.869 0.031 11.097 0.044 -95.642
757.25 0.05 -109.154 0.031 4.742 0.962 -28.49
          0.031 4.617 0.82 -159.414 0.031 10.386
          0.962 -28.52 0.031 10.416 0.044 -96.872
774.5 0.05 -110.42 0.031 3.886 0.962 -29.142
          0.031 3.845 0.818 -160.921 0.031 9.807
          0.962 -29.139 0.031 9.821 0.045 -97.429
791.75 0.051 -111.818 0.031 3.067 0.962 -29.772
          0.031 3.095 0.817 -162.407 0.031 9.112
          0.962 -29.786 0.031 9.122 0.046 -97.886
809 0.052 -113.423 0.031 2.32 0.962 -30.413
          0.031 2.187 0.816 -163.861 0.031 8.418
          0.962 -30.417 0.031 8.421 0.047 -97.808
826.25 0.053 -115.124 0.031 1.42 0.961 -31.076
          0.031 1.474 0.815 -165.271 0.031 7.733
          0.961 -31.069 0.031 7.95 0.048 -99.242
843.5 0.054 -116.293 0.031 0.769 0.96 -31.716
          0.031 0.713 0.815 -166.603 0.031 7.232
          0.96 -31.69 0.031 7.283 0.05 -100.507
860.75 0.055 -117.218 0.031 0.104 0.96 -32.37
          0.031 0.168 0.814 -167.848 0.031 6.699
          0.96 -32.318 0.031 6.815 0.052 -101.265
878 0.056 -117.912 0.031 -0.631 0.96 -33.004
          0.031 -0.548 0.812 -169.135 0.031 6.157
          0.96 -32.966 0.031 6.229 0.053 -102.302
895.25 0.057 -118.742 0.031 -1.203 0.959 -33.591
          0.031 -1.273 0.811 -170.415 0.031 5.588
          0.96 -33.62 0.031 5.665 0.054 -103.213
912.5 0.057 -119.394 0.031 -1.873 0.96 -34.225
          0.031 -1.892 0.812 -171.676 0.031 5.062
          0.96 -34.224 0.032 5.145 0.055 -103.716
929.75 0.058 -120.026 0.031 -2.619 0.96 -34.854
          0.031 -2.649 0.812 -172.944 0.032 4.583
          0.961 -34.869 0.032 4.529 0.056 -104.539
947 0.058 -120.806 0.031 -3.253 0.961 -35.488
          0.031 -3.339 0.811 -174.192 0.032 4.079
          0.961 -35.553 0.032 4.004 0.056 -105.218
964.25 0.059 -122.014 0.031 -3.962 0.961 -36.155
          0.031 -3.987 0.81 -175.369 0.032 3.547
          0.961 -36.18 0.032 3.583 0.056 -105.969
981.5 0.059 -123.449 0.031 -4.672 0.96 -36.822
          0.031 -4.596 0.81 -176.564 0.032 3.007
          0.961 -36.788 0.032 3.007 0.057 -106.345
998.75 0.059 -124.852 0.031 -5.293 0.96 -37.444
          0.031 -5.196 0.808 -177.764 0.032 2.492
          0.96 -37.454 0.032 2.506 0.057 -107.304
1016 0.06 -126.238 0.031 -5.848 0.959 -38.099
          0.031 -5.739 0.808 -178.912 0.032 2.062
          0.96 -38.094 0.032 2.05 0.058 -108.492
1033.25 0.061 -127.509 0.031 -6.439 0.959 -38.724
          0.031 -6.324 0.808 179.946 0.032 1.591
          0.96 -38.746 0.032 1.609 0.06 -109.583
1050.5 0.062 -128.566 0.031 -6.951 0.959 -39.344
          0.031 -6.941 0.807 178.82 0.032 1.128
          0.96 -39.356 0.032 1.166 0.062 -110.13
1067.75 0.063 -129.473 0.031 -7.49 0.958 -39.985
          0.031 -7.509 0.806 177.737 0.032 0.606
          0.96 -39.95 0.032 0.772 0.063 -111.138
1085 0.064 -129.993 0.031 -8.086 0.958 -40.632
          0.031 -8.079 0.806 176.675 0.032 0.208
          0.959 -40.601 0.032 0.319 0.064 -112.16
1102.25 0.064 -130.703 0.031 -8.624 0.957 -41.268
          0.031 -8.656 0.805 175.614 0.032 -0.123
          0.958 -41.289 0.032 -0.156 0.064 -113.031
1119.5 0.065 -131.65 0.031 -9.105 0.957 -41.912
          0.031 -9.214 0.805 174.575 0.032 -0.489
          0.958 -41.962 0.032 -0.548 0.064 -113.775
1136.75 0.065 -132.319 0.031 -9.646 0.957 -42.559
          0.031 -9.76 0.804 173.515 0.032 -0.908
          0.958 -42.581 0.032 -0.959 0.065 -114.222
1154 0.065 -133.34 0.031 -10.142 0.958 -43.182
          0.031 -10.256 0.804 172.471 0.032 -1.395
          0.958 -43.194 0.032 -1.351 0.065 -114.73
1171.25 0.066 -134.369 0.031 -10.688 0.959 -43.822
          0.031 -10.73 0.805 171.397 0.032 -1.86
          0.959 -43.82 0.032 -1.723 0.066 -115.418
1188.5 0.066 -135.544 0.031 -11.287 0.959 -44.487
          0.031 -11.247 0.806 170.369 0.032 -2.218
          0.96 -44.424 0.032 -2.137 0.067 -115.929
1205.75 0.067 -136.738 0.031 -11.823 0.959 -45.125
          0.031 -11.837 0.806 169.387 0.032 -2.605
          0.96 -45.093 0.032 -2.585 0.068 -116.187
1223 0.068 -137.804 0.031 -12.357 0.959 -45.757
          0.031 -12.419 0.805 168.369 0.032 -2.998
          0.959 -45.808 0.032 -3.071 0.068 -116.907
1240.25 0.068 -138.64 0.031 -12.812 0.958 -46.415
          0.031 -12.919 0.804 167.382 0.032 -3.355
          0.959 -46.485 0.032 -3.456 0.069 -118.105
1257.5 0.069 -139.351 0.031 -13.231 0.958 -47.048
          0.031 -13.336 0.804 166.433 0.032 -3.738
          0.958 -47.099 0.032 -3.695 0.07 -118.975
1274.75 0.07 -140.058 0.031 -13.746 0.958 -47.66
          0.031 -13.81 0.804 165.481 0.032 -4.06
          0.958 -47.695 0.032 -4.016 0.072 -119.597
1292 0.07 -140.6 0.031 -14.237 0.958 -48.306
          0.031 -14.323 0.803 164.517 0.032 -4.388
          0.958 -48.337 0.032 -4.368 0.073 -120.159
1309.25 0.07 -141.262 0.031 -14.725 0.958 -48.972
          0.031 -14.75 0.802 163.512 0.033 -4.77
          0.958 -48.982 0.033 -4.678 0.073 -121.074
1326.5 0.07 -142.341 0.031 -15.252 0.958 -49.622
          0.031 -15.247 0.802 162.542 0.033 -5.093
          0.959 -49.631 0.033 -5.079 0.072 -121.984
1343.75 0.07 -143.364 0.031 -15.68 0.958 -50.257
          0.031 -15.758 0.802 161.609 0.033 -5.446
          0.958 -50.294 0.033 -5.495 0.072 -122.28
1361 0.071 -144.263 0.031 -16.134 0.958 -50.898
          0.031 -16.203 0.802 160.616 0.033 -5.839
          0.958 -50.933 0.033 -5.843 0.073 -122.959
1378.25 0.071 -145.506 0.031 -16.653 0.957 -51.564
          0.031 -16.659 0.801 159.623 0.033 -6.15
          0.958 -51.556 0.033 -6.151 0.073 -123.631
1395.5 0.071 -146.492 0.031 -17.09 0.957 -52.217
          0.031 -17.147 0.801 158.666 0.033 -6.506
          0.957 -52.193 0.033 -6.468 0.074 -124.023
1412.75 0.072 -147.968 0.031 -17.533 0.957 -52.866
          0.031 -17.646 0.8 157.739 0.033 -6.866
          0.956 -52.828 0.033 -6.754 0.075 -125.057
1430 0.073 -148.534 0.031 -17.981 0.956 -53.515
          0.031 -18.002 0.8 156.824 0.033 -7.142
          0.956 -53.472 0.033 -7.026 0.076 -126.324
1447.25 0.074 -148.95 0.031 -18.456 0.956 -54.149
          0.031 -18.41 0.8 155.956 0.033 -7.484
          0.957 -54.13 0.033 -7.336 0.077 -127.108
1464.5 0.074 -149.732 0.031 -18.915 0.956 -54.792
          0.031 -18.887 0.801 155.088 0.033 -7.674
          0.956 -54.778 0.033 -7.678 0.078 -127.746
1481.75 0.075 -150.009 0.031 -19.315 0.955 -55.454
          0.031 -19.277 0.8 154.232 0.033 -7.928
          0.956 -55.427 0.033 -8.025 0.079 -127.631
1499 0.075 -151.007 0.031 -19.685 0.955 -56.085
          0.031 -19.735 0.8 153.324 0.033 -8.357
          0.955 -56.082 0.033 -8.358 0.079 -128.69
1516.25 0.075 -151.68 0.031 -20.066 0.954 -56.724
          0.031 -20.174 0.8 152.41 0.033 -8.683
          0.955 -56.717 0.033 -8.641 0.079 -129.59
1533.5 0.075 -152.387 0.031 -20.575 0.954 -57.371
          0.031 -20.552 0.799 151.478 0.033 -9.023
          0.955 -57.383 0.033 -8.943 0.08 -129.682
1550.75 0.075 -153.271 0.031 -21.024 0.954 -58.029
          0.031 -20.966 0.799 150.558 0.033 -9.314
          0.954 -58.06 0.033 -9.262 0.08 -130.27
1568 0.076 -154.133 0.031 -21.337 0.954 -58.679
          0.031 -21.364 0.798 149.713 0.033 -9.547
          0.954 -58.698 0.033 -9.525 0.081 -130.733
1585.25 0.076 -154.899 0.031 -21.688 0.953 -59.337
          0.031 -21.705 0.798 148.835 0.033 -9.837
          0.953 -59.374 0.033 -9.848 0.082 -131.668
1602.5 0.077 -155.893 0.031 -22.137 0.953 -59.988
          0.031 -22.166 0.798 147.957 0.033 -10.194
          0.953 -60.015 0.033 -10.121 0.083 -132.527
1619.75 0.077 -157.057 0.031 -22.583 0.952 -60.645
          0.031 -22.689 0.798 147.116 0.033 -10.427
          0.953 -60.665 0.033 -10.458 0.084 -133.188
1637 0.077 -157.036 0.031 -22.962 0.951 -61.301
          0.031 -23.125 0.797 146.253 0.034 -10.749
          0.952 -61.328 0.033 -10.876 0.084 -133.78
1654.25 0.078 -157.695 0.031 -23.28 0.951 -61.947
          0.031 -23.412 0.797 145.394 0.034 -11.236
          0.951 -61.979 0.034 -11.188 0.085 -134.068
1671.5 0.078 -158.586 0.031 -23.81 0.951 -62.613
          0.031 -23.673 0.796 144.491 0.034 -11.466
          0.951 -62.592 0.034 -11.463 0.086 -135.427
1688.75 0.078 -158.566 0.031 -24.114 0.951 -63.233
          0.031 -24.012 0.796 143.63 0.034 -11.706
          0.951 -63.238 0.034 -11.746 0.086 -135.868
1706 0.078 -159.278 0.031 -24.488 0.95 -63.907
          0.031 -24.44 0.795 142.78 0.034 -12.06
          0.95 -63.891 0.034 -12.106 0.087 -136.199
1723.25 0.078 -160.279 0.03 -24.895 0.949 -64.573
          0.03 -24.91 0.796 141.92 0.034 -12.375
          0.95 -64.529 0.034 -12.429 0.087 -137.505
1740.5 0.078 -160.364 0.03 -25.292 0.95 -65.227
          0.031 -25.375 0.797 141.02 0.034 -12.798
          0.95 -65.165 0.034 -12.759 0.087 -138.716
1757.75 0.078 -160.875 0.03 -25.608 0.949 -65.862
          0.03 -25.72 0.796 140.17 0.034 -13.123
          0.949 -65.796 0.034 -12.978 0.088 -139.059
1775 0.078 -161.766 0.03 -26.051 0.948 -66.456
          0.03 -26.061 0.796 139.306 0.034 -13.303
          0.948 -66.423 0.034 -13.213 0.089 -140.401
1792.25 0.079 -161.601 0.03 -26.397 0.948 -67.095
          0.03 -26.424 0.797 138.452 0.034 -13.522
          0.948 -67.114 0.034 -13.611 0.091 -141.402
1809.5 0.08 -162.044 0.03 -26.742 0.947 -67.703
          0.03 -26.795 0.795 137.659 0.034 -13.862
          0.947 -67.772 0.034 -13.924 0.091 -142.181
1826.75 0.081 -162.896 0.03 -27.069 0.946 -68.326
          0.03 -27.142 0.797 136.848 0.034 -14.163
          0.947 -68.313 0.034 -14.227 0.092 -143.364
1844 0.082 -163.11 0.03 -27.389 0.946 -68.956
          0.03 -27.523 0.796 135.956 0.034 -14.442
          0.946 -68.921 0.034 -14.35 0.092 -144.853
1861.25 0.083 -162.848 0.03 -27.636 0.946 -69.578
          0.03 -27.77 0.795 135.193 0.034 -14.624
          0.946 -69.58 0.034 -14.495 0.093 -145.51
1878.5 0.083 -163.845 0.03 -28.027 0.946 -70.246
          0.03 -28.101 0.796 134.297 0.034 -14.967
          0.946 -70.169 0.034 -14.945 0.092 -146.478
1895.75 0.084 -164.327 0.03 -28.391 0.945 -70.862
          0.03 -28.442 0.795 133.438 0.034 -15.252
          0.945 -70.821 0.034 -15.283 0.092 -147.7
1913 0.085 -164.943 0.03 -28.737 0.946 -71.508
          0.03 -28.591 0.794 132.705 0.034 -15.532
          0.946 -71.458 0.034 -15.532 0.093 -147.621
1930.25 0.086 -165.594 0.03 -29.031 0.946 -72.16
          0.03 -29.014 0.794 131.838 0.034 -15.741
          0.946 -72.121 0.034 -15.779 0.094 -148.179
1947.5 0.087 -166.378 0.03 -29.42 0.946 -72.828
          0.03 -29.246 0.794 131.054 0.035 -16.132
          0.946 -72.807 0.034 -15.943 0.094 -148.852
1964.75 0.088 -167.105 0.03 -29.703 0.946 -73.482
          0.03 -29.788 0.793 130.135 0.035 -16.251
          0.945 -73.424 0.035 -16.335 0.093 -149.43
1982 0.089 -167.691 0.03 -30.094 0.945 -74.115
          0.03 -30.097 0.794 129.321 0.035 -16.398
          0.946 -74.175 0.035 -16.538 0.094 -150.644
1999.25 0.09 -168.293 0.03 -30.21 0.944 -74.792
          0.03 -30.414 0.794 128.595 0.035 -16.734
          0.945 -74.773 0.035 -16.94 0.095 -151.446
2016.5 0.091 -168.961 0.03 -30.528 0.945 -75.429
          0.03 -30.66 0.795 127.751 0.035 -16.995
          0.946 -75.448 0.035 -16.968 0.097 -151.883
2033.75 0.092 -169.636 0.03 -30.799 0.945 -76.104
          0.03 -30.995 0.794 126.957 0.035 -17.196
          0.945 -76.154 0.035 -17.334 0.096 -152.764
2051 0.093 -170.251 0.03 -31.231 0.944 -76.767
          0.03 -31.366 0.796 126.078 0.035 -17.717
          0.945 -76.808 0.035 -17.676 0.097 -153.773
2068.25 0.094 -170.905 0.03 -31.638 0.944 -77.427
          0.03 -31.728 0.795 125.332 0.035 -17.899
          0.945 -77.476 0.035 -18.014 0.097 -154.566
2085.5 0.095 -171.63 0.03 -31.916 0.944 -78.087
          0.03 -31.912 0.794 124.506 0.035 -18.301
          0.944 -78.062 0.035 -18.263 0.098 -154.965
2102.75 0.096 -173.089 0.03 -32.292 0.944 -78.785
          0.03 -32.221 0.794 123.722 0.035 -18.591
          0.944 -78.773 0.035 -18.529 0.098 -156.145
2120 0.097 -174.092 0.03 -32.625 0.945 -79.477
          0.03 -32.587 0.794 122.928 0.035 -18.9
          0.945 -79.44 0.035 -18.837 0.098 -157.019
2137.25 0.098 -174.525 0.03 -32.921 0.944 -80.139
          0.03 -32.945 0.794 122.125 0.035 -19.284
          0.944 -80.163 0.035 -19.242 0.099 -157.663
2154.5 0.099 -175.254 0.03 -33.291 0.943 -80.8
          0.03 -33.17 0.793 121.327 0.035 -19.452
          0.943 -80.848 0.036 -19.645 0.1 -158.283
2171.75 0.1 -176.428 0.03 -33.709 0.942 -81.459
          0.03 -33.551 0.794 120.533 0.036 -19.73
          0.942 -81.465 0.036 -19.715 0.101 -159.455
2189 0.102 -177.157 0.03 -33.925 0.941 -82.154
          0.03 -33.842 0.794 119.764 0.036 -20.017
          0.941 -82.136 0.036 -20.096 0.102 -160.468
2206.25 0.103 -177.499 0.03 -34.288 0.941 -82.812
          0.03 -34.41 0.794 119.011 0.036 -20.415
          0.941 -82.826 0.036 -20.387 0.103 -161.493
2223.5 0.104 -178.156 0.03 -34.607 0.94 -83.48
          0.03 -34.603 0.793 118.244 0.036 -20.702
          0.94 -83.491 0.036 -20.61 0.103 -162.054
2240.75 0.105 -179.164 0.03 -34.833 0.939 -84.148
          0.03 -34.925 0.794 117.457 0.036 -20.983
          0.939 -84.175 0.036 -20.873 0.104 -162.853
2258 0.106 -179.987 0.03 -35.108 0.938 -84.807
          0.03 -35.32 0.793 116.681 0.036 -21.225
          0.938 -84.845 0.036 -21.163 0.104 -163.707
2275.25 0.107 179.19 0.03 -35.43 0.938 -85.476
