!Hittite Microwave Corporation								
!12 Elizabeth Drive								
!Chelmsford, MA 01824								
!Tel: 978-250-3343								
!Fax: 978-250-3373							
!Device: HMC446, 824-894 GHz, GaAs MMIC 10W T/R Switch in SOT26 package									
!Misc: Port 1= RFC, Port 2 = Rx, Port 3 = Tx, Vctl=0/+8V, RFC-Rx selected, Room							
!
# MHZ S MA R 50

750 0.22 173.076 0.94 -77.361 0.156 -50.967
          0.937 -77.463 0.175 174.622 0.181 -157.062
          0.158 -52.123 0.183 -158.297 0.962 19.918
753.061 0.216 172.924 0.941 -77.972 0.154 -50.871
          0.938 -78.072 0.172 173.331 0.178 -157.775
          0.156 -52.161 0.18 -159.137 0.963 19.566
756.122 0.211 172.952 0.941 -78.611 0.152 -50.805
          0.938 -78.724 0.168 171.804 0.175 -158.556
          0.154 -52.178 0.177 -159.991 0.964 19.241
759.184 0.207 173.043 0.941 -79.259 0.151 -50.75
          0.939 -79.39 0.164 170.184 0.172 -159.357
          0.152 -52.189 0.174 -160.85 0.965 18.924
762.245 0.202 173.144 0.941 -79.906 0.149 -50.695
          0.939 -80.056 0.16 168.537 0.17 -160.159
          0.15 -52.201 0.171 -161.709 0.966 18.609
765.306 0.197 173.256 0.941 -80.554 0.147 -50.64
          0.94 -80.722 0.155 166.863 0.167 -160.96
          0.148 -52.213 0.168 -162.567 0.967 18.293
768.367 0.192 173.38 0.941 -81.201 0.146 -50.585
          0.94 -81.388 0.151 165.159 0.164 -161.761
          0.146 -52.226 0.164 -163.426 0.968 17.978
771.429 0.187 173.516 0.941 -81.848 0.144 -50.531
          0.941 -82.053 0.147 163.423 0.162 -162.563
          0.144 -52.238 0.161 -164.284 0.969 17.664
774.49 0.183 173.665 0.941 -82.495 0.143 -50.477
          0.941 -82.718 0.143 161.652 0.159 -163.364
          0.142 -52.251 0.158 -165.142 0.97 17.35
777.551 0.178 173.828 0.941 -83.141 0.141 -50.423
          0.942 -83.383 0.139 159.845 0.156 -164.164
          0.14 -52.264 0.155 -166 0.971 17.037
780.612 0.173 174.007 0.941 -83.787 0.139 -50.368
          0.942 -84.047 0.135 157.999 0.153 -164.965
          0.138 -52.277 0.152 -166.858 0.972 16.724
783.673 0.168 174.202 0.941 -84.433 0.138 -50.314
          0.942 -84.711 0.132 156.111 0.151 -165.765
          0.136 -52.29 0.149 -167.716 0.973 16.412
786.735 0.163 174.903 0.942 -85.112 0.136 -50.4
          0.943 -85.408 0.127 153.512 0.148 -166.788
          0.134 -52.289 0.146 -168.665 0.974 16.09
789.796 0.157 175.688 0.942 -85.794 0.134 -50.499
          0.943 -86.107 0.122 150.762 0.145 -167.832
          0.132 -52.286 0.143 -169.623 0.974 15.769
792.857 0.152 176.515 0.942 -86.475 0.132 -50.598
          0.943 -86.805 0.117 147.915 0.143 -168.875
          0.13 -52.283 0.14 -170.58 0.975 15.447
795.918 0.146 177.389 0.943 -87.156 0.13 -50.697
          0.943 -87.503 0.112 144.962 0.14 -169.918
          0.128 -52.28 0.137 -171.537 0.975 15.127
798.98 0.141 178.313 0.943 -87.836 0.129 -50.796
          0.943 -88.2 0.108 141.892 0.137 -170.961
          0.126 -52.276 0.134 -172.494 0.976 14.807
802.041 0.136 179.293 0.943 -88.515 0.127 -50.894
          0.943 -88.897 0.103 138.694 0.134 -172.003
          0.124 -52.272 0.131 -173.45 0.976 14.487
805.102 0.13 -179.666 0.943 -89.194 0.125 -50.991
          0.943 -89.593 0.099 135.357 0.132 -173.044
          0.121 -52.267 0.128 -174.405 0.977 14.168
808.163 0.125 -178.556 0.944 -89.872 0.123 -51.087
          0.943 -90.288 0.094 131.868 0.129 -174.085
          0.119 -52.26 0.125 -175.36 0.977 13.85
811.224 0.12 -177.37 0.944 -90.549 0.121 -51.182
          0.943 -90.983 0.09 128.216 0.126 -175.125
          0.117 -52.253 0.122 -176.315 0.978 13.532
814.286 0.115 -175.996 0.944 -91.231 0.119 -51.278
          0.943 -91.681 0.086 124.24 0.124 -176.18
          0.115 -52.24 0.119 -177.28 0.979 13.216
817.347 0.11 -172.931 0.945 -91.991 0.117 -51.396
          0.943 -92.453 0.083 117.898 0.12 -177.456
          0.113 -52.167 0.116 -178.393 0.979 12.922
820.408 0.106 -169.706 0.945 -92.75 0.115 -51.514
          0.943 -93.223 0.081 111.363 0.117 -178.731
          0.11 -52.092 0.113 -179.506 0.98 12.629
823.469 0.102 -166.315 0.945 -93.508 0.112 -51.63
          0.943 -93.991 0.078 104.667 0.114 179.995
          0.108 -52.016 0.11 179.384 0.981 12.337
826.531 0.098 -162.756 0.946 -94.264 0.11 -51.744
          0.943 -94.759 0.076 97.849 0.111 178.723
          0.106 -51.938 0.107 178.274 0.981 12.045
829.592 0.095 -159.029 0.946 -95.018 0.107 -51.858
          0.943 -95.525 0.075 90.96 0.108 177.452
          0.103 -51.859 0.104 177.166 0.982 11.753
832.653 0.091 -155.135 0.946 -95.772 0.105 -51.969
          0.943 -96.289 0.074 84.056 0.105 176.183
          0.101 -51.778 0.101 176.059 0.982 11.462
835.714 0.089 -151.086 0.946 -96.524 0.102 -52.079
          0.943 -97.052 0.074 77.192 0.102 174.914
          0.098 -51.695 0.098 174.954 0.983 11.171
838.776 0.086 -146.894 0.947 -97.274 0.1 -52.187
          0.943 -97.814 0.074 70.42 0.099 173.648
          0.096 -51.609 0.095 173.849 0.984 10.881
841.837 0.084 -142.581 0.947 -98.024 0.097 -52.292
          0.943 -98.574 0.074 63.786 0.096 172.382
          0.094 -51.521 0.092 172.746 0.984 10.591
844.898 0.083 -137.89 0.947 -98.801 0.095 -52.324
          0.943 -99.352 0.076 57.211 0.093 171.068
          0.091 -51.371 0.089 171.584 0.985 10.303
847.959 0.087 -132.371 0.946 -99.683 0.092 -52.09
          0.942 -100.195 0.084 50.703 0.09 169.575
          0.089 -50.998 0.086 170.204 0.985 10.021
851.02 0.09 -127.252 0.946 -100.562 0.089 -51.851
          0.941 -101.034 0.091 44.754 0.086 168.085
          0.086 -50.62 0.083 168.827 0.986 9.738
854.082 0.094 -122.522 0.945 -101.438 0.086 -51.609
          0.941 -101.871 0.098 39.232 0.083 166.599
          0.083 -50.238 0.08 167.453 0.986 9.457
857.143 0.099 -118.158 0.944 -102.311 0.083 -51.36
          0.94 -102.704 0.105 34.044 0.08 165.116
          0.081 -49.851 0.078 166.083 0.986 9.176
860.204 0.103 -114.129 0.943 -103.18 0.08 -51.107
          0.939 -103.533 0.111 29.125 0.077 163.636
          0.078 -49.459 0.075 164.716 0.987 8.895
863.265 0.108 -110.403 0.942 -104.046 0.077 -50.848
          0.938 -104.359 0.117 24.426 0.073 162.159
          0.075 -49.062 0.072 163.352 0.987 8.615
866.327 0.113 -106.95 0.941 -104.908 0.074 -50.583
          0.938 -105.183 0.123 19.914 0.07 160.683
          0.073 -48.659 0.069 161.991 0.987 8.335
869.388 0.118 -103.739 0.94 -105.769 0.072 -50.312
          0.937 -106.003 0.128 15.564 0.067 159.21
          0.07 -48.25 0.066 160.631 0.988 8.056
872.449 0.123 -100.744 0.94 -106.627 0.069 -50.034
          0.936 -106.822 0.132 11.357 0.064 157.737
          0.067 -47.835 0.063 159.273 0.988 7.777
875.51 0.129 -98.705 0.938 -107.511 0.066 -49.29
          0.935 -107.669 0.138 8.311 0.061 156.073
          0.065 -46.995 0.06 157.649 0.988 7.493
878.571 0.138 -97.998 0.936 -108.442 0.063 -47.73
          0.933 -108.565 0.147 6.828 0.058 154.079
          0.062 -45.408 0.057 155.563 0.989 7.2
881.633 0.148 -97.203 0.933 -109.369 0.06 -46.151
          0.931 -109.457 0.157 4.973 0.055 152.091
          0.06 -43.802 0.054 153.482 0.989 6.907
884.694 0.157 -96.334 0.931 -110.291 0.058 -44.554
          0.929 -110.345 0.167 2.802 0.052 150.109
          0.057 -42.175 0.052 151.408 0.99 6.615
887.755 0.166 -95.402 0.928 -111.209 0.055 -42.937
          0.927 -111.228 0.177 0.361 0.049 148.132
          0.054 -40.529 0.049 149.339 0.99 6.323
890.816 0.175 -94.415 0.925 -112.121 0.052 -41.3
          0.925 -112.106 0.187 -2.31 0.046 146.161
          0.052 -38.861 0.046 147.276 0.99 6.032
893.878 0.185 -93.377 0.923 -113.029 0.049 -39.643
          0.923 -112.979 0.196 -5.177 0.043 144.194
          0.049 -37.173 0.043 145.218 0.991 5.741
896.939 0.194 -92.297 0.92 -113.931 0.047 -37.965
          0.921 -113.847 0.205 -8.217 0.04 142.231
          0.047 -35.465 0.04 143.163 0.991 5.451
900 0.203 -91.177 0.918 -114.829 0.044 -36.268
          0.919 -114.71 0.215 -11.408 0.037 140.27
          0.044 -33.736 0.038 141.111 0.992 5.162
