!Hittite Microwave Corporation								
!12 Elizabeth Drive								
!Chelmsford, MA 01824								
!Tel: 978-250-3343								
!Fax: 978-250-3373								
!Device: HMC442LM1, 17.5-24 GHz GaAs PHEMT MMIc Medium Power Amplifier in SMT leadless chip carrier package								
!Misc: Vdd = +5V, Room								
!
# MHZ S MA R 50

0 1.002 0.064 3.769e-3 85.603 582.1e-6 -113.237 0.973 1.062
200 1.001 -3.424 4.02e-3 55.603 390.4e-6 -132.55 0.975 -4.242
400 1 -6.911 4.269e-3 25.606 198.7e-6 -151.859 0.977 -9.542
600 1.002 -10.394 4.525e-3 -4.385 7.269e-6 -171.164 0.981 -14.834
800 1.001 -13.868 4.771e-3 -34.366 184.1e-6 -10.457 0.983 -20.113
1000 1 -17.337 5.014e-3 -64.336 374.8e-6 -29.74 0.985 -25.378
1200 1 -20.795 5.329e-3 -93.396 560.1e-6 -49.191 0.987 -30.631
1400 0.999 -24.21 8.301e-3 -89.369 563.3e-6 -75.278 0.984 -36.178
1600 0.999 -27.657 6.528e-3 -118.907 518e-6 -91.48 0.975 -41.881
1800 0.998 -31.068 8.071e-3 -125.792 508.5e-6 -92.961 0.964 -47.733
2000 0.998 -34.667 8.43e-3 -139.551 463.2e-6 -88.336 0.946 -53.75
2200 0.996 -38.101 9.139e-3 -148.588 444.2e-6 -74.459 0.924 -59.559
2400 0.994 -41.491 9.345e-3 -156.68 586.8e-6 -82.488 0.899 -65.216
2600 0.994 -44.91 8.863e-3 -159.442 507.7e-6 -90.826 0.875 -70.936
2800 0.992 -48.364 8.36e-3 -152.79 649.1e-6 -82.772 0.853 -76.809
3000 0.99 -51.794 9.503e-3 -136.277 816.8e-6 -94.061 0.828 -83.004
3200 0.988 -55.227 0.014 -122.821 976.4e-6 -112.412 0.799 -89.619
3400 0.986 -58.69 0.022 -122.126 1.049e-3 -138.992 0.764 -96.674
3600 0.982 -62.133 0.033 -129.911 1.197e-3 -154.444 0.721 -104.125
3800 0.98 -65.501 0.045 -141.268 1.349e-3 -178.727 0.671 -111.783
4000 0.977 -68.954 0.058 -153.146 1.461e-3 155.181 0.614 -119.529
4200 0.974 -72.395 0.072 -165.019 1.53e-3 136.008 0.551 -127.499
4400 0.969 -75.842 0.085 -176.39 1.82e-3 128.554 0.483 -135.704
4600 0.965 -79.284 0.098 172.842 2.161e-3 116.289 0.412 -144.042
4800 0.962 -82.68 0.112 162.788 2.539e-3 104.392 0.34 -152.375
5000 0.957 -86.172 0.125 153.193 3.03e-3 86.908 0.266 -161.249
5200 0.951 -89.651 0.138 144.223 3.259e-3 75.747 0.194 -170.981
5400 0.945 -93.123 0.152 135.722 3.585e-3 72.478 0.124 177.162
5600 0.938 -96.647 0.166 127.548 4.099e-3 67.048 0.061 154.499
5800 0.93 -100.255 0.18 119.815 4.707e-3 59.664 0.03 70.163
6000 0.921 -103.775 0.194 112.494 5.394e-3 51.887 0.067 12.831
6200 0.911 -107.245 0.208 105.444 6.067e-3 41.542 0.117 -5.231
6400 0.9 -110.669 0.223 98.896 6.64e-3 32.42 0.163 -15.26
6600 0.889 -113.957 0.239 92.814 6.988e-3 21.912 0.205 -23.006
6800 0.88 -117.246 0.256 87.018 6.98e-3 11.215 0.242 -29.29
7000 0.875 -120.598 0.276 81.266 6.592e-3 3.018 0.275 -35.003
7200 0.87 -124.082 0.297 75.638 6.341e-3 0.847 0.304 -40.621
7400 0.862 -127.789 0.32 69.767 5.993e-3 -6.484 0.329 -45.707
7600 0.854 -131.55 0.343 64.085 5.984e-3 -6.579 0.352 -50.565
7800 0.845 -135.415 0.367 58.419 5.669e-3 -8.41 0.372 -55.357
8000 0.834 -139.302 0.395 52.969 5.38e-3 -9.265 0.39 -59.828
8200 0.823 -143.286 0.422 47.096 5.133e-3 -9.442 0.403 -64.461
8400 0.809 -147.315 0.452 41.696 5.254e-3 -11.762 0.416 -68.867
8600 0.797 -151.334 0.482 36.259 5.271e-3 -10.077 0.428 -73.299
8800 0.783 -155.375 0.517 31.106 5.133e-3 -16.957 0.436 -77.517
9000 0.77 -159.479 0.554 25.592 4.866e-3 -12.63 0.443 -81.921
9200 0.757 -163.515 0.595 20.094 4.551e-3 -16.692 0.451 -86.128
9400 0.743 -167.923 0.634 15.259 4.157e-3 -22.955 0.45 -90.837
9600 0.729 -172.363 0.684 9.222 3.108e-3 -9.919 0.454 -94.36
9800 0.713 -176.766 0.728 3.667 3.085e-3 2.822 0.46 -98.46
10000 0.698 178.663 0.785 -1.481 3.348e-3 18.844 0.46 -102.587
10200 0.683 173.927 0.843 -7.085 4.008e-3 25.319 0.461 -107.108
10400 0.668 169.21 0.898 -12.774 4.631e-3 26.912 0.46 -111.635
10600 0.654 164.252 0.965 -18.613 5.282e-3 28.706 0.458 -116.347
10800 0.638 159.195 1.039 -24.545 5.652e-3 27.495 0.457 -121.189
11000 0.623 153.994 1.114 -30.3 5.888e-3 29.471 0.455 -125.962
11200 0.609 148.865 1.197 -36.542 6.763e-3 27.757 0.453 -130.894
11400 0.594 143.551 1.275 -42.684 7.068e-3 26.353 0.449 -136.107
11600 0.581 138.042 1.363 -48.681 7.253e-3 25.53 0.445 -141.361
11800 0.568 132.445 1.463 -54.813 7.514e-3 26.935 0.439 -146.999
12000 0.555 126.76 1.562 -61.33 7.682e-3 27.447 0.436 -153.08
12200 0.542 120.963 1.669 -67.738 7.392e-3 30.481 0.433 -159.06
12400 0.529 115.208 1.787 -74.296 8.312e-3 37.23 0.43 -165.181
12600 0.521 109.447 1.924 -80.935 0.01 36.305 0.429 -171.816
12800 0.512 103.43 2.052 -87.835 0.011 32.87 0.427 -178.73
13000 0.502 97.5 2.186 -94.886 0.011 32.898 0.426 174.126
13200 0.493 91.691 2.327 -101.962 0.012 34.231 0.428 166.692
13400 0.486 85.892 2.478 -109.198 0.013 37.005 0.431 159.324
13600 0.481 80.284 2.641 -116.313 0.015 35.361 0.438 151.722
13800 0.478 74.828 2.817 -123.852 0.017 30.129 0.449 143.371
14000 0.476 69.115 2.995 -131.66 0.018 25.294 0.458 134.803
14200 0.475 63.52 3.176 -139.51 0.019 21.949 0.469 126.222
14400 0.476 58.142 3.362 -147.433 0.02 18.272 0.483 117.848
14600 0.476 52.792 3.541 -155.725 0.022 13.656 0.498 109.184
14800 0.478 47.16 3.724 -164.428 0.022 8.181 0.512 100.344
15000 0.48 41.661 3.877 -173.035 0.022 4.422 0.529 91.805
15200 0.482 36.472 4.034 178.408 0.022 -1.269 0.541 83.702
15400 0.485 31.281 4.179 169.756 0.022 -4.9 0.553 75.334
15600 0.484 26.478 4.322 161.092 0.022 -7.742 0.567 67.844
15800 0.487 21.586 4.47 152.041 0.022 -13.551 0.579 60.142
16000 0.486 16.783 4.552 143.01 0.021 -15.443 0.586 52.287
16200 0.487 12.178 4.612 134.541 0.021 -18.073 0.593 45.632
16400 0.483 7.36 4.679 125.699 0.02 -23.093 0.595 38.922
16600 0.48 3.067 4.7 116.759 0.019 -25.369 0.591 32.836
16800 0.475 -0.86 4.699 108.764 0.019 -25.888 0.595 27.517
17000 0.47 -4.644 4.747 100.891 0.018 -27.618 0.592 22.073
17200 0.464 -8.234 4.742 92.484 0.018 -28.456 0.592 16.565
17400 0.461 -11.895 4.7 83.171 0.017 -31.007 0.6 10.847
17600 0.46 -16.663 4.5 74.64 0.019 -31.716 0.596 3.628
17800 0.422 -20.116 4.193 69.924 0.013 -56.173 0.508 -4.341
18000 0.422 -18.782 4.43 65.678 0.014 -20.633 0.503 3.513
18200 0.424 -21.651 4.43 57.465 0.016 -26.519 0.528 -0.725
18400 0.424 -24.577 4.396 50.282 0.017 -31.712 0.525 -4.818
18600 0.42 -28.514 4.331 43.883 0.017 -35.307 0.521 -8.449
18800 0.407 -30.889 4.295 38.626 0.018 -39.763 0.512 -11.929
19000 0.399 -33.636 4.308 33.651 0.018 -46.582 0.486 -14.799
19200 0.374 -36.385 4.451 27.721 0.016 -58.001 0.461 -14.362
19400 0.347 -35.683 4.587 20.448 0.014 -65.483 0.461 -13.218
19600 0.341 -35.182 4.617 12.897 0.012 -64.889 0.471 -14.429
19800 0.337 -36.744 4.581 5.461 0.01 -62.824 0.478 -16.197
20000 0.327 -37.812 4.538 -1.443 9.387e-3 -62.636 0.479 -18.247
20200 0.313 -37.207 4.547 -7.647 8.811e-3 -60.149 0.475 -19.881
20400 0.299 -36.573 4.548 -14.27 8.817e-3 -62.07 0.472 -20.757
20600 0.289 -35.877 4.533 -21.005 8.66e-3 -64.102 0.469 -22.117
20800 0.28 -34.186 4.522 -27.418 8.227e-3 -65.219 0.467 -23.461
21000 0.273 -32.1 4.535 -33.392 7.879e-3 -65.313 0.468 -23.949
21200 0.277 -30.389 4.582 -39.396 7.737e-3 -67.757 0.472 -24.364
21400 0.28 -29.145 4.625 -45.789 7.494e-3 -79.249 0.48 -25.897
21600 0.275 -27.008 4.682 -51.772 6.194e-3 -79.979 0.483 -28.406
21800 0.273 -23.897 4.787 -58.294 6.322e-3 -73.438 0.476 -30.174
22000 0.275 -20.974 4.868 -65.951 7.52e-3 -84.587 0.47 -31.356
22200 0.275 -19.04 4.868 -73.236 7.244e-3 -96.647 0.472 -32.867
22400 0.284 -17.55 4.918 -80.209 7.051e-3 -114.834 0.47 -33.837
22600 0.299 -15.565 4.934 -86.663 6.284e-3 -132.517 0.464 -35.513
22800 0.316 -12.507 4.986 -93.365 5.463e-3 -145.102 0.458 -36.929
23000 0.329 -9.278 5.026 -100.785 4.67e-3 -154.65 0.45 -38.2
23200 0.341 -6.578 5.074 -108.544 4.277e-3 -153.343 0.44 -40.389
23400 0.354 -5.401 5.108 -115 5.022e-3 -158.356 0.434 -42.028
23600 0.373 -4.9 5.172 -122.288 5.763e-3 -173.884 0.422 -42.585
23800 0.402 -3.454 5.222 -130.262 6.297e-3 171.499 0.411 -43.675
24000 0.448 -2.603 5.278 -138.577 7.301e-3 159.337 0.394 -44.689
24200 0.498 -1.878 5.288 -146.454 7.085e-3 141.297 0.368 -45.213
24400 0.546 -1.59 5.293 -154.595 6.606e-3 130.1 0.347 -45.072
24600 0.579 -3.449 5.294 -163.139 6.581e-3 126.318 0.338 -44.704
24800 0.612 -6.357 5.3 -171.871 7.012e-3 114.297 0.323 -43.145
25000 0.658 -10.6 5.339 -179.965 6.31e-3 107.931 0.307 -39.816
25200 0.705 -14.402 5.366 171.292 6.952e-3 97.451 0.289 -40.135
25400 0.754 -17.097 5.306 161.345 6.16e-3 81.676 0.261 -34.659
25600 0.786 -19.462 5.2 151.306 4.412e-3 61.08 0.255 -25.897
25800 0.814 -21.591 5.076 141.557 3.678e-3 53.486 0.271 -18.472
26000 0.833 -25.164 4.909 132.146 2.452e-3 30.359 0.293 -11.923
26200 0.85 -29.448 4.732 121.872 1.346e-3 -20.106 0.319 -5.883
26400 0.882 -33.577 4.436 112.253 1.585e-3 -74.175 0.372 -4.032
26600 0.9 -37.796 4.198 103.496 3.714e-3 -90.68 0.406 -4.67
26800 0.904 -40.703 3.946 94.563 5.05e-3 -129.781 0.441 -5.093
27000 0.898 -42.584 3.65 85.222 5.994e-3 -145.702 0.48 -6.961
27200 0.884 -44.882 3.432 76.353 6.222e-3 -150.123 0.521 -8.112
27400 0.874 -48.114 3.247 67.273 6.785e-3 -156.227 0.558 -9.697
27600 0.873 -51.331 2.983 59.42 8.411e-3 -165.953 0.59 -12.01
27800 0.881 -53.856 2.729 52.068 9.526e-3 -168.158 0.62 -14.186
28000 0.887 -55.277 2.508 43.898 0.01 -167.656 0.643 -16.671
28200 0.884 -56.209 2.242 36.77 0.01 -172.908 0.668 -19.643
28400 0.865 -57.973 2.046 30.597 0.011 179.371 0.693 -22.067
28600 0.847 -60.552 1.853 23.532 0.012 177.858 0.713 -24.123
28800 0.842 -63.319 1.721 17.312 0.013 177.28 0.727 -26.352
29000 0.846 -65.214 1.611 11.168 0.012 175.707 0.744 -28.872
29200 0.855 -66.179 1.448 5.512 0.013 172.565 0.76 -31.227
29400 0.85 -66.814 1.311 0.667 0.013 173.541 0.773 -33.387
29600 0.841 -67.615 1.193 -6.156 0.014 177.956 0.79 -35.658
29800 0.822 -69.541 1.067 -11.681 0.016 177.66 0.799 -37.582
30000 0.812 -71.423 0.966 -16.201 0.018 173.919 0.806 -40.09
30200 0.823 -73.658 0.892 -20.119 0.019 172.792 0.819 -42.766
30400 0.835 -75.16 0.843 -22.774 0.021 168.352 0.831 -44.789
30600 0.838 -75.749 0.791 -27.165 0.02 167.675 0.841 -47.412
30800 0.827 -76.684 0.735 -31.277 0.02 167.094 0.855 -48.867
31000 0.808 -77.378 0.687 -36.721 0.02 167.781 0.851 -50
31200 0.801 -78.756 0.63 -43.442 0.022 162.504 0.849 -52.453
31400 0.795 -80.741 0.567 -46.115 0.023 159.977 0.864 -54.72
31600 0.81 -82.316 0.55 -50.967 0.022 156.535 0.863 -56.837
31800 0.817 -83.369 0.507 -57.31 0.023 161.373 0.872 -60.245
32000 0.813 -84.395 0.468 -59.421 0.025 159.11 0.892 -61.69
32200 0.812 -85.83 0.45 -62.013 0.025 153.324 0.894 -62.495
32400 0.792 -86.952 0.401 -67.878 0.027 150.77 0.886 -65.461
32600 0.791 -88.962 0.373 -71.355 0.025 152.898 0.881 -67.248
32800 0.798 -90.358 0.361 -76.544 0.025 145.512 0.874 -69.217
33000 0.799 -90.773 0.341 -82.53 0.023 149.806 0.874 -71.725
33200 0.798 -92.163 0.311 -86.866 0.023 151.647 0.89 -73.921
33400 0.791 -93.081 0.288 -91.809 0.026 152.797 0.899 -75.296
33600 0.789 -94.893 0.27 -95.536 0.027 149.369 0.897 -76.84
33800 0.787 -97.638 0.25 -99.817 0.025 148.768 0.896 -79.336
34000 0.798 -99.421 0.229 -103.295 0.025 154.107 0.898 -81.531
34200 0.807 -100.781 0.217 -107.974 0.029 153.286 0.89 -83.711
34400 0.805 -101.877 0.208 -113.285 0.031 151.596 0.893 -86.363
34600 0.802 -102.943 0.193 -116.384 0.032 146.69 0.906 -88.388
34800 0.783 -104.453 0.18 -119.147 0.033 142.703 0.901 -90.752
35000 0.774 -106.065 0.167 -123.569 0.032 142.488 0.895 -93.357
35200 0.776 -107.889 0.154 -128.588 0.034 140.995 0.891 -94.898
35400 0.778 -109.351 0.146 -134.146 0.035 137.217 0.888 -97.082
35600 0.778 -110.957 0.134 -138.209 0.035 132.912 0.891 -99.974
35800 0.77 -112.364 0.127 -141.757 0.034 133.887 0.884 -101.961
36000 0.764 -114.116 0.122 -145.628 0.034 132.563 0.874 -104.097
36200 0.763 -116.668 0.115 -149.059 0.034 130.982 0.881 -106.542
36400 0.762 -118.504 0.109 -154.105 0.036 130.902 0.884 -108.912
36600 0.758 -120.316 0.103 -159.395 0.038 129.619 0.878 -111.18
36800 0.757 -121.849 0.096 -166.008 0.04 121.908 0.87 -113.355
37000 0.758 -123.612 0.086 -170.426 0.041 115.958 0.868 -116.575
37200 0.737 -125.294 0.08 -178.079 0.043 114.843 0.863 -119.403
37400 0.731 -127.426 0.071 175.105 0.043 101.9 0.854 -120.962
37600 0.731 -129.426 0.056 168.925 0.042 87.181 0.845 -124.097
37800 0.728 -130.146 0.042 167.099 0.037 73.917 0.838 -126.592
38000 0.728 -132.627 0.027 -178.939 0.03 45.485 0.819 -128.082
38200 0.72 -133.58 0.032 -152.061 0.016 8.597 0.816 -128.29
38400 0.71 -134.903 0.044 -146.508 7.435e-3 -92.867 0.839 -130.537
38600 0.707 -137.483 0.054 -155.385 0.013 -164.024 0.844 -134.968
38800 0.722 -138.927 0.061 -163.552 0.023 173.412 0.852 -137.899
39000 0.727 -142.951 0.06 -175.043 0.028 159.297 0.851 -140.793
39200 0.685 -142.48 0.059 161.009 0.031 147.702 0.855 -144.165
39400 0.716 -147.174 0.053 168.374 0.042 140.358 0.834 -146.507
39600 0.711 -150.079 0.051 154.102 0.044 126.611 0.805 -149.587
39800 0.691 -151.519 0.043 154.303 0.042 112.551 0.828 -154.283
40000 0.714 -156.913 0.041 131.467 0.047 101.957 0.828 -157.808
