# MHZ S MA R 50

50 0.306 176.216 12.724 177.056 0.055 0.773 0.208 176.35
99.75 0.308 166.775 12.637 175.061 0.055 4.103 0.2 171.138
149.5 0.306 166.027 12.656 172.564 0.056 5.706 0.196 169.592
199.25 0.293 159.045 12.54 170.284 0.056 6.945 0.194 165.082
249 0.305 154.174 12.47 168.144 0.056 8.024 0.19 161.479
298.75 0.284 150.562 12.354 165.732 0.057 9.934 0.185 157.943
348.5 0.286 143.591 12.28 164.008 0.057 11.287 0.185 154.605
398.25 0.282 141.542 12.114 161.787 0.057 12.995 0.181 150.712
448 0.263 134.802 12.08 160.009 0.058 14.229 0.178 149.202
497.75 0.273 130.553 12.003 157.913 0.058 15.426 0.172 145.878
547.5 0.252 127.158 11.963 155.889 0.059 17.148 0.167 143.252
597.25 0.253 119.603 11.908 153.623 0.06 17.775 0.161 139.887
647 0.247 117.444 11.747 151.351 0.06 19.368 0.153 136.364
696.75 0.23 110.252 11.56 148.909 0.061 20.75 0.148 133.231
746.5 0.234 106.019 11.361 147.188 0.062 21.947 0.141 129.884
796.25 0.214 101.689 11.095 145.365 0.062 22.92 0.133 127.434
846 0.214 94.498 11.002 143.878 0.063 24.328 0.13 124.314
895.75 0.207 92.13 10.909 142.529 0.063 25.282 0.124 122.099
945.5 0.193 84.941 10.781 141.074 0.064 27.011 0.12 119.387
995.25 0.196 80.724 10.716 138.755 0.065 27.529 0.114 116.86
1045 0.181 75.62 10.583 137.133 0.065 28.84 0.107 115.636
1094.75 0.18 68.563 10.379 134.875 0.066 29.5 0.098 113.775
1144.5 0.171 64.781 10.212 133.228 0.067 30.873 0.089 111.574
1194.25 0.164 56.944 10.007 131.602 0.068 31.712 0.081 109.115
1244 0.161 53.516 9.867 130.208 0.069 32.642 0.075 105.766
1293.75 0.151 47.065 9.68 128.795 0.069 33.66 0.068 104.125
1343.5 0.152 41.148 9.556 127.496 0.071 34.586 0.064 101.095
1393.25 0.141 34.786 9.423 125.903 0.071 35.821 0.056 96.118
1443 0.144 26.494 9.326 124.478 0.073 36.098 0.052 96.768
1492.75 0.137 22.684 9.144 123.037 0.073 37.766 0.044 92.935
1542.5 0.134 12.438 9.016 121.443 0.074 38.402 0.039 97.85
1592.25 0.137 9.332 8.878 120.229 0.075 39.484 0.032 97.823
1642 0.125 -0.284 8.705 118.538 0.076 40.499 0.024 96.842
1691.75 0.136 -7.511 8.568 117.386 0.076 40.688 0.018 101.336
1741.5 0.124 -10.887 8.403 115.938 0.078 42.46 0.01 96.24
1791.25 0.128 -22.922 8.278 114.959 0.078 42.055 5.25e-3 166.997
1841 0.132 -23.676 8.135 113.988 0.081 43.375 8.396e-3 -152.337
1890.75 0.124 -34.394 8.045 112.836 0.081 43.968 0.017 -122.742
1940.5 0.14 -38.271 7.918 111.604 0.083 45.179 0.024 -130.128
1990.25 0.127 -42.264 7.857 110.343 0.085 45.917 0.029 -122.982
2040 0.137 -54.03 7.707 108.96 0.085 47.197 0.038 -126.116
2089.75 0.138 -55.156 7.583 107.056 0.088 46.557 0.041 -129.341
2139.5 0.138 -65.3 7.459 106.041 0.087 48.619 0.05 -123.103
2189.25 0.147 -68.557 7.235 105.354 0.09 47.813 0.053 -128.748
2239 0.141 -74.397 7.064 104.349 0.091 48.6 0.057 -126.908
2288.75 0.151 -81.569 6.944 103.707 0.092 48.849 0.063 -131.19
2338.5 0.154 -84.444 6.909 103.324 0.093 48.106 0.067 -133.129
2388.25 0.157 -92.073 6.811 102.462 0.094 49.875 0.074 -134.912
2438 0.17 -96.305 6.812 101.418 0.096 49.045 0.084 -138.833
2487.75 0.169 -101.162 6.731 100.152 0.096 50.299 0.091 -139.523
2537.5 0.182 -108.414 6.649 98.325 0.1 50.688 0.103 -140.766
2587.25 0.182 -109.005 6.457 96.815 0.097 49.945 0.103 -141.103
2637 0.188 -116.002 6.343 95.078 0.102 53.286 0.111 -139.649
2686.75 0.195 -117.932 6.167 95.27 0.1 51.146 0.112 -140.57
2736.5 0.196 -121.906 5.986 94.198 0.102 53.27 0.112 -137.755
2786.25 0.209 -126.225 5.861 94.876 0.103 51.975 0.114 -139.082
2836 0.216 -127.702 5.804 94.376 0.101 52.977 0.114 -141.524
2885.75 0.219 -132.941 5.826 94.632 0.107 53.662 0.117 -144.509
2935.5 0.234 -135.126 5.831 93.222 0.105 52.986 0.118 -150.273
2985.25 0.228 -138.252 5.815 92.478 0.107 54.572 0.12 -153.369
3035 0.241 -143.075 5.737 90.581 0.107 54.731 0.124 -156.179
3084.75 0.243 -143.019 5.638 89.471 0.108 56.342 0.126 -159.902
3134.5 0.25 -149.668 5.494 87.9 0.112 57.181 0.133 -159.796
3184.25 0.262 -150.054 5.371 87.609 0.11 56.423 0.138 -162.181
3234 0.256 -153.867 5.257 87 0.114 58.156 0.139 -162.494
3283.75 0.272 -157.155 5.176 87.315 0.113 57.768 0.145 -162.502
3333.5 0.267 -157.672 5.126 86.907 0.117 58.826 0.14 -165.041
3383.25 0.273 -162.782 5.102 86.464 0.119 58.944 0.139 -164.372
3433 0.284 -163.224 5.091 85.613 0.119 58.611 0.139 -168.833
3482.75 0.283 -165.715 5.07 85.092 0.124 60.2 0.136 -168.581
3532.5 0.297 -168.039 4.985 83.581 0.123 59.871 0.138 -171.692
3582.25 0.297 -168.727 4.945 83.036 0.126 60.555 0.137 -175.59
3632 0.305 -173.056 4.858 81.945 0.129 60.829 0.138 -175.611
3681.75 0.308 -173.832 4.771 81.556 0.126 59.887 0.138 179.118
3731.5 0.307 -176.997 4.717 80.703 0.134 61.795 0.138 178.797
3781.25 0.312 -178.775 4.669 80.564 0.13 59.893 0.14 177.721
3831 0.31 -179.676 4.61 79.807 0.137 61.335 0.135 174.938
3880.75 0.312 177.713 4.568 79.376 0.138 59.97 0.135 175.877
3930.5 0.318 177.028 4.524 78.755 0.135 61.171 0.13 171.844
3980.25 0.316 176.683 4.485 78.215 0.142 60.917 0.127 169.948
4030 0.313 173.939 4.436 77.516 0.138 61.217 0.124 167.47
4079.75 0.319 173.411 4.406 76.938 0.143 61.541 0.118 163.276
4129.5 0.31 171.023 4.374 76.324 0.143 61.217 0.115 160.921
4179.25 0.319 169.625 4.327 75.767 0.143 62.21 0.114 156.723
4229 0.313 169.47 4.296 75.04 0.148 61.695 0.112 153.89
4278.75 0.31 166.974 4.25 74.517 0.147 61.922 0.114 150.549
4328.5 0.31 167.255 4.219 73.766 0.15 61.903 0.109 146.351
4378.25 0.297 165.408 4.181 73.154 0.152 62.016 0.106 144.612
4428 0.304 164.361 4.145 72.622 0.153 62.628 0.105 141.63
4477.75 0.293 165.026 4.11 72.099 0.157 62.528 0.1 137.666
4527.5 0.291 161.673 4.083 71.457 0.158 62.751 0.097 136.663
4577.25 0.296 163.381 4.058 70.794 0.16 63.39 0.095 131.319
4627 0.283 161.528 4.04 70.073 0.163 63.121 0.091 129.818
4676.75 0.292 161.21 3.997 69.63 0.163 63.492 0.094 125.195
4726.5 0.276 162.234 3.981 68.749 0.168 63.323 0.087 117.972
4776.25 0.269 157.947 3.946 68.044 0.168 62.865 0.084 115.863
4826 0.272 160.36 3.92 67.309 0.171 63.413 0.086 107.108
4875.75 0.25 157.854 3.891 66.569 0.174 62.501 0.079 107.537
4925.5 0.259 157.47 3.859 65.975 0.176 63.01 0.083 101.824
4975.25 0.24 160.186 3.842 65.247 0.18 62.586 0.078 93.547
5025 0.234 156.381 3.814 64.595 0.18 62.389 0.077 93.705
5074.75 0.237 160.334 3.797 63.837 0.184 62.686 0.078 83.824
5124.5 0.213 158.32 3.769 63.028 0.185 62.206 0.068 78.279
5174.25 0.221 157.085 3.738 62.225 0.187 62.269 0.072 72.508
5224 0.201 159.689 3.721 61.207 0.191 61.63 0.066 54.881
5273.75 0.194 154.777 3.7 60.701 0.192 61.438 0.065 52.868
5323.5 0.197 159.071 3.658 60.14 0.196 61.247 0.082 40.115
5373.25 0.17 159.313 3.674 59.202 0.198 60.696 0.079 32.515
5423 0.172 157.985 3.635 58.862 0.2 60.751 0.098 30.084
5472.75 0.155 164.609 3.652 57.562 0.203 60.258 0.101 19.961
5522.5 0.137 158.625 3.626 56.741 0.205 59.859 0.105 20.363
5572.25 0.147 161.684 3.65 55.188 0.208 59.816 0.118 15.416
5622 0.122 167.095 3.592 54.965 0.21 59.278 0.112 11.844
5671.75 0.113 160.898 3.54 53.074 0.213 58.836 0.121 9.644
5721.5 0.109 170.919 3.501 52.743 0.214 58.173 0.126 -3.022
5771.25 0.081 173.059 3.464 51.575 0.217 57.497 0.125 -7.011
5821 0.086 173.282 3.473 51.78 0.22 57.022 0.144 -15.686
5870.75 0.074 -164.541 3.463 50.507 0.221 56.104 0.15 -24.331
5920.5 0.05 -164.48 3.543 49.951 0.224 55.652 0.17 -25.412
5970.25 0.062 -155.512 3.521 48.385 0.226 55.073 0.19 -33.539
6020 0.061 -123.036 3.506 46.242 0.227 54.454 0.207 -33.318
6069.75 0.054 -121.221 3.452 43.137 0.231 53.988 0.232 -37.204
6119.5 0.089 -110.239 3.433 41.863 0.231 52.835 0.247 -40.643
6169.25 0.099 -88.006 3.299 40.748 0.231 52.44 0.265 -44.493
6219 0.1 -94.766 3.239 40.772 0.234 51.727 0.278 -49.848
6268.75 0.141 -88.89 3.161 40.878 0.231 51.266 0.285 -53.692
6318.5 0.135 -82.291 3.211 40.12 0.236 50.287 0.311 -57.028
6368.25 0.17 -90.599 3.25 39.488 0.233 48.991 0.326 -61.744
6418 0.197 -80.931 3.344 35.747 0.235 48.914 0.36 -63.526
6467.75 0.195 -86.582 3.38 33.348 0.241 46.826 0.377 -68.299
6517.5 0.249 -86.821 3.272 30.035 0.237 47.513 0.41 -71.275
6567.25 0.246 -85.277 3.05 26.928 0.247 45.088 0.426 -74.275
6617 0.287 -90.788 2.87 24.414 0.239 45.065 0.452 -78.095
6666.75 0.299 -87.81 2.719 24.206 0.247 45.406 0.458 -81.196
6716.5 0.31 -93.143 2.654 25.275 0.241 42.567 0.49 -83.739
6766.25 0.35 -93.516 2.603 28.592 0.244 43.988 0.499 -87.321
6816 0.352 -95.564 2.613 28.837 0.239 40.312 0.529 -89.825
6865.75 0.393 -99.454 2.695 27.77 0.229 40.874 0.548 -94.265
6915.5 0.405 -97.478 2.772 22.889 0.235 40.774 0.564 -96.244
6965.25 0.415 -102.665 2.779 17.983 0.233 37.589 0.593 -99.302
7015 0.454 -103.136 2.608 14.322 0.235 37.232 0.604 -102.404
7064.75 0.446 -105.727 2.395 10.009 0.236 34.508 0.626 -103.925
7114.5 0.484 -109.755 2.132 12.847 0.222 35.392 0.649 -107.846
7164.25 0.49 -110.037 1.875 12.486 0.24 34.954 0.65 -109.678
7214 0.502 -114.831 1.834 15.126 0.22 33.224 0.686 -113.447
7263.75 0.536 -116.425 1.858 21.134 0.212 34.242 0.685 -116.684
7313.5 0.528 -119.02 1.956 26.319 0.207 33.207 0.703 -119.057
7363.25 0.54 -121.603 1.968 24.088 0.194 38.828 0.705 -122.355
7413 0.558 -122.621 2.299 19.23 0.22 32.847 0.723 -123.154
7462.75 0.554 -126.609 2.116 17.224 0.193 33.481 0.74 -126.119
7512.5 0.591 -128.255 2.059 8.017 0.195 33.792 0.749 -128.042
7562.25 0.586 -129.915 1.806 5.392 0.2 31.492 0.771 -129.973
7612 0.593 -133.387 1.776 4.262 0.2 39.2 0.777 -132.813
7661.75 0.614 -134.046 1.443 14.712 0.215 28.802 0.781 -133.845
7711.5 0.596 -137.522 1.344 7.885 0.194 34.61 0.794 -137.354
7761.25 0.632 -140.585 1.523 21.332 0.194 33.917 0.798 -138.633
7811 0.625 -140.566 1.441 21.609 0.192 32.881 0.809 -140.722
7860.75 0.618 -145.474 1.592 26.083 0.192 38.091 0.808 -142.31
7910.5 0.668 -145.915 1.63 15.263 0.172 29.241 0.816 -144.398
7960.25 0.626 -147.863 1.935 18.804 0.185 36.234 0.825 -145.574
8010 0.678 -151.474 1.534 12.368 0.174 33.736 0.825 -147.898
8059.75 0.67 -149.672 1.651 6.269 0.182 37.518 0.833 -149.48
8109.5 0.652 -156.207 1.375 3.364 0.194 37.21 0.833 -151.926
8159.25 0.704 -155.986 1.444 9.334 0.169 32.081 0.836 -153.546
8209 0.661 -158.414 1.05 11.609 0.186 32.988 0.842 -156.152
8258.75 0.708 -161.6 1.31 8.69 0.162 35.151 0.848 -158.268
8308.5 0.708 -160.174 1.215 22.5 0.178 34.967 0.855 -160.296
8358.25 0.693 -165.33 1.314 18.831 0.175 32.067 0.867 -162.085
8408 0.743 -164.595 1.257 21.209 0.156 33.703 0.87 -163.621
8457.75 0.711 -166.906 1.452 9.041 0.182 36.721 0.882 -164.688
8507.5 0.735 -169.434 1.357 16.079 0.167 37.499 0.882 -165.679
8557.25 0.752 -169.751 1.362 3.715 0.179 39.185 0.889 -166.522
8607 0.732 -173.155 1.193 9.86 0.179 33.562 0.889 -167.664
8656.75 0.774 -172.968 1.115 3.186 0.149 40.4 0.886 -168.523
8706.5 0.758 -175.034 1.022 11.626 0.179 38.475 0.887 -170.2
8756.25 0.767 -175.742 0.981 6.312 0.149 37.98 0.884 -171.99
8806 0.788 -177.069 1.075 16.553 0.177 35.777 0.884 -173.683
8855.75 0.776 -179.334 1.016 14.721 0.165 28.252 0.891 -175.6
8905.5 0.808 -179.895 1.09 20.906 0.159 37.029 0.892 -177.141
8955.25 0.806 178.139 0.98 11.124 0.163 33.801 0.901 -178.63
9005 0.81 177.803 1.092 13.486 0.163 39.94 0.907 -179.709
9054.75 0.83 176.467 0.982 8.955 0.153 34.643 0.913 179.732
9104.5 0.819 175.066 1.042 11.178 0.148 39.646 0.916 178.919
9154.25 0.852 174.695 0.909 14.671 0.147 44.796 0.919 178.765
9204 0.845 173.108 0.866 13.669 0.15 38.218 0.92 177.789
9253.75 0.849 171.81 0.849 15.134 0.154 39.611 0.914 176.809
9303.5 0.875 171.146 0.906 15.013 0.146 34.677 0.913 175.562
9353.25 0.858 169.598 0.91 18.099 0.144 37.474 0.914 173.847
9403 0.899 169.479 0.928 20.398 0.153 39.931 0.911 172.337
9452.75 0.882 169.308 0.866 16.779 0.143 37.391 0.919 171.062
9502.5 0.887 166.603 0.907 16.094 0.162 43.484 0.919 169.904
9552.25 0.922 167.191 0.85 16.041 0.137 41.407 0.927 169.619
9602 0.888 165.085 0.829 13.303 0.143 46.949 0.932 168.743
9651.75 0.95 164.387 0.862 17.832 0.141 47.301 0.936 169.165
9701.5 0.925 165.622 0.785 21.104 0.138 46.414 0.935 168.579
9751.25 0.921 161.797 0.785 19.874 0.144 47.761 0.929 168.603
9801 0.976 163.896 0.818 22.448 0.135 47.483 0.927 167.509
9850.75 0.911 162.036 0.802 20.889 0.144 49.626 0.919 167.056
9900.5 0.975 159.993 0.868 22.254 0.149 48.406 0.919 165.255
9950.25 0.961 162.374 0.823 21.468 0.147 47.088 0.92 164.096
10000 0.935 157.71 0.834 20.598 0.152 47.464 0.924 162.554
