# MHZ S MA R 50

50 0.242 179.132 5.701 178.205 0.105 0.817 0.102 178.964
99.75 0.251 169.982 5.683 177.007 0.105 0.725 0.111 175.446
149.5 0.248 171.815 5.688 175.624 0.106 1.683 0.107 176.562
199.25 0.238 166.367 5.659 174.361 0.106 1.818 0.107 173.333
249 0.249 162.877 5.651 173.144 0.106 2.37 0.105 172.834
298.75 0.234 161.697 5.632 171.734 0.106 3.186 0.103 171.434
348.5 0.235 155.745 5.617 170.778 0.106 3.509 0.106 170.298
398.25 0.237 155.624 5.585 169.425 0.105 4.121 0.103 168.074
448 0.218 151.26 5.587 168.481 0.106 4.709 0.104 169.07
497.75 0.23 147.858 5.577 167.251 0.106 5.07 0.1 168.128
547.5 0.216 147.453 5.585 166.156 0.106 5.901 0.099 166.174
597.25 0.214 141.022 5.594 164.886 0.106 6.053 0.099 166.249
647 0.215 140.795 5.576 163.518 0.106 6.887 0.096 164.459
696.75 0.198 136.608 5.558 162.009 0.106 7.376 0.096 163.739
746.5 0.205 132.769 5.515 160.848 0.106 7.971 0.093 162.366
796.25 0.192 131.968 5.451 159.416 0.106 8.46 0.091 162.243
846 0.188 125.567 5.442 158.619 0.106 9.335 0.088 162.495
895.75 0.189 124.955 5.417 157.803 0.106 9.667 0.088 162.807
945.5 0.173 121.28 5.388 156.908 0.106 10.58 0.088 161.53
995.25 0.177 117.196 5.414 155.736 0.106 10.893 0.087 161.761
1045 0.167 116.308 5.391 154.832 0.106 11.701 0.088 161.339
1094.75 0.161 110.769 5.39 153.25 0.107 12.235 0.085 163.169
1144.5 0.16 109.865 5.369 152.045 0.106 12.7 0.083 163.505
1194.25 0.149 105.62 5.34 150.707 0.107 13.806 0.08 165.759
1244 0.151 102.602 5.295 149.647 0.107 14.016 0.081 165.845
1293.75 0.143 100.892 5.261 148.49 0.106 14.867 0.081 166.181
1343.5 0.138 95.479 5.227 147.565 0.108 15.737 0.081 165.313
1393.25 0.132 94.157 5.222 146.469 0.107 16.405 0.078 165.913
1443 0.123 88.039 5.184 145.684 0.108 16.786 0.078 166.134
1492.75 0.123 85.539 5.172 144.42 0.108 17.603 0.077 167.867
1542.5 0.11 81.894 5.142 143.709 0.108 17.982 0.079 168.583
1592.25 0.111 76.634 5.121 142.362 0.108 18.732 0.079 170.307
1642 0.1 76.093 5.103 141.272 0.108 19.451 0.078 171.476
1691.75 0.094 66.83 5.101 140.203 0.109 19.41 0.08 173.771
1741.5 0.093 67.659 5.059 139.443 0.109 20.891 0.08 174.855
1791.25 0.079 61.965 5.03 137.987 0.11 20.858 0.083 177.067
1841 0.083 55.895 5.022 137.191 0.11 22.14 0.085 178.602
1890.75 0.071 55.819 4.991 135.852 0.111 22.504 0.087 -178.584
1940.5 0.072 43.465 4.96 134.763 0.111 23.388 0.091 -177.33
1990.25 0.071 46.817 4.935 133.691 0.112 24.284 0.091 -176.349
2040 0.055 36.843 4.897 132.679 0.112 24.82 0.095 -176.029
2089.75 0.057 31.086 4.829 131.577 0.113 25.418 0.096 -176.389
2139.5 0.046 27.786 4.808 130.479 0.112 26 0.098 -174.599
2189.25 0.043 15.192 4.777 130.14 0.114 26.484 0.101 -175.084
2239 0.036 14.686 4.743 129.383 0.114 27.026 0.102 -174.895
2288.75 0.029 -0.689 4.732 128.587 0.115 27.363 0.106 -176.108
2338.5 0.027 -11.272 4.752 127.446 0.117 27.593 0.111 -175.557
2388.25 0.021 -31.142 4.73 126.381 0.116 28.51 0.114 -176.237
2438 0.024 -56.947 4.721 124.89 0.118 28.679 0.12 -175.472
2487.75 0.023 -74.002 4.688 123.706 0.118 29.266 0.124 -175.458
2537.5 0.031 -97.849 4.629 122.256 0.12 30.153 0.128 -173.808
2587.25 0.036 -100.064 4.551 121.392 0.119 29.385 0.13 -173.69
2637 0.041 -111.912 4.488 120.197 0.12 31.639 0.131 -172.772
2686.75 0.048 -118.652 4.472 120.08 0.12 30.673 0.133 -172.99
2736.5 0.053 -124.341 4.411 119.363 0.12 32.015 0.129 -172.09
2786.25 0.064 -130.894 4.418 119.167 0.122 31.714 0.131 -172.832
2836 0.072 -130.876 4.402 118.34 0.121 31.968 0.132 -174.728
2885.75 0.077 -138.514 4.444 117.419 0.124 33.186 0.135 -176.803
2935.5 0.089 -139.455 4.416 115.895 0.123 32.733 0.138 -179.373
2985.25 0.089 -143.929 4.41 114.699 0.124 33.865 0.142 178.68
3035 0.101 -149.101 4.345 113.313 0.124 34.052 0.143 177.787
3084.75 0.103 -148.269 4.289 112.426 0.124 34.871 0.147 176.025
3134.5 0.112 -156.008 4.217 111.533 0.126 35.917 0.149 176.235
3184.25 0.122 -155.135 4.195 111.032 0.126 35.589 0.155 176.111
3234 0.123 -159.706 4.15 110.48 0.127 36.758 0.154 175.563
3283.75 0.138 -162.236 4.149 109.95 0.127 36.634 0.157 176.531
3333.5 0.135 -162.898 4.135 109.284 0.129 37.689 0.154 175.299
3383.25 0.145 -168.971 4.128 108.231 0.13 37.933 0.15 175.435
3433 0.154 -168.566 4.109 107.113 0.131 38.038 0.149 173.549
3482.75 0.159 -172.322 4.1 106.195 0.133 39.104 0.146 173.364
3532.5 0.172 -172.527 4.043 105.082 0.133 39.205 0.144 171.864
3582.25 0.17 -173.985 4.015 104.449 0.134 39.883 0.145 169.164
3632 0.183 -177.435 3.973 103.516 0.136 40.393 0.143 169.047
3681.75 0.185 -177.977 3.945 102.861 0.136 39.855 0.146 166.297
3731.5 0.191 178.89 3.914 102.089 0.138 41.445 0.145 166.156
3781.25 0.197 178.168 3.907 101.244 0.138 40.562 0.147 166.386
3831 0.198 176.652 3.879 100.564 0.14 41.543 0.143 165.483
3880.75 0.206 174.649 3.853 99.701 0.142 41.12 0.143 167.104
3930.5 0.21 174.472 3.829 98.847 0.141 41.648 0.138 165.406
3980.25 0.215 173.843 3.804 98.032 0.144 41.819 0.136 165.523
4030 0.215 172.404 3.777 97.295 0.143 42.022 0.13 164.089
4079.75 0.22 170.858 3.756 96.484 0.145 42.563 0.127 163.166
4129.5 0.22 169.216 3.74 95.779 0.146 42.574 0.122 162.154
4179.25 0.226 167.666 3.717 95.012 0.145 43.13 0.12 161.062
4229 0.228 167.366 3.695 94.179 0.149 43.207 0.119 159.986
4278.75 0.227 165.699 3.676 93.406 0.148 43.495 0.117 159.128
4328.5 0.226 165.025 3.655 92.609 0.15 43.6 0.112 158.488
4378.25 0.222 163.463 3.635 91.853 0.151 43.935 0.108 157.962
4428 0.226 162.704 3.614 91.031 0.152 44.277 0.105 158.635
4477.75 0.22 162.583 3.601 90.409 0.155 44.488 0.101 157.484
4527.5 0.22 159.986 3.582 89.604 0.155 44.67 0.094 159.005
4577.25 0.223 160.97 3.569 88.77 0.156 45.148 0.092 158.502
4627 0.219 159.121 3.558 87.868 0.159 45.213 0.087 159.487
4676.75 0.224 159.74 3.531 87.155 0.159 45.65 0.086 158.261
4726.5 0.211 159.704 3.52 86.192 0.162 45.608 0.079 155.884
4776.25 0.211 155.947 3.496 85.446 0.162 45.512 0.074 159.083
4826 0.209 158.081 3.472 84.571 0.164 46.037 0.07 155.84
4875.75 0.197 154.671 3.463 83.764 0.166 45.546 0.067 159.361
4925.5 0.204 155.657 3.438 83.018 0.167 46.025 0.065 159.169
4975.25 0.186 156.647 3.437 82.135 0.17 45.812 0.058 158.591
5025 0.187 153.27 3.418 81.315 0.17 45.788 0.057 164.173
5074.75 0.183 157.352 3.412 80.393 0.173 46.122 0.054 164.239
5124.5 0.168 153.48 3.384 79.492 0.173 45.876 0.047 174.641
5174.25 0.172 154.224 3.366 78.453 0.175 46.061 0.044 177.969
5224 0.15 154.553 3.355 77.498 0.177 45.684 0.036 -164.27
5273.75 0.152 149.25 3.344 76.798 0.178 45.578 0.039 -155.266
5323.5 0.145 154.84 3.317 76.035 0.181 45.608 0.028 -136.946
5373.25 0.124 151.926 3.333 75.021 0.182 45.164 0.031 -120.637
5423 0.124 153.847 3.309 74.314 0.184 45.273 0.026 -96.186
5472.75 0.1 159.613 3.317 73.052 0.187 45.004 0.033 -85.322
5522.5 0.092 151.295 3.3 72.101 0.187 44.706 0.037 -78.924
5572.25 0.092 160.183 3.309 70.587 0.189 44.917 0.039 -70.246
5622 0.07 162.96 3.278 70.008 0.191 44.477 0.045 -74.151
5671.75 0.066 160.848 3.237 68.498 0.192 44.242 0.048 -74.428
5721.5 0.055 175.764 3.217 67.744 0.194 43.655 0.066 -76.166
5771.25 0.038 179.747 3.192 66.679 0.195 43.049 0.074 -80.38
5821 0.04 -166.654 3.202 66.091 0.197 43.039 0.092 -78.609
5870.75 0.039 -125.653 3.194 64.747 0.198 41.971 0.11 -79.801
5920.5 0.034 -101.542 3.228 63.492 0.199 41.789 0.125 -76.71
5970.25 0.049 -99.989 3.21 61.971 0.202 41.508 0.145 -77.373
6020 0.07 -84.567 3.187 60.165 0.201 40.918 0.16 -74.327
6069.75 0.077 -84.779 3.12 57.886 0.205 40.976 0.176 -73.864
6119.5 0.109 -85.403 3.104 56.321 0.203 39.691 0.195 -73.596
6169.25 0.128 -77.103 3.019 55.758 0.203 39.758 0.212 -75.658
6219 0.134 -81.293 2.992 55.251 0.205 39.192 0.226 -77.13
6268.75 0.166 -80.957 2.956 55.14 0.201 38.862 0.24 -80.056
6318.5 0.17 -78.992 2.986 53.858 0.206 38.337 0.26 -80.542
6368.25 0.201 -84.519 3.015 52.508 0.203 36.898 0.281 -82.736
6418 0.225 -79.864 3.044 48.892 0.204 37.377 0.308 -83.641
6467.75 0.231 -85.212 3.05 46.342 0.21 35.339 0.326 -85.94
6517.5 0.275 -86.079 2.95 43.633 0.206 36.376 0.36 -87.201
6567.25 0.276 -87.262 2.766 41.505 0.215 34.108 0.374 -88.936
6617 0.315 -91.254 2.613 39.347 0.206 34.297 0.404 -90.465
6666.75 0.32 -90.154 2.502 39.51 0.214 35.009 0.411 -92.953
6716.5 0.337 -95.387 2.465 40.142 0.208 32.13 0.437 -93.793
6766.25 0.367 -95.537 2.446 42.873 0.21 33.924 0.455 -96.483
6816 0.371 -98.813 2.467 42.715 0.206 30.364 0.475 -97.855
6865.75 0.411 -101.283 2.523 41.114 0.197 31.071 0.5 -101.157
6915.5 0.415 -100.516 2.568 36.467 0.202 31.331 0.512 -102.833
6965.25 0.432 -105.752 2.557 31.742 0.2 28.053 0.538 -104.689
7015 0.462 -105.602 2.402 28.43 0.201 27.919 0.555 -107.517
7064.75 0.457 -109.323 2.215 24.763 0.202 25.335 0.572 -108.501
7114.5 0.495 -111.976 1.992 27.404 0.189 26.409 0.598 -111.512
7164.25 0.493 -113.04 1.772 27.517 0.205 26.299 0.602 -112.951
7214 0.513 -117.847 1.745 29.491 0.187 24.854 0.636 -115.221
7263.75 0.537 -118.49 1.764 34.911 0.18 26.273 0.641 -117.659
7313.5 0.533 -121.859 1.861 39.562 0.177 25.666 0.654 -119.435
7363.25 0.547 -123.66 1.862 37.278 0.166 31.41 0.661 -121.848
7413 0.554 -124.857 2.158 33.061 0.188 25.591 0.673 -122.496
7462.75 0.558 -128.904 2.001 30.94 0.166 26.42 0.687 -124.84
7512.5 0.585 -129.528 1.955 22.377 0.167 26.911 0.697 -126.622
7562.25 0.583 -131.678 1.74 19.81 0.172 24.776 0.712 -128.472
7612 0.594 -134.45 1.711 18.407 0.172 32.287 0.722 -130.824
7661.75 0.608 -135.086 1.405 27.886 0.184 22.258 0.724 -132.023
7711.5 0.6 -138.64 1.321 21.179 0.167 28.059 0.738 -134.891
7761.25 0.628 -140.688 1.459 34 0.166 27.543 0.744 -136.17
7811 0.623 -141.251 1.391 34.136 0.166 26.81 0.752 -137.852
7860.75 0.621 -145.657 1.513 38.429 0.165 31.968 0.756 -139.243
7910.5 0.659 -145.708 1.564 28.803 0.149 23.682 0.762 -140.77
7960.25 0.629 -148.3 1.83 32.54 0.16 30.633 0.768 -141.801
8010 0.672 -150.597 1.481 25.844 0.15 28.307 0.77 -143.809
8059.75 0.664 -149.269 1.607 20.619 0.158 32.339 0.775 -145.198
8109.5 0.653 -155.505 1.36 16.886 0.168 31.886 0.775 -147.315
8159.25 0.695 -154.923 1.411 22.874 0.147 27.115 0.778 -149.088
8209 0.663 -157.825 1.05 23.389 0.162 27.946 0.781 -151.364
8258.75 0.703 -159.875 1.289 21.803 0.141 30.136 0.789 -153.617
8308.5 0.701 -158.821 1.186 34.559 0.155 30.416 0.795 -155.598
8358.25 0.693 -163.855 1.279 31.267 0.152 27.389 0.808 -157.146
8408 0.733 -162.524 1.223 33.64 0.137 29.362 0.812 -158.547
8457.75 0.708 -165.396 1.43 22.914 0.16 32.477 0.823 -159.495
8507.5 0.728 -167.164 1.326 29.196 0.145 33.371 0.823 -160.335
8557.25 0.743 -167.582 1.363 17.899 0.156 35.468 0.828 -161.106
8607 0.73 -171.062 1.193 22.788 0.158 29.66 0.826 -162.181
8656.75 0.762 -170.15 1.133 16.397 0.131 36.204 0.823 -163.204
8706.5 0.753 -172.833 1.036 23.592 0.158 34.806 0.821 -164.959
8756.25 0.759 -172.872 1.005 18.295 0.132 33.756 0.82 -166.829
8806 0.776 -174.279 1.084 28.295 0.158 32.37 0.818 -168.697
8855.75 0.773 -176.763 1.029 26.254 0.148 24.295 0.826 -170.768
8905.5 0.794 -176.51 1.088 32.533 0.141 33.479 0.828 -172.434
8955.25 0.799 -179.028 1.005 22.787 0.147 30.19 0.836 -173.887
9005 0.801 -178.789 1.105 25.516 0.145 36.318 0.842 -175.047
9054.75 0.818 179.759 1.013 20.863 0.138 31.011 0.845 -175.726
9104.5 0.815 178.225 1.067 23.041 0.133 35.58 0.851 -176.539
9154.25 0.836 178.691 0.935 25.75 0.131 40.886 0.851 -177.067
9204 0.836 176.477 0.9 24.392 0.135 34.492 0.851 -178.119
9253.75 0.84 175.675 0.882 25.561 0.139 35.988 0.843 -179.352
9303.5 0.86 175.007 0.94 25.678 0.133 30.897 0.843 179.059
9353.25 0.853 173.222 0.94 28.256 0.131 33.389 0.844 177.199
9403 0.884 173.963 0.952 30.559 0.138 36.349 0.842 175.326
9452.75 0.873 173.274 0.901 26.771 0.131 33.526 0.849 173.814
9502.5 0.879 171.077 0.939 26.154 0.146 40.285 0.85 172.428
9552.25 0.91 171.684 0.887 25.958 0.125 37.383 0.858 171.771
9602 0.886 169.278 0.868 23.132 0.129 42.914 0.86 170.756
9651.75 0.936 169.393 0.895 27.489 0.127 43.454 0.863 170.692
9701.5 0.917 170.088 0.822 30.074 0.127 42.518 0.863 170.102
9751.25 0.915 166.586 0.822 28.804 0.131 43.829 0.858 169.994
9801 0.962 168.853 0.855 31.407 0.123 43.357 0.855 168.825
9850.75 0.909 166.627 0.841 29.488 0.131 45.441 0.847 168.096
9900.5 0.965 165.43 0.904 30.991 0.137 44.673 0.847 166.252
9950.25 0.954 167.312 0.867 29.978 0.136 42.99 0.845 164.851
10000 0.932 162.726 0.876 28.706 0.14 43.295 0.847 163.064
