!Hittite Microwave Corporation								
!20 Alpha Rd								
!Chelmsford, MA 01824								
!Tel: 978-250-3343								
!Fax: 978-250-3373
!Device: HMC463LP3, 2 - 20 GHz GaAs pHEMT MMIC LNA  in leadless QFN SMT package
!Misc: Data taken on a part mounted evaluation PCB 108339-1,Bias: Vdd=+5VDC, Vgg=-0.94VDC, Idd=60mA	
# MHZ S MA R 50

50 0.969 -8.349 0.093 -26.822 943.7e-6 -66.323 0.988 -14.512
159.75 0.917 -22.503 0.852 -42.449 207.6e-6 -11.531 0.93 -50.394
269.5 0.847 -36.12 2.379 -120.823 453.9e-6 128.666 0.639 -69.71
379.25 0.758 -47.319 1.956 -83.411 969.4e-6 -36.152 0.748 -114.91
489 0.68 -56.332 3.855 -107.158 1.639e-3 -90.47 0.498 -166.244
598.75 0.613 -64.409 4.68 -133.288 1.787e-3 -141.839 0.26 145.314
708.5 0.553 -71.574 4.772 -151.554 2.025e-3 -179.173 0.126 99.8
818.25 0.499 -77.636 4.665 -163.661 1.878e-3 165.4 0.073 58.485
928 0.453 -83.044 4.54 -172.02 1.724e-3 149.326 0.056 34.02
1037.75 0.413 -87.594 4.463 -178.327 1.735e-3 145.104 0.056 28.846
1147.5 0.377 -91.61 4.431 176.507 1.758e-3 139.285 0.065 28.525
1257.25 0.345 -95.311 4.431 171.891 1.738e-3 130.88 0.085 27.2
1367 0.317 -98.568 4.46 167.241 1.842e-3 129.434 0.106 23.658
1476.75 0.291 -101.67 4.503 162.793 1.975e-3 127.93 0.127 17.198
1586.5 0.27 -104.545 4.563 158.56 2.169e-3 125.557 0.149 10.548
1696.25 0.252 -108.293 4.632 153.791 2.42e-3 121.294 0.168 2.146
1806 0.234 -110.976 4.608 149.783 2.691e-3 116.176 0.183 -3.261
1915.75 0.218 -115.13 4.627 145.733 2.851e-3 111.821 0.195 -9.057
2025.5 0.206 -118.102 4.668 142.126 2.959e-3 109.488 0.206 -13.979
2135.25 0.191 -121.238 4.635 138.082 3.258e-3 105.74 0.212 -19.385
2245 0.18 -125.335 4.71 134.684 3.424e-3 101.453 0.216 -24.293
2354.75 0.173 -128.043 4.796 130.865 3.633e-3 98.214 0.217 -29.63
2464.5 0.163 -132.319 4.837 126.978 3.924e-3 95.015 0.219 -35.304
2574.25 0.158 -136.598 4.933 123.88 4.067e-3 89.884 0.218 -41.383
2684 0.152 -140.769 4.943 119.605 4.17e-3 86.05 0.218 -46.798
2793.75 0.146 -144.876 4.926 116.397 4.521e-3 84.571 0.217 -52.375
2903.5 0.143 -148.651 4.854 111.928 4.725e-3 81.153 0.217 -57.853
3013.25 0.142 -152.226 4.894 107.696 4.871e-3 78.077 0.215 -63.021
3123 0.139 -153.742 4.846 104.394 5.142e-3 74.046 0.215 -67.906
3232.75 0.139 -157.472 4.83 100.739 5.395e-3 68.751 0.213 -73.057
3342.5 0.137 -159.255 4.833 97.802 5.534e-3 65.649 0.211 -78.339
3452.25 0.134 -161.98 4.885 94.018 5.601e-3 62.708 0.21 -82.673
3562 0.133 -162.991 4.875 91.298 5.758e-3 60.642 0.207 -87.369
3671.75 0.125 -164.267 4.901 88.362 6.064e-3 56.186 0.206 -90.951
3781.5 0.125 -165.016 5.017 83.688 6.098e-3 55.64 0.201 -95.072
3891.25 0.117 -164.988 4.908 80.548 6.332e-3 50.364 0.196 -98.748
4001 0.112 -168.358 5.015 76.938 6.36e-3 47.215 0.189 -103.141
4110.75 0.108 -166.799 4.963 72.885 6.476e-3 47.646 0.181 -107.83
4220.5 0.098 -170.483 4.862 69.614 6.641e-3 44.269 0.174 -112.537
4330.25 0.092 -170.303 4.85 67.187 7.002e-3 42.797 0.17 -117.111
4440 0.082 -170.575 4.752 62.856 7.376e-3 38.837 0.166 -121.779
4549.75 0.077 -174.729 4.795 60.821 7.411e-3 35.942 0.163 -125.275
4659.5 0.07 -173.608 4.808 57.586 7.891e-3 35.217 0.157 -128.061
4769.25 0.061 -177.342 4.879 54.581 7.869e-3 32.465 0.149 -132.1
4879 0.052 -176.644 4.905 51.238 8.122e-3 28.795 0.138 -134.938
4988.75 0.041 -177.48 4.914 47.847 8.51e-3 26.301 0.127 -139.552
5098.5 0.033 -177.889 4.906 45.002 8.822e-3 23.224 0.116 -145.654
5208.25 0.023 176.176 4.839 39.778 8.916e-3 20.132 0.107 -154.132
5318 0.016 178.352 4.81 37.04 9.153e-3 17.693 0.103 -162.509
5427.75 0.011 131.606 4.776 33.636 9.295e-3 14.272 0.101 -172.586
5537.5 0.011 108.832 4.781 29.364 9.534e-3 12.68 0.104 179.7
5647.25 0.017 69.027 4.709 27.289 9.887e-3 9.77 0.105 172.091
5757 0.026 82.786 4.741 24.524 9.892e-3 7.5 0.112 166.453
5866.75 0.026 73.586 4.741 21.24 0.01 4.429 0.115 160.615
5976.5 0.036 74.5 4.672 18.69 0.01 1.296 0.119 156.553
6086.25 0.038 84.99 4.831 14.971 0.011 -1.98 0.122 154.364
6196 0.045 81.302 4.734 11.293 0.011 -4.282 0.127 151.183
6305.75 0.054 87.899 4.798 7.163 0.011 -6.696 0.13 148.578
6415.5 0.054 89.08 4.873 4.815 0.011 -9.367 0.133 145.706
6525.25 0.063 88.74 4.787 0.993 0.011 -12.487 0.132 144.048
6635 0.066 98.141 4.732 -1.1 0.012 -14.617 0.135 139.978
6744.75 0.07 96.455 4.654 -4.657 0.012 -16.5 0.136 139.488
6854.5 0.078 101.032 4.64 -7.939 0.012 -19.853 0.136 136.429
6964.25 0.083 102.474 4.581 -10.645 0.012 -22.196 0.141 136.286
7074 0.094 103.373 4.577 -14.57 0.013 -24.048 0.139 134.502
7183.75 0.094 108.019 4.581 -16.293 0.013 -26.692 0.142 134.707
7293.5 0.099 108.474 4.591 -20.288 0.013 -29.474 0.136 135.174
7403.25 0.102 110.916 4.547 -23.319 0.013 -32.037 0.133 134.316
7513 0.111 113.522 4.583 -25.925 0.014 -33.302 0.125 134.66
7622.75 0.113 116.853 4.616 -29.191 0.014 -35.679 0.121 135.1
7732.5 0.112 116.775 4.602 -32.34 0.014 -37.948 0.11 134.163
7842.25 0.114 118.755 4.612 -34.604 0.014 -40.85 0.105 132.981
7952 0.11 118.789 4.637 -37.65 0.015 -43.343 0.095 136.335
8061.75 0.112 118.644 4.588 -41.033 0.015 -44.997 0.079 135.732
8171.5 0.107 123.732 4.594 -43.826 0.015 -47.124 0.067 137.535
8281.25 0.097 117.045 4.617 -46.971 0.016 -49.19 0.052 136.682
8391 0.094 116.253 4.608 -50.155 0.016 -51.791 0.039 129.978
8500.75 0.089 109.816 4.609 -53.232 0.016 -54.134 0.022 115.828
8610.5 0.086 107.38 4.612 -56.576 0.017 -56.672 0.019 97.124
8720.25 0.068 103.325 4.625 -59.719 0.018 -60.201 0.014 20.559
8830 0.07 92.453 4.632 -62.916 0.018 -62.845 0.023 3.146
8939.75 0.059 83.318 4.641 -65.98 0.019 -66.022 0.036 -15.267
9049.5 0.065 69.485 4.63 -69.15 0.019 -68.519 0.049 -11.468
9159.25 0.059 56.765 4.621 -72.324 0.019 -71.806 0.062 -19.817
9269 0.066 39.689 4.593 -75.305 0.02 -74.479 0.081 -20.264
9378.75 0.072 29.073 4.613 -79.18 0.02 -78.929 0.09 -20.768
9488.5 0.091 20.284 4.608 -82.251 0.021 -82.33 0.109 -25.692
9598.25 0.096 20.243 4.594 -85.461 0.021 -85.028 0.122 -24.326
9708 0.105 9.454 4.586 -88.722 0.021 -88.162 0.133 -23.944
9817.75 0.118 8.414 4.569 -91.956 0.021 -91.544 0.143 -23.9
9927.5 0.127 2.361 4.548 -95.344 0.021 -94.632 0.158 -24.023
10037.25 0.144 1.632 4.539 -98.51 0.022 -97.897 0.165 -21.055
10147 0.142 1.313 4.523 -101.415 0.022 -100.708 0.165 -21.371
10256.75 0.15 -4.288 4.482 -104.448 0.022 -104.318 0.164 -20.203
10366.5 0.156 -2.605 4.504 -107.391 0.023 -106.74 0.157 -21.167
10476.25 0.161 -6.509 4.448 -110.405 0.023 -109.195 0.155 -20.126
10586 0.167 -2.071 4.47 -113.529 0.023 -111.867 0.139 -20.877
10695.75 0.157 -1.262 4.471 -116.679 0.023 -114.743 0.133 -23.937
10805.5 0.157 -4.043 4.469 -119.665 0.023 -118.177 0.12 -22.47
10915.25 0.153 -4.959 4.462 -122.593 0.024 -121.002 0.105 -26.934
11025 0.159 -5.933 4.46 -125.652 0.024 -123.507 0.092 -28.292
11134.75 0.148 -4.219 4.472 -128.67 0.025 -126.194 0.076 -27.043
11244.5 0.142 -5.843 4.463 -131.643 0.025 -129.571 0.054 -23.101
11354.25 0.133 -5.443 4.486 -134.859 0.025 -131.576 0.03 -28.548
11464 0.131 -8.583 4.485 -138.071 0.025 -135.183 9.521e-3 -18.228
11573.75 0.136 -5.226 4.504 -141.239 0.026 -137.367 0.019 148.513
11683.5 0.114 -3.597 4.499 -143.988 0.026 -140.319 0.039 160.738
11793.25 0.111 -7.517 4.474 -147.412 0.027 -143.351 0.059 155.108
11903 0.098 -3.823 4.498 -150.336 0.027 -146.318 0.078 153.305
12012.75 0.101 -14.899 4.434 -154.098 0.027 -149.357 0.098 150.665
12122.5 0.105 -5.761 4.425 -156.695 0.028 -152.426 0.117 151.772
12232.25 0.077 -13.902 4.491 -160.895 0.028 -155.628 0.129 151.352
12342 0.089 -20.835 4.525 -164.05 0.028 -157.621 0.145 148.295
12451.75 0.071 -20.998 4.488 -165.137 0.029 -161.667 0.156 147.496
12561.5 0.086 -26.172 4.632 -168.965 0.029 -163.762 0.154 144.647
12671.25 0.076 -8.608 4.533 -171.858 0.03 -166.011 0.152 138.431
12781 0.07 -27.721 4.456 -174.516 0.03 -169.869 0.158 134.125
12890.75 0.077 -24.49 4.551 -179.409 0.03 -172.931 0.15 129.581
13000.5 0.079 -31.088 4.489 176.031 0.03 -175.67 0.15 117.557
13110.25 0.096 -26.784 4.577 172.507 0.031 -177.193 0.16 110.014
13220 0.098 -17.88 4.456 170.181 0.031 178.565 0.17 99.49
13329.75 0.108 -20.522 4.581 166.478 0.031 175.932 0.176 91.375
13439.5 0.124 -17.811 4.528 163.338 0.031 173.536 0.189 82.541
13549.25 0.147 -18.591 4.374 162.63 0.031 171.278 0.194 74.871
13659 0.15 -12.817 4.443 158.653 0.032 167.6 0.203 68.546
13768.75 0.149 -15.111 4.392 155.044 0.032 165.132 0.208 59.783
13878.5 0.155 -11.102 4.37 152.746 0.034 162.771 0.228 53.928
13988.25 0.144 -19.808 4.502 148.365 0.033 157.906 0.236 48.388
14098 0.175 -19.654 4.495 144.282 0.034 157.933 0.245 39.42
14207.75 0.159 -21.61 4.541 141.072 0.035 153.131 0.255 33.597
14317.5 0.175 -29.297 4.547 137.177 0.035 151.49 0.261 26.892
14427.25 0.158 -28.068 4.409 133.376 0.036 147.016 0.269 19.694
14537 0.164 -40.78 4.434 128.876 0.035 144.429 0.281 14.232
14646.75 0.164 -39.872 4.473 127.444 0.037 141.512 0.283 9.793
14756.5 0.158 -46.977 4.357 121.783 0.037 137.281 0.286 3.259
14866.25 0.148 -51.012 4.505 118.349 0.039 135.009 0.284 -1.168
14976 0.133 -66.347 4.39 114.721 0.038 130.882 0.269 -7.971
15085.75 0.151 -77.114 4.584 110.539 0.039 129.911 0.258 -15.964
15195.5 0.148 -86.148 4.264 107.237 0.039 126.271 0.244 -26.371
15305.25 0.16 -97.077 4.325 103.963 0.039 124.017 0.244 -37.966
15415 0.162 -105.609 4.544 102.58 0.039 118.99 0.255 -47.972
15524.75 0.184 -116.571 4.128 99.284 0.038 116.809 0.268 -58.755
15634.5 0.209 -117.868 4.375 98.118 0.039 114.207 0.281 -65.948
15744.25 0.227 -126.349 4.171 96.174 0.038 109.369 0.295 -72.565
15854 0.262 -127.902 3.996 91.276 0.039 107.879 0.311 -79.346
15963.75 0.263 -133.841 3.989 88.853 0.039 101.949 0.334 -85.915
16073.5 0.299 -136.638 3.99 82.07 0.038 101.919 0.344 -90.406
16183.25 0.296 -135.952 4.064 79.812 0.04 97.127 0.362 -96.44
16293 0.313 -138.754 4.057 78.022 0.039 96.82 0.381 -100.316
16402.75 0.319 -136.045 4.212 72.729 0.039 93.859 0.383 -103.811
16512.5 0.319 -136.907 4.238 72.79 0.039 90.669 0.386 -107.503
16622.25 0.336 -135.984 3.991 69.173 0.039 89.693 0.382 -111.448
16732 0.322 -137.3 4.037 67.853 0.04 85.638 0.381 -115.331
16841.75 0.34 -138.588 3.972 63.781 0.04 84.82 0.375 -120.044
16951.5 0.324 -134.371 3.831 61.641 0.041 81.197 0.379 -124.544
17061.25 0.324 -134.506 3.931 59.927 0.042 79.391 0.374 -129.527
17171 0.331 -129.551 3.932 55.409 0.043 75.732 0.37 -132.379
17280.75 0.322 -130.24 3.969 54.402 0.043 73.52 0.358 -137.601
17390.5 0.321 -127.358 4.084 52.007 0.045 70.032 0.356 -140.907
17500.25 0.308 -125.709 4.076 47.806 0.045 66.77 0.332 -142.282
17610 0.297 -118.421 4.184 45.914 0.047 63.786 0.301 -147.022
17719.75 0.244 -112.742 4.292 41.257 0.047 59.994 0.269 -149.547
17829.5 0.253 -110.219 4.191 37.172 0.048 56.48 0.225 -155.726
17939.25 0.249 -98.142 4.269 32.472 0.049 52.733 0.179 -163.917
18049 0.245 -99.767 4.293 28.341 0.05 49.443 0.134 176.973
18158.75 0.251 -92.703 4.321 24.097 0.05 44.411 0.101 150.262
18268.5 0.206 -91.209 4.338 20.134 0.05 40.498 0.106 105.551
18378.25 0.204 -87.079 4.373 16.693 0.051 36.375 0.141 79.195
18488 0.164 -78.022 4.371 12.468 0.05 32.55 0.194 66.145
18597.75 0.184 -83.911 4.349 8.49 0.051 29.938 0.236 58.687
18707.5 0.194 -73.852 4.311 4.416 0.05 26.771 0.278 50.177
18817.25 0.14 -81.429 4.331 0.679 0.052 24.287 0.328 48.596
18927 0.138 -85.832 4.405 -3.714 0.054 20.846 0.34 41.391
19036.75 0.082 -80.269 4.355 -7.769 0.055 16.111 0.373 34.805
19146.5 0.075 -81.267 4.362 -10.885 0.056 12.294 0.389 30.551
19256.25 0.054 -46.652 4.368 -15.469 0.057 7.602 0.41 26.596
19366 0.034 -55.922 4.39 -19.327 0.059 3.027 0.41 23.149
19475.75 0.017 -46.335 4.492 -22.837 0.06 -1.028 0.407 18.804
19585.5 0.069 161.956 4.491 -27.547 0.061 -6.693 0.392 12.089
19695.25 0.106 143.061 4.504 -31.75 0.063 -12.299 0.368 2.155
19805 0.199 117.883 4.568 -38.019 0.063 -20.516 0.35 -12.633
19914.75 0.208 127.906 4.438 -42.911 0.062 -25.33 0.33 -25.401
20024.5 0.194 127.631 4.522 -48.725 0.061 -32.344 0.279 -40.209
20134.25 0.306 154.165 4.429 -57.321 0.059 -37.171 0.249 -77.412
20244 0.354 167.571 4.326 -64.037 0.062 -44.053 0.265 -110.043
20353.75 0.376 149.678 4.424 -71.867 0.058 -52.704 0.365 -132.616
20463.5 0.367 145.248 3.823 -74.217 0.055 -58.247 0.452 -150.209
20573.25 0.428 146.29 3.812 -82.179 0.047 -66.756 0.655 -157.637
20683 0.367 154.295 3.334 -79.678 0.045 -66.439 0.65 -159.545
20792.75 0.424 147.057 2.85 -85.447 0.042 -71.08 0.696 -161.272
20902.5 0.547 144.134 2.894 -87.475 0.037 -75.056 0.735 -164.635
21012.25 0.579 147.821 2.793 -91.488 0.036 -75.077 0.741 -170.878
21122 0.581 149.27 2.831 -89.291 0.035 -73.656 0.763 -178.274
21231.75 0.547 152.462 2.836 -91.359 0.036 -72.459 0.783 177.484
21341.5 0.528 152.083 2.982 -89.264 0.034 -72.276 0.785 177.401
21451.25 0.545 154.593 3.031 -85.682 0.034 -69.894 0.765 174.804
21561 0.586 155.338 2.734 -92.228 0.03 -67.737 0.749 170.909
21670.75 0.58 158.736 2.8 -92.691 0.033 -66.206 0.717 166.586
21780.5 0.543 153.767 2.663 -99.145 0.034 -72.704 0.697 162.172
21890.25 0.546 152.289 2.615 -98.924 0.035 -71.97 0.676 157.411
22000 0.513 154.044 2.686 -103.506 0.038 -74.783 0.648 152.626
