!Hittite Microwave Corporation								
!20 Alpha Road								
!Chelmsford, MA 01824								
!Tel: 978-250-3343								
!Fax: 978-250-3373								
!Device: HMC451, 5-20 GHz, Driver Amplifier Die																
!Misc: Vcc = 5.5V, data includes two K connectors, Room	
!
# MHZ S MA R 50

50 0.997 -3.61 260.6e-6 7.389 954.7e-6 8.942 0.994 -3.889
174.75 0.995 -12.118 37.29e-6 -104.47 276.4e-6 175.214 0.996 -12.405
299.5 0.995 -20.794 99.5e-6 -17.385 84.51e-6 -67.466 0.994 -21.232
424.25 0.994 -29.554 4.531e-3 6.436 132.6e-6 17.586 0.995 -29.85
549 0.994 -38.304 406.2e-6 -61.277 121.1e-6 139.041 0.993 -38.924
673.75 0.991 -47.198 669.2e-6 -61.653 105.5e-6 -178.825 0.993 -47.936
798.5 0.988 -56.197 1.39e-3 -65.937 142.8e-6 81.921 0.991 -57.313
923.25 0.983 -65.314 2.957e-3 -81.66 179.6e-6 100.179 0.984 -66.982
1048 0.979 -74.449 4.083e-3 -95.623 228.4e-6 72.967 0.97 -77.09
1172.75 0.974 -83.73 8.063e-3 -147.912 462.7e-6 0.845 0.944 -87.087
1297.5 0.965 -93.109 7.992e-3 177.59 623.9e-6 -67.028 0.912 -96.085
1422.25 0.958 -102.674 4.221e-3 166.029 586.1e-6 -112.366 0.897 -104.795
1547 0.947 -112.292 4.786e-3 -139.985 613.3e-6 -157.362 0.885 -114.502
1671.75 0.936 -122.06 0.01 -139.232 589.2e-6 -166.615 0.864 -124.606
1796.5 0.924 -131.967 0.018 -146.643 557.9e-6 -160.627 0.836 -134.768
1921.25 0.911 -141.907 0.025 -167.159 684.4e-6 -162.421 0.802 -144.874
2046 0.896 -151.963 0.026 -178.286 770e-6 -171.957 0.767 -154.544
2170.75 0.88 -162.228 0.027 178.732 884.6e-6 173.644 0.737 -164.089
2295.5 0.864 -172.488 0.026 -175.099 1.081e-3 164.743 0.71 -173.79
2420.25 0.849 177.066 0.03 -152.133 1.347e-3 153.827 0.687 175.964
2545 0.831 166.522 0.05 -132.97 1.499e-3 144.759 0.665 165.349
2669.75 0.814 155.834 0.109 -120.577 1.589e-3 131.46 0.644 154.203
2794.5 0.796 144.997 0.205 -133.246 2.032e-3 120.519 0.619 141.959
2919.25 0.779 134.233 0.319 -143.581 2.415e-3 113.873 0.593 128.731
3044 0.761 123.308 0.496 -152.553 2.346e-3 107.927 0.566 114.241
3168.75 0.743 112.114 0.846 -162.584 2.345e-3 96.575 0.537 98.099
3293.5 0.723 100.818 1.37 178.227 2.464e-3 86.388 0.502 78.843
3418.25 0.704 89.418 2.062 164.791 2.724e-3 76.407 0.462 55.662
3543 0.685 77.928 3.354 139.696 2.853e-3 62.388 0.412 26.58
3667.75 0.664 66.205 4.674 114.044 2.701e-3 56.232 0.354 -11.008
3792.5 0.638 54.172 5.66 88.329 2.356e-3 42.033 0.306 -57.142
3917.25 0.611 42.164 6.99 64.612 2.066e-3 31.611 0.284 -105.118
4042 0.584 30.347 7.803 39.557 2.085e-3 25.404 0.285 -146.466
4166.75 0.555 18.504 8.219 19.054 1.934e-3 21.792 0.292 -178.317
4291.5 0.525 6.546 8.704 -1.129 1.883e-3 19.182 0.295 157.323
4416.25 0.494 -5.179 9.16 -16.423 1.915e-3 18.611 0.294 137.545
4541 0.461 -16.779 9.14 -32.625 1.743e-3 13.938 0.289 121.213
4665.75 0.426 -28.262 9.526 -44.594 1.619e-3 10.171 0.282 106.976
4790.5 0.392 -39.42 9.864 -61.41 1.564e-3 5.761 0.273 94.12
4915.25 0.359 -50.109 10.086 -74.046 1.466e-3 0.329 0.264 82.012
5040 0.325 -60.556 10.775 -87.681 1.232e-3 -5.864 0.255 71.125
5164.75 0.291 -70.113 10.894 -98.777 1.032e-3 -1.911 0.244 60.273
5289.5 0.259 -78.387 11.47 -111.193 934.1e-6 -11.209 0.235 50.429
5414.25 0.232 -85.446 11.517 -122.549 772.4e-6 -4.346 0.224 40.723
5539 0.207 -91.562 12.044 -136.775 911.7e-6 -4.587 0.212 31.46
5663.75 0.187 -96.333 11.752 -147.431 685.6e-6 4.979 0.201 21.723
5788.5 0.171 -99.308 12.218 -157.195 585.5e-6 5.505 0.191 12.383
5913.25 0.161 -101.504 12.332 -168.333 627e-6 14.754 0.181 3.82
6038 0.156 -103.659 12.242 -178.151 420.8e-6 24.435 0.17 -5.297
6162.75 0.156 -106.081 12.342 171.849 567.3e-6 30.261 0.162 -14.4
6287.5 0.157 -109.057 12.644 162.439 680.3e-6 44.204 0.153 -22.58
6412.25 0.162 -112.525 12.761 151.68 724.5e-6 51.899 0.145 -30.268
6537 0.168 -116.339 12.459 142.225 817.8e-6 41.138 0.131 -39.148
6661.75 0.176 -121.319 12.451 133.703 814.7e-6 47.312 0.126 -49.214
6786.5 0.183 -127.36 12.427 125.038 956.3e-6 55.203 0.118 -57.233
6911.25 0.19 -133.491 12.581 116.303 977e-6 38.742 0.111 -65.743
7036 0.197 -139.49 12.288 107.613 1.15e-3 42.58 0.101 -74.942
7160.75 0.203 -145.993 12.417 100.246 1.243e-3 41.017 0.096 -85.104
7285.5 0.208 -153.211 12.391 91.572 1.365e-3 42.698 0.091 -90.791
7410.25 0.213 -160.352 12.257 83.386 1.349e-3 44.13 0.081 -98.905
7535 0.215 -167.153 12.045 75.732 1.397e-3 38.002 0.073 -108.752
7659.75 0.219 -173.838 12.015 68.888 1.504e-3 37.796 0.069 -119.587
7784.5 0.222 179.304 12.019 61.252 1.539e-3 34.129 0.067 -124.659
7909.25 0.224 171.768 11.851 54.283 1.576e-3 35.471 0.059 -132.943
8034 0.224 164.476 11.816 47.346 1.573e-3 33.459 0.056 -143.978
8158.75 0.223 157.825 11.792 40.554 1.713e-3 32.99 0.056 -152.017
8283.5 0.223 151.166 11.751 33.607 1.533e-3 28.551 0.051 -155.997
8408.25 0.222 143.777 11.683 26.925 1.72e-3 27.256 0.043 -165.626
8533 0.218 136.163 11.661 20.413 1.727e-3 27.591 0.04 177.605
8657.75 0.214 129.555 11.637 13.939 1.638e-3 31.341 0.041 169.123
8782.5 0.21 122.878 11.615 7.446 1.767e-3 28.793 0.037 163.11
8907.25 0.204 115.995 11.593 1.075 1.781e-3 28.138 0.032 148.244
9032 0.2 108.93 11.601 -5.256 1.879e-3 24.917 0.031 134.652
9156.75 0.194 101.774 11.58 -11.508 2.019e-3 22.21 0.03 125.547
9281.5 0.184 94.826 11.589 -17.782 2.099e-3 23.714 0.023 112.611
9406.25 0.176 88.307 11.589 -23.925 2.084e-3 21.719 0.022 83.376
9531 0.169 81.883 11.588 -30.124 2.253e-3 21.523 0.025 67.287
9655.75 0.161 74.171 11.598 -36.322 2.17e-3 16.842 0.028 57.885
9780.5 0.146 66.802 11.61 -42.357 2.416e-3 15.309 0.027 44.478
9905.25 0.135 61.547 11.62 -48.369 2.422e-3 15.113 0.029 31.94
10030 0.128 55.814 11.661 -54.429 2.498e-3 11.523 0.028 19.068
10154.75 0.117 47.121 11.657 -60.471 2.638e-3 11.806 0.029 5.497
10279.5 0.104 39.929 11.669 -66.461 2.726e-3 9.937 0.03 -14.874
10404.25 0.095 34.352 11.678 -72.372 2.635e-3 8.761 0.038 -25.827
10529 0.08 26.432 11.711 -78.37 2.85e-3 4.507 0.04 -34.833
10653.75 0.069 15.897 11.713 -84.261 2.983e-3 4.613 0.046 -45.285
10778.5 0.058 8.369 11.76 -90.1 2.875e-3 3.659 0.049 -52.368
10903.25 0.042 -2.725 11.78 -96.155 2.982e-3 -1.072 0.053 -59.928
11028 0.029 -22.183 11.796 -102.113 3.028e-3 -3.615 0.053 -71.798
11152.75 0.019 -41.222 11.807 -108.059 3.109e-3 -5.181 0.062 -83.313
11277.5 0.01 -68.514 11.795 -113.796 3.158e-3 -5.29 0.069 -88.769
11402.25 0.013 -122.35 11.821 -119.75 3.393e-3 -9.773 0.073 -96.394
11527 0.024 -153.784 11.821 -125.412 3.357e-3 -11.37 0.078 -104.469
11651.75 0.034 -174.428 11.823 -131.056 3.445e-3 -15.777 0.089 -111.355
11776.5 0.045 176.661 11.888 -136.714 3.267e-3 -16.096 0.092 -115.171
11901.25 0.063 169.785 12.061 -143.008 3.521e-3 -21.402 0.092 -121.489
12026 0.078 157.742 11.929 -149.573 3.559e-3 -24.209 0.098 -131.856
12150.75 0.088 142.237 11.878 -154.251 3.539e-3 -26.11 0.11 -138.611
12275.5 0.094 134.153 12.033 -160.117 3.55e-3 -25.487 0.115 -141.834
12400.25 0.099 130.756 12.001 -166.844 3.696e-3 -30.025 0.116 -148.497
12525 0.105 126.828 11.771 -172.792 3.784e-3 -28.767 0.123 -157.307
12649.75 0.118 121.656 11.844 -177.061 3.78e-3 -34.972 0.136 -161.78
12774.5 0.131 115.545 12.271 176.675 3.868e-3 -37.047 0.136 -164.952
12899.25 0.139 108.833 12.013 170.129 3.772e-3 -36.621 0.136 -172.885
13024 0.145 103.224 11.745 164.546 3.646e-3 -42.173 0.144 177.514
13148.75 0.156 97.965 11.751 159.373 3.821e-3 -43.436 0.16 173.094
13273.5 0.168 91.17 12.08 153.434 3.891e-3 -43.958 0.162 170.321
13398.25 0.173 83.601 12.116 146.249 3.841e-3 -46.911 0.164 163.57
13523 0.176 78.398 11.748 141.566 3.8e-3 -50.255 0.172 156.803
13647.75 0.182 73.647 11.85 136.87 3.886e-3 -54.867 0.185 153.247
13772.5 0.19 67.384 11.938 130.321 3.896e-3 -55.896 0.18 150.064
13897.25 0.194 61.56 11.985 122.382 3.918e-3 -54.792 0.178 142.253
14022 0.196 56.644 11.361 118.034 3.777e-3 -59.348 0.187 134.18
14146.75 0.2 52.02 11.765 115.896 3.981e-3 -61.945 0.201 129.651
14271.5 0.206 46.76 11.866 107.018 3.879e-3 -64.708 0.199 126.721
14396.25 0.214 42.216 11.806 100.684 4.109e-3 -67.716 0.201 119.579
14521 0.219 37.474 11.631 95.322 4.159e-3 -66.892 0.208 114.036
14645.75 0.222 31.659 11.924 91.37 3.991e-3 -71.119 0.218 109.271
14770.5 0.227 25.565 11.97 82.35 3.911e-3 -72.204 0.213 106.425
14895.25 0.231 21.537 11.162 76.995 4.237e-3 -73.789 0.21 97.681
15020 0.234 17.328 11.302 71.719 4.038e-3 -76.611 0.221 91.865
15144.75 0.236 11.019 11.136 67.129 3.723e-3 -79.29 0.229 86.44
15269.5 0.237 5.22 11.568 60.742 3.561e-3 -77.924 0.232 83.228
15394.25 0.238 2.404 11.22 55.376 3.856e-3 -85.596 0.231 76.304
15519 0.245 -0.484 11.134 50.733 3.84e-3 -92.255 0.241 71.351
15643.75 0.252 -6.569 10.997 43.45 4.091e-3 -85.583 0.241 67.192
15768.5 0.254 -12.136 11.04 37.503 3.701e-3 -91.593 0.24 61.922
15893.25 0.254 -15.129 10.765 30.092 3.93e-3 -93.509 0.241 55.242
16018 0.261 -18.528 10.616 28.553 4.087e-3 -95.822 0.25 49.062
16142.75 0.271 -23.954 10.79 22.424 3.969e-3 -94.201 0.26 44.46
16267.5 0.272 -29.469 10.583 16.5 3.793e-3 -99.169 0.263 40.018
16392.25 0.269 -33.137 10.616 10.623 3.82e-3 -99.636 0.267 34.473
16517 0.274 -35.93 10.662 4.974 3.81e-3 -104.838 0.274 30.547
16641.75 0.287 -39.896 10.792 -0.515 3.763e-3 -106.192 0.275 25.611
16766.5 0.292 -45.202 10.376 -7.641 3.787e-3 -108.057 0.278 21.187
16891.25 0.292 -49.933 10.412 -12.773 3.678e-3 -110.886 0.279 15.397
17016 0.297 -52.711 10.23 -20.125 3.925e-3 -112.455 0.285 10.6
17140.75 0.31 -56.139 10.124 -23.814 3.87e-3 -116.819 0.289 4.627
17265.5 0.319 -61.883 10.041 -29.814 3.649e-3 -119.872 0.298 0.035
17390.25 0.319 -67.018 9.846 -35.633 3.931e-3 -120.457 0.303 -5.214
17515 0.323 -69.424 9.793 -42.121 3.466e-3 -122.504 0.311 -9.047
17639.75 0.335 -72.824 9.647 -47.059 3.44e-3 -127.659 0.312 -15.113
17764.5 0.346 -78.153 9.765 -52.88 3.587e-3 -126.265 0.324 -19.182
17889.25 0.353 -82.311 9.395 -58.621 3.497e-3 -129.642 0.322 -24.553
18014 0.362 -85.283 9.333 -64.144 3.621e-3 -134.555 0.336 -29.592
18138.75 0.372 -90.035 9.203 -70.023 3.593e-3 -136.3 0.335 -35.366
18263.5 0.382 -94.76 9.158 -75.708 3.533e-3 -135.135 0.358 -40.73
18388.25 0.398 -98.342 9.058 -81.432 3.525e-3 -141.075 0.363 -43.926
18513 0.407 -103.198 8.854 -87.223 3.558e-3 -142.987 0.374 -49.03
18637.75 0.405 -108.441 8.725 -93.315 3.293e-3 -146.864 0.376 -53.136
18762.5 0.416 -111.506 8.605 -98.833 3.238e-3 -146.646 0.389 -58.84
18887.25 0.439 -114.926 8.48 -104.393 3.328e-3 -150.294 0.397 -62.445
19012 0.442 -120.346 8.36 -110.17 3.344e-3 -151.884 0.398 -68.25
19136.75 0.44 -124.151 8.206 -116.295 3.138e-3 -152.608 0.413 -74.153
19261.5 0.465 -127.549 7.988 -121.764 3.107e-3 -157.626 0.43 -79.006
19386.25 0.481 -132.363 7.856 -126.903 3.197e-3 -156.281 0.443 -83.281
19511 0.484 -136.503 7.695 -132.366 3.229e-3 -162.834 0.455 -87.489
19635.75 0.5 -140.817 7.569 -138.973 3.111e-3 -168.062 0.463 -92.559
19760.5 0.512 -145.987 7.44 -143.096 3.059e-3 -168.558 0.483 -96.545
19885.25 0.515 -150.017 7.525 -148.679 3.11e-3 -169.277 0.483 -100.357
20010 0.525 -153.756 7.318 -155.008 2.866e-3 -173.274 0.492 -105.815
20134.75 0.538 -158.55 7.058 -161.769 2.915e-3 -174.447 0.5 -110.837
20259.5 0.538 -163.445 6.945 -168.642 2.953e-3 -179.911 0.519 -116.188
20384.25 0.542 -166.494 6.879 -172.875 2.879e-3 -178.109 0.526 -119.561
20509 0.561 -169.913 6.819 -178.679 2.809e-3 179.697 0.535 -125.215
20633.75 0.571 -174.761 6.543 176.157 2.562e-3 177.378 0.55 -129.671
20758.5 0.567 -179.288 6.232 169.75 2.35e-3 176.355 0.562 -133.982
20883.25 0.577 177.203 6.337 162.678 2.84e-3 167.243 0.566 -137.833
21008 0.595 173.213 6.328 155.005 2.499e-3 178.047 0.569 -143.595
21132.75 0.596 168.429 5.844 147.547 2.291e-3 169.763 0.585 -148.429
21257.5 0.594 163.811 5.342 145.618 2.093e-3 164.615 0.596 -153.158
21382.25 0.601 160.044 5.146 136.418 2.358e-3 170.593 0.605 -157.322
21507 0.609 155.951 4.796 132.437 2.148e-3 157.8 0.618 -163.005
21631.75 0.603 151.788 4.545 129.613 2.255e-3 151.685 0.64 -167.054
21756.5 0.6 147.878 4.435 131.399 2.184e-3 146.268 0.651 -170.267
21881.25 0.611 144.417 4.551 123.812 2.341e-3 154.968 0.656 -173.188
22006 0.613 140.266 4.274 115.932 1.815e-3 153.633 0.661 -178.249
22130.75 0.607 136.441 4.619 114.324 2.238e-3 146.618 0.677 178.522
22255.5 0.614 133.032 4.418 106.652 2.537e-3 145.079 0.677 174.449
22380.25 0.622 128.87 4.318 102.543 2.126e-3 160.143 0.682 170.814
22505 0.618 124.105 3.8 91.853 1.892e-3 146.676 0.681 165.197
22629.75 0.617 120.426 3.792 92.789 1.637e-3 142.693 0.707 161.709
22754.5 0.617 117.175 3.899 87.246 2.062e-3 139.582 0.706 158.504
22879.25 0.613 112.859 3.734 84.204 1.649e-3 140.234 0.711 154.259
23004 0.608 108.497 3.648 74.27 1.774e-3 144.198 0.711 150.01
23128.75 0.61 105.038 3.355 71.508 2.048e-3 138.103 0.725 145.634
23253.5 0.607 101.734 3.756 65.67 1.855e-3 131.838 0.727 142.986
23378.25 0.601 98.346 3.3 56.336 1.779e-3 121.357 0.722 138.181
23503 0.605 94.648 2.941 55.17 1.87e-3 134.655 0.733 133.266
23627.75 0.606 90.325 2.791 49.995 2.025e-3 125.394 0.748 129.815
23752.5 0.598 86.499 3.058 45.946 2.001e-3 125.856 0.753 126.8
23877.25 0.593 83.441 2.912 35.753 1.664e-3 131.115 0.746 123.19
24002 0.6 79.205 2.566 37.697 1.532e-3 132.382 0.745 118.289
24126.75 0.594 74.657 2.514 32.263 1.702e-3 127.56 0.761 115.004
24251.5 0.584 71.424 2.403 26.511 1.596e-3 118.363 0.75 111.388
24376.25 0.583 68.249 2.387 19.488 1.893e-3 111.767 0.754 106.86
24501 0.582 64.219 2.153 18.371 2.035e-3 133.038 0.747 101.872
24625.75 0.575 59.969 2.302 20.788 1.74e-3 128.282 0.776 98.129
24750.5 0.574 56.506 2.138 10.736 1.727e-3 112.867 0.769 95.905
24875.25 0.569 52.617 2.216 3.773 1.8e-3 117.283 0.77 91.638
25000 0.558 49.22 2.006 -4.612 1.717e-3 113.861 0.761 88.115
