!Hittite Microwave Corporation								
!12 Elizabeth Drive								
!Chelmsford, MA 01824								
!Tel: 978-250-3343								
!Fax: 978-250-3373								
!Device: HMC436MS8G, 4.9-5.9 GHz GaAs MMIC DPDT Diversity Switch in 8-lead Grounded Base surface Mount Plastic Package								
!Misc:  Port 1 = ANT1, Port 2 = ANT2, Port 3 = Tx, Port 4 = Rx, Vctl=+3V, State 5 selected, Room							
!
# MHZ S MA R 50

4000 0.476 112.131 0.449 50.823 0.442 45.495 0.433 37.412
          0.472 50.755 0.479 115.384 0.438 42.017 0.432 44.568
          0.463 45.473 0.457 42.035 0.48 113.316 0.443 48.914
          0.452 36.971 0.45 44.178 0.463 48.476 0.5 107.852
4015 0.477 112.007 0.465 51.61 0.457 46.16 0.449 37.883
          0.482 50.056 0.479 115.241 0.454 42.686 0.449 45.065
          0.473 44.682 0.468 41.32 0.479 113.127 0.46 49.399
          0.462 36.246 0.461 43.55 0.473 47.875 0.5 107.771
4030 0.477 111.874 0.482 51.143 0.473 45.615 0.464 37.155
          0.487 48.829 0.478 115.053 0.47 42.173 0.464 44.3
          0.478 43.466 0.474 40.143 0.477 112.985 0.476 48.651
          0.466 35.087 0.466 42.393 0.477 46.673 0.499 107.668
4045 0.476 111.782 0.493 49.697 0.483 44.111 0.473 35.472
          0.484 47.74 0.476 114.958 0.481 40.679 0.473 42.627
          0.475 42.353 0.473 38.988 0.476 112.869 0.485 46.96
          0.463 33.914 0.464 41.253 0.476 45.492 0.499 107.55
4060 0.476 111.687 0.494 47.817 0.483 42.214 0.472 33.469
          0.477 47.176 0.475 114.875 0.482 38.752 0.472 40.678
          0.467 41.702 0.467 38.248 0.476 112.687 0.484 44.958
          0.456 33.251 0.457 40.595 0.469 44.814 0.5 107.404
4075 0.476 111.52 0.484 46.194 0.474 40.638 0.46 31.926
          0.469 47.255 0.475 114.67 0.473 37.115 0.46 39.195
          0.46 41.697 0.46 38.164 0.476 112.394 0.472 43.416
          0.448 33.372 0.45 40.639 0.461 44.865 0.5 107.204
4090 0.476 111.253 0.467 45.544 0.456 40.087 0.443 31.519
          0.464 47.84 0.474 114.329 0.456 36.49 0.443 38.869
          0.454 42.344 0.454 38.765 0.475 112.097 0.454 43.033
          0.443 33.955 0.445 41.186 0.456 45.501 0.5 106.917
4105 0.474 111.062 0.453 46.618 0.442 41.182 0.428 32.855
          0.465 48.46 0.472 114.121 0.442 37.544 0.429 40.255
          0.455 42.906 0.455 39.317 0.474 111.875 0.44 44.382
          0.444 34.534 0.446 41.84 0.456 46.062 0.499 106.761
4120 0.473 110.876 0.446 48.438 0.436 43.015 0.424 34.858
          0.467 48.568 0.47 113.898 0.437 39.365 0.425 42.319
          0.457 43.04 0.458 39.391 0.472 111.646 0.435 46.429
          0.446 34.637 0.448 42.012 0.458 46.188 0.498 106.571
4135 0.472 110.665 0.449 50.273 0.439 44.826 0.428 36.698
          0.467 48.334 0.469 113.678 0.439 41.137 0.43 44.185
          0.457 42.785 0.458 39.093 0.471 111.398 0.439 48.298
          0.446 34.428 0.449 41.809 0.458 45.973 0.497 106.413
4150 0.471 110.452 0.458 51.5 0.448 46.003 0.438 37.785
          0.464 48.057 0.467 113.463 0.449 42.258 0.44 45.27
          0.453 42.521 0.455 38.748 0.47 111.215 0.45 49.398
          0.442 34.108 0.445 41.5 0.454 45.661 0.497 106.21
4165 0.469 110.256 0.471 51.743 0.46 46.204 0.45 37.826
          0.456 48.136 0.466 113.247 0.462 42.418 0.453 45.305
          0.445 42.68 0.447 38.764 0.468 111.099 0.462 49.447
          0.435 34.067 0.438 41.483 0.446 45.669 0.497 105.944
4180 0.469 110.025 0.48 51.011 0.47 45.476 0.459 36.893
          0.447 49.049 0.465 113.028 0.471 41.669 0.463 44.35
          0.437 43.46 0.438 39.492 0.468 110.789 0.471 48.497
          0.426 35.025 0.43 42.269 0.437 46.606 0.496 105.86
4195 0.469 109.7 0.481 49.854 0.47 44.289 0.458 35.617
          0.444 50.822 0.464 112.742 0.471 40.466 0.461 43.11
          0.434 45.245 0.435 41.201 0.467 110.451 0.47 47.306
          0.423 36.736 0.427 43.963 0.434 48.287 0.496 105.552
4210 0.468 109.306 0.475 49.164 0.464 43.639 0.451 34.945
          0.45 52.492 0.462 112.384 0.465 39.768 0.455 42.482
          0.44 46.981 0.441 42.934 0.465 110.081 0.463 46.668
          0.429 38.371 0.432 45.634 0.44 50.011 0.495 105.3
4225 0.467 108.984 0.467 49.216 0.456 43.708 0.443 35.091
          0.464 53.535 0.46 112.086 0.458 39.796 0.447 42.682
          0.453 48.045 0.453 44.095 0.463 109.776 0.454 46.843
          0.441 39.386 0.443 46.83 0.452 51.13 0.494 105.071
4240 0.466 108.733 0.462 49.959 0.451 44.451 0.438 35.944
          0.48 53.606 0.459 111.879 0.453 40.526 0.442 43.569
          0.469 48.067 0.469 44.247 0.461 109.532 0.449 47.758
          0.456 39.454 0.458 47.065 0.467 51.269 0.494 104.901
4255 0.467 108.478 0.461 51.058 0.451 45.551 0.439 37.101
          0.494 52.588 0.457 111.697 0.453 41.646 0.443 44.73
          0.483 46.987 0.483 43.253 0.46 109.296 0.45 49.003
          0.469 38.442 0.472 46.105 0.48 50.32 0.493 104.757
4270 0.466 108.149 0.467 51.94 0.457 46.377 0.445 37.91
          0.5 50.656 0.456 111.37 0.459 42.519 0.449 45.564
          0.489 45.116 0.491 41.423 0.458 109.007 0.457 49.848
          0.475 36.402 0.479 44.264 0.487 48.444 0.494 104.39
4285 0.466 107.855 0.475 51.976 0.465 46.334 0.453 37.784
          0.492 48.848 0.454 111.124 0.468 42.432 0.458 45.453
          0.482 43.215 0.484 39.543 0.457 108.662 0.465 49.758
          0.467 34.708 0.473 42.512 0.48 46.709 0.492 104.256
4300 0.465 107.627 0.48 51.457 0.47 45.777 0.457 37.127
          0.477 48.066 0.453 110.874 0.473 41.892 0.463 44.796
          0.468 42.369 0.471 38.631 0.455 108.41 0.47 49.187
          0.453 33.871 0.46 41.64 0.467 45.927 0.491 104.028
4315 0.465 107.372 0.481 50.749 0.47 45.048 0.457 36.361
          0.463 48.417 0.452 110.539 0.473 41.135 0.462 44.033
          0.453 42.7 0.457 38.874 0.454 108.128 0.47 48.428
          0.439 34.221 0.446 41.908 0.453 46.271 0.491 103.764
4330 0.465 107.089 0.477 50.301 0.466 44.561 0.452 35.915
          0.454 49.71 0.451 110.208 0.47 40.632 0.458 43.609
          0.444 43.959 0.448 40.04 0.453 107.805 0.465 47.959
          0.43 35.51 0.437 43.085 0.443 47.506 0.491 103.501
4345 0.465 106.818 0.472 50.416 0.461 44.628 0.446 36.063
          0.453 51.429 0.448 109.946 0.465 40.73 0.452 43.795
          0.442 45.595 0.447 41.607 0.451 107.481 0.46 48.122
          0.429 37.147 0.436 44.649 0.442 49.12 0.489 103.242
4360 0.464 106.607 0.468 51.023 0.458 45.281 0.444 36.772
          0.459 52.712 0.447 109.613 0.462 41.305 0.45 44.514
          0.449 46.83 0.452 42.904 0.449 107.208 0.457 48.811
          0.436 38.426 0.441 45.993 0.448 50.45 0.488 102.963
4375 0.463 106.371 0.472 51.622 0.461 45.839 0.447 37.373
          0.469 52.938 0.445 109.303 0.466 41.839 0.454 45.105
          0.458 47.131 0.462 43.082 0.448 107.024 0.461 49.424
          0.445 38.663 0.45 46.293 0.458 50.699 0.487 102.802
4390 0.462 106.164 0.478 51.693 0.466 45.85 0.453 37.317
          0.476 52.491 0.443 108.991 0.472 41.845 0.46 45.054
          0.465 46.716 0.469 42.653 0.446 106.758 0.467 49.402
          0.451 38.213 0.457 45.911 0.464 50.2 0.486 102.561
4405 0.461 105.968 0.482 51.099 0.471 45.229 0.457 36.563
          0.478 51.924 0.441 108.751 0.476 41.178 0.464 44.309
          0.467 46.073 0.471 42.017 0.445 106.519 0.471 48.612
          0.453 37.575 0.46 45.319 0.466 49.577 0.485 102.338
4420 0.46 105.724 0.482 50.027 0.47 44.154 0.456 35.363
          0.475 51.517 0.439 108.455 0.476 40.031 0.463 43.144
          0.464 45.62 0.47 41.564 0.444 106.242 0.469 47.369
          0.45 37.117 0.458 44.904 0.464 49.187 0.485 102.095
4435 0.459 105.389 0.474 48.95 0.461 43.08 0.446 34.255
          0.472 51.443 0.439 108.008 0.468 38.899 0.453 42.091
          0.461 45.618 0.466 41.54 0.443 105.854 0.459 46.283
          0.446 37.072 0.455 44.894 0.46 49.191 0.484 101.776
4450 0.458 104.975 0.459 48.597 0.446 42.751 0.43 34.046
          0.47 51.934 0.437 107.59 0.452 38.542 0.437 41.87
          0.458 46.089 0.465 41.908 0.442 105.448 0.442 46.12
          0.444 37.528 0.453 45.299 0.458 49.64 0.482 101.433
4465 0.457 104.651 0.444 49.803 0.432 44.049 0.415 35.571
          0.473 52.202 0.435 107.152 0.438 39.809 0.423 43.417
          0.461 46.318 0.468 42.211 0.441 104.948 0.427 47.659
          0.447 37.776 0.455 45.562 0.46 49.872 0.482 101.094
4480 0.456 104.266 0.436 52 0.425 46.27 0.409 38.052
          0.477 51.997 0.433 106.72 0.431 42.047 0.417 45.888
          0.465 46.099 0.471 42.003 0.439 104.522 0.421 50.176
          0.45 37.574 0.459 45.377 0.463 49.699 0.481 100.678
4495 0.455 103.804 0.439 54.439 0.428 48.678 0.413 40.638
          0.477 51.304 0.432 106.204 0.434 44.458 0.422 48.472
          0.465 45.445 0.473 41.351 0.437 104.056 0.425 52.811
          0.45 36.949 0.46 44.781 0.464 49.09 0.48 100.27
4510 0.453 103.349 0.451 56.387 0.44 50.562 0.426 42.574
          0.473 50.54 0.43 105.701 0.447 46.331 0.436 50.407
          0.46 44.698 0.469 40.552 0.434 103.614 0.438 54.796
          0.445 36.223 0.456 44.047 0.459 48.372 0.478 99.913
4525 0.451 102.988 0.469 57.286 0.458 51.387 0.445 43.318
          0.462 50.247 0.427 105.313 0.466 47.144 0.456 51.139
          0.45 44.353 0.46 40.073 0.432 103.279 0.458 55.585
          0.436 35.882 0.447 43.63 0.449 48.042 0.475 99.63
4540 0.45 102.71 0.488 56.913 0.477 50.953 0.466 42.663
          0.449 50.783 0.426 104.965 0.486 46.653 0.476 50.469
          0.437 44.888 0.447 40.475 0.43 103.009 0.479 54.975
          0.423 36.438 0.435 44.111 0.436 48.582 0.475 99.433
4555 0.451 102.374 0.501 55.316 0.488 49.352 0.477 40.766
          0.441 52.801 0.425 104.62 0.499 44.902 0.488 48.541
          0.429 46.88 0.439 42.218 0.43 102.651 0.491 53.124
          0.416 38.332 0.427 45.891 0.429 50.496 0.475 99.06
4570 0.452 101.865 0.505 53.515 0.491 47.505 0.479 38.752
          0.443 55.082 0.424 104.04 0.501 42.95 0.491 46.474
          0.431 49.159 0.441 44.289 0.43 102.066 0.493 51.089
          0.418 40.557 0.429 48.005 0.43 52.722 0.475 98.605
4585 0.451 101.283 0.5 52.023 0.487 46.018 0.473 37.135
          0.455 56.871 0.423 103.396 0.497 41.369 0.485 44.838
          0.443 50.949 0.451 45.947 0.428 101.468 0.487 49.473
          0.429 42.276 0.44 49.683 0.441 54.523 0.473 98.134
4600 0.45 100.784 0.492 51.133 0.478 45.142 0.464 36.216
          0.473 57.605 0.42 102.822 0.489 40.412 0.476 43.896
          0.46 51.651 0.468 46.681 0.426 100.955 0.478 48.57
          0.446 42.944 0.457 50.381 0.458 55.29 0.471 97.752
4615 0.449 100.464 0.485 50.857 0.471 44.838 0.456 35.978
          0.493 56.998 0.418 102.401 0.481 40.052 0.468 43.604
          0.479 50.962 0.486 46.17 0.424 100.553 0.469 48.338
          0.464 42.301 0.475 49.831 0.476 54.706 0.469 97.522
4630 0.448 100.244 0.479 50.859 0.465 44.839 0.451 35.965
          0.508 55.113 0.416 102.128 0.475 40.01 0.463 43.613
          0.494 48.994 0.501 44.237 0.423 100.251 0.463 48.372
          0.477 40.341 0.488 48.083 0.49 52.91 0.468 97.362
4645 0.448 100.099 0.475 50.605 0.462 44.599 0.446 35.685
          0.507 52.494 0.416 101.753 0.471 39.731 0.458 43.357
          0.492 46.538 0.501 41.866 0.422 100.099 0.459 48.176
          0.476 37.898 0.487 45.692 0.488 50.516 0.468 97.153
4660 0.449 99.781 0.469 50.237 0.455 44.224 0.439 35.283
          0.494 50.618 0.416 101.284 0.465 39.305 0.451 42.94
          0.48 44.64 0.49 40.03 0.423 99.699 0.452 47.821
          0.464 36.042 0.476 43.888 0.477 48.737 0.469 96.776
4675 0.45 99.352 0.459 50.076 0.445 44.097 0.428 35.187
          0.476 49.995 0.417 100.673 0.454 39.145 0.439 42.819
          0.462 44.07 0.473 39.362 0.423 99.18 0.44 47.745
          0.447 35.407 0.46 43.263 0.461 48.17 0.47 96.257
4690 0.45 98.858 0.446 50.574 0.432 44.663 0.415 35.869
          0.46 50.656 0.416 99.947 0.441 39.665 0.426 43.488
          0.446 44.788 0.458 39.925 0.423 98.538 0.426 48.441
          0.431 36.089 0.445 43.88 0.445 48.852 0.469 95.706
4705 0.448 98.348 0.434 52.039 0.421 46.19 0.403 37.611
          0.451 52.178 0.414 99.184 0.43 41.12 0.414 45.215
          0.438 46.294 0.449 41.325 0.422 97.829 0.415 50.211
          0.423 37.674 0.437 45.329 0.437 50.359 0.467 95.224
4720 0.446 97.913 0.428 54.353 0.416 48.546 0.398 40.263
          0.452 53.69 0.412 98.508 0.424 43.452 0.409 47.804
          0.439 47.984 0.449 42.82 0.419 97.389 0.41 52.916
          0.423 39.26 0.437 46.793 0.437 51.906 0.465 94.816
4735 0.444 97.631 0.434 56.827 0.422 51.003 0.406 42.902
          0.459 54.572 0.408 98.164 0.431 45.919 0.417 50.488
          0.446 48.648 0.457 43.449 0.418 96.92 0.417 55.645
          0.43 40.063 0.443 47.561 0.443 52.698 0.464 94.517
4750 0.442 97.293 0.449 58.518 0.437 52.626 0.422 44.65
          0.465 54.558 0.407 97.711 0.447 47.57 0.434 52.217
          0.451 48.567 0.462 43.434 0.417 96.449 0.434 57.448
          0.436 40.018 0.449 47.515 0.449 52.67 0.463 94.087
4765 0.441 96.925 0.468 59.068 0.456 53.061 0.442 45.048
          0.466 54.123 0.405 97.205 0.466 48.012 0.455 52.612
          0.453 48.143 0.464 42.977 0.415 96.022 0.455 57.895
          0.437 39.633 0.451 47.135 0.45 52.321 0.462 93.75
4780 0.439 96.554 0.487 58.333 0.473 52.256 0.461 44.028
          0.463 53.826 0.404 96.718 0.485 47.135 0.474 51.621
          0.45 47.825 0.461 42.577 0.414 95.599 0.475 56.937
          0.434 39.341 0.448 46.855 0.447 52.078 0.46 93.457
4795 0.439 96.178 0.499 56.503 0.485 50.441 0.473 41.896
          0.457 54.083 0.403 96.273 0.498 45.169 0.487 49.519
          0.444 48.002 0.455 42.697 0.413 95.16 0.488 54.867
          0.429 39.485 0.443 46.997 0.442 52.283 0.46 93.092
4810 0.439 95.735 0.5 54.217 0.486 48.099 0.473 39.328
          0.452 54.946 0.402 95.776 0.499 42.732 0.488 46.916
          0.439 48.885 0.451 43.405 0.412 94.795 0.488 52.29
          0.425 40.325 0.439 47.717 0.437 53.177 0.46 92.682
4825 0.438 95.083 0.488 52.563 0.473 46.506 0.459 37.575
          0.454 56.046 0.402 95.043 0.486 41.031 0.474 45.136
          0.441 49.973 0.453 44.362 0.412 94.132 0.474 50.549
          0.428 41.361 0.441 48.719 0.44 54.217 0.459 92.13
4840 0.438 94.484 0.473 52.239 0.459 46.194 0.443 37.338
          0.461 56.705 0.401 94.358 0.47 40.675 0.458 44.831
          0.448 50.615 0.459 44.929 0.411 93.497 0.457 50.251
          0.433 41.987 0.447 49.302 0.446 54.953 0.458 91.647
4855 0.437 93.96 0.462 52.906 0.448 46.897 0.432 38.18
          0.469 56.713 0.4 93.704 0.459 41.314 0.446 45.596
          0.455 50.6 0.466 44.96 0.41 92.867 0.445 51.081
          0.44 41.974 0.453 49.297 0.453 55.04 0.457 91.186
4870 0.436 93.437 0.457 54.062 0.444 48.08 0.428 39.484
          0.474 56.119 0.399 93.078 0.455 42.444 0.442 46.855
          0.46 50.023 0.471 44.463 0.409 92.299 0.44 52.444
          0.445 41.392 0.458 48.755 0.458 54.493 0.456 90.73
4885 0.436 92.873 0.459 55.111 0.446 49.096 0.431 40.569
          0.474 55.221 0.398 92.461 0.458 43.468 0.444 47.941
          0.461 49.197 0.471 43.641 0.409 91.809 0.444 53.637
          0.445 40.543 0.459 47.936 0.458 53.636 0.456 90.264
4900 0.436 92.381 0.466 55.43 0.453 49.346 0.438 40.813
          0.469 54.551 0.398 91.783 0.464 43.76 0.452 48.177
          0.454 48.567 0.466 42.927 0.408 91.249 0.451 54.01
          0.44 39.905 0.453 47.297 0.453 53.051 0.455 89.748
4915 0.436 91.954 0.47 54.827 0.457 48.724 0.442 40.095
          0.461 54.967 0.397 91.274 0.469 42.999 0.456 47.423
          0.448 48.861 0.459 43.242 0.408 90.728 0.455 53.323
          0.433 40.34 0.447 47.693 0.446 53.547 0.454 89.401
4930 0.436 91.498 0.468 54.032 0.454 47.896 0.439 39.19
          0.458 55.932 0.397 90.722 0.466 42.075 0.453 46.501
          0.446 49.791 0.457 44.019 0.409 90.169 0.454 52.421
          0.43 41.189 0.444 48.48 0.444 54.442 0.454 88.942
4945 0.436 91.042 0.461 53.584 0.448 47.423 0.432 38.734
          0.461 56.823 0.397 90.132 0.459 41.543 0.446 46.009
          0.449 50.658 0.46 44.753 0.409 89.621 0.446 51.929
          0.434 42.003 0.447 49.2 0.447 55.345 0.453 88.459
4960 0.436 90.637 0.451 53.796 0.439 47.612 0.423 39.025
          0.47 57.141 0.396 89.57 0.45 41.699 0.436 46.256
          0.457 50.942 0.467 45.02 0.409 89.092 0.437 52.189
          0.441 42.329 0.454 49.46 0.455 55.705 0.453 88.026
4975 0.436 90.293 0.444 54.702 0.432 48.487 0.416 40.031
          0.479 56.577 0.396 89.074 0.442 42.549 0.429 47.244
          0.465 50.348 0.476 44.504 0.409 88.562 0.429 53.222
          0.449 41.835 0.463 48.968 0.464 55.132 0.452 87.651
4990 0.437 89.916 0.442 55.996 0.43 49.753 0.414 41.386
          0.484 55.07 0.396 88.568 0.44 43.789 0.427 48.638
          0.47 48.855 0.48 43.007 0.41 87.991 0.427 54.688
          0.453 40.413 0.467 47.562 0.468 53.718 0.452 87.218
5005 0.437 89.494 0.446 56.935 0.434 50.674 0.419 42.357
          0.477 53.315 0.396 87.946 0.445 44.711 0.432 49.607
          0.463 46.952 0.473 41.301 0.411 87.266 0.432 55.728
          0.446 38.674 0.459 46.037 0.461 52.019 0.451 86.737
5020 0.436 89.1 0.453 57.235 0.44 50.915 0.425 42.576
          0.46 52.442 0.396 87.407 0.45 44.952 0.438 49.853
          0.447 46.167 0.458 40.423 0.41 86.83 0.439 56.05
          0.431 37.862 0.444 45.306 0.445 51.232 0.451 86.308
5035 0.435 88.71 0.457 57.05 0.444 50.685 0.429 42.302
          0.441 52.911 0.396 86.871 0.454 44.731 0.442 49.629
          0.429 46.746 0.44 40.836 0.41 86.443 0.443 55.833
          0.415 38.354 0.428 45.756 0.428 51.753 0.45 85.901
5050 0.435 88.257 0.456 56.724 0.443 50.359 0.428 41.968
          0.428 54.665 0.397 86.251 0.454 44.383 0.442 49.296
          0.416 48.532 0.428 42.465 0.41 85.937 0.443 55.473
          0.403 40.079 0.417 47.391 0.416 53.514 0.45 85.444
5065 0.435 87.722 0.453 56.659 0.44 50.318 0.424 41.988
          0.425 57.184 0.397 85.547 0.451 44.27 0.438 49.237
          0.413 50.983 0.424 44.772 0.41 85.272 0.439 55.407
          0.399 42.545 0.414 49.749 0.414 55.977 0.449 84.932
5080 0.433 87.216 0.449 57.182 0.435 50.797 0.42 42.578
          0.431 59.529 0.396 84.928 0.446 44.685 0.434 49.767
          0.421 53.194 0.431 46.828 0.41 84.585 0.435 55.921
          0.406 44.872 0.421 51.825 0.421 58.136 0.447 84.524
5095 0.432 86.779 0.448 58.147 0.436 51.823 0.422 43.668
          0.447 60.624 0.395 84.375 0.447 45.653 0.434 50.82
          0.435 54.121 0.446 47.72 0.409 84.116 0.435 57.027
          0.421 45.759 0.435 52.714 0.435 59.133 0.447 84.004
5110 0.431 86.315 0.454 58.924 0.442 52.561 0.428 44.495
          0.462 60.361 0.395 83.788 0.453 46.377 0.441 51.603
          0.45 53.84 0.46 47.405 0.409 83.592 0.441 57.928
          0.435 45.477 0.449 52.391 0.449 58.852 0.446 83.505
5125 0.43 85.793 0.464 59.102 0.451 52.658 0.438 44.586
          0.473 59.22 0.395 83.19 0.462 46.451 0.451 51.712
          0.459 52.717 0.47 46.264 0.408 83.05 0.452 58.118
          0.444 44.377 0.457 51.266 0.459 57.738 0.444 83.015
5140 0.429 85.305 0.473 58.468 0.46 51.941 0.447 43.78
          0.475 57.721 0.394 82.651 0.472 45.702 0.462 50.942
          0.46 51.222 0.471 44.807 0.407 82.583 0.462 57.4
          0.446 42.932 0.458 49.863 0.46 56.331 0.442 82.633
5155 0.428 84.936 0.478 57.07 0.464 50.483 0.452 42.197
          0.469 56.47 0.394 82.233 0.476 44.208 0.467 49.355
          0.455 49.935 0.465 43.622 0.407 82.245 0.468 55.86
          0.441 41.708 0.453 48.75 0.455 55.216 0.441 82.411
5170 0.429 84.64 0.475 55.29 0.461 48.662 0.448 40.209
          0.458 56.203 0.394 81.954 0.473 42.303 0.463 47.357
          0.445 49.562 0.455 43.307 0.407 81.975 0.465 53.869
          0.431 41.332 0.444 48.477 0.445 54.969 0.441 82.217
5185 0.431 84.174 0.46 54.156 0.447 47.539 0.433 39.031
          0.452 56.815 0.396 81.392 0.459 41.062 0.448 46.077
          0.438 50.213 0.449 43.829 0.41 81.491 0.449 52.573
