!Hittite Microwave Corporation								
!12 Elizabeth Drive								
!Chelmsford, MA 01824								
!Tel: 978-250-3343								
!Fax: 978-250-3373								
!Device: HMC407MS8G, 5-7 GHz, GaAs InGaP HBT MMIC Power Amplifier in 8-lead grounded base MSOP package																	
!Misc: Vs=5V, Vpd=5V, Room
!
# MHZ S MA R 50

2000 0.719 157.114 0.146 91.29 4.363e-3 105.8 0.926 -118.658
2040 0.71 152.728 0.158 88.531 4.696e-3 102.948 0.922 -120.948
2080 0.702 148.191 0.173 85.631 4.909e-3 97.362 0.918 -123.205
2120 0.693 143.532 0.188 82.581 5.333e-3 94.447 0.913 -125.516
2160 0.685 138.832 0.204 79.308 5.483e-3 91.543 0.909 -127.802
2200 0.677 134.03 0.222 75.913 5.76e-3 86.968 0.904 -130.113
2240 0.669 129.154 0.241 72.353 6.197e-3 84.322 0.898 -132.437
2280 0.661 124.066 0.263 68.682 6.634e-3 78.635 0.893 -134.784
2320 0.653 118.924 0.285 64.829 6.921e-3 73.799 0.887 -137.138
2360 0.646 113.719 0.308 60.864 7.341e-3 70.287 0.88 -139.589
2400 0.64 108.355 0.333 56.757 7.858e-3 65.565 0.875 -142.053
2440 0.633 102.938 0.361 52.485 8.071e-3 60.28 0.867 -144.579
2480 0.626 97.398 0.389 48.125 8.3e-3 55.127 0.86 -147.155
2520 0.62 91.852 0.418 43.722 8.487e-3 47.924 0.852 -149.791
2560 0.614 86.251 0.45 39.163 8.486e-3 43.237 0.844 -152.467
2600 0.609 80.697 0.482 34.447 8.255e-3 38.498 0.836 -155.165
2640 0.605 75.185 0.518 29.571 8.275e-3 34.444 0.827 -157.876
2680 0.6 69.623 0.552 24.478 8.071e-3 30.252 0.819 -160.656
2720 0.595 64.161 0.587 19.233 7.867e-3 25.932 0.809 -163.48
2760 0.59 58.745 0.618 13.895 7.33e-3 23.321 0.8 -166.399
2800 0.584 53.562 0.646 8.649 6.644e-3 22.054 0.791 -169.435
2840 0.577 48.807 0.667 3.986 6.135e-3 27.252 0.782 -172.691
2880 0.576 44.54 0.695 0.479 6.714e-3 34.261 0.77 -176.137
2920 0.579 40.214 0.736 -3.048 7.738e-3 34.777 0.757 -179.5
2960 0.584 35.643 0.784 -7.213 8.507e-3 31.143 0.743 177.161
3000 0.587 31.179 0.832 -11.693 9.112e-3 26.887 0.73 173.725
3040 0.591 26.786 0.882 -16.322 9.466e-3 22.641 0.716 170.276
3080 0.595 22.442 0.935 -21.105 9.851e-3 19.121 0.702 166.757
3120 0.597 18.322 0.986 -25.914 0.01 15.119 0.688 163.181
3160 0.6 14.303 1.04 -30.832 0.01 11.199 0.674 159.536
3200 0.601 10.356 1.093 -35.776 0.01 7.576 0.661 155.791
3240 0.603 6.589 1.146 -40.663 0.011 4.257 0.647 151.976
3280 0.605 2.909 1.201 -45.534 0.011 0.538 0.633 148.086
3320 0.606 -0.616 1.258 -50.43 0.011 -2.014 0.619 144.109
3360 0.607 -4.119 1.318 -55.378 0.011 -5.171 0.607 140.131
3400 0.607 -7.539 1.38 -60.343 0.011 -8.134 0.594 136.088
3440 0.607 -10.843 1.442 -65.315 0.011 -11.306 0.582 132.03
3480 0.607 -14.023 1.504 -70.266 0.011 -14.408 0.57 127.94
3520 0.606 -17.143 1.568 -75.225 0.011 -17.572 0.558 123.827
3560 0.604 -20.189 1.633 -80.199 0.011 -20.195 0.548 119.642
3600 0.602 -23.154 1.7 -85.136 0.011 -22.804 0.538 115.526
3640 0.599 -26.104 1.769 -90.098 0.011 -25.472 0.528 111.373
3680 0.595 -29.063 1.839 -95.109 0.011 -27.334 0.519 107.251
3720 0.59 -31.927 1.911 -100.075 0.011 -29.298 0.512 103.162
3760 0.585 -34.746 1.984 -105.042 0.01 -31.588 0.504 99.106
3800 0.579 -37.559 2.06 -109.953 0.01 -33.687 0.497 95.126
3840 0.572 -40.348 2.137 -114.949 0.01 -35.299 0.49 91.155
3880 0.565 -43.184 2.218 -119.989 0.01 -37.052 0.485 87.295
3920 0.556 -45.961 2.299 -124.956 0.01 -38.248 0.479 83.529
3960 0.547 -48.746 2.383 -129.954 9.983e-3 -39.799 0.474 79.878
4000 0.536 -51.556 2.471 -135.034 9.937e-3 -41.254 0.47 76.227
4040 0.525 -54.427 2.56 -140.137 9.878e-3 -42.318 0.465 72.661
4080 0.513 -57.337 2.653 -145.181 9.889e-3 -43.186 0.461 69.204
4120 0.5 -60.31 2.748 -150.336 9.94e-3 -44.17 0.457 65.791
4160 0.486 -63.319 2.843 -155.52 9.899e-3 -44.927 0.454 62.469
4200 0.471 -66.409 2.939 -160.751 9.896e-3 -45.682 0.451 59.251
4240 0.455 -69.527 3.041 -165.992 9.936e-3 -46.297 0.447 56.135
4280 0.438 -72.78 3.142 -171.308 0.01 -46.722 0.444 53.146
4320 0.42 -76.112 3.245 -176.642 0.01 -47.161 0.441 50.19
4360 0.401 -79.558 3.348 177.949 0.01 -47.923 0.438 47.303
4400 0.382 -83.142 3.45 172.485 0.01 -48.168 0.435 44.53
4440 0.362 -86.895 3.553 166.968 0.011 -49.24 0.432 41.813
4480 0.342 -90.824 3.655 161.373 0.011 -50.589 0.429 39.124
4520 0.321 -95.033 3.75 155.756 0.011 -51.659 0.426 36.409
4560 0.301 -99.611 3.84 150.104 0.012 -53.401 0.423 33.667
4600 0.28 -104.806 3.921 144.508 0.012 -56.243 0.419 30.827
4640 0.258 -110.817 3.994 139.09 0.012 -59.561 0.415 27.803
4680 0.234 -117.606 4.074 133.838 0.012 -62.223 0.408 24.795
4720 0.209 -124.932 4.169 128.59 0.012 -63.584 0.399 22.008
4760 0.184 -132.856 4.277 123.153 0.011 -63.908 0.389 19.537
4800 0.161 -141.749 4.383 117.582 0.011 -63.661 0.378 17.321
4840 0.14 -152.01 4.481 111.889 0.012 -62.887 0.369 15.25
4880 0.124 -163.999 4.573 106.128 0.012 -62.952 0.36 13.159
4920 0.112 -177.939 4.654 100.365 0.012 -63.628 0.351 11.092
4960 0.106 166.594 4.73 94.574 0.013 -64.516 0.341 8.949
5000 0.104 150.641 4.797 88.799 0.013 -65.738 0.332 6.817
5040 0.108 135.531 4.861 83.05 0.014 -67.022 0.323 4.645
5080 0.116 122.19 4.916 77.324 0.014 -68.673 0.313 2.47
5120 0.127 110.813 4.968 71.591 0.015 -70.209 0.302 0.259
5160 0.14 101.297 5.017 65.895 0.015 -72.03 0.292 -1.92
5200 0.153 93.245 5.056 60.217 0.016 -74.071 0.281 -4.146
5240 0.166 86.361 5.093 54.603 0.016 -76.191 0.269 -6.418
5280 0.179 80.308 5.125 49.012 0.016 -78.431 0.258 -8.759
5320 0.191 74.874 5.15 43.451 0.017 -80.72 0.246 -11.191
5360 0.203 69.888 5.176 37.867 0.017 -82.824 0.234 -13.683
5400 0.214 65.282 5.198 32.317 0.018 -84.96 0.222 -16.257
5440 0.224 61.039 5.212 26.825 0.018 -87.27 0.21 -19.012
5480 0.233 57.061 5.227 21.367 0.018 -89.59 0.198 -21.899
5520 0.241 53.301 5.24 15.925 0.019 -91.937 0.186 -24.957
5560 0.248 49.712 5.247 10.497 0.019 -94.4 0.174 -28.303
5600 0.254 46.265 5.251 5.099 0.02 -96.789 0.163 -31.933
5640 0.259 42.958 5.252 -0.293 0.02 -99.225 0.151 -35.994
5680 0.264 39.737 5.253 -5.683 0.02 -101.722 0.141 -40.555
5720 0.267 36.517 5.255 -11.045 0.021 -104.174 0.13 -45.67
5760 0.269 33.301 5.25 -16.364 0.021 -106.8 0.121 -51.491
5800 0.27 30.162 5.243 -21.687 0.021 -109.443 0.112 -58.12
5840 0.271 26.981 5.236 -26.987 0.022 -112.018 0.105 -65.49
5880 0.272 23.751 5.226 -32.293 0.022 -114.649 0.1 -73.595
5920 0.271 20.571 5.213 -37.598 0.022 -117.23 0.096 -82.386
5960 0.271 17.284 5.201 -42.892 0.022 -119.583 0.094 -91.534
6000 0.27 13.819 5.188 -48.202 0.023 -122.127 0.094 -100.748
6040 0.269 10.23 5.172 -53.499 0.023 -124.77 0.097 -109.753
6080 0.267 6.485 5.154 -58.804 0.023 -127.048 0.101 -118.151
6120 0.265 2.582 5.129 -64.102 0.023 -129.374 0.107 -125.816
6160 0.262 -1.516 5.099 -69.453 0.023 -131.633 0.114 -132.776
6200 0.258 -5.681 5.061 -74.761 0.024 -133.618 0.124 -139.065
6240 0.254 -9.698 5.021 -79.977 0.024 -135.932 0.133 -144.892
6280 0.251 -13.472 4.983 -85.161 0.025 -138.576 0.143 -150.234
6320 0.249 -17.15 4.945 -90.323 0.026 -141.587 0.153 -154.989
6360 0.248 -20.756 4.91 -95.472 0.026 -145.176 0.162 -159.161
6400 0.25 -24.414 4.876 -100.58 0.026 -148.895 0.171 -162.69
6440 0.254 -28.206 4.842 -105.695 0.027 -152.636 0.179 -165.652
6480 0.26 -32.164 4.811 -110.888 0.027 -156.489 0.187 -168.134
6520 0.267 -36.428 4.778 -116.104 0.027 -160.355 0.195 -170.145
6560 0.277 -41.04 4.743 -121.396 0.027 -164.201 0.203 -171.772
6600 0.287 -45.859 4.704 -126.751 0.026 -167.887 0.211 -173.185
6640 0.298 -50.812 4.66 -132.15 0.026 -171.295 0.22 -174.466
6680 0.31 -55.732 4.613 -137.554 0.026 -174.652 0.229 -175.631
6720 0.323 -60.614 4.559 -142.958 0.025 -178.064 0.238 -176.825
6760 0.336 -65.518 4.496 -148.387 0.025 178.686 0.247 -177.977
6800 0.35 -70.314 4.426 -153.77 0.025 175.526 0.257 -179.119
6840 0.365 -75.042 4.354 -159.155 0.024 172.469 0.267 179.671
6880 0.379 -79.573 4.278 -164.555 0.024 169.27 0.277 178.418
6920 0.395 -83.806 4.195 -169.82 0.024 165.784 0.287 177.151
6960 0.411 -87.738 4.112 -175.038 0.023 161.889 0.295 175.933
7000 0.429 -91.341 4.03 179.832 0.023 157.28 0.303 174.791
7040 0.449 -94.772 3.952 174.688 0.022 152.1 0.311 173.767
7080 0.47 -98.025 3.877 169.58 0.021 146.501 0.32 172.796
7120 0.495 -101.353 3.804 164.399 0.02 140.896 0.33 171.711
7160 0.52 -104.897 3.724 159.098 0.017 136.324 0.34 170.282
7200 0.545 -108.595 3.637 153.807 0.015 133.814 0.351 168.395
7240 0.567 -112.388 3.543 148.558 0.013 135.018 0.36 166.029
7280 0.586 -115.998 3.443 143.458 0.011 140.993 0.367 163.26
7320 0.603 -119.414 3.344 138.456 0.01 149.689 0.369 160.293
7360 0.619 -122.454 3.247 133.609 0.011 156.956 0.368 157.377
7400 0.633 -125.186 3.156 128.927 0.012 160.659 0.364 154.632
7440 0.649 -127.681 3.069 124.296 0.013 160.771 0.357 152.071
7480 0.666 -129.939 2.993 119.699 0.014 158.021 0.348 149.819
7520 0.684 -132.047 2.924 115.069 0.014 153.005 0.338 147.973
7560 0.705 -134.074 2.863 110.279 0.014 146.342 0.328 146.441
7600 0.73 -136.388 2.802 105.142 0.013 139.801 0.321 144.803
7640 0.752 -139.169 2.72 99.765 0.011 139.585 0.314 142.231
7680 0.767 -141.887 2.615 94.796 0.011 145.042 0.301 138.561
7720 0.778 -144.105 2.521 90.357 0.011 144.148 0.281 135.273
7760 0.793 -146.002 2.443 85.995 0.011 137.024 0.259 132.893
7800 0.811 -147.952 2.376 81.482 8.939e-3 129.053 0.239 130.869
7840 0.832 -150.139 2.312 76.759 6.042e-3 125.643 0.219 128.848
7880 0.851 -152.532 2.242 71.858 2.838e-3 154.912 0.199 126.291
7920 0.868 -155.139 2.165 66.926 4.167e-3 -144.833 0.176 122.82
7960 0.878 -157.813 2.078 62.049 8.69e-3 -128.305 0.149 118.026
8000 0.883 -160.402 1.988 57.464 0.014 -135.586 0.117 111.774
8040 0.882 -162.819 1.897 53.207 0.018 -146.134 0.079 103.326
8080 0.879 -164.876 1.812 49.351 0.022 -156.829 0.04 88.06
8120 0.873 -166.617 1.736 45.835 0.025 -167.072 0.014 -7.833
8160 0.87 -168.123 1.674 42.471 0.027 -175.995 0.048 -69.764
8200 0.869 -169.485 1.622 39.051 0.028 176.298 0.087 -81.688
8240 0.869 -170.844 1.574 35.475 0.03 169.992 0.125 -87.994
8280 0.87 -172.189 1.524 31.947 0.031 164.086 0.163 -92.654
8320 0.867 -173.531 1.472 28.873 0.033 157.493 0.205 -97.357
8360 0.862 -174.561 1.439 26.485 0.035 148.923 0.245 -103.188
8400 0.857 -175.113 1.441 24.1 0.036 138.374 0.277 -109.859
8440 0.86 -175.352 1.468 20.349 0.034 128.003 0.293 -115.783
8480 0.87 -175.835 1.488 15 0.03 120.261 0.297 -119.137
8520 0.883 -176.774 1.48 8.956 0.027 116.438 0.302 -119.864
8560 0.895 -178.032 1.452 2.854 0.024 115.045 0.312 -119.389
8600 0.904 -179.425 1.409 -2.987 0.022 114.823 0.328 -118.739
8640 0.912 179.156 1.362 -8.606 0.021 115.209 0.348 -118.484
8680 0.918 177.706 1.311 -14.089 0.02 116.279 0.371 -118.612
8720 0.923 176.268 1.257 -19.454 0.02 117.407 0.396 -119.072
8760 0.927 174.861 1.202 -24.7 0.02 118.015 0.423 -119.868
8800 0.93 173.552 1.148 -29.724 0.02 118.058 0.45 -120.976
8840 0.931 172.28 1.095 -34.587 0.021 117.627 0.477 -122.34
8880 0.932 171.033 1.045 -39.315 0.021 116.957 0.502 -123.898
8920 0.933 169.773 0.997 -44.042 0.021 116.04 0.526 -125.558
8960 0.934 168.507 0.95 -48.74 0.021 114.973 0.55 -127.263
9000 0.933 167.246 0.905 -53.386 0.022 113.682 0.572 -129.034
9040 0.934 165.976 0.859 -57.945 0.022 112.201 0.595 -130.904
9080 0.934 164.732 0.815 -62.437 0.022 110.463 0.616 -132.838
9120 0.933 163.512 0.773 -66.796 0.023 108.924 0.637 -134.763
9160 0.932 162.308 0.733 -71.117 0.023 107.249 0.656 -136.689
9200 0.933 161.165 0.694 -75.371 0.023 105.42 0.674 -138.596
9240 0.933 160.06 0.657 -79.51 0.023 103.81 0.691 -140.541
9280 0.933 158.93 0.621 -83.607 0.023 102.702 0.707 -142.483
9320 0.933 157.736 0.587 -87.677 0.023 102.38 0.723 -144.463
9360 0.931 156.459 0.554 -91.438 0.023 102.411 0.737 -146.484
9400 0.928 155.224 0.524 -94.938 0.025 101.358 0.749 -148.506
9440 0.924 153.984 0.498 -98.624 0.026 98.674 0.76 -150.49
9480 0.921 152.785 0.473 -102.311 0.026 95.581 0.771 -152.352
9520 0.92 151.673 0.449 -105.955 0.027 92.671 0.781 -154.177
9560 0.916 150.499 0.426 -109.63 0.027 89.693 0.79 -156.022
9600 0.914 149.46 0.405 -113.058 0.027 86.349 0.799 -157.822
9640 0.914 148.474 0.387 -116.529 0.027 82.508 0.806 -159.65
9680 0.915 147.518 0.371 -120.329 0.026 79.267 0.813 -161.373
9720 0.92 146.492 0.354 -124.61 0.026 77.702 0.82 -163.061
9760 0.921 145.324 0.336 -128.837 0.025 76.958 0.828 -164.845
9800 0.921 144.192 0.317 -132.816 0.025 76.155 0.835 -166.644
9840 0.92 143.004 0.3 -136.759 0.025 74.937 0.842 -168.375
9880 0.92 141.846 0.283 -140.473 0.025 73.05 0.848 -170.142
9920 0.92 140.612 0.269 -144.543 0.025 72.036 0.854 -171.858
9960 0.919 139.319 0.254 -148.56 0.026 70.826 0.86 -173.627
10000 0.918 138.024 0.24 -152.579 0.026 69.611 0.866 -175.406
