!Hittite Microwave Corporation								
!12 Elizabeth Drive								
!Chelmsford, MA 01824								
!Tel: 978-250-3343								
!Fax: 978-250-3373								
!Device: HMC481MP86, DC-5 GHz, SiGe HBT Gain Block MMIC Amplifier in Micro-P package								
!Misc: Vs = 8V, Room							
!
# MHZ S MA R 50

50 0.471 121.285 10.854 132.06 0.056 -43.616 0.368 120.042
116.333 0.32 140.707 11.728 154.15 0.06 -16.493 0.209 140.019
182.667 0.292 141.517 11.77 157.254 0.061 -8.357 0.182 143.53
249 0.279 138.26 11.726 156.577 0.06 -4.002 0.17 143.266
315.333 0.27 133.452 11.658 154.51 0.06 -1.036 0.163 141.483
381.667 0.262 127.632 11.561 151.975 0.06 1.294 0.157 138.188
448 0.254 121.948 11.42 149.235 0.06 3.467 0.15 134.261
514.333 0.246 114.731 11.269 146.219 0.061 5.512 0.144 133.228
580.667 0.237 108.318 11.118 143.04 0.062 6.918 0.136 130.143
647 0.229 101.098 10.932 140.027 0.062 8.851 0.125 131.883
713.333 0.219 94.05 10.728 136.814 0.063 9.752 0.115 126.785
779.667 0.21 86.17 10.494 133.876 0.064 11.236 0.103 125.263
846 0.2 78.897 10.272 130.892 0.064 12.074 0.092 121.542
912.333 0.19 70.297 10.075 128.207 0.065 13.475 0.08 118.312
978.667 0.181 62.44 9.886 125.394 0.066 14.575 0.072 115.557
1045 0.173 52.856 9.697 122.649 0.067 15.711 0.064 99.797
1111.333 0.166 45.933 9.481 119.758 0.068 16.285 0.059 99.888
1177.667 0.16 36.978 9.294 116.972 0.069 17.686 0.053 90.13
1244 0.156 30.679 9.097 114.286 0.069 18.5 0.05 95.775
1310.333 0.153 22.262 8.889 111.651 0.071 19.294 0.045 90.83
1376.667 0.151 15.729 8.679 109.027 0.072 20.165 0.044 102.043
1443 0.149 8.653 8.49 106.474 0.073 20.617 0.041 96.776
1509.333 0.15 1.683 8.287 104.023 0.075 21.881 0.04 123.076
1575.667 0.149 -6.036 8.106 101.642 0.076 22.095 0.04 123.71
1642 0.149 -13.697 7.92 99.265 0.078 22.9 0.036 155.211
1708.333 0.149 -22.712 7.754 96.97 0.079 23.664 0.033 170.53
1774.667 0.148 -30.556 7.576 94.75 0.08 24.69 0.031 -179.123
1841 0.146 -38.35 7.413 92.499 0.081 23.706 0.026 -157.836
1907.333 0.146 -45.908 7.249 90.372 0.084 25.469 0.026 -158.945
1973.667 0.144 -52.781 7.094 88.193 0.085 26.176 0.025 -154.922
2040 0.142 -60.056 6.93 86.225 0.087 25.003 0.023 -148.992
2106.333 0.139 -64.698 6.788 84.257 0.089 26.722 0.021 -149.118
2172.667 0.138 -70.747 6.65 82.3 0.09 26.181 0.024 -153.894
2239 0.136 -73.807 6.502 80.335 0.094 26.756 0.034 -178.32
2305.333 0.135 -80.656 6.369 78.526 0.093 27.185 0.032 -169.778
2371.667 0.135 -84.639 6.248 76.679 0.096 26.511 0.039 178.093
2438 0.135 -92.256 6.113 74.767 0.099 27.83 0.04 -174.138
2504.333 0.135 -97.352 6.004 73.027 0.099 26.793 0.048 172.281
2570.667 0.135 -104.43 5.897 71.335 0.102 26.492 0.049 -176.663
2637 0.135 -109.082 5.791 69.593 0.103 28.315 0.058 174.365
2703.333 0.134 -118.08 5.693 67.77 0.105 26.031 0.055 -172.323
2769.667 0.133 -123.438 5.598 66.009 0.108 26.7 0.058 -176.241
2836 0.13 -131.317 5.488 64.3 0.107 26.552 0.048 -160.65
2902.333 0.126 -135.742 5.406 62.646 0.112 26.001 0.052 -176.479
2968.667 0.122 -142.65 5.305 60.931 0.112 26.622 0.042 -168.836
3035 0.118 -149.751 5.235 59.284 0.114 24.52 0.043 177.597
3101.333 0.113 -155.084 5.133 57.69 0.117 26.368 0.031 -175.878
3167.667 0.109 -160.945 5.06 56.096 0.117 25.777 0.032 177.137
3234 0.105 -167.655 4.97 54.528 0.121 25.726 0.016 129.114
3300.333 0.102 -173.935 4.919 52.992 0.122 25.693 0.03 172.358
3366.667 0.099 -179.826 4.839 51.46 0.125 25.662 0.024 113.669
3433 0.098 172.683 4.79 49.763 0.126 25.446 0.019 121.963
3499.333 0.097 164.686 4.726 48.211 0.13 25.128 0.025 106.493
3565.667 0.097 156.461 4.67 46.412 0.132 24.969 0.019 95.978
3632 0.096 150.649 4.609 45.057 0.134 24.657 0.024 80.063
3698.333 0.097 140.63 4.553 42.93 0.137 24.31 0.013 51.015
3764.667 0.096 133.608 4.508 41.316 0.14 23.63 0.024 35.572
3831 0.097 123.525 4.421 39.253 0.141 23.243 0.024 -7.659
3897.333 0.096 117.985 4.371 37.807 0.144 22.89 0.039 6.248
3963.667 0.096 108.928 4.288 35.848 0.146 22.197 0.048 -8.325
4030 0.096 101.804 4.248 34.276 0.148 21.436 0.062 -3.277
4096.333 0.096 92.786 4.15 32.664 0.151 21.084 0.073 -14.39
4162.667 0.096 84.221 4.099 31.075 0.153 20.456 0.085 -14.768
4229 0.094 73.729 3.997 29.869 0.155 19.969 0.099 -18.871
4295.333 0.094 65.779 3.976 28.079 0.157 19.373 0.11 -20.855
4361.667 0.092 56.719 3.898 27.059 0.159 18.7 0.122 -26.224
4428 0.094 48.781 3.859 25.159 0.162 18.509 0.133 -29.027
4494.333 0.095 39.702 3.802 24.395 0.164 17.735 0.146 -36.631
4560.667 0.099 31.667 3.755 22.901 0.167 16.967 0.158 -40.058
4627 0.101 22.01 3.764 21.728 0.168 16.298 0.171 -43.718
4693.333 0.107 14.336 3.691 19.961 0.172 15.794 0.184 -47.863
4759.667 0.111 5.7 3.667 18.441 0.174 15.149 0.198 -50.764
4826 0.118 -0.54 3.619 17.179 0.176 13.969 0.212 -56.376
4892.333 0.122 -10.278 3.599 15.359 0.178 13.482 0.226 -56.946
4958.667 0.128 -17.489 3.557 13.779 0.18 12.636 0.239 -60.735
5025 0.133 -26.167 3.511 11.97 0.181 11.82 0.253 -62.966
5091.333 0.139 -33.674 3.468 10.475 0.184 11.262 0.265 -65.285
5157.667 0.144 -41.715 3.417 8.876 0.186 10.582 0.277 -67.452
5224 0.152 -48.182 3.369 7.305 0.188 9.705 0.289 -70.224
5290.333 0.159 -55.864 3.318 5.98 0.189 8.894 0.301 -72.704
5356.667 0.166 -62.454 3.268 4.724 0.192 8.283 0.311 -75.622
5423 0.174 -69.384 3.241 3.486 0.193 7.666 0.32 -77.551
5489.333 0.183 -74.744 3.198 2.638 0.196 7.048 0.329 -81.732
5555.667 0.192 -80.45 3.179 1.238 0.198 6.081 0.338 -84.074
5622 0.202 -84.92 3.178 0.421 0.202 5.761 0.346 -88.25
5688.333 0.212 -89.833 3.186 -1.528 0.201 4.248 0.353 -90.794
5754.667 0.224 -93.604 3.181 -3.407 0.205 3.109 0.361 -94.834
5821 0.236 -96.772 3.153 -5.283 0.201 3.437 0.369 -98.196
5887.333 0.249 -101.031 3.154 -7.853 0.209 1.032 0.377 -102.185
5953.667 0.262 -104.904 3.114 -10.292 0.211 1.299 0.385 -106.351
6020 0.278 -108.356 3.088 -12.323 0.208 -1.573 0.396 -109.023
6086.333 0.294 -112.492 2.968 -15.014 0.212 -1.428 0.407 -112.609
6152.667 0.311 -116.571 2.908 -16.964 0.209 -2.406 0.418 -115.978
6219 0.328 -120.157 2.762 -18.289 0.213 -3.409 0.429 -118.831
6285.333 0.344 -124.048 2.729 -19.963 0.213 -3.836 0.44 -122.039
6351.667 0.361 -128.301 2.617 -19.956 0.208 -4.99 0.45 -124.803
6418 0.376 -131.372 2.495 -22.568 0.22 -7.153 0.458 -125.751
6484.333 0.389 -135.043 2.547 -19.619 0.214 -3.131 0.463 -129.288
6550.667 0.404 -138.559 2.467 -20.507 0.21 -7.304 0.469 -131.256
6617 0.414 -140.735 2.545 -20.924 0.237 -5.492 0.466 -134.164
6683.333 0.427 -144.496 2.504 -20.275 0.211 -7.47 0.471 -136.196
6749.667 0.437 -146.816 2.599 -22.665 0.229 -8.469 0.469 -139.404
6816 0.447 -148.879 2.643 -22.433 0.215 -6.188 0.469 -141.094
6882.333 0.459 -152.312 2.609 -26.074 0.226 -11.652 0.468 -145.345
6948.667 0.467 -154.389 2.709 -28.742 0.238 -8.009 0.464 -148.486
7015 0.478 -156.555 2.683 -32.435 0.216 -10.7 0.468 -151.51
7081.333 0.487 -159.523 2.607 -35.092 0.236 -14.052 0.467 -155.574
7147.667 0.497 -162.265 2.563 -37.497 0.238 -13.611 0.469 -159.574
7214 0.508 -164.277 2.445 -41.233 0.22 -13.575 0.477 -162.179
7280.333 0.517 -167.24 2.4 -43.518 0.244 -16.51 0.479 -167.327
7346.667 0.526 -169.262 2.293 -43.708 0.234 -18.72 0.487 -169.808
7413 0.535 -171.523 2.089 -45.459 0.237 -20.225 0.495 -173.422
7479.333 0.542 -174.802 2.143 -46.685 0.231 -15.848 0.501 -177.668
7545.667 0.549 -176.736 2.053 -45.689 0.227 -22.493 0.511 179.995
7612 0.553 -179.391 2.023 -46.085 0.236 -17.985 0.516 176.388
7678.333 0.559 178.104 1.981 -45.594 0.227 -21.836 0.525 174.209
7744.667 0.561 175.659 1.969 -46.942 0.228 -20.706 0.531 170.763
7811 0.563 172.958 2.062 -47.033 0.216 -23.088 0.536 169.554
7877.333 0.564 170.451 1.99 -47.364 0.235 -23.214 0.539 166.242
7943.667 0.565 167.865 1.989 -48.297 0.22 -19.824 0.544 163.831
8010 0.565 165.477 1.996 -52.762 0.229 -24.383 0.546 162.018
8076.333 0.563 163.39 2.054 -52.787 0.224 -22.231 0.546 159.574
8142.667 0.562 160.795 1.984 -55.642 0.234 -22.231 0.546 156.993
8209 0.561 158.636 1.956 -56.98 0.228 -24.238 0.547 154.812
8275.333 0.558 156.328 1.901 -60.703 0.231 -22.502 0.545 151.795
8341.667 0.555 153.44 1.866 -63.436 0.25 -23.142 0.54 148.675
8408 0.552 151.598 1.807 -58.833 0.234 -27.93 0.54 146.145
8474.333 0.548 148.943 1.735 -66.115 0.24 -23.77 0.537 143.215
8540.667 0.544 146.491 1.694 -65.407 0.244 -25.151 0.535 139.4
8607 0.541 144.128 1.554 -65.673 0.236 -28.234 0.536 136.722
8673.333 0.535 141.362 1.61 -65.279 0.253 -28.785 0.531 132.712
8739.667 0.531 138.359 1.551 -64.14 0.244 -27.018 0.531 129.144
8806 0.527 135.597 1.496 -68.117 0.241 -30.153 0.533 126.717
8872.333 0.521 132.683 1.54 -63.895 0.262 -29.521 0.529 122.963
8938.667 0.517 129.161 1.529 -65.506 0.242 -30.07 0.532 120.311
9005 0.51 126.139 1.53 -65.857 0.266 -29.589 0.531 117.194
9071.333 0.506 122.777 1.519 -64.779 0.251 -29.791 0.534 114.119
9137.667 0.499 119.695 1.517 -66.716 0.258 -34.475 0.535 112.152
9204 0.493 115.938 1.575 -65.973 0.279 -29.711 0.534 109.137
9270.333 0.487 112.322 1.533 -67.78 0.26 -32.987 0.538 106.479
9336.667 0.481 108.963 1.561 -68.849 0.269 -35.637 0.54 104.339
9403 0.474 105.219 1.574 -69.992 0.282 -33.515 0.54 101.014
9469.333 0.468 101.457 1.561 -72.289 0.267 -37.154 0.544 99.407
9535.667 0.462 97.529 1.582 -72.293 0.277 -36.788 0.546 96.145
9602 0.456 93.624 1.541 -74.892 0.268 -38.521 0.551 94.349
9668.333 0.45 89.373 1.565 -76.475 0.285 -40.42 0.552 91.732
9734.667 0.446 84.62 1.551 -77.6 0.285 -38.788 0.556 89.054
9801 0.442 79.325 1.575 -78.014 0.292 -36.665 0.559 86.595
9867.333 0.437 73.91 1.598 -78.444 0.299 -34.557 0.561 84.137
9933.667 0.434 68.373 1.623 -78.89 0.307 -32.466 0.564 81.68
10000 0.43 62.714 1.647 -79.353 0.315 -30.392 0.566 79.224
