!Hittite Microwave Corporation								
!20 Alpha Road								
!Chelmsford, MA 01824								
!Tel: 978-250-3343								
!Fax: 978-250-3373								
!Device: HMC457QS16G, 1.7-2.2 GHz, InGaP HBT 1 Watt Power Amplifier in 8-lead plastic SMT package with ground base															
!Misc: Vs = +5V, Vpd = +5V, Vbias = +5V, Room							
!
# MHZ S MA R 50

50 0.988 -12.999 0.018 -112.46 0.054 129.195 1.074 -25.726
69.75 0.999 -16.92 0.025 -125.794 0.037 114.088 1.062 -28.916
89.5 1.01 -20.843 0.032 -139.05 0.023 99.06 1.051 -32.748
109.25 1.009 -24.995 0.031 -168.315 0.014 103.063 1.037 -39.714
129 0.994 -29.393 0.021 145.117 0.011 127.57 1.013 -50.039
148.75 0.98 -33.785 0.01 98.592 7.827e-3 152.121 0.987 -60.629
168.5 0.97 -37.965 0.011 99.793 7.355e-3 -167.39 0.937 -59.501
188.25 0.962 -42.138 0.011 102.66 7.065e-3 -126.488 0.891 -58.462
208 0.952 -46.264 0.016 104.815 6.709e-3 -75.081 0.876 -60.976
227.75 0.941 -50.336 0.024 106.071 6.231e-3 -10.47 0.902 -67.751
247.5 0.933 -54.402 0.033 107.128 5.736e-3 53.942 0.927 -74.718
267.25 0.921 -58.293 0.061 103.585 5.923e-3 117.146 0.936 -79.436
287 0.909 -62.165 0.092 99.556 6.166e-3 -179.857 0.945 -84.148
306.75 0.901 -65.952 0.242 90.68 5.624e-3 -147.52 0.95 -88.433
326.5 0.897 -69.636 0.566 74.784 3.922e-3 -160.115 0.943 -91.963
346.25 0.893 -73.337 0.888 58.81 2.241e-3 -172.788 0.94 -95.674
366 0.873 -77.359 0.821 9.987 2.775e-3 135.101 0.93 -99.654
385.75 0.85 -81.337 0.706 -43.072 3.575e-3 77.906 0.918 -103.775
405.5 0.832 -85.001 0.613 -79.09 3.715e-3 37.782 0.913 -107.557
425.25 0.82 -88.225 0.557 -85.657 2.736e-3 27.162 0.915 -110.541
445 0.807 -91.447 0.5 -92.258 1.764e-3 16.506 0.918 -113.591
464.75 0.794 -94.699 0.494 -96.696 1.526e-3 -27.344 0.905 -116.165
484.5 0.783 -97.965 0.496 -100.707 1.417e-3 -77.099 0.887 -118.665
504.25 0.769 -101.265 0.511 -103.472 1.464e-3 -114.534 0.878 -120.848
524 0.756 -104.647 0.555 -103.651 1.824e-3 -126.809 0.88 -122.242
543.75 0.742 -108.028 0.598 -103.844 2.182e-3 -139.097 0.883 -123.745
563.5 0.728 -111.027 0.68 -108.004 2.175e-3 -128.557 0.888 -126.03
583.25 0.714 -113.935 0.768 -113.084 2.079e-3 -112.657 0.891 -128.575
603 0.7 -116.789 0.845 -118.534 2.001e-3 -104.845 0.893 -130.936
622.75 0.688 -119.526 0.898 -124.918 1.97e-3 -116.757 0.895 -132.881
642.5 0.675 -122.26 0.949 -131.263 1.935e-3 -128.632 0.894 -134.8
662.25 0.662 -125.06 1.002 -134.627 2.585e-3 -168.378 0.89 -136.589
682 0.649 -127.819 1.055 -137.159 3.426e-3 143.603 0.887 -138.401
701.75 0.636 -130.57 1.114 -140.314 3.836e-3 118.388 0.884 -140.257
721.5 0.622 -133.53 1.192 -145.061 3.019e-3 160.695 0.88 -141.97
741.25 0.609 -136.42 1.268 -149.855 2.22e-3 -157.045 0.878 -143.735
761 0.598 -139.125 1.327 -153.12 2.2e-3 -155.711 0.877 -144.996
780.75 0.584 -141.777 1.377 -155.84 2.453e-3 -169.202 0.878 -146.084
800.5 0.571 -144.449 1.437 -158.434 2.582e-3 172.054 0.877 -147.333
820.25 0.556 -147.201 1.538 -160.326 2.283e-3 134.394 0.874 -148.892
840 0.542 -149.939 1.635 -162.209 1.99e-3 96.745 0.871 -150.439
859.75 0.527 -152.724 1.716 -165.06 1.593e-3 131.223 0.869 -151.54
879.5 0.514 -155.44 1.788 -168.34 1.155e-3 -162.829 0.866 -152.461
899.25 0.5 -158.065 1.86 -171.182 785e-6 -118.7 0.864 -153.449
919 0.483 -160.911 1.934 -172.066 701.8e-6 -175.941 0.865 -154.789
938.75 0.467 -163.688 2.004 -172.884 619.5e-6 126.885 0.864 -156.053
958.5 0.451 -166.277 2.174 -174.867 983.1e-6 102.125 0.865 -157.107
978.25 0.434 -168.742 2.39 -177.552 1.565e-3 94.1 0.868 -158.268
998 0.417 -171.207 2.579 179.932 2.13e-3 90.088 0.868 -159.319
1017.75 0.401 -174.067 2.656 178.018 2.673e-3 110.448 0.864 -160.105
1037.5 0.385 -177.072 2.726 176.147 3.2e-3 130.85 0.859 -160.935
1057.25 0.369 -179.959 2.941 174.944 3.397e-3 133.549 0.857 -161.781
1077 0.353 177.316 3.228 174.189 3.383e-3 125.447 0.855 -162.639
1096.75 0.337 174.609 3.506 173.1 3.267e-3 117.598 0.855 -163.519
1116.5 0.325 171.641 3.744 169.178 2.238e-3 112.121 0.852 -164.615
1136.25 0.313 168.571 3.976 165.199 1.241e-3 106.586 0.851 -165.668
1156 0.301 164.966 4.238 163.081 711.6e-6 138.881 0.849 -166.536
1175.75 0.289 161.327 4.52 162.411 507.7e-6 -161.57 0.847 -167.161
1195.5 0.278 158.017 4.815 161.436 358.8e-6 -107.899 0.846 -167.85
1215.25 0.266 153.188 5.381 156.655 942.4e-6 -140.494 0.843 -168.797
1235 0.251 148.295 5.922 151.825 1.506e-3 -173.139 0.84 -169.837
1254.75 0.234 143.395 6.317 147.44 1.814e-3 162.471 0.839 -170.722
1274.5 0.219 138.37 6.6 143.407 1.92e-3 144.968 0.838 -171.426
1294.25 0.204 133.657 6.88 139.508 2.018e-3 127.927 0.837 -172.071
1314 0.191 126.118 7.521 136.496 1.975e-3 124.357 0.834 -172.752
1333.75 0.178 118.55 8.147 133.52 1.934e-3 120.825 0.833 -173.374
1353.5 0.168 109.863 8.651 128.987 1.933e-3 119.617 0.831 -174.041
1373.25 0.159 100.033 9.029 122.786 1.966e-3 120.528 0.829 -174.758
1393 0.15 90.084 9.4 116.621 1.998e-3 121.475 0.829 -175.407
1412.75 0.141 76.147 9.634 112.102 2.488e-3 125.776 0.83 -176.071
1432.5 0.133 61.068 9.857 107.657 2.966e-3 130.172 0.829 -176.648
1452.25 0.136 47.495 10.306 102.874 2.797e-3 136.272 0.829 -177.303
1472 0.147 37.854 11.003 97.747 1.928e-3 144.345 0.827 -178.008
1491.75 0.156 29.661 11.687 92.647 1.088e-3 152.445 0.824 -178.588
1511.5 0.161 20.484 11.527 87.595 855.5e-6 131.156 0.826 -179.267
1531.25 0.169 11.208 11.323 82.542 662.3e-6 108.295 0.829 -179.895
1551 0.177 1.461 11.367 78.451 704.3e-6 97.891 0.829 179.52
1570.75 0.183 -8.919 11.712 75.607 1.041e-3 103.947 0.83 178.854
1590.5 0.191 -19.652 12.051 72.741 1.366e-3 109.982 0.83 178.277
1610.25 0.204 -28.877 12.129 67.172 1.672e-3 119.261 0.832 177.54
1630 0.219 -37.787 12.192 61.321 1.965e-3 128.837 0.835 176.858
1649.75 0.232 -45.717 12.182 56.719 2.225e-3 132.069 0.837 176.181
1669.5 0.237 -52.462 12.063 53.952 2.441e-3 125.379 0.839 175.462
1689.25 0.241 -59.063 11.993 51.202 2.657e-3 118.705 0.84 174.883
1709 0.25 -66.319 12.097 46.805 2.962e-3 120.333 0.844 174.059
1728.75 0.26 -73.718 12.266 42.159 3.28e-3 123.154 0.845 173.353
1748.5 0.272 -79.7 12.308 38.074 3.368e-3 127.947 0.847 172.63
1768.25 0.289 -82.97 12.106 35.093 3.053e-3 136.411 0.849 171.798
1788 0.304 -86.326 12.015 31.967 2.771e-3 144.73 0.85 171.135
1807.75 0.309 -91.097 11.934 28.194 2.765e-3 146.54 0.853 170.28
1827.5 0.313 -96.314 11.986 24.315 2.843e-3 147.089 0.854 169.43
1847.25 0.316 -101.885 11.963 20.625 3.068e-3 147.739 0.854 168.655
1867 0.319 -108.016 11.592 17.74 3.567e-3 149.008 0.857 167.828
1886.75 0.322 -114.273 11.378 14.972 4.123e-3 150.393 0.856 166.891
1906.5 0.331 -121.096 11.449 12.561 4.656e-3 156.795 0.856 166.12
1926.25 0.346 -127.783 11.684 10.296 5.231e-3 164.527 0.856 165.292
1946 0.349 -132.479 11.74 7.714 5.41e-3 168.657 0.856 164.413
1965.75 0.321 -131.913 11.113 4.291 4.4e-3 163.437 0.855 163.538
1985.5 0.303 -130.423 10.551 0.848 3.366e-3 158.197 0.852 162.466
2005.25 0.299 -131.31 10.635 -0.947 2.821e-3 156.517 0.852 161.585
2025 0.298 -132.979 10.972 -2.173 2.43e-3 156.013 0.853 160.714
2044.75 0.293 -135.101 11.198 -4.33 2.202e-3 153.673 0.852 159.684
2064.5 0.276 -138.663 10.839 -9.328 2.551e-3 145.64 0.85 158.657
2084.25 0.259 -141.6 10.486 -14.381 2.943e-3 137.553 0.846 157.389
2104 0.253 -145.659 10.526 -14.596 3.25e-3 138.398 0.842 156.373
2123.75 0.253 -150.395 10.763 -12.945 3.541e-3 142.687 0.837 155.314
2143.5 0.248 -154.999 10.975 -13.05 3.999e-3 142.699 0.832 154.133
2163.25 0.212 -156.961 10.954 -19.688 5.049e-3 126.245 0.828 152.967
2183 0.177 -153.211 10.963 -26.338 6.221e-3 109.779 0.823 151.507
2202.75 0.174 -160.254 10.806 -28.503 6.77e-3 116.065 0.817 150.137
2222.5 0.194 -171.524 10.574 -28.666 7.026e-3 132.812 0.809 148.619
2242.25 0.212 -177.47 10.452 -29.224 7.187e-3 144.77 0.801 146.817
2262 0.192 -175.346 10.898 -31.732 6.62e-3 132.478 0.795 145.272
2281.75 0.18 -171.749 11.417 -34.264 6.011e-3 120.163 0.788 143.344
2301.5 0.176 -171.994 11.296 -37.336 6.038e-3 118.969 0.776 141.109
2321.25 0.175 -174.533 10.734 -40.702 6.462e-3 123.885 0.762 138.804
2341 0.175 -177.258 10.291 -44.169 6.862e-3 130.119 0.747 136.073
2360.75 0.192 178.23 10.884 -47.19 6.61e-3 146.596 0.736 134.621
2380.5 0.211 175.648 11.504 -50.56 6.329e-3 162.723 0.721 132.929
2400.25 0.218 173.706 11.893 -54.138 6.503e-3 165.767 0.706 129.886
2420 0.215 171.768 12.118 -58.157 7.022e-3 160.054 0.688 125.44
2439.75 0.213 169.953 12.31 -62.411 7.601e-3 155.163 0.666 120.113
2459.5 0.23 165.51 11.978 -64.14 8.186e-3 163.654 0.65 117.272
2479.25 0.248 161.943 11.608 -66.093 8.811e-3 171.923 0.632 113.908
2499 0.236 160.103 11.457 -69.491 9.309e-3 160.785 0.607 109.493
2518.75 0.206 163.026 11.514 -73.905 9.73e-3 135.062 0.578 104.064
2538.5 0.194 170.036 11.559 -78.868 0.01 110.979 0.545 97.267
2558.25 0.19 160.584 12.151 -86.203 0.012 125.538 0.525 86.038
2578 0.194 150.755 12.741 -94.318 0.013 139.317 0.509 71.993
2597.75 0.201 155.106 12.503 -99.726 0.011 128.802 0.462 59.928
2617.5 0.238 162.855 11.409 -102.371 6.706e-3 97.263 0.379 49.917
2637.25 0.278 160.248 10.348 -104.917 2.408e-3 66.434 0.31 36.835
2657 0.256 159.808 10.445 -111.127 5.822e-3 79.685 0.33 27.765
2676.75 0.231 157.758 10.5 -117.542 9.413e-3 92.729 0.355 18.852
2696.5 0.231 145.137 10.431 -123.305 0.01 129.561 0.389 3.95
2716.25 0.296 139.5 10.119 -128.514 8.073e-3 -169.325 0.449 -15.431
2736 0.33 144.653 9.617 -133.907 5.672e-3 -108.396 0.516 -32.313
2755.75 0.299 137.301 9.383 -136.352 7.8e-3 -173.267 0.547 -38.402
2775.5 0.245 141.14 9.207 -138.963 0.01 118.353 0.588 -43.779
2795.25 0.249 149.024 8.67 -143.784 0.011 82.324 0.615 -51.039
2815 0.263 146.849 7.867 -151.434 9.739e-3 84.749 0.645 -59.546
2834.75 0.277 144.688 7.045 -158.687 8.674e-3 87.57 0.669 -67.376
2854.5 0.291 141.81 6.629 -161.113 6.967e-3 91.252 0.693 -72.421
2874.25 0.305 139.293 6.208 -162.9 5.256e-3 95.304 0.71 -77.156
2894 0.313 138.153 5.926 -165.055 4.749e-3 89.052 0.733 -81.635
2913.75 0.317 138.628 5.745 -166.85 5.696e-3 69.31 0.746 -85.952
2933.5 0.326 139.109 5.586 -168.733 6.583e-3 49.479 0.762 -89.723
2953.25 0.333 135.828 5.032 -172.756 5.175e-3 62.892 0.799 -93.313
2973 0.344 132.796 4.438 -176.723 3.587e-3 80.348 0.83 -96.833
2992.75 0.355 131.139 4.07 179.859 2.948e-3 90.329 0.853 -99.49
3012.5 0.362 130.677 4.01 177.373 3.67e-3 88.136 0.86 -101.331
3032.25 0.369 130.245 3.937 175.083 4.335e-3 86.137 0.864 -103.215
3052 0.378 128.913 3.631 172.015 4.453e-3 84.438 0.881 -105.388
3071.75 0.387 127.411 3.302 168.952 4.474e-3 82.918 0.897 -107.473
3091.5 0.398 126.173 2.996 166.921 4.372e-3 76.35 0.908 -109.465
3111.25 0.411 125.362 2.731 165.773 4.08e-3 58.953 0.922 -111.649
3131 0.425 124.335 2.486 164.813 3.809e-3 41.745 0.935 -113.581
3150.75 0.432 122.959 2.406 162.493 4.162e-3 47.051 0.938 -114.813
3170.5 0.437 121.447 2.361 159.887 4.617e-3 57.214 0.939 -115.848
3190.25 0.447 120.024 2.277 157.639 4.615e-3 55.172 0.941 -116.894
3210 0.464 118.545 2.111 156.584 3.677e-3 25.532 0.946 -117.876
3229.75 0.478 116.677 1.954 155.29 2.801e-3 -4.346 0.953 -118.851
3249.5 0.487 115.309 1.791 153.544 2.735e-3 -5.924 0.958 -119.69
3269.25 0.496 114.127 1.634 151.714 2.876e-3 0.299 0.963 -120.445
3289 0.504 112.903 1.501 150 3.022e-3 9.254 0.966 -120.98
3308.75 0.509 111.711 1.414 148.09 3.198e-3 25.243 0.968 -121.478
3328.5 0.513 110.463 1.331 146.201 3.362e-3 41.253 0.97 -121.937
3348.25 0.52 109.325 1.263 145.655 3.7e-3 45.904 0.97 -122.414
3368 0.528 108.233 1.199 145.397 4.061e-3 46.538 0.969 -123.021
3387.75 0.537 107.104 1.138 145.055 4.164e-3 42.723 0.97 -123.53
3407.5 0.548 105.815 1.079 144.41 3.493e-3 23.808 0.972 -123.831
3427.25 0.559 104.429 1.022 143.689 2.855e-3 4.817 0.974 -124.194
3447 0.567 103.021 0.964 141.273 2.305e-3 3.06 0.979 -124.376
3466.75 0.574 101.62 0.91 138.291 1.805e-3 8.511 0.984 -124.373
3486.5 0.581 100.285 0.851 135.73 1.426e-3 10.082 0.988 -124.524
3506.25 0.59 99.223 0.781 135.329 1.507e-3 -4.539 0.986 -124.747
3526 0.598 98.14 0.713 134.959 1.577e-3 -19.128 0.985 -125.044
3545.75 0.605 97.027 0.665 134.784 1.788e-3 -23.175 0.986 -125.161
3565.5 0.611 95.877 0.626 134.59 2.052e-3 -22.165 0.988 -125.309
3585.25 0.617 94.787 0.59 134.18 2.205e-3 -19.54 0.989 -125.344
3605 0.623 93.913 0.554 131.907 1.808e-3 -8.555 0.993 -125.402
3624.75 0.628 92.996 0.521 129.739 1.435e-3 2.536 0.995 -125.367
3644.5 0.634 92.088 0.492 129.38 1.447e-3 9.301 0.995 -125.443
3664.25 0.638 91.189 0.467 130.371 1.669e-3 13.857 0.995 -125.464
3684 0.644 90.261 0.443 130.993 1.854e-3 20.531 0.993 -125.461
3703.75 0.649 89.059 0.413 128.836 1.834e-3 43.754 0.995 -125.391
3723.5 0.654 87.867 0.386 126.674 1.819e-3 66.971 0.996 -125.23
3743.25 0.66 86.823 0.357 126.368 1.473e-3 109.588 0.996 -125.202
3763 0.666 85.974 0.328 127.378 933.1e-6 165.465 0.997 -125.123
3782.75 0.674 85.3 0.302 128.229 455.4e-6 -139.738 0.996 -125.039
3802.5 0.679 84.473 0.286 127.382 418.8e-6 -97.841 0.998 -124.992
3822.25 0.683 83.657 0.273 126.703 384.8e-6 -55.776 0.998 -124.881
3842 0.689 82.776 0.258 125.63 400.6e-6 -17.239 0.999 -124.72
3861.75 0.695 81.967 0.241 124.206 451e-6 18.456 1 -124.593
3881.5 0.701 81.143 0.225 122.828 504.9e-6 52.06 1 -124.391
3901.25 0.704 80.276 0.211 123.276 662.5e-6 33.4 0.999 -124.241
3921 0.708 79.427 0.197 123.71 812.9e-6 14.727 1 -124.069
3940.75 0.713 78.585 0.182 123.569 972.7e-6 -4.75 1.001 -123.889
3960.5 0.718 77.719 0.168 123.134 1.147e-3 -24.731 1.001 -123.618
3980.25 0.723 76.78 0.154 122.633 1.316e-3 -44.778 1.003 -123.328
4000 0.727 76.149 0.146 122.732 1.152e-3 1.55 1.002 -123.105
