!Hittite Microwave Corporation								
!20 Alpha Road								
!Chelmsford, MA 01824								
!Tel: 978-250-3343								
!Fax: 978-250-3373								
!Device: HMC451, 5-20 GHz, Driver Amplifier Die																
!Misc: Vcc = 5V, data includes two K connectors, Room	
!
# MHZ S MA R 50

50 0.995 -3.527 691.2e-6 -95.187 347.7e-6 -32.461 0.995 -3.817
174.75 0.994 -12.19 190.1e-6 57.643 215.3e-6 161.072 0.997 -12.442
299.5 0.994 -20.786 145.1e-6 -37.468 18.63e-6 -163.893 0.994 -21.27
424.25 0.994 -29.543 4.322e-3 6.583 129.3e-6 5.328 0.995 -29.851
549 0.994 -38.319 248.7e-6 -53.303 80.26e-6 140.499 0.993 -38.938
673.75 0.991 -47.185 704e-6 -60.588 100.8e-6 -158.214 0.993 -47.948
798.5 0.988 -56.215 1.449e-3 -65.778 131.9e-6 88.487 0.991 -57.306
923.25 0.983 -65.313 3.003e-3 -80.015 257.1e-6 90.851 0.984 -66.985
1048 0.98 -74.444 4.252e-3 -95.924 247.9e-6 68.139 0.97 -77.077
1172.75 0.974 -83.72 8.049e-3 -146.714 479.2e-6 3.889 0.944 -87.107
1297.5 0.966 -93.115 8.128e-3 178.564 599.6e-6 -64.003 0.912 -96.095
1422.25 0.957 -102.686 4.38e-3 167.561 523.2e-6 -114.711 0.896 -104.801
1547 0.948 -112.307 4.898e-3 -140.396 516.3e-6 -156.013 0.884 -114.454
1671.75 0.936 -122.055 0.011 -139.147 601e-6 -162.566 0.863 -124.542
1796.5 0.924 -131.952 0.018 -146.206 554.3e-6 -159.361 0.835 -134.685
1921.25 0.911 -141.889 0.025 -166.411 641.8e-6 -169.755 0.801 -144.78
2046 0.896 -151.959 0.026 -177.239 701.2e-6 -173.48 0.766 -154.419
2170.75 0.881 -162.218 0.027 -179.933 870.7e-6 173.954 0.735 -163.989
2295.5 0.865 -172.467 0.026 -172.23 1.064e-3 163.321 0.708 -173.708
2420.25 0.849 177.085 0.031 -147.436 1.313e-3 154.386 0.684 176.049
2545 0.832 166.556 0.052 -129.668 1.518e-3 142.889 0.662 165.451
2669.75 0.814 155.869 0.115 -118.443 1.612e-3 131.136 0.64 154.229
2794.5 0.797 145.023 0.217 -131.579 2.106e-3 119.288 0.614 141.961
2919.25 0.78 134.252 0.335 -142.179 2.361e-3 114.459 0.587 128.7
3044 0.763 123.324 0.521 -151.243 2.398e-3 108.471 0.559 114.125
3168.75 0.745 112.137 0.884 -161.433 2.371e-3 95.995 0.529 97.79
3293.5 0.726 100.848 1.426 179.383 2.457e-3 86.455 0.493 78.328
3418.25 0.707 89.439 2.144 165.889 2.765e-3 74.571 0.451 54.728
3543 0.687 77.938 3.467 140.95 2.846e-3 63.332 0.402 25.008
3667.75 0.667 66.16 4.826 115.592 2.728e-3 56.233 0.35 -13.348
3792.5 0.641 54.171 5.853 90.336 2.301e-3 41.487 0.313 -59.793
3917.25 0.615 42.076 7.27 66.859 2.044e-3 31.879 0.303 -106.526
4042 0.587 30.257 8.161 41.791 2.078e-3 25.551 0.309 -146.044
4166.75 0.558 18.39 8.624 21.238 1.87e-3 23.097 0.318 -176.649
4291.5 0.528 6.404 9.182 0.866 1.857e-3 19.489 0.32 159.866
4416.25 0.497 -5.397 9.676 -14.394 1.897e-3 20.495 0.318 140.614
4541 0.463 -17.045 9.638 -30.93 1.752e-3 13.666 0.313 124.671
4665.75 0.428 -28.478 10.016 -42.776 1.608e-3 10.747 0.305 110.747
4790.5 0.394 -39.679 10.408 -59.887 1.442e-3 6.439 0.295 98.295
4915.25 0.36 -50.436 10.615 -72.659 1.379e-3 2.241 0.284 86.492
5040 0.325 -60.806 11.375 -86.252 1.274e-3 -2.634 0.275 75.785
5164.75 0.291 -70.324 11.454 -97.417 1.042e-3 -0.39 0.263 65.314
5289.5 0.26 -78.536 12.077 -109.746 927e-6 -5.875 0.254 55.741
5414.25 0.232 -85.646 12.087 -121.193 693.2e-6 -6.042 0.243 46.359
5539 0.207 -91.66 12.716 -135.507 835.5e-6 4.762 0.231 37.483
5663.75 0.187 -96.311 12.339 -146.412 683.6e-6 7.292 0.218 28.151
5788.5 0.171 -99.173 12.809 -155.897 670.3e-6 11.671 0.208 19.288
5913.25 0.161 -101.376 12.93 -167.076 542e-6 22.768 0.197 11.136
6038 0.157 -103.425 12.793 -176.942 559.1e-6 27.725 0.186 2.555
6162.75 0.157 -105.86 12.886 173.103 584.3e-6 32.301 0.177 -6.016
6287.5 0.158 -108.73 13.191 163.937 671.5e-6 42.595 0.168 -13.705
6412.25 0.163 -112.305 13.362 153.183 730.5e-6 45.409 0.159 -20.845
6537 0.169 -116.121 13.019 143.526 938.1e-6 39.615 0.145 -28.665
6661.75 0.177 -121.101 12.979 135.112 862.7e-6 43.9 0.138 -37.923
6786.5 0.184 -127.119 12.94 126.486 1.041e-3 55.935 0.13 -45.249
6911.25 0.191 -133.298 13.122 118.018 1.027e-3 39.316 0.121 -52.77
7036 0.198 -139.247 12.809 109.053 1.227e-3 41.867 0.111 -60.607
7160.75 0.204 -145.769 12.907 102.043 1.276e-3 40.637 0.105 -69.715
7285.5 0.21 -152.912 12.92 93.444 1.368e-3 45.609 0.1 -74.649
7410.25 0.215 -160.092 12.804 85.217 1.406e-3 42.22 0.089 -80.583
7535 0.218 -166.891 12.575 77.407 1.492e-3 40.517 0.079 -88.148
7659.75 0.221 -173.536 12.503 70.75 1.52e-3 36.209 0.074 -97.49
7784.5 0.225 179.624 12.552 63.3 1.665e-3 32.339 0.072 -102.086
7909.25 0.227 172.098 12.368 56.166 1.612e-3 34 0.063 -106.934
8034 0.227 164.825 12.329 49.331 1.576e-3 32.544 0.058 -115.915
8158.75 0.226 158.211 12.301 42.631 1.833e-3 34.192 0.057 -123.576
8283.5 0.227 151.533 12.293 35.746 1.568e-3 28.098 0.054 -125.643
8408.25 0.225 144.116 12.223 28.967 1.839e-3 26.706 0.045 -128.853
8533 0.222 136.504 12.189 22.501 1.7e-3 26.23 0.038 -141.59
8657.75 0.218 129.911 12.171 16.059 1.799e-3 30.896 0.037 -150.154
8782.5 0.214 123.171 12.152 9.613 1.824e-3 27.564 0.034 -151.06
8907.25 0.209 116.163 12.144 3.255 1.992e-3 25.194 0.027 -156.338
9032 0.205 109.177 12.145 -3.098 2.013e-3 23.95 0.022 -164.763
9156.75 0.199 102.008 12.125 -9.301 2.068e-3 24.747 0.02 -170.676
9281.5 0.189 95.029 12.139 -15.588 2.048e-3 24.207 0.015 -154.856
9406.25 0.181 88.383 12.138 -21.681 2.187e-3 23.545 6.554e-3 -139.203
9531 0.175 81.972 12.143 -27.872 2.295e-3 19.579 2.077e-3 -98.694
9655.75 0.166 74.205 12.158 -34.046 2.235e-3 18.29 2.856e-3 -11.238
9780.5 0.152 66.651 12.168 -40.061 2.417e-3 15.527 6.305e-3 -46.964
9905.25 0.141 61.253 12.189 -46.078 2.479e-3 14.579 0.01 -37.093
10030 0.134 55.479 12.223 -52.104 2.476e-3 12.637 0.013 -53.314
10154.75 0.123 46.724 12.227 -58.142 2.674e-3 9.594 0.018 -61.157
10279.5 0.111 39.417 12.234 -64.095 2.773e-3 6.947 0.025 -75.151
10404.25 0.101 33.446 12.258 -69.94 2.771e-3 8.768 0.033 -71.477
10529 0.087 25.36 12.284 -75.972 2.823e-3 5.324 0.036 -77.628
10653.75 0.075 14.757 12.307 -81.759 2.984e-3 2.814 0.043 -81.318
10778.5 0.064 7.017 12.359 -87.72 2.922e-3 1.417 0.047 -86.092
10903.25 0.048 -4.237 12.367 -93.74 2.965e-3 -2.388 0.051 -90.645
11028 0.036 -23.294 12.374 -99.714 3.143e-3 -3.721 0.054 -102.302
11152.75 0.025 -39.283 12.386 -105.58 3.145e-3 -7.655 0.065 -108.757
11277.5 0.016 -57.53 12.396 -111.24 3.197e-3 -8.702 0.071 -112.205
11402.25 0.016 -100.895 12.41 -117.197 3.463e-3 -11.96 0.077 -118.156
11527 0.024 -138.757 12.426 -122.807 3.248e-3 -13.661 0.083 -124.83
11651.75 0.032 -163.867 12.446 -128.417 3.459e-3 -16.393 0.094 -129.21
11776.5 0.044 -175.737 12.527 -134.152 3.407e-3 -17.312 0.096 -132.251
11901.25 0.062 175.179 12.688 -140.66 3.568e-3 -22.751 0.097 -138.554
12026 0.077 161.881 12.497 -147.037 3.529e-3 -24.48 0.105 -147.732
12150.75 0.086 145.844 12.506 -151.554 3.663e-3 -26.61 0.117 -152.632
12275.5 0.092 137.415 12.674 -157.571 3.67e-3 -29.097 0.121 -155.526
12400.25 0.097 133.939 12.597 -164.273 3.702e-3 -30.15 0.123 -162.066
12525 0.104 130.043 12.34 -170 3.803e-3 -30.542 0.131 -169.94
12649.75 0.117 124.317 12.487 -174.258 3.816e-3 -36.612 0.144 -173.39
12774.5 0.131 117.768 12.945 179.085 3.863e-3 -35.755 0.143 -176.666
12899.25 0.139 110.932 12.63 172.771 3.899e-3 -38.477 0.144 175.577
13024 0.144 105.168 12.349 167.429 3.731e-3 -44.069 0.154 166.874
13148.75 0.157 99.751 12.379 162.276 3.872e-3 -45.599 0.17 163.415
13273.5 0.168 92.829 12.74 156.067 3.86e-3 -46.161 0.17 160.572
13398.25 0.174 85.077 12.728 148.847 3.886e-3 -47.009 0.172 153.944
13523 0.177 79.812 12.37 144.466 3.866e-3 -51.064 0.181 147.701
13647.75 0.183 74.909 12.512 139.759 4.048e-3 -54.387 0.193 144.695
13772.5 0.191 68.66 12.59 133.089 4.005e-3 -57.771 0.188 141.249
13897.25 0.195 62.703 12.566 125.057 3.95e-3 -57.371 0.186 133.229
14022 0.198 57.576 11.951 121.236 3.726e-3 -61.718 0.197 125.824
14146.75 0.201 52.869 12.497 118.907 3.992e-3 -64.497 0.211 121.865
14271.5 0.208 47.499 12.522 109.818 3.836e-3 -66.637 0.207 118.701
14396.25 0.216 42.834 12.438 103.545 4.053e-3 -68.646 0.211 111.754
14521 0.221 37.982 12.275 98.287 4.215e-3 -69.389 0.218 106.472
14645.75 0.224 32.129 12.647 94.212 4.018e-3 -72.09 0.227 102.105
14770.5 0.229 25.954 12.605 85.036 3.901e-3 -72.861 0.221 99.035
14895.25 0.233 21.808 11.752 80.205 4.182e-3 -75.038 0.219 90.238
15020 0.236 17.517 11.922 74.798 4.066e-3 -79.749 0.231 84.807
15144.75 0.238 11.307 11.775 70.353 3.752e-3 -80.374 0.239 79.686
15269.5 0.239 5.455 12.242 63.61 3.642e-3 -79.969 0.241 76.462
15394.25 0.24 2.399 11.871 58.416 3.813e-3 -86.133 0.24 69.506
15519 0.246 -0.588 11.821 53.828 3.866e-3 -94.085 0.25 64.899
15643.75 0.253 -6.696 11.643 46.542 3.906e-3 -87.176 0.25 60.73
15768.5 0.255 -12.312 11.679 40.495 3.752e-3 -93.094 0.249 55.405
15893.25 0.256 -15.431 11.354 33.167 3.927e-3 -96.241 0.25 48.79
16018 0.262 -18.814 11.29 31.825 3.968e-3 -98.083 0.261 42.958
16142.75 0.271 -24.203 11.487 25.477 3.914e-3 -95.709 0.27 38.551
16267.5 0.272 -29.789 11.258 19.61 3.835e-3 -99.518 0.272 34.236
16392.25 0.269 -33.495 11.303 13.633 3.706e-3 -100.746 0.277 28.802
16517 0.274 -36.211 11.356 7.907 3.812e-3 -106.7 0.282 25.006
16641.75 0.286 -40.184 11.504 2.227 3.905e-3 -107.125 0.284 20.117
16766.5 0.291 -45.479 11.032 -4.742 3.883e-3 -111.234 0.286 15.712
16891.25 0.29 -50.217 11.093 -9.949 3.553e-3 -111.731 0.288 9.948
17016 0.295 -52.962 10.867 -17.332 3.726e-3 -113.687 0.294 5.304
17140.75 0.308 -56.29 10.795 -21.014 3.765e-3 -118.218 0.298 -0.64
17265.5 0.317 -62.022 10.705 -27.115 3.635e-3 -120.776 0.306 -5.039
17390.25 0.317 -67.168 10.491 -32.907 3.806e-3 -121.344 0.312 -10.162
17515 0.321 -69.475 10.422 -39.46 3.474e-3 -125.629 0.319 -13.877
17639.75 0.333 -72.802 10.278 -44.416 3.395e-3 -126.006 0.319 -19.858
17764.5 0.343 -78.122 10.412 -50.407 3.672e-3 -128.26 0.332 -23.818
17889.25 0.35 -82.222 10.005 -56.073 3.423e-3 -129.817 0.33 -29.181
18014 0.359 -85.151 9.944 -61.662 3.502e-3 -136.198 0.343 -34.067
18138.75 0.369 -89.817 9.8 -67.593 3.688e-3 -137.298 0.343 -39.808
18263.5 0.379 -94.544 9.745 -73.368 3.401e-3 -140.291 0.366 -44.852
18388.25 0.395 -98.119 9.636 -79.189 3.454e-3 -141.581 0.371 -48
18513 0.404 -102.917 9.414 -84.974 3.544e-3 -145.357 0.381 -52.976
18637.75 0.402 -108.168 9.264 -91.141 3.401e-3 -145.352 0.384 -57.133
18762.5 0.414 -111.185 9.131 -96.716 3.312e-3 -148.622 0.396 -62.655
18887.25 0.438 -114.612 8.991 -102.287 3.397e-3 -151.242 0.404 -66.145
19012 0.44 -120.05 8.858 -108.14 3.326e-3 -154.299 0.405 -71.943
19136.75 0.439 -123.752 8.682 -114.317 3.13e-3 -155.023 0.42 -77.729
19261.5 0.464 -127.24 8.44 -119.801 3.204e-3 -156.213 0.437 -82.402
19386.25 0.48 -132.041 8.294 -124.945 3.195e-3 -154.687 0.45 -86.545
19511 0.484 -136.209 8.113 -130.458 3.078e-3 -164.337 0.461 -90.708
19635.75 0.499 -140.517 7.962 -137.116 3.198e-3 -170.005 0.469 -95.772
19760.5 0.512 -145.655 7.83 -141.26 3.241e-3 -171.014 0.489 -99.589
19885.25 0.515 -149.741 7.91 -146.931 3.044e-3 -172.298 0.489 -103.402
20010 0.525 -153.461 7.677 -153.266 2.761e-3 -175.994 0.497 -108.836
20134.75 0.539 -158.303 7.382 -160.024 2.993e-3 179.609 0.505 -113.792
20259.5 0.539 -163.252 7.243 -166.92 2.92e-3 -178.921 0.524 -119.007
20384.25 0.542 -166.259 7.173 -171.096 2.928e-3 179.604 0.53 -122.336
20509 0.561 -169.686 7.092 -176.995 2.757e-3 -179.034 0.539 -127.981
20633.75 0.571 -174.52 6.793 177.936 2.542e-3 175.31 0.554 -132.278
20758.5 0.567 -179.139 6.458 171.552 2.422e-3 174.28 0.566 -136.578
20883.25 0.578 177.349 6.548 164.462 2.742e-3 166.643 0.569 -140.368
21008 0.595 173.361 6.51 156.734 2.463e-3 174.278 0.572 -146.135
21132.75 0.597 168.602 5.994 149.463 2.086e-3 167.235 0.588 -150.936
21257.5 0.593 163.968 5.487 147.805 2.069e-3 168.104 0.599 -155.523
21382.25 0.601 160.168 5.262 138.616 2.518e-3 165.32 0.607 -159.665
21507 0.609 156.07 4.9 134.825 1.971e-3 161.278 0.62 -165.294
21631.75 0.603 151.854 4.644 132.113 2.135e-3 149.286 0.641 -169.196
21756.5 0.601 148.036 4.542 133.99 2.076e-3 140.308 0.653 -172.455
21881.25 0.612 144.537 4.652 126.316 2.323e-3 153.354 0.656 -175.232
22006 0.614 140.415 4.357 118.597 1.735e-3 151.094 0.661 179.695
22130.75 0.608 136.544 4.708 116.844 2.247e-3 149.518 0.676 176.584
22255.5 0.614 133.134 4.495 109.301 2.32e-3 152.784 0.676 172.534
22380.25 0.623 128.976 4.389 105.278 2.064e-3 159.863 0.68 168.918
22505 0.619 124.216 3.844 94.897 2.011e-3 144.554 0.68 163.229
22629.75 0.617 120.556 3.847 95.884 1.713e-3 144.569 0.705 159.944
22754.5 0.617 117.281 3.95 90.269 1.915e-3 134.93 0.703 156.79
22879.25 0.613 112.999 3.781 87.416 1.834e-3 140.343 0.708 152.551
23004 0.608 108.602 3.685 77.551 1.678e-3 141.207 0.708 148.339
23128.75 0.61 105.185 3.39 74.991 1.906e-3 131.724 0.723 144.004
23253.5 0.607 101.872 3.788 69.038 1.751e-3 134.857 0.724 141.412
23378.25 0.601 98.551 3.317 60.012 1.871e-3 123.847 0.718 136.615
23503 0.605 94.817 2.966 59.061 1.828e-3 131.814 0.73 131.715
23627.75 0.607 90.492 2.813 54.029 1.874e-3 123.412 0.744 128.333
23752.5 0.598 86.651 3.078 49.917 1.861e-3 121.956 0.749 125.387
23877.25 0.593 83.588 2.928 39.871 1.882e-3 127.978 0.741 121.806
24002 0.6 79.371 2.586 42.03 1.623e-3 135.843 0.741 116.862
24126.75 0.595 74.851 2.535 36.767 1.886e-3 126.637 0.756 113.627
24251.5 0.585 71.643 2.422 31.098 1.659e-3 112.638 0.745 110.02
24376.25 0.584 68.459 2.405 24.164 1.828e-3 113.267 0.749 105.566
24501 0.582 64.414 2.17 23.221 1.821e-3 128.811 0.742 100.533
24625.75 0.577 60.336 2.331 25.596 1.825e-3 126.303 0.771 96.709
24750.5 0.575 56.726 2.158 15.74 1.666e-3 114.424 0.763 94.668
24875.25 0.571 52.828 2.234 8.797 1.875e-3 118.69 0.764 90.434
25000 0.559 49.465 2.022 0.7 1.668e-3 113.851 0.756 86.877
