!HMC460 De-embedded S-parameters
!Bias conditions: Vcc=8V, Idd=60mA, Reference plane to the ribbon bonds
# MHZ S MA R 50

25 0.137 4.953 5.641 177.826 847.6e-6 -41.732 0.047 22.104
274.75 0.146 -8.538 5.767 168.993 163e-6 -139.707 0.06 13.473
524.5 0.141 -21.822 5.695 157.844 207.1e-6 -166.227 0.063 10.452
774.25 0.129 -31.087 5.575 147.89 287.1e-6 -173.44 0.065 14.593
1024 0.121 -38.964 5.475 138.346 362.6e-6 176.727 0.073 17.621
1273.75 0.113 -46.632 5.417 128.921 489.4e-6 165.5 0.084 17.069
1523.5 0.105 -54.466 5.415 119.609 611.4e-6 153.236 0.095 14.153
1773.25 0.097 -62.517 5.44 110.18 748.4e-6 141.955 0.105 9.857
2023 0.088 -70.722 5.447 100.62 917.5e-6 130.257 0.115 4.64
2272.75 0.079 -78.975 5.426 91.115 1.079e-3 118.68 0.123 -1.175
2522.5 0.069 -87.474 5.413 81.64 1.273e-3 108.344 0.131 -7.32
2772.25 0.06 -96.011 5.383 72.202 1.467e-3 96.426 0.138 -13.718
3022 0.05 -104.696 5.357 62.687 1.665e-3 85.742 0.144 -20.192
3271.75 0.04 -113.631 5.331 53.189 1.872e-3 75.072 0.148 -26.721
3521.5 0.03 -122.607 5.306 43.71 2.078e-3 63.361 0.153 -33.097
3771.25 0.02 -131.734 5.282 34.396 2.184e-3 50.156 0.157 -38.778
4021 9.494e-3 -126.408 5.254 25.294 1.895e-3 43.086 0.168 -44.728
4270.75 4.639e-3 -93.915 5.272 15.904 2.198e-3 48.433 0.173 -54.103
4520.5 5.032e-3 -22.283 5.244 6.438 2.711e-3 39.881 0.172 -61.787
4770.25 0.011 -5.742 5.216 -3.139 3.064e-3 29.841 0.171 -68.687
5020 0.017 -10.715 5.19 -12.56 3.374e-3 20.041 0.171 -75.404
5269.75 0.022 -19.069 5.173 -22.049 3.685e-3 10.882 0.17 -81.814
5519.5 0.026 -27.744 5.177 -31.59 3.984e-3 1.475 0.169 -88.074
5769.25 0.03 -38.426 5.182 -41.151 4.269e-3 -7.578 0.167 -94.062
6019 0.034 -48.934 5.176 -50.592 4.578e-3 -16.632 0.165 -99.798
6268.75 0.036 -60.508 5.153 -60.021 4.892e-3 -25.687 0.162 -105.199
6518.5 0.039 -72.072 5.136 -69.458 5.22e-3 -34.61 0.158 -110.317
6768.25 0.041 -83.451 5.12 -78.917 5.526e-3 -43.517 0.155 -115
7018 0.044 -94.937 5.115 -88.549 5.868e-3 -52.668 0.15 -119.249
7267.75 0.045 -104.899 5.121 -98.168 6.214e-3 -61.647 0.145 -122.993
7517.5 0.047 -115.287 5.126 -107.853 6.54e-3 -70.881 0.14 -126.001
7767.25 0.048 -123.75 5.132 -117.318 6.897e-3 -79.88 0.135 -128.365
8017 0.048 -132.075 5.12 -126.937 7.268e-3 -89.251 0.131 -129.726
8266.75 0.048 -138.593 5.097 -136.364 7.647e-3 -98.497 0.126 -130.346
8516.5 0.046 -143.468 5.075 -145.701 8.025e-3 -107.786 0.123 -130.082
8766.25 0.045 -147.423 5.06 -155.349 8.413e-3 -117.187 0.122 -129.329
9016 0.041 -148.287 5.049 -164.835 8.794e-3 -126.662 0.123 -127.94
9265.75 0.039 -146.333 5.051 -174.535 9.188e-3 -136.092 0.126 -126.711
9515.5 0.035 -140.665 5.061 175.835 9.596e-3 -145.613 0.131 -125.648
9765.25 0.035 -131.851 5.058 166.033 9.998e-3 -155.127 0.138 -125.221
10015 0.037 -121.854 5.064 156.241 0.01 -164.744 0.145 -124.957
10264.75 0.042 -112.844 5.036 146.582 0.011 -174.312 0.154 -125.868
10514.5 0.051 -108.733 5.026 136.871 0.011 176.154 0.163 -127.064
10764.25 0.061 -104.657 5.001 127.283 0.012 166.67 0.171 -129.169
11014 0.072 -105.459 4.989 117.61 0.012 157.068 0.179 -131.484
11263.75 0.083 -105.79 4.972 107.853 0.012 147.64 0.186 -134.099
11513.5 0.092 -108.625 4.971 98.493 0.013 138.222 0.192 -137.036
11763.25 0.102 -110.801 4.955 88.722 0.013 128.727 0.197 -140.05
12013 0.11 -113.967 4.94 79.133 0.014 119.456 0.2 -143.161
12262.75 0.117 -116.706 4.921 69.713 0.014 110.028 0.201 -146.327
12512.5 0.122 -119.466 4.89 60.249 0.015 100.739 0.202 -149.318
12762.25 0.125 -122.006 4.868 50.983 0.015 91.45 0.202 -152.367
13012 0.128 -123.581 4.876 41.384 0.016 82.081 0.2 -155.047
13261.75 0.128 -125.622 4.875 31.891 0.016 72.737 0.197 -157.629
13511.5 0.129 -125.792 4.883 22.243 0.017 63.315 0.194 -159.931
13761.25 0.127 -126.76 4.897 12.481 0.017 53.84 0.192 -162.036
14011 0.127 -125.974 4.899 2.998 0.018 44.348 0.187 -163.961
14260.75 0.126 -125.938 4.892 -6.725 0.018 34.863 0.185 -165.795
14510.5 0.127 -124.954 4.886 -16.569 0.019 25.338 0.181 -167.763
14760.25 0.128 -123.826 4.89 -26.411 0.019 15.814 0.179 -168.968
15010 0.128 -122.621 4.896 -36.229 0.02 6.193 0.178 -171.01
15259.75 0.135 -121.048 4.896 -46.065 0.021 -3.432 0.176 -172.515
15509.5 0.134 -120.34 4.913 -56.03 0.021 -13.111 0.176 -175.075
15759.25 0.144 -119.639 4.902 -65.86 0.022 -22.754 0.174 -177.087
16009 0.146 -119.935 4.895 -75.655 0.022 -32.448 0.172 -179.873
16258.75 0.155 -120.308 4.888 -85.49 0.023 -42.147 0.169 177.418
16508.5 0.16 -121.741 4.862 -95.337 0.023 -51.86 0.166 174.842
16758.25 0.167 -122.858 4.851 -105.376 0.024 -61.585 0.162 172.327
17008 0.174 -125.067 4.834 -115.312 0.024 -71.348 0.156 170.147
17257.75 0.178 -127 4.827 -125.593 0.024 -81.101 0.15 168.389
17507.5 0.186 -129.701 4.819 -135.437 0.025 -90.796 0.142 166.772
17757.25 0.187 -131.81 4.804 -145.588 0.025 -100.526 0.136 167.067
18007 0.196 -135.172 4.779 -155.648 0.026 -110.376 0.129 167.571
18256.75 0.195 -137.084 4.757 -165.261 0.026 -120.141 0.124 170.063
18506.5 0.202 -140.742 4.721 -175.534 0.027 -130.072 0.122 172.893
18756.25 0.204 -143.133 4.694 174.589 0.027 -139.827 0.123 176.764
19006 0.207 -145.103 4.684 164.325 0.027 -149.728 0.127 179.921
19255.75 0.212 -148.214 4.663 154.126 0.028 -159.527 0.135 -176.619
19505.5 0.213 -149.237 4.65 144.231 0.028 -169.529 0.146 -174.524
19755.25 0.22 -151.801 4.619 133.891 0.029 -179.48 0.16 -173.369
20005 0.224 -153.201 4.59 123.79 0.029 170.187 0.175 -173.355
20254.75 0.231 -154.74 4.561 113.683 0.029 160.262 0.191 -174.642
20504.5 0.238 -156.043 4.523 103.613 0.03 150.293 0.206 -176.594
20754.25 0.246 -157.218 4.489 93.601 0.03 140.314 0.219 -179.357
21004 0.255 -158.666 4.465 83.298 0.031 130.273 0.23 177.808
21253.75 0.264 -159.484 4.432 72.961 0.031 120.218 0.238 174.397
21503.5 0.273 -161.028 4.405 62.996 0.031 110.215 0.242 171.216
21753.25 0.283 -161.028 4.38 52.364 0.032 100.197 0.241 167.637
22003 0.291 -162.558 4.329 42.522 0.032 90.136 0.237 164.942
22252.75 0.302 -162.148 4.301 31.904 0.032 80.005 0.227 162.089
22502.5 0.311 -163.179 4.236 21.661 0.033 69.952 0.213 161.146
22752.25 0.321 -163.014 4.203 11.371 0.033 59.828 0.197 161.082
23002 0.333 -163.187 4.164 0.923 0.033 49.814 0.179 163.355
23251.75 0.344 -163.32 4.113 -9.37 0.034 39.806 0.166 168.067
23501.5 0.359 -163.683 4.072 -19.953 0.034 29.789 0.156 175.104
23751.25 0.372 -164.255 4.007 -30.251 0.034 19.766 0.157 -176.156
24001 0.388 -165.062 3.956 -40.684 0.034 9.825 0.164 -167.801
24250.75 0.399 -165.939 3.891 -51.005 0.034 0.01 0.182 -161.545
24500.5 0.413 -166.874 3.832 -61.127 0.035 -9.805 0.203 -157.97
24750.25 0.422 -168.12 3.787 -71.503 0.035 -19.556 0.226 -156.319
25000 0.43 -169.289 3.719 -81.475 0.035 -29.263 0.247 -156.117
