!Hittite Microwave Corporation								
!12 Elizabeth Drive								
!Chelmsford, MA 01824								
!Tel: 978-250-3343								
!Fax: 978-250-3373								
!Device: HMC436MS8G, 4.9-5.9 GHz GaAs MMIC DPDT Diversity Switch in 8-lead Grounded Base surface Mount Plastic Package								
!Misc:  Port 1 = ANT1, Port 2 = ANT2, Port 3 = Tx, Port 4 = Rx, Vctl=+3V, State 1 selected, Room							
!
# MHZ S MA R 50

4000 0.265 73.944 0.304 -4.173 0.79 54.363 0.288 -3.912
          0.28 -4.045 0.773 -7.288 0.269 -1.721 0.12 -38.973
          0.804 53.447 0.283 -6.772 0.245 73.091 0.294 -2.104
          0.265 -3.854 0.115 -42.94 0.272 -2.08 0.783 -5.489
4015 0.262 73.642 0.296 -7.934 0.806 53.83 0.282 -7.618
          0.279 -4.942 0.773 -7.937 0.272 -2.384 0.116 -42.693
          0.807 52.659 0.27 -8.031 0.242 72.614 0.288 -5.898
          0.265 -4.756 0.108 -44.064 0.271 -2.983 0.784 -6.196
4030 0.26 73.385 0.279 -10.357 0.813 52.906 0.266 -9.984
          0.275 -5.862 0.774 -8.66 0.273 -3.329 0.109 -45.085
          0.803 52.007 0.256 -7.512 0.238 72.147 0.272 -8.421
          0.262 -5.472 0.102 -43.476 0.267 -3.821 0.784 -6.828
4045 0.258 73.079 0.259 -10.608 0.812 51.939 0.248 -10.219
          0.27 -6.331 0.775 -9.338 0.27 -4.404 0.101 -45.183
          0.797 51.687 0.247 -5.808 0.234 71.828 0.254 -8.768
          0.257 -5.849 0.098 -41.738 0.263 -4.264 0.785 -7.481
4060 0.255 72.682 0.243 -8.643 0.803 51.274 0.233 -8.207
          0.264 -6.383 0.777 -10.039 0.265 -5.25 0.094 -43.063
          0.791 51.764 0.245 -3.773 0.231 71.573 0.238 -6.829
          0.252 -5.825 0.096 -39.711 0.258 -4.304 0.786 -8.145
4075 0.252 72.233 0.236 -5.169 0.79 51.183 0.225 -4.591
          0.26 -6.218 0.778 -10.802 0.258 -5.508 0.091 -39.551
          0.788 52.152 0.247 -2.246 0.229 71.183 0.23 -3.282
          0.249 -5.465 0.096 -38.206 0.254 -4.073 0.787 -8.798
4090 0.249 71.88 0.239 -1.598 0.78 51.795 0.228 -0.837
          0.258 -5.855 0.778 -11.411 0.251 -5.03 0.091 -35.928
          0.79 52.594 0.25 -1.775 0.226 70.465 0.233 0.427
          0.247 -4.997 0.097 -37.619 0.252 -3.673 0.787 -9.507
4105 0.246 71.401 0.251 -9.31e-3 0.778 52.779 0.24 1.003
          0.256 -5.892 0.781 -12.156 0.248 -4.037 0.095 -34.177
          0.794 52.75 0.251 -2.43 0.222 69.846 0.245 2.137
          0.246 -4.795 0.097 -38.193 0.251 -3.604 0.789 -10.095
4120 0.243 70.896 0.264 -0.682 0.785 53.639 0.253 0.592
          0.254 -6.031 0.781 -12.809 0.248 -3.141 0.099 -34.481
          0.798 52.658 0.248 -2.766 0.218 69.221 0.258 1.629
          0.245 -4.885 0.095 -38.438 0.25 -3.757 0.79 -10.727
4135 0.24 70.356 0.272 -3.036 0.797 54.05 0.261 -1.565
          0.251 -6.254 0.783 -13.509 0.249 -2.727 0.102 -36.666
          0.797 52.587 0.244 -2.304 0.214 68.694 0.266 -0.627
          0.242 -4.973 0.093 -37.908 0.247 -4.043 0.79 -11.338
4150 0.238 69.763 0.271 -6.069 0.809 53.935 0.261 -4.442
          0.248 -6.343 0.784 -14.217 0.25 -2.871 0.101 -39.624
          0.795 52.669 0.242 -1.068 0.21 68.226 0.267 -3.641
          0.239 -4.926 0.091 -36.79 0.244 -4.172 0.791 -11.967
4165 0.235 69.11 0.262 -8.584 0.819 53.413 0.254 -6.828
          0.244 -6.099 0.786 -14.883 0.25 -3.43 0.097 -41.993
          0.792 52.976 0.244 0.455 0.206 67.744 0.259 -6.206
          0.236 -4.637 0.091 -35.534 0.241 -3.92 0.793 -12.641
4180 0.232 68.402 0.247 -9.412 0.82 52.747 0.24 -7.656
          0.241 -5.576 0.788 -15.603 0.249 -4.144 0.091 -42.86
          0.792 53.604 0.251 1.356 0.203 67.256 0.245 -7.192
          0.233 -3.886 0.093 -34.502 0.238 -3.413 0.793 -13.261
4195 0.23 67.698 0.237 -7.976 0.816 52.403 0.231 -6.312
          0.241 -4.898 0.789 -16.243 0.244 -4.545 0.087 -41.371
          0.8 54.243 0.261 0.364 0.2 66.435 0.235 -5.923
          0.234 -3.252 0.096 -35.475 0.238 -2.826 0.795 -13.956
4210 0.227 67.041 0.234 -6.056 0.81 52.453 0.227 -4.255
          0.242 -4.856 0.791 -16.935 0.24 -4.408 0.085 -39.249
          0.814 54.474 0.268 -2.375 0.196 65.639 0.231 -3.972
          0.235 -2.906 0.097 -38.179 0.24 -2.705 0.796 -14.571
4225 0.225 66.387 0.236 -4.741 0.808 52.761 0.229 -2.766
          0.244 -5.299 0.793 -17.634 0.237 -4.032 0.085 -37.665
          0.827 54.276 0.266 -5.862 0.192 64.995 0.234 -2.586
          0.237 -3.159 0.096 -41.638 0.241 -3.081 0.797 -15.205
4240 0.223 65.754 0.242 -4.627 0.811 53.158 0.235 -2.446
          0.244 -6.121 0.795 -18.295 0.235 -3.591 0.086 -37.319
          0.837 53.614 0.254 -8.843 0.188 64.455 0.239 -2.382
          0.238 -3.938 0.091 -44.466 0.242 -3.886 0.798 -15.863
4255 0.22 65.169 0.245 -5.807 0.817 53.448 0.239 -3.376
          0.242 -7.185 0.795 -18.91 0.235 -3.25 0.086 -38.282
          0.841 52.628 0.236 -10.091 0.185 63.885 0.243 -3.443
          0.237 -4.929 0.084 -45.397 0.24 -4.925 0.8 -16.504
4270 0.218 64.623 0.244 -7.861 0.825 53.415 0.239 -5.265
          0.238 -8.241 0.797 -19.546 0.235 -3.258 0.086 -39.854
          0.834 51.83 0.218 -8.712 0.182 63.148 0.242 -5.414
          0.232 -5.716 0.077 -43.839 0.235 -5.848 0.8 -17.077
4285 0.216 64.077 0.236 -9.426 0.829 53.007 0.231 -6.692
          0.231 -8.609 0.799 -20.24 0.234 -3.641 0.082 -41.172
          0.823 51.533 0.21 -5.069 0.178 62.544 0.235 -6.936
          0.226 -5.945 0.073 -40.185 0.229 -6.241 0.801 -17.711
4300 0.214 63.505 0.227 -9.609 0.829 52.647 0.223 -6.786
          0.225 -8.359 0.8 -20.823 0.232 -4.061 0.079 -41.213
          0.813 51.844 0.211 -1.594 0.175 62.055 0.226 -7.161
          0.221 -5.571 0.073 -36.681 0.224 -5.899 0.804 -18.392
4315 0.212 62.951 0.22 -8.783 0.827 52.431 0.217 -5.853
          0.221 -7.76 0.802 -21.466 0.229 -4.287 0.076 -40.154
          0.808 52.483 0.218 0.56 0.173 61.472 0.219 -6.331
          0.218 -4.902 0.075 -34.455 0.221 -5.241 0.805 -19.062
4330 0.209 62.41 0.216 -7.523 0.824 52.443 0.214 -4.495
          0.219 -7.094 0.804 -22.136 0.226 -4.233 0.074 -38.686
          0.811 53.186 0.227 0.917 0.17 60.732 0.216 -5.054
          0.217 -4.128 0.077 -33.966 0.219 -4.564 0.805 -19.684
4345 0.206 61.85 0.217 -6.552 0.823 52.676 0.215 -3.436
          0.219 -6.643 0.806 -22.762 0.223 -3.974 0.074 -37.62
          0.818 53.692 0.235 -0.418 0.167 59.884 0.217 -4.093
          0.217 -3.48 0.079 -35.168 0.219 -4.109 0.806 -20.287
4360 0.203 61.24 0.219 -6.669 0.826 52.948 0.217 -3.355
          0.219 -6.664 0.808 -23.406 0.221 -3.764 0.074 -37.477
          0.829 53.73 0.237 -2.85 0.163 59.06 0.22 -4.161
          0.217 -3.389 0.079 -37.669 0.22 -4.114 0.809 -21.009
4375 0.201 60.588 0.218 -8 0.832 52.893 0.217 -4.557
          0.218 -7.193 0.809 -24.015 0.221 -3.752 0.074 -38.602
          0.835 53.415 0.23 -4.927 0.16 58.482 0.219 -5.488
          0.217 -3.689 0.076 -39.672 0.22 -4.661 0.809 -21.652
4390 0.197 59.887 0.212 -9.066 0.835 52.645 0.211 -5.562
          0.216 -7.8 0.81 -24.663 0.219 -3.971 0.071 -39.48
          0.838 52.988 0.221 -5.506 0.157 57.718 0.214 -6.64
          0.215 -4.107 0.073 -40.073 0.218 -5.325 0.809 -22.267
4405 0.194 59.172 0.203 -8.936 0.834 52.308 0.203 -5.357
          0.213 -8.143 0.813 -25.269 0.216 -4.367 0.068 -39.286
          0.837 52.684 0.214 -4.905 0.154 56.931 0.206 -6.683
          0.213 -4.404 0.07 -39.437 0.216 -5.76 0.812 -22.945
4420 0.192 58.38 0.195 -7.265 0.83 52.07 0.196 -3.624
          0.21 -8.247 0.816 -25.918 0.213 -4.619 0.065 -37.598
          0.835 52.627 0.21 -3.832 0.151 56.126 0.198 -5.207
          0.21 -4.471 0.068 -38.35 0.213 -5.961 0.815 -23.643
4435 0.189 57.462 0.192 -4.393 0.823 52.134 0.193 -0.698
          0.207 -8.231 0.818 -26.624 0.208 -4.424 0.063 -34.615
          0.833 52.783 0.21 -3.037 0.148 55.213 0.195 -2.483
          0.208 -4.322 0.068 -37.409 0.21 -6.042 0.817 -24.298
4450 0.186 56.481 0.196 -1.451 0.818 52.66 0.197 2.487
          0.204 -8.051 0.819 -27.103 0.204 -3.769 0.064 -31.386
          0.836 52.9 0.21 -2.975 0.146 54.065 0.199 0.374
          0.206 -4.085 0.067 -37.21 0.208 -6.012 0.818 -24.948
4465 0.183 55.502 0.208 -0.344 0.818 53.455 0.209 3.786
          0.203 -8.339 0.821 -27.712 0.203 -2.856 0.067 -29.934
          0.839 52.809 0.209 -3.687 0.143 52.928 0.21 1.594
          0.205 -4.112 0.066 -38.028 0.207 -6.301 0.819 -25.508
4480 0.18 54.482 0.221 -1.519 0.826 54.124 0.222 2.903
          0.201 -8.639 0.823 -28.271 0.203 -2.068 0.071 -30.922
          0.84 52.605 0.203 -3.935 0.14 51.722 0.223 0.535
          0.202 -4.264 0.064 -38.099 0.204 -6.642 0.82 -26.158
4495 0.178 53.494 0.231 -4.875 0.839 54.454 0.232 -0.19
          0.198 -8.914 0.825 -28.819 0.204 -1.683 0.073 -33.906
          0.838 52.432 0.197 -3.13 0.138 50.391 0.234 -2.692
          0.2 -4.427 0.061 -37.086 0.201 -6.948 0.822 -26.775
4510 0.176 52.443 0.233 -9.696 0.853 54.328 0.235 -4.816
          0.194 -9.001 0.826 -29.324 0.205 -1.841 0.073 -38.257
          0.834 52.395 0.193 -1.247 0.134 49.111 0.236 -7.42
          0.196 -4.424 0.059 -35.002 0.197 -7.035 0.823 -27.379
4525 0.174 51.308 0.224 -14.718 0.863 53.763 0.228 -9.688
          0.19 -8.765 0.828 -29.802 0.206 -2.518 0.07 -42.921
          0.83 52.594 0.195 1.108 0.13 48.146 0.228 -12.429
          0.193 -4.084 0.059 -32.421 0.194 -6.799 0.825 -28.003
4540 0.172 50.374 0.205 -18.195 0.868 52.956 0.21 -12.998
          0.187 -8.251 0.832 -30.44 0.205 -3.499 0.064 -46.189
          0.826 53.158 0.202 2.662 0.128 47.708 0.21 -15.97
          0.19 -3.317 0.061 -30.649 0.191 -6.394 0.826 -28.574
4555 0.17 49.255 0.186 -18.031 0.866 52.192 0.191 -12.802
          0.185 -7.546 0.833 -30.898 0.201 -4.333 0.057 -45.721
          0.831 53.924 0.213 2.067 0.127 46.976 0.191 -16.163
          0.19 -2.467 0.063 -31.003 0.19 -5.81 0.828 -29.221
4570 0.168 48.234 0.172 -15.751 0.859 51.746 0.178 -10.496
          0.185 -7.176 0.834 -31.413 0.197 -4.76 0.053 -43.207
          0.843 54.352 0.222 -0.718 0.127 45.541 0.177 -14.097
          0.19 -1.975 0.065 -33.779 0.191 -5.608 0.829 -29.805
4585 0.166 47.253 0.165 -12.744 0.852 51.606 0.171 -7.462
          0.186 -7.345 0.836 -31.889 0.192 -4.812 0.05 -39.88
          0.856 54.32 0.223 -5.094 0.125 43.769 0.17 -11.285
          0.191 -2.033 0.065 -37.908 0.191 -5.963 0.83 -30.346
4600 0.164 46.359 0.163 -10.068 0.847 51.701 0.169 -4.759
          0.186 -8.013 0.838 -32.331 0.188 -4.607 0.049 -36.813
          0.868 53.797 0.214 -9.602 0.122 42.248 0.168 -8.775
          0.192 -2.543 0.061 -41.965 0.191 -6.757 0.831 -30.858
4615 0.162 45.583 0.163 -8.32 0.844 51.905 0.169 -2.951
          0.185 -9.003 0.84 -32.777 0.185 -4.3 0.049 -34.692
          0.876 52.907 0.196 -12.475 0.119 41.311 0.168 -7.101
          0.19 -3.344 0.056 -44.415 0.189 -7.745 0.832 -31.382
4630 0.16 44.812 0.163 -7.495 0.844 52.048 0.169 -1.941
          0.181 -10.12 0.842 -33.228 0.182 -4.047 0.048 -33.597
          0.872 51.996 0.174 -12.192 0.118 40.532 0.168 -6.221
          0.188 -4.443 0.049 -43.872 0.185 -8.735 0.835 -32.008
4645 0.158 43.918 0.161 -6.513 0.842 52.107 0.168 -0.843
          0.176 -10.732 0.845 -33.77 0.18 -3.83 0.047 -32.215
          0.863 51.388 0.162 -8.111 0.116 39.857 0.166 -5.309
          0.183 -4.855 0.045 -39.363 0.18 -9.306 0.837 -32.566
4660 0.155 42.966 0.16 -4.906 0.84 52.234 0.167 0.935
          0.171 -10.758 0.846 -34.269 0.177 -3.56 0.047 -30.008
          0.851 51.428 0.159 -3.371 0.116 39.142 0.165 -3.768
          0.178 -4.665 0.044 -34.501 0.175 -9.33 0.838 -33.115
4675 0.152 41.999 0.162 -3.002 0.837 52.56 0.169 3.023
          0.167 -10.275 0.848 -34.754 0.174 -3.104 0.047 -27.693
          0.843 51.823 0.162 0.354 0.115 37.816 0.166 -1.87
          0.174 -4.062 0.045 -30.55 0.172 -8.814 0.839 -33.674
4690 0.15 40.991 0.167 -1.444 0.837 53.069 0.174 4.761
          0.164 -9.604 0.849 -35.215 0.171 -2.431 0.048 -25.845
          0.84 52.428 0.169 2.181 0.114 35.995 0.171 -0.319
          0.171 -3.267 0.047 -28.493 0.169 -8.182 0.841 -34.226
4705 0.147 39.878 0.175 -1.026 0.84 53.65 0.183 5.359
          0.162 -9.098 0.851 -35.642 0.17 -1.649 0.05 -25.055
          0.843 53.051 0.176 1.937 0.112 34.14 0.18 0.047
          0.17 -2.553 0.048 -28.652 0.167 -7.849 0.842 -34.735
4720 0.144 38.586 0.185 -2.538 0.848 54.145 0.194 4.058
          0.161 -8.928 0.854 -36.062 0.169 -1.041 0.052 -26.059
          0.85 53.261 0.18 0.087 0.11 32.689 0.19 -1.439
          0.169 -2.243 0.049 -30.285 0.167 -7.788 0.843 -35.166
4735 0.142 37.323 0.193 -6.724 0.861 54.246 0.202 0.039
          0.16 -9.124 0.854 -36.41 0.17 -0.88 0.054 -29.991
          0.858 53.16 0.177 -1.812 0.108 31.624 0.198 -5.533
          0.168 -2.298 0.047 -32.169 0.165 -8.134 0.846 -35.761
4750 0.139 35.971 0.191 -12.287 0.873 53.924 0.201 -5.265
          0.158 -9.389 0.856 -36.841 0.17 -1.149 0.053 -35.196
          0.861 52.918 0.171 -2.628 0.107 30.172 0.197 -11.084
          0.167 -2.451 0.045 -32.649 0.163 -8.418 0.848 -36.324
4765 0.137 34.544 0.18 -17.404 0.881 53.288 0.189 -10.021
          0.155 -9.6 0.858 -37.291 0.169 -1.766 0.049 -39.72
          0.86 52.739 0.166 -2.132 0.105 28.695 0.185 -16.145
          0.164 -2.502 0.043 -31.901 0.161 -8.647 0.849 -36.858
4780 0.134 33.089 0.162 -20.226 0.882 52.527 0.171 -12.445
          0.153 -9.679 0.861 -37.721 0.167 -2.487 0.044 -41.812
          0.859 52.717 0.163 -0.892 0.104 27.328 0.167 -18.931
          0.162 -2.337 0.042 -30.653 0.158 -8.794 0.851 -37.394
4795 0.132 31.644 0.144 -19.588 0.878 51.871 0.153 -11.486
          0.15 -9.592 0.862 -38.117 0.163 -3.016 0.039 -40.496
          0.858 52.867 0.164 0.133 0.103 26.061 0.149 -18.385
          0.16 -1.963 0.042 -29.619 0.155 -8.821 0.853 -37.944
4810 0.13 30.176 0.132 -15.704 0.869 51.559 0.141 -7.517
          0.148 -9.363 0.864 -38.497 0.158 -3.132 0.035 -36.158
          0.859 53.166 0.166 -0.018 0.102 24.767 0.137 -14.749
          0.158 -1.547 0.042 -28.981 0.153 -8.709 0.854 -38.467
4825 0.129 28.709 0.13 -11.162 0.862 51.745 0.14 -2.836
          0.146 -9.277 0.865 -38.841 0.154 -2.604 0.035 -31.333
          0.865 53.227 0.167 -1.383 0.101 22.932 0.135 -10.403
          0.156 -1.241 0.042 -30.057 0.152 -8.863 0.855 -38.889
4840 0.128 27.26 0.133 -8.115 0.857 52.126 0.143 0.218
          0.144 -9.464 0.868 -39.245 0.151 -1.818 0.035 -27.611
          0.871 53.128 0.164 -3.214 0.1 21.241 0.138 -7.59
          0.155 -1.239 0.041 -31.247 0.15 -9.098 0.857 -39.416
4855 0.126 25.813 0.137 -7.139 0.859 52.501 0.148 1.22
          0.142 -9.785 0.87 -39.598 0.149 -1.056 0.036 -25.905
          0.874 52.883 0.157 -4.43 0.1 19.895 0.142 -6.803
          0.153 -1.413 0.039 -32.07 0.148 -9.488 0.859 -39.956
4870 0.125 24.535 0.14 -7.991 0.863 52.725 0.151 0.512
          0.14 -10.151 0.871 -39.945 0.147 -0.515 0.036 -26.049
          0.874 52.607 0.149 -4.358 0.099 18.681 0.145 -7.777
          0.151 -1.572 0.036 -31.743 0.145 -9.876 0.862 -40.448
4885 0.124 23.482 0.14 -9.873 0.868 52.728 0.151 -1.082
          0.137 -10.412 0.873 -40.318 0.146 -0.274 0.036 -27.151
          0.872 52.431 0.143 -2.897 0.099 17.386 0.145 -9.701
          0.148 -1.528 0.034 -29.896 0.142 -10.067 0.863 -40.877
4900 0.122 22.322 0.135 -11.693 0.871 52.536 0.146 -2.54
          0.134 -10.243 0.875 -40.572 0.145 -0.272 0.034 -27.952
          0.869 52.416 0.141 -0.687 0.098 16.156 0.14 -11.423
          0.145 -1.176 0.033 -27.294 0.139 -10.021 0.865 -41.283
4915 0.121 21.167 0.128 -11.569 0.87 52.277 0.139 -2.031
          0.132 -10.094 0.877 -41.027 0.142 -0.257 0.033 -27.003
          0.868 52.617 0.142 0.311 0.098 15.253 0.133 -11.305
          0.143 -0.854 0.033 -25.443 0.136 -9.987 0.865 -41.82
4930 0.119 20.094 0.124 -9.976 0.867 52.22 0.135 -0.208
          0.13 -9.906 0.877 -41.316 0.139 0.024 0.031 -24.941
          0.871 52.786 0.144 -0.061 0.098 14.099 0.128 -9.837
          0.141 -0.526 0.034 -25.54 0.134 -9.968 0.868 -42.328
4945 0.117 19.016 0.122 -7.996 0.865 52.349 0.134 1.927
          0.128 -9.991 0.879 -41.595 0.137 0.531 0.031 -22.337
          0.877 52.766 0.143 -1.552 0.097 13.032 0.127 -8.061
          0.14 -0.356 0.033 -26.822 0.133 -10.188 0.87 -42.817
4960 0.115 17.929 0.123 -6.623 0.866 52.573 0.136 3.392
          0.126 -10.338 0.88 -41.893 0.134 1.151 0.031 -20.062
          0.88 52.566 0.137 -3.134 0.097 12.214 0.128 -6.896
          0.138 -0.295 0.031 -27.889 0.131 -10.58 0.871 -43.265
4975 0.113 16.851 0.126 -6.517 0.868 52.78 0.139 3.602
          0.124 -10.785 0.881 -42.198 0.133 1.734 0.031 -18.961
          0.881 52.244 0.129 -3.53 0.096 11.499 0.13 -6.944
          0.136 -0.259 0.029 -27.436 0.128 -10.984 0.872 -43.678
4990 0.111 15.708 0.128 -7.747 0.873 52.903 0.141 2.743
          0.121 -11.204 0.883 -42.54 0.131 2.13 0.031 -19.521
          0.879 51.798 0.12 -1.722 0.096 10.22 0.132 -8.305
          0.134 -0.325 0.027 -25.016 0.125 -11.349 0.874 -44.165
5005 0.108 14.428 0.127 -9.952 0.876 52.808 0.139 1.065
          0.118 -11.318 0.885 -42.872 0.13 2.406 0.031 -20.877
          0.872 51.661 0.116 2.583 0.096 8.861 0.13 -10.418
          0.13 0.028 0.026 -20.895 0.121 -11.261 0.875 -44.649
5020 0.106 13.195 0.123 -11.662 0.879 52.611 0.135 -0.078
          0.115 -11.064 0.887 -43.209 0.128 2.463 0.03 -21.822
          0.867 51.831 0.117 6.762 0.095 7.533 0.126 -11.896
          0.127 0.596 0.026 -16.243 0.118 -10.927 0.877 -45.164
5035 0.103 11.729 0.118 -12.211 0.88 52.449 0.13 -0.107
          0.112 -10.624 0.887 -43.463 0.126 2.662 0.028 -21
          0.864 52.282 0.122 9.404 0.094 6.608 0.121 -12.354
          0.125 1.254 0.027 -13.219 0.116 -10.649 0.878 -45.642
5050 0.102 10.061 0.114 -11.8 0.88 52.388 0.126 0.768
          0.11 -10.245 0.888 -43.737 0.123 3.053 0.027 -19.303
          0.865 52.853 0.129 9.92 0.093 5.633 0.117 -11.95
          0.123 1.943 0.028 -12.185 0.114 -10.417 0.88 -46.105
5065 0.1 8.28 0.111 -11.089 0.879 52.438 0.125 1.854
          0.109 -10.083 0.89 -44.104 0.121 3.532 0.027 -18.008
          0.871 53.304 0.135 8.249 0.092 4.257 0.115 -11.275
          0.122 2.602 0.03 -12.973 0.113 -10.252 0.881 -46.593
5080 0.097 6.31 0.111 -10.839 0.881 52.554 0.126 2.265
          0.107 -10.043 0.892 -44.39 0.119 4 0.027 -16.921
          0.881 53.388 0.138 4.589 0.091 3.023 0.115 -11.256
          0.121 3.108 0.03 -16.143 0.111 -10.551 0.883 -47.084
5095 0.095 4.262 0.111 -12.452 0.884 52.562 0.126 0.937
          0.105 -10.371 0.894 -44.686 0.117 4.467 0.027 -17.761
          0.889 53.053 0.133 0.24 0.09 1.955 0.115 -13.048
          0.119 3.034 0.028 -20.018 0.109 -11.238 0.885 -47.57
5110 0.093 2.481 0.109 -14.945 0.888 52.403 0.123 -1.156
          0.103 -10.914 0.896 -44.974 0.116 4.69 0.026 -19.134
          0.893 52.616 0.123 -2.294 0.09 0.631 0.112 -15.65
          0.117 3.084 0.026 -21.806 0.107 -11.751 0.885 -48.014
5125 0.092 0.854 0.103 -17.215 0.891 52.12 0.116 -2.795
          0.101 -11.237 0.897 -45.251 0.114 4.933 0.024 -20.035
          0.893 52.174 0.112 -2.063 0.089 -0.923 0.105 -17.896
          0.114 3.163 0.024 -21.135 0.104 -12.113 0.887 -48.476
5140 0.09 -0.701 0.095 -17.992 0.89 51.802 0.107 -2.749
          0.098 -11.344 0.898 -45.528 0.111 5.23 0.022 -19.4
          0.889 51.888 0.104 0.505 0.088 -2.258 0.097 -18.481
          0.112 3.433 0.022 -18.049 0.101 -12.254 0.888 -48.935
5155 0.089 -2.19 0.087 -16.43 0.887 51.552 0.099 -0.308
          0.095 -11.383 0.899 -45.804 0.109 5.584 0.02 -16.565
          0.885 51.838 0.101 4.095 0.087 -3.053 0.089 -16.639
          0.109 4.05 0.021 -13.516 0.098 -12.185 0.889 -49.357
5170 0.087 -3.414 0.082 -12.657 0.882 51.463 0.094 4.189
          0.093 -11.344 0.901 -46.033 0.106 6.174 0.019 -11.731
          0.884 51.875 0.101 7.029 0.086 -3.541 0.084 -12.82
          0.107 4.889 0.021 -9.899 0.095 -12.152 0.891 -49.759
