!Hittite Microwave Corporation								
!12 Elizabeth Drive								
!Chelmsford, MA 01824								
!Tel: 978-250-3343								
!Fax: 978-250-3373								
!Device: HMC465, DC-20 GHz, GaAs PHEMT MMIC Modulator Driver Amlifier Die  															
!Misc: Vdd = 8V, Vgg2 = 1.5V, Idd = 160 mA, Data includes (two) K connectors, Room
!
# MHZ S MA R 50

50 0.131 -3.193 8.565 177.339 5.026e-3 -149.384 0.03 154.709
449.5 0.112 -48.464 8.604 158.324 1.077e-3 -135.562 0.035 44.639
849 0.094 -77.482 8.196 139.536 575.3e-6 -141.435 0.033 33.447
1248.5 0.091 -105.207 8.085 122.623 644.3e-6 168.386 0.049 16.588
1648 0.09 -132.283 8.014 105.586 1.051e-3 -169.769 0.065 -6.977
2047.5 0.087 -159.64 8.024 88.042 1.291e-3 134.958 0.078 -32.894
2447 0.081 172.167 7.961 70.645 2.294e-3 103.196 0.09 -58.177
2846.5 0.076 140.433 7.891 53.506 2.14e-3 105.703 0.098 -83.425
3246 0.079 113.124 7.814 36.629 3.736e-3 81.538 0.105 -107.934
3645.5 0.082 92.199 7.718 18.679 4.09e-3 75.044 0.111 -132.243
4045 0.076 75.847 7.705 0.494 3.381e-3 58.003 0.116 -155.097
4444.5 0.064 63.288 7.721 -16.376 3.762e-3 38.977 0.119 -178.859
4844 0.05 52.069 7.686 -32.679 4.782e-3 23.187 0.124 159.823
5243.5 0.039 37.824 7.527 -49.392 5.126e-3 6.87 0.123 138.898
5643 0.036 31.118 7.478 -67.251 5.13e-3 -6.857 0.128 121.577
6042.5 0.05 19.812 7.493 -85.368 6.316e-3 -18.877 0.128 95.488
6442 0.065 10.502 7.526 -102.933 7.351e-3 -40.506 0.119 75.553
6841.5 0.08 3.432 7.426 -120.008 8.038e-3 -56.664 0.113 57.352
7241 0.089 -6.678 7.479 -136.941 8.469e-3 -75.248 0.102 40.913
7640.5 0.088 -21.413 7.355 -154.462 8.82e-3 -92.337 0.089 27.796
8040 0.08 -43.965 7.341 -171.844 9.348e-3 -108.38 0.077 18.052
8439.5 0.071 -76.685 7.349 170.289 0.011 -125.755 0.067 14.716
8839 0.068 -106.9 7.298 152.943 0.011 -141.332 0.064 13.183
9238.5 0.07 -121.982 7.274 135.557 0.012 -161.559 0.062 15.256
9638 0.069 -128.429 7.225 118 0.012 -174.542 0.072 17.008
10037.5 0.06 -128.164 7.202 100.402 0.013 164.52 0.092 8.204
10437 0.044 -124.121 7.155 82.882 0.014 145.906 0.111 -6.203
10836.5 0.027 -118.766 7.1 65.192 0.015 127.661 0.126 -23.613
11236 0.014 -137.285 7.093 47.066 0.015 110.177 0.134 -42.899
11635.5 0.022 165.026 7.139 29.089 0.016 94.359 0.138 -61.053
12035 0.046 148.693 7.121 11.695 0.017 75.153 0.142 -83.947
12434.5 0.067 146.367 6.978 -5.633 0.018 55.185 0.137 -101.687
12834 0.079 144.636 6.889 -23.791 0.019 38.474 0.134 -121.533
13233.5 0.073 138.026 6.871 -42.454 0.019 20.768 0.127 -141.688
13633 0.055 116.411 6.871 -59.301 0.02 5.87 0.117 -160.827
14032.5 0.047 67.059 6.942 -77.648 0.021 -11.415 0.105 -177.808
14432 0.072 30.412 6.968 -95.387 0.021 -29.929 0.098 166.094
14831.5 0.1 15.276 6.893 -113.245 0.022 -45.765 0.094 148.662
15231 0.108 7.152 6.841 -131.978 0.023 -65.493 0.089 132.223
15630.5 0.099 -0.307 6.88 -151.268 0.024 -83.811 0.082 118.138
16030 0.071 -12.156 6.824 -169.741 0.023 -101.09 0.078 108.833
16429.5 0.044 -40.243 6.832 172.172 0.025 -118.575 0.085 100.575
16829 0.04 -83.208 6.679 153.736 0.025 -136.586 0.096 88.578
17228.5 0.059 -101.966 6.559 134.838 0.025 -154.454 0.104 72.185
17628 0.08 -101.36 6.574 115.416 0.026 -169.757 0.105 58.209
18027.5 0.103 -96.931 6.546 97.301 0.026 168.02 0.104 44.4
18427 0.127 -96.275 6.437 78.415 0.026 152.396 0.108 29.937
18826.5 0.139 -103.443 6.335 58.995 0.026 132.901 0.109 11.548
19226 0.135 -118.325 6.284 39.856 0.026 116.187 0.114 -11.405
19625.5 0.136 -142.034 6.188 20.485 0.026 97.439 0.113 -36.356
20025 0.16 -168.883 6.037 0.716 0.026 74.973 0.11 -61.401
20424.5 0.203 172.012 5.936 -19.053 0.027 59.438 0.118 -84.913
20824 0.247 160.756 5.797 -38.754 0.028 38.957 0.134 -111.521
21223.5 0.274 152.257 5.656 -58.215 0.028 20.716 0.151 -137.314
21623 0.274 142.971 5.552 -77.613 0.03 -0.956 0.16 -161.103
22022.5 0.254 129.165 5.478 -97.174 0.029 -20.376 0.166 -179.471
22422 0.239 108.66 5.232 -116.6 0.027 -36.021 0.168 166.639
22821.5 0.253 87.064 4.933 -139.374 0.03 -54.321 0.177 154.155
23221 0.296 72.899 4.91 -160.888 0.03 -74.608 0.183 142.434
23620.5 0.345 66.419 4.793 -178.081 0.029 -95.073 0.193 134.115
24020 0.375 63.734 4.399 164.623 0.025 -118.838 0.216 129.533
24419.5 0.388 60.512 3.987 140.787 0.024 -136.479 0.263 120.485
24819 0.377 52.155 3.945 118.098 0.024 -151.934 0.317 106.719
25218.5 0.359 36.282 4.021 100.07 0.026 -164.36 0.361 91.481
25618 0.371 13.957 3.513 83.152 0.025 177.409 0.395 75.987
26017.5 0.422 -5.354 3.067 61.052 0.024 157.096 0.422 61.412
26417 0.48 -17.76 2.808 41.677 0.022 137.772 0.446 46.613
26816.5 0.521 -23.777 2.64 23.94 0.021 122.569 0.453 32.159
27216 0.529 -28.433 2.488 6.364 0.02 108.068 0.447 19.046
27615.5 0.504 -35.831 2.383 -11.03 0.02 88.34 0.431 8.218
28015 0.454 -47.469 2.269 -30.222 0.019 70.274 0.425 -0.468
28414.5 0.411 -65.317 2.137 -49.812 0.019 52.934 0.434 -9.61
28814 0.412 -86.896 1.965 -68.84 0.018 31.562 0.449 -18.972
29213.5 0.447 -103.261 1.768 -85.967 0.016 13.137 0.462 -29.485
29613 0.489 -113.082 1.652 -101.337 0.014 -2.316 0.479 -40.578
30012.5 0.517 -119.075 1.52 -116.693 0.016 -13.382 0.496 -52.854
