!Hittite Microwave Corporation								
!12 Elizabeth Drive								
!Chelmsford, MA 01824								
!Tel: 978-250-3343								
!Fax: 978-250-3373							
!Device: HMC446, 824-894 GHz, GaAs MMIC 10W T/R Switch in SOT26 package									
!Misc: Port 1= RFC, Port 2 = Rx, Port 3 = Tx, Vctl=0/+8V, Tx-RFC selected, Room							
!
# MHZ S MA R 50

750 0.134 -171.454 0.03 169.85 0.955 11.171
          0.029 170.203 0.952 173.964 0.062 -107.107
          0.956 10.816 0.063 -107.926 0.121 -27.136
753.061 0.136 -169.514 0.029 168.085 0.955 10.9
          0.028 168.51 0.952 173.731 0.062 -106.374
          0.957 10.525 0.062 -107.239 0.122 -29.945
756.122 0.138 -168.041 0.028 165.961 0.956 10.629
          0.028 166.399 0.952 173.506 0.061 -105.561
          0.956 10.247 0.061 -106.441 0.125 -32.022
759.184 0.142 -166.715 0.028 163.733 0.956 10.36
          0.027 164.167 0.952 173.282 0.061 -104.725
          0.956 9.974 0.06 -105.61 0.128 -33.907
762.245 0.145 -165.395 0.027 161.516 0.956 10.091
          0.027 161.946 0.952 173.059 0.06 -103.893
          0.956 9.703 0.06 -104.783 0.132 -35.826
765.306 0.148 -164.081 0.027 159.311 0.956 9.823
          0.026 159.738 0.952 172.834 0.06 -103.064
          0.956 9.432 0.059 -103.959 0.135 -37.777
768.367 0.151 -162.772 0.026 157.118 0.956 9.557
          0.026 157.542 0.952 172.61 0.059 -102.238
          0.955 9.162 0.059 -103.139 0.138 -39.757
771.429 0.154 -161.468 0.026 154.936 0.957 9.291
          0.025 155.359 0.952 172.385 0.059 -101.416
          0.955 8.893 0.058 -102.322 0.142 -41.767
774.49 0.157 -160.168 0.025 152.767 0.957 9.026
          0.025 153.187 0.952 172.159 0.058 -100.597
          0.955 8.626 0.058 -101.51 0.145 -43.806
777.551 0.16 -158.871 0.024 150.609 0.957 8.762
          0.025 151.028 0.952 171.933 0.058 -99.782
          0.955 8.358 0.057 -100.701 0.148 -45.872
780.612 0.163 -157.576 0.024 148.465 0.957 8.498
          0.024 148.883 0.952 171.707 0.057 -98.971
          0.954 8.092 0.057 -99.896 0.151 -47.962
783.673 0.166 -156.284 0.023 146.334 0.957 8.236
          0.024 146.75 0.952 171.48 0.057 -98.164
          0.954 7.826 0.056 -99.094 0.154 -50.078
786.735 0.17 -155.626 0.023 144.241 0.957 7.958
          0.023 144.611 0.952 171.269 0.057 -97.404
          0.954 7.574 0.056 -98.257 0.157 -51.329
789.796 0.174 -155.014 0.023 142.161 0.957 7.679
          0.023 142.481 0.952 171.059 0.056 -96.651
          0.953 7.324 0.056 -97.419 0.161 -52.529
792.857 0.178 -154.386 0.023 140.091 0.957 7.402
          0.023 140.36 0.952 170.849 0.056 -95.901
          0.953 7.074 0.055 -96.585 0.165 -53.764
795.918 0.181 -153.741 0.023 138.03 0.957 7.125
          0.023 138.248 0.952 170.638 0.056 -95.155
          0.952 6.826 0.055 -95.753 0.169 -55.032
798.98 0.185 -153.082 0.023 135.977 0.956 6.849
          0.023 136.144 0.953 170.427 0.056 -94.411
          0.952 6.578 0.055 -94.924 0.172 -56.331
802.041 0.189 -152.408 0.023 133.933 0.956 6.574
          0.023 134.049 0.953 170.215 0.056 -93.671
          0.951 6.332 0.055 -94.099 0.176 -57.659
805.102 0.193 -151.719 0.023 131.898 0.956 6.299
          0.023 131.962 0.953 170.003 0.056 -92.934
          0.951 6.085 0.054 -93.277 0.18 -59.013
808.163 0.196 -151.018 0.022 129.87 0.956 6.025
          0.023 129.883 0.953 169.791 0.056 -92.2
          0.95 5.84 0.054 -92.458 0.183 -60.394
811.224 0.2 -150.304 0.022 127.849 0.956 5.752
          0.023 127.811 0.953 169.578 0.055 -91.47
          0.95 5.595 0.054 -91.642 0.187 -61.801
814.286 0.204 -149.609 0.022 125.873 0.956 5.48
          0.023 125.775 0.954 169.365 0.055 -90.75
          0.949 5.352 0.054 -90.833 0.19 -63.195
817.347 0.208 -149.362 0.022 124.459 0.955 5.228
          0.023 124.187 0.953 169.156 0.055 -90.15
          0.948 5.139 0.054 -90.082 0.194 -64.031
820.408 0.212 -149.1 0.023 123.045 0.953 4.977
          0.023 122.598 0.953 168.947 0.055 -89.552
          0.948 4.927 0.054 -89.333 0.198 -64.884
823.469 0.215 -148.825 0.023 121.629 0.952 4.727
          0.023 121.007 0.953 168.737 0.055 -88.957
          0.947 4.715 0.054 -88.586 0.202 -65.754
826.531 0.219 -148.537 0.023 120.212 0.951 4.477
          0.024 119.413 0.953 168.527 0.055 -88.364
          0.946 4.503 0.054 -87.842 0.206 -66.638
829.592 0.223 -148.236 0.023 118.793 0.95 4.227
          0.024 117.818 0.953 168.317 0.055 -87.773
          0.946 4.292 0.054 -87.1 0.21 -67.537
832.653 0.227 -147.924 0.023 117.372 0.949 3.978
          0.024 116.22 0.953 168.106 0.055 -87.185
          0.945 4.082 0.054 -86.36 0.213 -68.452
835.714 0.231 -147.601 0.024 115.949 0.948 3.729
          0.024 114.619 0.952 167.895 0.055 -86.599
          0.945 3.872 0.054 -85.622 0.217 -69.382
838.776 0.235 -147.267 0.024 114.524 0.947 3.481
          0.024 113.016 0.952 167.683 0.055 -86.016
          0.944 3.662 0.054 -84.887 0.221 -70.323
841.837 0.239 -146.922 0.024 113.097 0.946 3.233
          0.025 111.41 0.952 167.471 0.055 -85.435
          0.943 3.452 0.054 -84.154 0.225 -71.276
844.898 0.243 -146.627 0.024 111.786 0.945 2.999
          0.025 109.945 0.952 167.262 0.055 -84.879
          0.943 3.247 0.054 -83.475 0.228 -72.175
847.959 0.246 -146.545 0.025 110.911 0.943 2.817
          0.025 109.012 0.952 167.066 0.055 -84.409
          0.942 3.056 0.054 -82.988 0.232 -72.834
851.02 0.25 -146.456 0.025 110.033 0.942 2.635
          0.025 108.075 0.952 166.869 0.055 -83.94
          0.942 2.865 0.055 -82.503 0.236 -73.501
854.082 0.254 -146.359 0.025 109.153 0.941 2.453
          0.026 107.137 0.953 166.672 0.055 -83.473
          0.941 2.674 0.055 -82.019 0.24 -74.177
857.143 0.258 -146.253 0.026 108.27 0.939 2.272
          0.026 106.196 0.953 166.475 0.055 -83.007
          0.94 2.484 0.055 -81.537 0.243 -74.858
860.204 0.262 -146.141 0.026 107.385 0.938 2.091
          0.026 105.254 0.953 166.277 0.056 -82.542
          0.94 2.293 0.056 -81.056 0.247 -75.546
863.265 0.266 -146.023 0.027 106.497 0.937 1.91
          0.027 104.308 0.953 166.079 0.056 -82.079
          0.939 2.103 0.056 -80.577 0.251 -76.242
866.327 0.27 -145.898 0.027 105.607 0.935 1.73
          0.027 103.361 0.953 165.881 0.056 -81.618
          0.939 1.914 0.056 -80.099 0.254 -76.946
869.388 0.273 -145.767 0.027 104.715 0.934 1.549
          0.027 102.411 0.954 165.682 0.056 -81.158
          0.938 1.724 0.056 -79.623 0.258 -77.654
872.449 0.277 -145.629 0.028 103.82 0.933 1.369
          0.028 101.46 0.954 165.483 0.056 -80.699
          0.938 1.535 0.057 -79.148 0.262 -78.368
875.51 0.281 -145.549 0.028 103.024 0.932 1.197
          0.028 100.681 0.954 165.285 0.056 -80.299
          0.937 1.349 0.057 -78.785 0.265 -79.027
878.571 0.285 -145.576 0.029 102.401 0.931 1.038
          0.028 100.208 0.954 165.091 0.056 -80
          0.937 1.168 0.057 -78.617 0.269 -79.58
881.633 0.289 -145.597 0.029 101.778 0.93 0.88
          0.029 99.735 0.954 164.897 0.057 -79.701
          0.936 0.987 0.058 -78.45 0.273 -80.134
884.694 0.292 -145.614 0.03 101.155 0.929 0.722
          0.029 99.262 0.954 164.702 0.057 -79.404
          0.936 0.807 0.058 -78.284 0.276 -80.693
887.755 0.296 -145.628 0.03 100.53 0.928 0.564
          0.03 98.787 0.954 164.507 0.057 -79.108
          0.936 0.626 0.058 -78.119 0.28 -81.257
890.816 0.3 -145.638 0.031 99.905 0.928 0.406
          0.03 98.312 0.954 164.311 0.057 -78.812
          0.935 0.446 0.059 -77.955 0.283 -81.824
893.878 0.303 -145.644 0.031 99.279 0.927 0.248
          0.03 97.837 0.954 164.115 0.057 -78.517
          0.935 0.266 0.059 -77.792 0.287 -82.394
896.939 0.307 -145.646 0.032 98.653 0.926 0.09
          0.031 97.361 0.954 163.919 0.057 -78.224
          0.934 0.085 0.059 -77.629 0.29 -82.967
900 0.311 -145.646 0.032 98.026 0.925 -0.068
          0.031 96.884 0.954 163.722 0.058 -77.931
          0.934 -0.095 0.059 -77.468 0.294 -83.546
