!Hittite Microwave Corporation								
!12 Elizabeth Drive								
!Chelmsford, MA 01824								
!Tel: 978-250-3343								
!Fax: 978-250-3373							 	
!Device: HMC461LP3, 1.7-2.2 GHz, InGaP HBT 1 Watt High IP3 Amplifier in Leadless LP3 SMT Package								
!Misc: Input reference is the balun at input line, output reference is the balun at output line, Vs=+5V, Room							
!
# MHZ S MA R 50

50 0.458 -12.723 904.6e-6 -56.305 1.292e-3 -159.083 1.003 -13.345
99.75 0.463 -25.395 462.5e-6 -33.481 1.043e-3 93.805 0.997 -27.348
149.5 0.47 -38.21 3.867e-3 93.862 438.7e-6 -64.555 0.993 -41.038
199.25 0.478 -50.197 0.014 67.006 639.3e-6 6.833 0.974 -54.866
249 0.486 -62.056 0.029 44.121 596.4e-6 -104.403 0.946 -68.952
298.75 0.493 -73.291 0.049 12.533 187.3e-6 134.871 0.918 -82.346
348.5 0.498 -84.352 0.048 3.645 426.1e-6 -103.738 0.92 -97.62
398.25 0.498 -94.871 0.101 0.624 1.104e-3 -147.954 0.869 -117.024
448 0.491 -104.57 0.17 -27.866 1.215e-3 176.858 0.775 -137.824
497.75 0.482 -112.679 0.231 -63.804 2.202e-3 156.588 0.627 -163.122
547.5 0.479 -117.967 0.222 -114.706 2.472e-3 94.491 0.357 164.053
597.25 0.504 -122.503 0.1 133.414 1.617e-3 13.104 0.029 -103.357
647 0.555 -129.651 0.278 9.264 1.672e-3 -84.119 0.295 -101.661
696.75 0.599 -139.25 0.491 -33.329 3.05e-3 -140.255 0.4 -127.718
746.5 0.629 -150.006 0.688 -62.186 4.638e-3 -169.796 0.413 -148.866
796.25 0.647 -160.422 0.872 -83.45 5.434e-3 175.47 0.383 -165.725
846 0.657 -171.233 1.084 -102.79 7.406e-3 160.59 0.332 179.063
895.75 0.663 178.176 1.302 -120.918 9.481e-3 146.629 0.276 167.757
945.5 0.664 167.332 1.557 -138.612 0.012 136.28 0.212 160.948
995.25 0.661 156.003 1.839 -156.051 0.014 121.963 0.16 160.21
1045 0.654 144.515 2.127 -173.572 0.017 110.745 0.135 171.02
1094.75 0.642 132.18 2.447 169.171 0.022 97.553 0.139 -177.791
1144.5 0.626 119.731 2.749 151.335 0.026 84.876 0.167 -176.28
1194.25 0.603 106.344 3.025 133.56 0.031 72.058 0.194 177.959
1244 0.576 92.819 3.355 115.578 0.035 56.566 0.218 165.974
1293.75 0.544 78.961 3.565 98.7 0.042 45.246 0.236 153.168
1343.5 0.507 64.388 3.844 81.895 0.048 28.083 0.234 137.846
1393.25 0.464 50.22 3.984 64.125 0.055 14.913 0.233 119.918
1443 0.417 35.443 4.2 47.287 0.06 -0.596 0.218 103.39
1492.75 0.368 21.602 4.297 30.227 0.065 -13.803 0.198 84.28
1542.5 0.316 8.486 4.345 13.919 0.072 -28.38 0.175 66.154
1592.25 0.271 -3.281 4.399 -2.658 0.075 -43.48 0.154 47.567
1642 0.227 -13.438 4.355 -18.224 0.08 -57.504 0.138 31.561
1691.75 0.188 -22.109 4.303 -33.356 0.084 -70.678 0.112 15.926
1741.5 0.159 -27.062 4.218 -48.236 0.087 -83.156 0.106 -1.123
1791.25 0.137 -31.843 4.143 -62.326 0.091 -95.385 0.09 -8.715
1841 0.121 -34.026 4.059 -76.399 0.093 -108.449 0.078 -21.761
1890.75 0.113 -36.219 3.974 -89.665 0.097 -120.723 0.072 -29.556
1940.5 0.109 -39.89 3.88 -103.15 0.1 -132.53 0.062 -35.759
1990.25 0.109 -43.977 3.816 -116.075 0.103 -143.994 0.056 -46.394
2040 0.109 -51.535 3.728 -129.036 0.105 -155.979 0.047 -51.14
2089.75 0.113 -61.146 3.657 -141.683 0.109 -167.953 0.041 -77.715
2139.5 0.114 -73.802 3.568 -154.792 0.111 -179.479 0.037 -91.606
2189.25 0.121 -88.238 3.521 -167.322 0.114 168.869 0.034 -141.896
2239 0.134 -106.217 3.421 179.745 0.116 156.53 0.058 -169.937
2288.75 0.148 -125.614 3.349 167.084 0.122 144.819 0.078 170.045
2338.5 0.174 -143.712 3.26 152.945 0.121 132.527 0.118 149.937
2388.25 0.205 -162.006 3.172 141.639 0.12 120.969 0.162 138.321
2438 0.248 -179.302 3.003 126.465 0.121 106.907 0.214 125.723
2487.75 0.295 164.485 2.861 113.84 0.127 95.885 0.269 115.466
2537.5 0.347 149.751 2.787 98.136 0.12 82.831 0.325 103.563
2587.25 0.403 136.226 2.528 89.958 0.111 71.01 0.389 93.468
2637 0.458 123.349 2.288 73.999 0.107 56.605 0.44 84.111
2686.75 0.511 111.381 2.178 62.682 0.112 48.206 0.492 72.828
2736.5 0.559 100.152 1.928 53.15 0.101 37.65 0.541 64.248
2786.25 0.603 89.967 1.696 40.306 0.09 24.435 0.576 54.725
2836 0.639 80.465 1.586 30.682 0.085 14.362 0.613 45.835
2885.75 0.669 71.716 1.485 24.401 0.083 12.107 0.637 37.478
2935.5 0.697 63.733 1.281 18.067 0.078 3.537 0.661 29.279
2985.25 0.72 56.242 1.179 2.648 0.071 -10.096 0.678 22.211
3035 0.737 49.763 1.158 -0.151 0.074 -16.021 0.686 14.005
3084.75 0.752 43.391 1.026 -8.075 0.064 -16.972 0.7 6.613
3134.5 0.766 37.544 0.968 -13.616 0.061 -22.556 0.7 0.441
3184.25 0.776 32.122 1.002 -20.863 0.063 -36.017 0.703 -7.169
3234 0.783 26.966 0.834 -27.579 0.064 -38.779 0.701 -13.552
3283.75 0.788 21.966 0.818 -37.082 0.059 -46.359 0.694 -20.482
3333.5 0.792 17.269 0.809 -43.645 0.054 -50.465 0.684 -27.207
3383.25 0.794 12.702 0.794 -44.837 0.061 -55.454 0.666 -33.73
3433 0.794 8.17 0.756 -56.317 0.06 -63.901 0.646 -41.552
3482.75 0.791 3.77 0.707 -63.739 0.06 -72.078 0.622 -48.146
3532.5 0.787 -0.449 0.718 -69.751 0.058 -83.05 0.582 -56.471
3582.25 0.78 -4.671 0.704 -77.106 0.06 -79.678 0.545 -65.364
3632 0.77 -8.912 0.731 -84.824 0.058 -91.085 0.49 -73.92
3681.75 0.756 -12.858 0.703 -91.735 0.063 -96.82 0.425 -85.287
3731.5 0.739 -16.759 0.687 -101.882 0.066 -113.728 0.353 -97.889
3781.25 0.72 -20.228 0.685 -110.033 0.063 -116.736 0.266 -115.262
3831 0.698 -23.294 0.694 -121.199 0.065 -128.315 0.189 -141.025
3880.75 0.68 -25.892 0.684 -131.459 0.064 -133.19 0.129 170.942
3930.5 0.664 -28.007 0.665 -143.389 0.069 -146.48 0.172 116.378
3980.25 0.654 -30.045 0.642 -152.801 0.064 -163.707 0.25 84.523
4030 0.652 -31.913 0.605 -166.445 0.067 -171.508 0.352 63.984
4079.75 0.65 -34.513 0.554 -174.575 0.058 179.492 0.438 50.058
4129.5 0.655 -37.392 0.526 170.778 0.056 169.16 0.517 37.115
4179.25 0.655 -40.411 0.462 166.673 0.057 159.717 0.583 27.145
4229 0.654 -44.276 0.482 153.645 0.055 145.955 0.632 17.459
4278.75 0.652 -47.977 0.418 142.74 0.047 135.712 0.677 9.058
4328.5 0.644 -52.481 0.394 139.504 0.048 124.744 0.706 1.592
4378.25 0.636 -57.055 0.363 123.075 0.043 123.49 0.732 -6.438
4428 0.624 -61.914 0.344 123.271 0.043 111.111 0.751 -12.414
4477.75 0.609 -67.257 0.387 105.55 0.039 97.656 0.76 -19.496
4527.5 0.591 -72.206 0.282 100.948 0.042 89.478 0.771 -26.087
4577.25 0.566 -78.18 0.334 87.042 0.036 83.354 0.774 -32.227
4627 0.545 -84.567 0.271 79.942 0.036 72.112 0.775 -39.039
4676.75 0.518 -90.865 0.299 71.81 0.036 64.345 0.777 -45.394
4726.5 0.489 -97.879 0.265 54.344 0.039 51.914 0.767 -52.493
4776.25 0.457 -104.624 0.271 45.91 0.033 39.852 0.762 -60.431
4826 0.422 -111.993 0.243 30.899 0.036 27.349 0.744 -68.064
4875.75 0.386 -119.697 0.243 18.647 0.035 16.684 0.723 -77.928
4925.5 0.347 -127.442 0.239 4.469 0.036 3.05 0.691 -88.171
4975.25 0.307 -135.607 0.219 -14.709 0.035 -17.865 0.633 -101.927
5025 0.266 -142.969 0.189 -36.163 0.034 -39.447 0.553 -119.849
5074.75 0.219 -151.104 0.159 -63.983 0.03 -64.028 0.419 -144.067
5124.5 0.176 -158.568 0.118 -100.378 0.024 -100.084 0.252 172.743
5174.25 0.128 -161.297 0.073 -160.339 0.016 -144.121 0.178 82.128
5224 0.088 -159.284 0.073 117.925 0.012 142.245 0.327 19.622
5273.75 0.069 -142.463 0.107 68.507 0.015 79.814 0.455 -11.849
5323.5 0.064 -117.562 0.132 34.974 0.02 43.134 0.547 -33.288
5373.25 0.078 -105.782 0.149 17.791 0.024 17.989 0.599 -49.384
5423 0.103 -101.249 0.163 -1.736 0.027 0.373 0.632 -64.287
5472.75 0.123 -104.373 0.166 -15.892 0.03 -16.506 0.65 -76.212
5522.5 0.15 -110.92 0.185 -35.989 0.033 -31.272 0.656 -89.178
5572.25 0.171 -117.711 0.184 -45.101 0.035 -45.477 0.664 -101.18
5622 0.191 -128.225 0.194 -57.551 0.036 -57.969 0.664 -113.415
5671.75 0.215 -137.204 0.184 -68.634 0.036 -69.137 0.668 -125.86
5721.5 0.231 -148.026 0.192 -85.059 0.04 -78.745 0.667 -137.389
5771.25 0.255 -158.923 0.199 -93.267 0.039 -95.645 0.665 -150.956
5821 0.273 -168.776 0.178 -107.091 0.04 -102.089 0.675 -163.625
5870.75 0.292 179.681 0.193 -118.042 0.037 -116.189 0.677 -176.065
5920.5 0.314 169.813 0.178 -125.345 0.037 -122.875 0.688 171.564
5970.25 0.331 159.548 0.167 -136.058 0.039 -136.696 0.693 160.084
6020 0.351 149.575 0.152 -150.113 0.037 -143.313 0.701 147.902
6069.75 0.364 139.924 0.152 -159.056 0.035 -152.974 0.714 137.064
6119.5 0.382 130.098 0.142 -161.73 0.032 -163.35 0.719 126.45
6169.25 0.395 121.589 0.122 -173.107 0.034 -167.096 0.733 116.341
6219 0.404 112.025 0.131 178.851 0.031 -176.609 0.736 107.129
6268.75 0.416 103.303 0.115 174.476 0.029 175.326 0.742 97.068
6318.5 0.417 94.328 0.104 166.205 0.027 166.815 0.751 88.467
6368.25 0.424 84.831 0.099 159.616 0.027 163.697 0.754 80.125
6418 0.425 76.305 0.108 156.393 0.025 162.163 0.759 71.554
6467.75 0.423 66.88 0.083 156.149 0.023 148.837 0.761 63.973
6517.5 0.422 58.017 0.085 140.102 0.022 144.632 0.764 55.366
6567.25 0.416 48.636 0.079 143.814 0.021 143.436 0.771 48.448
6617 0.413 39.203 0.078 142.144 0.019 143.564 0.771 41.119
6666.75 0.404 30.763 0.07 131.285 0.02 134.332 0.775 34.017
6716.5 0.391 21.491 0.077 132.618 0.02 132.083 0.774 27.166
6766.25 0.381 12.816 0.066 129.136 0.018 133.561 0.776 19.688
6816 0.361 4.456 0.06 127.034 0.017 127.862 0.782 13.441
6865.75 0.345 -4.328 0.075 119.078 0.018 124.578 0.781 6.82
6915.5 0.324 -11.034 0.067 125.224 0.019 125.353 0.788 0.36
6965.25 0.298 -17.969 0.067 115.251 0.018 120.039 0.786 -5.958
7015 0.272 -23.11 0.067 106.373 0.017 113.716 0.789 -13.052
7064.75 0.238 -26.939 0.068 106.697 0.019 108.172 0.798 -18.778
7114.5 0.214 -28.98 0.066 99.688 0.018 106.245 0.797 -24.502
7164.25 0.189 -24.76 0.066 89.122 0.019 99.541 0.801 -31.001
7214 0.176 -18.918 0.068 89.923 0.018 90.554 0.802 -36.885
7263.75 0.189 -10.077 0.05 77.898 0.017 87.271 0.8 -44.12
7313.5 0.211 -3.222 0.053 75.489 0.014 81.784 0.799 -50.343
7363.25 0.252 -3.746 0.047 82.089 0.013 88.413 0.786 -56.131
7413 0.304 -5.849 0.058 93.772 0.016 99.979 0.766 -61.181
7462.75 0.349 -10.446 0.066 75.294 0.021 88.165 0.765 -64.74
7512.5 0.402 -15.868 0.074 63.971 0.02 66.488 0.778 -70.449
7562.25 0.448 -23.285 0.064 44.912 0.021 55.526 0.797 -76.745
7612 0.501 -31.381 0.062 39.765 0.017 49.486 0.803 -82.364
7661.75 0.541 -39.579 0.056 29.9 0.017 40.945 0.808 -89.679
7711.5 0.579 -48.712 0.042 23.807 0.014 30.784 0.81 -95.878
7761.25 0.61 -57.107 0.037 15.85 0.011 25.193 0.805 -103.265
7811 0.63 -66.463 0.029 13.812 9.506e-3 24.376 0.807 -110.618
7860.75 0.65 -75.554 0.027 21.844 7.903e-3 24.911 0.8 -117.356
7910.5 0.659 -84.342 0.021 22.761 7.609e-3 36.519 0.794 -125.367
7960.25 0.655 -93.387 0.021 39.284 6.306e-3 46.501 0.785 -132.944
8010 0.649 -102.44 0.021 42.417 6.903e-3 52.29 0.773 -141.198
8059.75 0.633 -111.566 0.027 48.964 8.082e-3 59.335 0.762 -149.997
8109.5 0.606 -121.28 0.031 48.004 0.01 59.166 0.748 -158.391
8159.25 0.571 -131.218 0.035 42.811 0.012 56.252 0.73 -167.806
8209 0.524 -141.952 0.039 38.473 0.013 45.965 0.711 -177.211
8258.75 0.47 -153.657 0.04 27.892 0.014 38.813 0.689 172.421
8308.5 0.404 -166.671 0.045 21.052 0.014 29.444 0.669 162.263
8358.25 0.338 177.192 0.044 6.145 0.015 19.241 0.641 151.319
8408 0.267 159.624 0.046 -1.417 0.015 8.153 0.613 139.375
8457.75 0.202 133.077 0.04 -14.853 0.014 -3.19 0.586 126.931
8507.5 0.165 98.735 0.038 -24.525 0.013 -15.685 0.551 113.707
8557.25 0.168 57.232 0.031 -36.921 0.011 -26.809 0.52 100.011
8607 0.209 27.095 0.025 -43.734 8.376e-3 -35.614 0.47 86.444
8656.75 0.265 4.808 0.018 -48.91 5.642e-3 -41.553 0.411 71.401
8706.5 0.319 -9.741 0.012 -44.709 3.545e-3 -30.399 0.34 60.978
8756.25 0.367 -24.589 8.633e-3 -29.634 2.259e-3 -11.577 0.259 59.838
8806 0.42 -34.491 6.575e-3 1.098 1.971e-3 36.008 0.247 72.601
8855.75 0.449 -44.346 9.558e-3 46.899 4.256e-3 72.398 0.316 79.078
8905.5 0.485 -54.094 0.016 53.882 7.245e-3 73.949 0.411 70.758
8955.25 0.512 -61.505 0.027 51.758 0.011 67.483 0.501 59.792
9005 0.533 -69.444 0.037 41.81 0.015 57.88 0.565 47.375
9054.75 0.548 -75.756 0.048 30.946 0.019 44.885 0.623 35.296
9104.5 0.553 -82.353 0.057 19.237 0.023 32.397 0.661 24.927
9154.25 0.56 -87.842 0.067 7.153 0.027 20.262 0.692 14.061
9204 0.554 -92.702 0.078 -3.27 0.032 10.37 0.72 5.127
9253.75 0.549 -97.427 0.086 -16.634 0.035 -3.235 0.737 -3.376
9303.5 0.54 -100.277 0.097 -29.831 0.04 -16.951 0.755 -11.455
9353.25 0.526 -102.361 0.104 -44.096 0.044 -31.286 0.773 -18.173
9403 0.522 -104.064 0.111 -58.015 0.046 -45.045 0.784 -24.854
9452.75 0.527 -104.877 0.113 -72.842 0.047 -60.243 0.803 -30.755
9502.5 0.54 -106.024 0.114 -87.174 0.048 -73.583 0.814 -35.211
9552.25 0.562 -108.125 0.111 -100.992 0.047 -87.861 0.825 -40.746
9602 0.583 -110.473 0.106 -113.728 0.046 -100.589 0.838 -45.135
9651.75 0.602 -114.267 0.101 -125.65 0.044 -112.196 0.848 -49.83
9701.5 0.621 -118.445 0.095 -136.502 0.041 -123.946 0.861 -54.751
9751.25 0.629 -123.155 0.09 -146.841 0.039 -134.172 0.87 -57.856
9801 0.641 -128.265 0.084 -155.345 0.038 -143.075 0.873 -62.503
9850.75 0.639 -132.752 0.081 -165.687 0.035 -151.156 0.884 -66.334
9900.5 0.635 -138.633 0.077 -171.134 0.035 -160.192 0.883 -70.292
9950.25 0.632 -144.047 0.074 178.541 0.033 -169.879 0.889 -74.512
10000 0.614 -149.932 0.071 171.951 0.032 -176.585 0.891 -77.72
