!Hittite Microwave Corporation								
!12 Elizabeth Drive								
!Chelmsford, MA 01824								
!Tel: 978-250-3343								
!Fax: 978-250-3373								
!Device: HMC441LM1, 7-15.5 GHz GaAs PHEMT MMIc Medium Power Amplifier in SMT leadless chip carrier package								
!Misc: Vdd1 = Vdd2 = +5V, Vgg1 = vgg2 = Open, Room								
!
# MHZ S MA R 50

0 1.01 1.47 0.032 -162.955 275.4e-6 -63.996 1.067 2.964
100 1.008 -2.237 0.027 -165.928 191.5e-6 -60.957 1.057 -2.358
200 1.006 -5.944 0.023 -168.898 107.6e-6 -57.916 1.047 -7.679
300 1.005 -9.649 0.019 -171.866 23.72e-6 -54.872 1.037 -12.997
400 1.003 -13.351 0.014 -174.828 60.07e-6 128.177 1.026 -18.31
500 1.001 -17.05 9.979e-3 -177.785 143.7e-6 131.232 1.016 -23.616
600 1.001 -20.744 5.683e-3 179.265 227.7e-6 134.294 1.008 -28.914
700 1 -24.433 1.374e-3 176.324 311.1e-6 137.364 0.998 -34.201
800 0.998 -28.114 2.924e-3 -6.606 394.4e-6 140.446 0.987 -39.476
900 0.996 -31.79 7.211e-3 -9.529 477.4e-6 143.535 0.977 -44.74
1000 0.994 -35.458 0.011 -12.441 560.1e-6 146.634 0.967 -49.991
1100 0.993 -39.12 0.016 -15.691 658e-6 149.359 0.957 -55.212
1200 0.991 -42.813 0.022 -25.391 1.034e-3 144.437 0.953 -60.151
1300 0.988 -46.577 0.027 -33.401 1.273e-3 136.757 0.947 -65.478
1400 0.986 -50.348 0.036 -40.337 1.492e-3 131.03 0.937 -70.787
1500 0.984 -54.197 0.044 -46.355 1.805e-3 127.293 0.923 -76.107
1600 0.982 -58.101 0.055 -52.622 2.224e-3 122.688 0.908 -81.459
1700 0.979 -62.038 0.069 -61.161 2.957e-3 116.714 0.896 -86.487
1800 0.976 -66.013 0.082 -69.307 3.589e-3 109.858 0.88 -91.683
1900 0.972 -70.087 0.093 -76.344 4.197e-3 101.068 0.862 -96.852
2000 0.968 -74.284 0.107 -83.049 4.917e-3 91.916 0.841 -102.054
2100 0.963 -78.552 0.128 -89.955 5.788e-3 84.441 0.818 -107.14
2200 0.957 -82.895 0.146 -96.643 6.678e-3 77.051 0.797 -111.931
2300 0.951 -87.361 0.162 -102.64 7.609e-3 66.886 0.776 -116.837
2400 0.945 -91.887 0.178 -108.537 8.687e-3 57.619 0.755 -121.576
2500 0.94 -96.572 0.196 -112.71 9.767e-3 47.601 0.735 -126.44
2600 0.931 -101.422 0.215 -115.701 0.011 37.262 0.713 -131.17
2700 0.922 -106.419 0.237 -119.284 0.012 29.431 0.693 -135.72
2800 0.913 -111.619 0.262 -120.682 0.013 17.915 0.673 -140.614
2900 0.901 -116.894 0.297 -121.996 0.013 7.836 0.652 -145.573
3000 0.889 -122.484 0.341 -123.695 0.014 -1.845 0.631 -150.666
3100 0.874 -128.299 0.402 -124.874 0.015 -13.594 0.607 -155.747
3200 0.857 -134.394 0.485 -128.027 0.015 -26.631 0.577 -160.813
3300 0.838 -140.658 0.577 -133.065 0.015 -37.056 0.55 -165.423
3400 0.818 -147.078 0.683 -138.475 0.014 -48.593 0.523 -169.832
3500 0.797 -153.799 0.793 -143.76 0.014 -54.935 0.502 -174.536
3600 0.771 -160.807 0.93 -150.443 0.014 -66.861 0.474 -178.576
3700 0.745 -168.066 1.069 -157.727 0.013 -76.322 0.45 177.586
3800 0.72 -175.556 1.212 -164.67 0.012 -83.2 0.431 173.498
3900 0.693 176.484 1.373 -171.457 0.012 -91.614 0.412 169.005
4000 0.66 168.405 1.549 -179.07 0.011 -102.796 0.39 165.287
4100 0.629 160.274 1.72 173.194 9.474e-3 -113.473 0.372 161.773
4200 0.603 151.686 1.891 165.747 7.874e-3 -115.458 0.359 157.453
4300 0.575 142.56 2.073 158.174 7.081e-3 -118.343 0.344 153.042
4400 0.55 133.033 2.264 150.625 6.986e-3 -120.912 0.328 148.427
4500 0.521 123.428 2.45 142.83 6.43e-3 -126.827 0.312 144.45
4600 0.497 113.536 2.624 135.132 5.923e-3 -130.898 0.298 140.126
4700 0.474 103.504 2.8 127.632 5.667e-3 -134.058 0.286 135.683
4800 0.457 93.07 2.98 120.222 5.585e-3 -138.182 0.274 131.18
4900 0.442 82.751 3.134 112.777 5.368e-3 -137.453 0.263 126.778
5000 0.427 72.187 3.287 105.562 5.463e-3 -148.905 0.251 121.524
5100 0.412 62.185 3.427 98.456 5.749e-3 -154.182 0.239 116.894
5200 0.399 52.386 3.555 91.516 5.917e-3 -167.026 0.231 112.663
5300 0.391 43.657 3.674 84.869 5.543e-3 -179.631 0.226 108.354
5400 0.388 35.251 3.788 78.34 4.889e-3 171.025 0.219 102.641
5500 0.386 26.881 3.897 72.011 4.474e-3 163.306 0.211 96.849
5600 0.384 18.812 4.004 65.915 4.338e-3 158.188 0.205 91.483
5700 0.382 11.448 4.091 59.897 4.534e-3 149.893 0.201 86.672
5800 0.379 4.899 4.178 54.21 4.543e-3 132.222 0.197 81.699
5900 0.382 -1.186 4.28 48.613 3.889e-3 115.537 0.193 75.473
6000 0.387 -7.205 4.377 42.985 3.236e-3 112.644 0.19 69.588
6100 0.39 -13.332 4.469 37.525 3.087e-3 111.3 0.188 64.002
6200 0.392 -18.758 4.56 32.146 2.938e-3 108.277 0.184 59.123
6300 0.395 -24.302 4.639 26.77 2.947e-3 106.089 0.183 53.799
6400 0.395 -29.654 4.706 21.575 2.824e-3 102.528 0.181 48.313
6500 0.397 -34.626 4.793 16.515 3.068e-3 101.697 0.181 43.338
6600 0.4 -39.118 4.862 11.383 3.182e-3 98.534 0.181 39.557
6700 0.399 -43.488 4.926 6.5 3.449e-3 101.257 0.179 34.484
6800 0.398 -48.096 4.993 1.744 3.582e-3 99.696 0.18 29.347
6900 0.397 -52.555 5.063 -3.019 3.784e-3 96.928 0.181 25.288
7000 0.399 -56.493 5.139 -7.618 4.301e-3 93.573 0.183 21.297
7100 0.395 -60.13 5.217 -12.263 4.624e-3 88.798 0.182 17.91
7200 0.393 -63.624 5.283 -16.939 4.946e-3 84.02 0.182 13.744
7300 0.39 -67.265 5.331 -21.461 4.985e-3 82.064 0.186 9.916
7400 0.388 -70.767 5.388 -25.762 5.183e-3 82.134 0.189 5.864
7500 0.385 -74.528 5.457 -30.214 5.697e-3 79.595 0.189 3.575
7600 0.381 -77.727 5.516 -34.592 6.04e-3 76.653 0.19 0.172
7700 0.377 -80.632 5.57 -38.883 6.429e-3 73.94 0.192 -3.392
7800 0.372 -83.881 5.634 -43.108 6.66e-3 71.595 0.195 -6.38
7900 0.367 -87.262 5.698 -47.365 6.718e-3 70.546 0.198 -9.454
8000 0.361 -90.402 5.76 -51.581 7.017e-3 68.425 0.198 -11.984
8100 0.356 -93.623 5.823 -55.803 7.285e-3 66.482 0.199 -15.145
8200 0.349 -96.467 5.871 -60 7.667e-3 64.788 0.201 -17.621
8300 0.342 -98.771 5.943 -63.999 8.226e-3 63.478 0.205 -20.313
8400 0.333 -101.604 6.001 -68.348 8.573e-3 60.019 0.201 -21.797
8500 0.325 -104.393 6.022 -72.301 8.841e-3 60.492 0.202 -24.962
8600 0.322 -106.917 6.057 -76.277 9.099e-3 59.732 0.203 -27.398
8700 0.317 -110.068 6.133 -80.266 9.75e-3 55.372 0.203 -28.405
8800 0.307 -112.24 6.206 -84.167 9.929e-3 53.755 0.205 -29.302
8900 0.296 -114.847 6.271 -88.214 0.01 51.628 0.203 -30.86
9000 0.292 -118.277 6.357 -92.278 0.01 51.036 0.205 -32.759
9100 0.285 -121.91 6.406 -96.578 0.011 49.575 0.209 -34.507
9200 0.278 -124.019 6.437 -100.762 0.011 46.81 0.216 -35.994
9300 0.267 -126.395 6.462 -104.566 0.011 46.494 0.215 -38.003
9400 0.255 -129.295 6.527 -107.96 0.011 46.981 0.213 -40.849
9500 0.248 -132.486 6.638 -111.887 0.012 48.113 0.21 -43.192
9600 0.242 -135.094 6.712 -116.31 0.013 46.944 0.21 -44.205
9700 0.235 -137.536 6.756 -120.531 0.014 43.325 0.21 -44.923
9800 0.219 -140.422 6.767 -124.706 0.014 41.13 0.208 -46.815
9900 0.208 -144.723 6.797 -128.628 0.015 38.229 0.204 -48.421
10000 0.201 -147.151 6.819 -132.533 0.015 34.38 0.205 -49.531
10100 0.204 -148.274 6.896 -136.184 0.014 37.207 0.204 -52.089
10200 0.188 -152.394 6.931 -140.52 0.015 34.691 0.201 -52.44
10300 0.175 -156.517 6.98 -144.381 0.015 33.781 0.192 -53.846
10400 0.17 -162.402 7.038 -148.589 0.016 32.097 0.19 -53.644
10500 0.161 -168.208 7.043 -152.847 0.017 29.183 0.192 -53.714
10600 0.153 -169.011 7.099 -157.208 0.017 27.742 0.19 -55.208
10700 0.136 -174.425 7.075 -161.428 0.017 27.519 0.182 -57.36
10800 0.12 177.674 7.067 -165.69 0.017 23.806 0.178 -56.378
10900 0.112 169.562 7.043 -170.017 0.017 21.043 0.176 -55.844
11000 0.107 167.068 6.991 -174.067 0.017 20.583 0.181 -56.233
11100 0.087 166.811 6.916 -177.777 0.017 20.438 0.176 -56.617
11200 0.074 166.929 6.891 178.638 0.017 20.707 0.17 -57.501
11300 0.073 157.559 6.887 174.85 0.017 20.901 0.166 -58.882
11400 0.075 150.211 6.878 170.948 0.018 20.727 0.162 -59.05
11500 0.075 146.378 6.862 167.116 0.019 19.412 0.157 -57.254
11600 0.069 141.233 6.844 163.479 0.019 17.538 0.154 -57.061
11700 0.063 132.096 6.844 159.705 0.019 17.057 0.15 -56.852
11800 0.068 119.236 6.827 155.443 0.019 16.938 0.142 -56.433
11900 0.074 110.94 6.788 151.515 0.02 17.19 0.136 -53.081
12000 0.073 102.512 6.753 147.767 0.021 14.931 0.139 -48.42
12100 0.076 92.393 6.694 143.757 0.022 11.906 0.14 -48.182
12200 0.079 81.561 6.622 139.69 0.021 9.62 0.139 -46.966
12300 0.084 78.832 6.595 136.329 0.021 9.054 0.134 -47.095
12400 0.098 72.14 6.548 132.073 0.021 12.764 0.133 -39.902
12500 0.103 59.807 6.441 128.26 0.023 9.654 0.136 -38.194
12600 0.11 51.814 6.376 124.367 0.023 6.522 0.143 -37.286
12700 0.112 46.864 6.289 120.823 0.024 4.491 0.147 -38.246
12800 0.113 44.339 6.204 117.234 0.024 2.305 0.15 -37.27
12900 0.115 40.303 6.13 113.401 0.023 0.426 0.149 -34.702
13000 0.132 37.766 6.034 109.736 0.023 0.326 0.143 -32.252
13100 0.142 34.51 5.943 106.412 0.023 -0.358 0.153 -31.148
13200 0.148 30.213 5.855 102.902 0.024 -0.523 0.159 -30.312
13300 0.144 25.798 5.755 99.51 0.024 -2.487 0.165 -28.717
13400 0.143 23.817 5.674 96.228 0.024 -4.586 0.169 -28.102
13500 0.158 23.539 5.588 92.519 0.024 -5.066 0.169 -28.377
13600 0.181 21.038 5.433 88.86 0.024 -0.824 0.175 -24.98
13700 0.184 16.965 5.327 86.134 0.026 -1.429 0.19 -25.546
13800 0.189 12.99 5.212 82.754 0.027 -4.12 0.203 -25.23
13900 0.192 7.773 5.084 80.18 0.027 -6.973 0.201 -28.731
14000 0.188 6.421 5.024 77.728 0.027 -10.511 0.199 -28.252
14100 0.2 4.832 4.927 74.881 0.027 -9.482 0.202 -27.874
14200 0.202 0.664 4.845 72.316 0.028 -9.777 0.207 -28.783
14300 0.187 -1.912 4.791 69.922 0.03 -14.364 0.212 -29.421
14400 0.194 -0.85 4.716 67.199 0.029 -17.814 0.211 -31.408
14500 0.193 -2.269 4.662 64.445 0.027 -17.297 0.214 -28.179
14600 0.185 -6.256 4.6 62.095 0.028 -18.072 0.219 -28.315
14700 0.182 -9.808 4.56 60.483 0.029 -21.118 0.222 -28.981
14800 0.18 -4.547 4.584 57.394 0.028 -21.924 0.224 -29.635
14900 0.18 -1.988 4.592 54.62 0.03 -22.16 0.23 -32.089
15000 0.186 1.202 4.597 50.906 0.029 -24.741 0.226 -31.082
15100 0.198 -0.238 4.508 47.214 0.028 -24.844 0.231 -29.75
15200 0.199 -2.296 4.436 44.57 0.03 -27.404 0.23 -30.021
15300 0.207 -4.307 4.391 41.95 0.03 -28.653 0.232 -30.672
15400 0.211 -4.015 4.344 38.88 0.03 -30.847 0.233 -31.881
15500 0.209 -4.279 4.273 36.075 0.031 -32.932 0.232 -32.443
15600 0.206 -6.914 4.205 33.227 0.031 -35.7 0.227 -32.202
15700 0.206 -8.052 4.135 30.689 0.032 -39.322 0.217 -31.44
15800 0.215 -7.579 4.076 27.91 0.031 -42.253 0.218 -29.952
15900 0.212 -8.642 3.989 25.489 0.03 -44.379 0.226 -28.377
16000 0.212 -8.211 3.955 22.862 0.03 -46.987 0.223 -28.77
16100 0.208 -8.616 3.888 21.297 0.031 -50.754 0.212 -27.062
16200 0.198 -7.054 3.902 18.982 0.03 -53.608 0.214 -24.322
16300 0.198 -5.823 3.863 16.346 0.028 -57.875 0.222 -21.983
16400 0.208 -3.94 3.832 14.3 0.026 -57.511 0.227 -21.226
16500 0.212 -2.15 3.829 12.305 0.026 -58.198 0.231 -19.807
16600 0.213 1.995 3.914 9.295 0.025 -63.389 0.228 -14.686
16700 0.224 3.618 3.922 6.292 0.025 -63.223 0.237 -14.756
16800 0.232 4.917 3.881 2.649 0.023 -65.997 0.253 -11.316
16900 0.245 6.045 3.856 -0.585 0.022 -68.133 0.273 -9.628
17000 0.266 4.832 3.8 -3.231 0.02 -65.654 0.294 -10.868
17100 0.282 4.671 3.794 -6.143 0.02 -62.898 0.297 -12.737
17200 0.293 6.266 3.785 -9.985 0.021 -65.187 0.305 -12.876
17300 0.303 6.201 3.708 -13.719 0.02 -67.589 0.322 -12.254
17400 0.318 3.958 3.626 -16.633 0.019 -66.738 0.338 -13.128
17500 0.333 2.076 3.574 -19.322 0.018 -66.281 0.343 -14.481
17600 0.353 0.346 3.512 -22.108 0.016 -64.594 0.355 -16.438
17700 0.364 -1.685 3.416 -25.203 0.016 -56.918 0.368 -18.518
17800 0.356 -4.604 3.352 -27.274 0.02 -49.747 0.367 -21.797
17900 0.33 -5.208 3.212 -29.304 0.025 -52.285 0.367 -25.619
18000 0.328 -1.076 3.17 -29.984 0.027 -72.017 0.323 -29.112
18100 0.366 1.858 3.221 -30.499 0.019 -89.359 0.284 -21.096
18200 0.407 0.494 3.325 -33.868 0.015 -70.24 0.329 -12.05
18300 0.413 -1.947 3.311 -37.783 0.017 -63.944 0.36 -13.647
18400 0.416 -4.397 3.267 -41.242 0.018 -67.297 0.372 -14.343
18500 0.428 -5.063 3.221 -44.592 0.019 -68.261 0.379 -16
18600 0.434 -5.705 3.197 -47.817 0.019 -67.704 0.397 -16.726
18700 0.442 -7.128 3.143 -50.995 0.02 -70.045 0.406 -17.262
18800 0.453 -9.303 3.064 -53.151 0.02 -72.606 0.412 -17.879
18900 0.462 -9.268 3.017 -55.758 0.02 -73.472 0.412 -18.214
19000 0.469 -9.587 2.987 -58.701 0.021 -77.382 0.421 -19.326
19100 0.477 -11.065 2.945 -61.497 0.02 -80.377 0.43 -18.879
19200 0.481 -12.641 2.904 -64.235 0.021 -79.984 0.441 -18.935
19300 0.488 -13.323 2.866 -66.835 0.022 -81.635 0.445 -19.412
19400 0.499 -14.243 2.788 -69.22 0.021 -87.713 0.446 -21.007
19500 0.505 -14.855 2.742 -72.014 0.021 -89.375 0.456 -20.901
19600 0.508 -14.637 2.711 -75.017 0.021 -90.43 0.464 -21.035
19700 0.507 -16.209 2.666 -77.169 0.022 -91.763 0.472 -21.572
19800 0.525 -17.311 2.635 -79.55 0.022 -97.413 0.47 -20.685
19900 0.534 -18.393 2.588 -81.768 0.022 -98.598 0.477 -22.398
20000 0.54 -18.268 2.582 -83.911 0.022 -100.571 0.494 -20.909
