! Small signal s-parameters, de-embedded to package pins
!Vdd=5V
# MHZ S MA R 50

100 0.885885 179.213838 6.426099 112.051879 0.006133 49.800854 1.101424 -155.273019
110.526316 0.885958 178.978622 6.334044 111.005632 0.006369 49.413176 1.093658 -156.218007
121.052632 0.886022 178.742939 6.24229 109.958905 0.006606 49.025018 1.085894 -157.162279
131.578947 0.886076 178.50702 6.150807 108.911691 0.006844 48.636374 1.07813 -158.105783
142.105263 0.886123 178.270668 6.05959 107.863784 0.007082 48.247036 1.070367 -159.048799
152.631579 0.886161 178.033859 5.968613 106.815085 0.00732 47.856907 1.062601 -159.991447
163.157895 0.886192 177.796617 5.877872 105.76561 0.007559 47.466002 1.054832 -160.933784
173.684211 0.886214 177.558944 5.787329 104.715146 0.007798 47.074107 1.047057 -161.875964
184.210526 0.88623 177.320871 5.69699 103.663715 0.008039 46.681245 1.039278 -162.818048
194.736842 0.88624 177.082256 5.60683 102.611116 0.00828 46.287215 1.031491 -163.760259
205.263158 0.886241 176.84301 5.516819 101.55725 0.008521 45.89192 1.023693 -164.702788
215.789474 0.886237 176.603366 5.426954 100.502152 0.008764 45.495391 1.015886 -165.645536
226.315789 0.886226 176.363011 5.337207 99.445513 0.009007 45.097321 1.008067 -166.588912
236.842105 0.886209 176.122066 5.247566 98.387463 0.009251 44.697841 1.000233 -167.53286
247.368421 0.886186 175.880535 5.158009 97.327815 0.009495 44.296762 0.992384 -168.477511
257.894737 0.886157 175.638272 5.068515 96.266496 0.009741 43.894013 0.984518 -169.423103
268.421053 0.886124 175.395386 4.979077 95.203437 0.009987 43.489523 0.976635 -170.369637
278.947368 0.886085 175.151763 4.889675 94.138545 0.010234 43.0832 0.968732 -171.317293
289.473684 0.886043 174.907335 4.800294 93.071765 0.010482 42.67499 0.960811 -172.266255
300 0.885994 174.662201 4.710897 92.003025 0.010731 42.26482 0.952864 -173.216526
310.526316 0.885942 174.416273 4.621487 90.932269 0.010981 41.852633 0.944896 -174.168278
321.052632 0.885885 174.169432 4.532045 89.859409 0.011232 41.438343 0.936903 -175.121704
331.578947 0.885826 173.921698 4.442554 88.784312 0.011484 41.021816 0.928885 -176.076902
342.105263 0.885761 173.673132 4.352983 87.707119 0.011737 40.603192 0.920839 -177.03389
352.631579 0.885695 173.423604 4.263344 86.627579 0.01199 40.182222 0.912767 -177.992886
363.157895 0.88527 173.169349 4.160561 85.641062 0.012225 40.00457 0.904715 -178.685289
373.684211 0.884558 172.923728 4.032011 84.9612 0.012353 40.378851 0.897678 -178.834975
384.210526 0.884523 172.697758 3.907487 84.498762 0.01249 40.769814 0.893102 -178.955985
394.736842 0.884484 172.470353 3.786679 84.19009 0.012666 41.176662 0.890352 -178.937294
405.263158 0.884445 172.212569 3.672399 84.03718 0.012792 41.527666 0.890215 -178.821359
415.789474 0.883623 171.946393 3.569388 84.098484 0.012976 42.628079 0.893714 -178.642498
426.315789 0.883312 171.676409 3.49233 84.21149 0.013148 43.887023 0.899993 -178.697853
436.842105 0.882293 171.402481 3.434355 84.306302 0.013425 44.818327 0.907776 -179.071699
447.368421 0.882085 171.168739 3.399544 83.974099 0.013826 44.761265 0.911506 179.997075
457.894737 0.881927 170.908394 3.336752 83.134398 0.014006 44.740269 0.905557 179.21438
468.421053 0.88086 170.678645 3.257481 82.446282 0.014207 44.362274 0.896804 178.935755
478.947368 0.880779 170.44583 3.173209 81.985753 0.014438 44.529707 0.891077 178.797889
489.473684 0.880716 170.214779 3.090794 81.692343 0.014507 44.80264 0.886057 178.892925
500 0.880646 169.961913 3.013065 81.555266 0.014596 45.223727 0.883892 179.132608
510.526316 0.880562 169.660342 2.94534 81.557155 0.014814 45.983187 0.885848 179.404111
521.052632 0.879911 169.41988 2.887056 81.72119 0.014999 46.858559 0.891535 179.566574
531.578947 0.879329 169.16228 2.846314 81.843005 0.015235 47.362641 0.900348 179.410914
542.105263 0.879191 168.850732 2.820528 81.641082 0.015585 47.651851 0.908378 178.795781
552.631579 0.879045 168.57088 2.792687 81.05475 0.015962 47.767003 0.909292 177.856951
563.157895 0.878917 168.375816 2.748756 80.362889 0.016231 47.352241 0.901489 177.144067
573.684211 0.877817 168.138811 2.689579 79.782814 0.016314 47.348576 0.891181 176.892701
584.210526 0.878673 167.827604 2.626851 79.38132 0.016508 47.273412 0.88416 177.005434
594.736842 0.877535 167.606263 2.571788 79.27211 0.016668 47.75462 0.881053 177.242193
605.263158 0.877424 167.339565 2.522038 79.210854 0.016823 48.123296 0.881614 177.49025
615.789474 0.877302 167.055426 2.48083 79.233856 0.01704 48.610455 0.885573 177.713214
626.315789 0.87717 166.765732 2.44965 79.210056 0.017299 49.311675 0.892359 177.706157
636.842105 0.877015 166.492629 2.425912 79.15765 0.017628 49.493197 0.900631 177.385806
647.368421 0.876321 166.218704 2.404994 78.865314 0.017952 49.604909 0.905344 176.789205
657.894737 0.87562 165.993265 2.382782 78.326929 0.018258 49.482718 0.904352 175.914184
668.421053 0.875457 165.70407 2.349572 77.645956 0.018488 49.221826 0.897092 175.269757
678.947368 0.875309 165.42925 2.307334 77.100915 0.018699 49.234775 0.88845 175.062069
689.473684 0.875168 165.167793 2.264496 76.788197 0.018878 49.099087 0.880289 175.16937
700 0.875034 164.888003 2.222449 76.623435 0.019022 49.437025 0.87603 175.436048
710.526316 0.874895 164.624744 2.186313 76.625837 0.019207 49.72056 0.876714 175.727848
721.052632 0.873666 164.338232 2.1571 76.635559 0.01941 50.270862 0.880275 176.007161
731.578947 0.873487 164.038699 2.136891 76.644775 0.019773 50.578392 0.887151 176.060927
742.105263 0.873304 163.736154 2.12076 76.500851 0.020088 50.792902 0.894282 175.787341
752.631579 0.873099 163.410867 2.10875 76.152181 0.020461 50.807202 0.901075 175.202087
763.157895 0.872488 163.148631 2.092145 75.666593 0.020852 50.521613 0.902356 174.401142
773.684211 0.871622 162.87806 2.066834 75.104645 0.021092 50.171082 0.897777 173.731457
784.210526 0.871449 162.593059 2.038001 74.580041 0.021255 50.061215 0.889346 173.389783
794.736842 0.871271 162.273619 2.007778 74.170755 0.021436 49.969001 0.882484 173.308789
805.263158 0.87034 161.951265 1.977225 73.961674 0.021617 50.11301 0.877718 173.428191
815.789474 0.869828 161.616839 1.951611 73.828703 0.02182 50.503076 0.876326 173.634565
826.315789 0.869638 161.320543 1.929836 73.752092 0.022086 50.507976 0.878094 173.802658
836.842105 0.869437 161.013597 1.911242 73.671281 0.02242 50.533184 0.882367 173.825012
847.368421 0.869237 160.700116 1.897993 73.546122 0.022746 50.977093 0.889187 173.699444
857.894737 0.868909 160.3972 1.887393 73.24246 0.023152 50.76806 0.894666 173.277016
868.421053 0.86769 160.075227 1.872491 72.772358 0.023431 50.524341 0.896103 172.69646
878.947368 0.867472 159.729404 1.856471 72.221928 0.023697 50.374641 0.892919 172.088093
889.473684 0.867276 159.434568 1.835305 71.769288 0.023925 50.237992 0.88755 171.604012
900 0.867076 159.107671 1.811701 71.397152 0.02417 50.158434 0.88095 171.361376
910.526316 0.866875 158.776176 1.788497 71.136293 0.024414 50.062042 0.875301 171.383299
921.052632 0.86668 158.441385 1.7668 70.961402 0.024646 50.260863 0.872891 171.496745
931.578947 0.866481 158.106356 1.748923 70.816007 0.024849 50.242498 0.873029 171.604718
942.105263 0.866263 157.764788 1.733703 70.697616 0.025192 50.331664 0.874899 171.684273
952.631579 0.866032 157.399083 1.722851 70.55193 0.025545 50.270013 0.878933 171.647181
963.157895 0.865808 157.065014 1.71344 70.29338 0.025857 50.253137 0.884573 171.454656
973.684211 0.865578 156.704133 1.702392 69.933234 0.026229 50.426392 0.889354 171.075359
984.210526 0.865282 156.353198 1.692968 69.424077 0.026606 50.064469 0.890342 170.532777
994.736842 0.863998 156.044468 1.678738 68.974456 0.026849 49.859975 0.888481 170.048176
1005.263158 0.863788 155.701839 1.661228 68.510443 0.027082 49.700322 0.883621 169.577031
1015.789474 0.863565 155.319975 1.644799 68.103705 0.027369 49.586647 0.879468 169.344509
1026.315789 0.863352 154.948485 1.628212 67.80383 0.027614 49.506003 0.87528 169.250805
1036.842105 0.863137 154.58208 1.61453 67.579951 0.027889 49.443392 0.87321 169.224075
1047.368421 0.862919 154.224798 1.600004 67.429411 0.028208 49.453905 0.87245 169.266785
1057.894737 0.8627 153.850364 1.58816 67.216762 0.028505 49.453725 0.87366 169.226147
1068.421053 0.862473 153.467847 1.579182 66.930468 0.028789 49.373625 0.875928 169.102054
1078.947368 0.862233 153.091851 1.57189 66.611928 0.029185 49.279972 0.879916 168.875784
1089.473684 0.862004 152.724131 1.563712 66.206063 0.029493 49.061016 0.882713 168.528256
1100 0.861778 152.356698 1.553491 65.787749 0.029835 48.889287 0.883904 168.061693
1110.526316 0.861555 152.010722 1.542847 65.363072 0.030154 48.533422 0.882602 167.556492
1121.052632 0.861329 151.605666 1.530161 64.902111 0.030501 48.207874 0.879811 167.157614
1131.578947 0.861122 151.239924 1.517254 64.570542 0.030763 48.0037 0.875914 166.92395
1142.105263 0.860646 150.849886 1.504328 64.220358 0.030968 48.064906 0.872328 166.807855
1152.631579 0.859564 150.446467 1.492046 63.933722 0.031215 48.066205 0.869699 166.712238
1163.157895 0.859344 150.023426 1.482074 63.677697 0.031541 47.865714 0.868897 166.632095
1173.684211 0.859124 149.613429 1.472694 63.417205 0.031896 47.766139 0.870656 166.574436
1184.210526 0.858909 149.233928 1.464267 63.153589 0.03223 47.669189 0.872368 166.458648
1194.736842 0.85795 148.845698 1.455622 62.845624 0.03261 47.538336 0.875412 166.252654
1205.263158 0.85731 148.446244 1.449179 62.459718 0.032967 47.436736 0.877288 165.931543
1215.789474 0.85801 148.006863 1.442049 62.00796 0.033348 47.049971 0.878326 165.551523
1226.315789 0.85701 147.601542 1.432278 61.537432 0.03367 46.682857 0.877305 165.055821
1236.842105 0.856664 147.171127 1.422298 61.100927 0.033942 46.423815 0.876952 164.630535
1247.368421 0.856506 146.771241 1.413622 60.74709 0.034204 46.122002 0.873194 164.270911
1257.894737 0.857296 146.375151 1.403364 60.400632 0.034518 45.955814 0.871612 164.047785
1268.421053 0.856064 145.924317 1.391863 60.061932 0.034832 46.027991 0.869158 163.945649
1278.947368 0.855869 145.493395 1.383115 59.733489 0.035059 45.741586 0.868045 163.758894
1289.473684 0.855665 145.054954 1.374285 59.427695 0.035403 45.65895 0.867443 163.600723
1300 0.855456 144.606191 1.367166 59.081918 0.035758 45.502943 0.867519 163.436255
1310.526316 0.855248 144.174047 1.360062 58.710823 0.036132 45.313927 0.869247 163.222213
1321.052632 0.855042 143.753524 1.35488 58.31406 0.036465 45.025963 0.871003 162.895006
1331.578947 0.854832 143.325055 1.348351 57.906475 0.036886 44.761428 0.872537 162.561569
1342.105263 0.854627 142.858397 1.341627 57.434678 0.037263 44.528187 0.872707 162.217756
1352.631579 0.854442 142.424405 1.334116 57.009801 0.037529 44.209842 0.872502 161.842492
1363.157895 0.854259 141.970247 1.326053 56.570081 0.037808 43.871444 0.870118 161.436515
1373.684211 0.854078 141.519295 1.316539 56.149999 0.038141 43.65865 0.868526 161.09383
1384.210526 0.8539 141.08111 1.308548 55.811282 0.038435 43.3844 0.86704 160.778282
1394.736842 0.853722 140.641211 1.300503 55.506032 0.038766 43.262806 0.865571 160.598822
1405.263158 0.853544 140.141572 1.29289 55.095616 0.03908 42.980434 0.864375 160.380084
1415.789474 0.853358 139.670644 1.287125 54.682441 0.039462 42.716733 0.864172 160.146292
1426.315789 0.853177 139.197369 1.281967 54.295971 0.039813 42.492071 0.864439 159.919176
1436.842105 0.852998 138.750828 1.275896 53.921925 0.040214 42.251925 0.865526 159.667649
1447.368421 0.852826 138.31995 1.269805 53.538417 0.040597 41.90696 0.865951 159.348462
1457.894737 0.852662 137.875652 1.263752 53.111559 0.040938 41.580885 0.866502 159.00022
1468.421053 0.852509 137.374216 1.257675 52.633479 0.041201 41.292548 0.866751 158.645999
1478.947368 0.85235 136.906202 1.251562 52.175622 0.041561 41.100885 0.866541 158.276326
1489.473684 0.852209 136.409205 1.244208 51.719806 0.041854 40.665042 0.866351 157.905412
1500 0.852066 135.942435 1.236434 51.34804 0.042205 40.430347 0.865003 157.555036
1510.526316 0.851925 135.455784 1.230088 50.94903 0.042519 40.149596 0.863508 157.268956
1521.052632 0.851661 134.982027 1.223822 50.55857 0.042826 39.792606 0.862147 156.983115
1531.578947 0.850456 134.518249 1.217587 50.165362 0.043105 39.543499 0.861961 156.686703
1542.105263 0.850321 134.008039 1.211837 49.746938 0.043479 39.260299 0.861769 156.397867
1552.631579 0.85019 133.534802 1.206745 49.338825 0.043838 38.954722 0.861578 156.101536
1563.157895 0.850072 133.040754 1.200672 48.929823 0.044163 38.703939 0.86192 155.843115
1573.684211 0.849958 132.5206 1.195335 48.479354 0.044491 38.349962 0.862438 155.523048
1584.210526 0.849132 132.04846 1.189851 48.038701 0.044875 38.028985 0.862245 155.158592
1594.736842 0.84853 131.529869 1.183786 47.559673 0.045213 37.632939 0.862884 154.80036
1605.263158 0.849339 131.019517 1.177741 47.093242 0.045528 37.32478 0.862203 154.424057
1615.789474 0.848558 130.537874 1.171435 46.650396 0.04585 37.062326 0.860697 154.049781
1626.315789 0.848269 129.991166 1.165279 46.196666 0.046132 36.709001 0.860315 153.690661
1636.842105 0.849371 129.503132 1.160633 45.812234 0.046517 36.401101 0.86013 153.331704
1647.368421 0.849321 128.981452 1.154616 45.381245 0.046851 36.018857 0.859891 153.011596
1657.894737 0.849252 128.455681 1.149607 44.931847 0.047181 35.710457 0.858573 152.69814
1668.421053 0.848924 127.922248 1.143457 44.452908 0.047515 35.427402 0.85841 152.349751
1678.947368 0.847924 127.416019 1.137637 44.010363 0.047848 35.11873 0.85825 152.006471
1689.473684 0.847873 126.923955 1.132937 43.55536 0.048165 34.752445 0.858096 151.671247
1700 0.847831 126.422044 1.127692 43.107945 0.048499 34.360252 0.858515 151.305309
1710.526316 0.84779 125.911815 1.122346 42.643616 0.048872 34.052321 0.859024 150.906275
1721.052632 0.848521 125.387093 1.11689 42.155784 0.049217 33.636823 0.85888 150.497873
1731.578947 0.848969 124.873186 1.111607 41.683334 0.049517 33.148314 0.857876 150.103609
1742.105263 0.84897 124.328102 1.105797 41.173534 0.049795 32.740538 0.857371 149.671351
1752.631579 0.848962 123.798256 1.10073 40.713348 0.050124 32.468085 0.857232 149.318521
1763.157895 0.848975 123.28744 1.094762 40.254748 0.050359 32.128676 0.857108 148.908273
1773.684211 0.848983 122.76555 1.089742 39.805552 0.050686 31.738197 0.855733 148.524323
1784.210526 0.849002 122.254192 1.084933 39.376716 0.050915 31.457553 0.855611 148.1649
1794.736842 0.849018 121.738586 1.080131 38.91015 0.051281 31.100838 0.85571 147.797037
1805.263158 0.849041 121.20002 1.075037 38.455271 0.051711 30.700426 0.856298 147.447365
1815.789474 0.848681 120.655937 1.069104 37.976805 0.052004 30.294159 0.85527 147.094016
1826.315789 0.847929 120.127351 1.063641 37.490614 0.05227 29.920614 0.855173 146.709645
1836.842105 0.847998 119.603204 1.058116 36.979829 0.052513 29.499222 0.855708 146.266512
1847.368421 0.848067 119.034909 1.053254 36.469798 0.05286 29.125898 0.856242 145.822382
1857.894737 0.848139 118.498209 1.048249 36.026581 0.05316 28.762492 0.85533 145.482682
1868.421053 0.848216 117.972922 1.043176 35.565104 0.053477 28.428073 0.853885 145.119412
1878.947368 0.848318 117.433711 1.038292 35.067566 0.053724 27.934961 0.854508 144.63311
1889.473684 0.848412 116.923138 1.033376 34.595316 0.053993 27.598474 0.854667 144.235369
1900 0.848529 116.395391 1.027119 34.107101 0.054263 27.166076 0.853384 143.847673
1910.526316 0.848634 115.863966 1.02324 33.647056 0.054541 26.892454 0.85328 143.558768
1921.052632 0.84876 115.328871 1.01713 33.198944 0.054825 26.554977 0.85322 143.157292
1931.578947 0.848894 114.768511 1.0121 32.703118 0.055167 26.16525 0.853167 142.767282
1942.105263 0.849039 114.215291 1.00704 32.237023 0.055472 25.745093 0.85312 142.294095
1952.631579 0.848736 113.709526 1.001932 31.769831 0.055673 25.381005 0.852613 141.878762
1963.157895 0.848682 113.204082 0.996856 31.310967 0.055875 24.981655 0.852362 141.44535
1973.684211 0.849515 112.673867 0.991927 30.82593 0.056119 24.551247 0.853033 141.024138
1984.210526 0.849689 112.123842 0.987522 30.346112 0.056428 24.112792 0.853012 140.610623
1994.736842 0.849878 111.588224 0.981984 29.877029 0.056717 23.625571 0.85213 140.188721
2005.263158 0.850067 111.046569 0.975613 29.415965 0.057034 23.354022 0.851718 139.784477
2015.789474 0.850268 110.533759 0.97037 28.931944 0.057268 22.923442 0.8528 139.346745
2026.315789 0.850496 109.972558 0.965099 28.421698 0.057455 22.495382 0.851827 138.910458
2036.842105 0.850715 109.4397 0.961038 27.929221 0.057648 22.099315 0.85175 138.474877
2047.368421 0.850944 108.912393 0.954873 27.434041 0.057971 21.642544 0.851776 138.006065
2057.894737 0.851156 108.410368 0.950762 26.946878 0.058188 21.428322 0.851779 137.63551
2068.421053 0.851387 107.912827 0.945632 26.493423 0.058525 20.893356 0.851815 137.237489
2078.947368 0.852022 107.39673 0.94048 26.02219 0.058794 20.514498 0.851849 136.792088
2089.473684 0.852598 106.887909 0.934889 25.534339 0.058937 20.174717 0.851895 136.358666
2100 0.852749 106.347365 0.929475 25.030155 0.059148 19.748873 0.851335 135.928856
2110.526316 0.853643 105.808642 0.924782 24.500543 0.059325 19.3669 0.850745 135.520624
2121.052632 0.853921 105.309333 0.920261 24.009374 0.059522 18.89766 0.850818 135.076828
2131.578947 0.854205 104.774766 0.915361 23.520915 0.059772 18.569687 0.850883 134.613208
2142.105263 0.854503 104.260684 0.91094 23.042232 0.059966 18.073608 0.850974 134.143191
2152.631579 0.854813 103.742086 0.905898 22.557141 0.060142 17.637964 0.851063 133.736884
2163.157895 0.855107 103.264616 0.899666 22.105115 0.060317 17.35915 0.851146 133.281269
2173.684211 0.855447 102.733993 0.89537 21.574689 0.060423 16.859142 0.851264 132.844665
2184.210526 0.855758 102.228168 0.890082 21.098479 0.060733 16.498344 0.851365 132.386674
2194.736842 0.855844 101.731846 0.884811 20.59599 0.060963 16.121725 0.851476 131.967214
2205.263158 0.855586 101.229231 0.879785 20.115566 0.061146 15.639412 0.851604 131.543778
2215.789474 0.856337 100.730013 0.875239 19.640061 0.061362 15.27465 0.851727 131.092738
2226.315789 0.855957 100.212675 0.869864 19.192836 0.061518 14.822674 0.851867 130.645381
2236.842105 0.856341 99.679734 0.864495 18.677019 0.061672 14.388355 0.852023 130.178176
2247.368421 0.85742 99.171436 0.859819 18.23535 0.061703 13.993407 0.852168 129.747262
2257.894737 0.858233 98.698481 0.854972 17.817796 0.061924 13.628687 0.852308 129.326716
2268.421053 0.857723 98.189244 0.850325 17.35473 0.062194 13.245621 0.852462 128.891504
2278.947368 0.857896 97.618402 0.845108 16.731226 0.062232 12.775747 0.852661 128.450317
2289.473684 0.858283 97.143004 0.840593 16.224528 0.062351 12.423381 0.851673 128.02001
2300 0.858641 96.698454 0.835422 15.874375 0.062576 12.114375 0.851722 127.618009
