! Hittite Microwave Corporation
! 20 Alpha Road
! Chelmsford, MA 01824
! http://www.hittite.com
! Tel: 978-250-3343
! Fax: 978-250-3373
! 
! Device:      HMC453ST89
! Description: InGaP HBT 1.6 Watt Power Amplifier, 0.4 - 2.2 GHz
! Ports:       2
! Package:     SOT89
! Control:     N/A
! Vdd:         5.0 V
! Idd:         486 mA as a deembedded circuit
! Misc:        No input or output matching circuitry is included in this data.
!
! Note: Small signal s-parameters to the package pins.
! The following data was generated from one measured device on our evaluation
! board and the evaluation board circuitry was de-embedded to obtain the 
! following data.  Hittite supplies this data as a sample of measured data 
! for this package product.  Your particular data for this product may vary.
! Hittite reserves the right to change this data at anytime.
! 											
# MHZ S MA R 50											

10 0.927405 -179.714907 11.587777 175.459973 0.010759 5.461815 0.74568 -179.020072											
24.95 0.93324 -179.402177 11.264342 170.437782 0.009309 6.600171 0.759968 -178.172788											
39.9 0.932578 179.45979 11.067287 162.375082 0.009229 5.862551 0.765792 -176.510571											
54.85 0.930401 179.153153 10.66912 156.322296 0.00952 5.09057 0.777431 -175.652916											
69.8 0.9292 178.834561 10.192438 150.684908 0.009159 9.453542 0.789909 -175.049901											
84.75 0.926222 178.588611 9.695421 145.61092 0.009586 9.987068 0.803125 -174.663955											
99.7 0.923221 178.310975 9.179781 141.015187 0.009545 12.706007 0.815511 -174.456637											
114.65 0.921442 178.075597 8.687908 136.879519 0.009553 15.847417 0.827305 -174.427786											
129.6 0.918883 177.838225 8.207802 133.196398 0.00987 18.41177 0.837257 -174.545541											
144.55 0.91701 177.582941 7.753629 129.786558 0.009774 19.728905 0.846151 -174.674311
159.5 0.914888 177.36078 7.340411 126.759045 0.010046 22.004024 0.853568 -174.813078
174.45 0.915354 177.226814 6.843251 124.330845 0.0102 23.885796 0.863344 -174.485432
189.4 0.912488 176.873381 6.598581 121.685534 0.010448 25.649802 0.867103 -175.334275
204.35 0.908932 176.630551 6.239676 119.514473 0.010646 27.288409 0.870691 -175.495677
219.3 0.908136 176.652791 5.950478 117.569891 0.010916 28.380034 0.87368 -175.657085
234.25 0.908763 176.50279 5.674094 115.592403 0.010998 30.815708 0.876798 -175.995236
249.2 0.908396 176.329125 5.386381 113.667622 0.011398 32.169447 0.876273 -175.971643
264.15 0.908761 176.066643 5.162188 112.943583 0.011501 33.882919 0.89095 -176.124693
279.1 0.907098 175.909755 4.970339 111.03895 0.011873 34.703425 0.887254 -176.701281
294.05 0.905324 175.71963 4.754309 109.539922 0.012142 35.855952 0.887294 -176.848609
309 0.903893 175.522497 4.563261 108.243433 0.012377 37.118618 0.887958 -177.072663
323.95 0.902482 175.32098 4.386497 106.980192 0.012567 37.806043 0.887956 -177.152655
338.9 0.90055 175.115305 4.203008 105.747179 0.012843 38.958738 0.8851 -177.157939
353.85 0.899195 174.876319 4.041843 105.55147 0.013023 41.142496 0.898135 -176.639144
368.8 0.896287 174.645141 3.954109 104.207713 0.013563 41.53833 0.899967 -177.826497
383.75 0.894219 174.436037 3.811772 103.014666 0.013809 42.343665 0.89522 -178.001714
398.7 0.892059 174.24703 3.67885 102.068409 0.014177 43.247899 0.892419 -178.048913
413.65 0.89118 174.108791 3.554887 101.262538 0.014368 43.803905 0.889747 -178.170229
428.6 0.892022 173.856311 3.433513 100.596166 0.014571 44.588412 0.886236 -177.877047
443.55 0.891767 173.525366 3.341795 100.554826 0.014911 46.173225 0.899961 -177.433628
458.5 0.890645 173.28179 3.290981 99.706172 0.015513 46.451185 0.906726 -178.562597
473.45 0.890487 173.046325 3.200448 98.639244 0.015781 46.950386 0.898916 -179.020596
488.4 0.891188 172.846505 3.111895 97.865862 0.016143 47.636843 0.895221 -179.130959
503.35 0.891763 172.615661 3.027986 97.140518 0.016409 48.307153 0.891518 -179.187943
518.3 0.893072 172.423281 2.940716 96.606932 0.016694 48.835035 0.887602 -178.982242
533.25 0.894512 172.184657 2.863941 96.427314 0.01704 49.837375 0.891271 -178.428086
548.2 0.89552 171.935357 2.829902 96.191018 0.017643 50.638766 0.90799 -178.701905
563.15 0.896525 171.710221 2.784892 95.141087 0.018085 50.795987 0.905854 -179.723289
578.1 0.896895 171.481702 2.717078 94.225906 0.018428 50.824745 0.897801 179.989434
593.05 0.897134 171.214873 2.649597 93.561874 0.018784 51.112864 0.891713 179.972235
608 0.895956 170.958667 2.583338 93.027577 0.019042 51.645907 0.887327 -179.834595
622.95 0.891885 170.800255 2.514893 92.7866 0.01941 52.38834 0.886625 -179.419404
637.9 0.893938 170.800194 2.480388 92.900314 0.019858 53.015904 0.897816 -179.124808
652.85 0.894385 170.52795 2.459226 92.246399 0.020512 53.370099 0.907988 -179.94108
667.8 0.893667 170.213951 2.417833 91.235288 0.020932 53.042018 0.903037 179.229706
682.75 0.893071 169.903472 2.369005 90.530954 0.021195 53.313214 0.89543 178.942797
697.7 0.891734 169.566111 2.318717 89.971339 0.021587 53.576139 0.888841 178.945922
712.65 0.891056 169.25016 2.270405 89.59047 0.021957 53.82589 0.884241 179.213655
727.6 0.889899 168.894319 2.229959 89.401623 0.022364 54.505713 0.885991 179.649647
742.55 0.889069 168.530629 2.207448 89.184058 0.022932 54.974648 0.896757 179.802715
757.5 0.88834 168.187567 2.189106 88.492947 0.023526 54.878587 0.904828 179.02673
772.45 0.887588 167.83535 2.155753 87.632821 0.023963 54.816375 0.900442 178.285895
787.4 0.886915 167.458521 2.114857 87.006593 0.024342 54.947816 0.891833 177.983122
802.35 0.885605 167.054435 2.076831 86.538065 0.024741 55.101425 0.884873 177.975949
817.3 0.882725 166.576376 2.041142 86.18348 0.025129 55.251044 0.881102 178.236772
832.25 0.877192 166.384737 2.011523 86.069121 0.025652 55.605016 0.884279 178.491698
847.2 0.877468 166.419958 1.997566 85.866418 0.026201 55.912727 0.892446 178.362362
862.15 0.87958 166.127371 1.983944 85.181951 0.026769 55.743749 0.897562 177.713327
877.1 0.880031 165.713745 1.959448 84.408638 0.027282 55.671432 0.894195 177.044286
892.05 0.879367 165.30856 1.929694 83.817246 0.0277 55.441758 0.887479 176.688388
907 0.877561 164.89084 1.900982 83.349213 0.02816 55.516301 0.882191 176.623812
921.95 0.876433 164.464292 1.876253 83.001288 0.028651 55.619978 0.878646 176.719436
936.9 0.873602 164.015911 1.85372 82.683076 0.029083 56.002176 0.879722 176.991683
951.85 0.871411 163.5489 1.838423 82.301045 0.029766 55.954535 0.886053 176.890804
966.8 0.86845 163.080436 1.82356 81.703719 0.030386 55.872519 0.891076 176.421181
981.75 0.865609 162.629073 1.803465 81.042998 0.03091 55.667778 0.889228 175.752289
996.7 0.862906 162.121936 1.780614 80.424974 0.031391 55.476694 0.884877 175.310992
1011.65 0.860585 161.63619 1.757224 79.961489 0.031842 55.498999 0.878834 175.144011
1026.6 0.857826 161.145692 1.736385 79.612811 0.032321 55.348811 0.876578 175.022116
1041.55 0.855756 160.655248 1.719849 79.271741 0.032801 55.621051 0.875145 175.093516
1056.5 0.854676 160.116679 1.707696 78.858636 0.03356 55.583766 0.87894 174.948098
1071.45 0.854004 159.622288 1.696468 78.333512 0.034143 55.335092 0.882058 174.688979
1086.4 0.853219 159.099165 1.683294 77.683754 0.034759 55.105714 0.884336 174.125006
1101.35 0.85315 158.600389 1.666641 77.076812 0.03526 54.964982 0.881203 173.644024
1116.3 0.853541 158.077825 1.650059 76.558849 0.035821 54.657499 0.877712 173.300313
1131.25 0.853681 157.558015 1.634744 76.14348 0.036431 54.69225 0.874109 173.123391
1146.2 0.853849 157.026931 1.623267 75.72075 0.037033 54.60042 0.872403 172.973187
1161.15 0.85349 156.502838 1.614133 75.231482 0.037643 54.384222 0.872545 172.881248
1176.1 0.853089 155.963248 1.605554 74.653427 0.038377 54.162257 0.874477 172.606071
1191.05 0.853399 155.443904 1.596371 74.020205 0.038997 53.964675 0.876218 172.259738
1206 0.852586 154.913679 1.58433 73.388675 0.039645 53.527915 0.876583 171.731776
1220.95 0.851883 154.351258 1.572813 72.798478 0.040292 53.331088 0.873968 171.30981
1235.9 0.851624 153.829057 1.562671 72.244189 0.040775 52.986509 0.872391 170.915417
1250.85 0.851479 153.191878 1.551771 71.619289 0.041432 52.747929 0.870628 170.640297
1265.8 0.850688 152.546734 1.540682 71.06325 0.042045 52.60474 0.870284 170.39384
1280.75 0.849721 151.908224 1.53106 70.50771 0.0428 52.27967 0.871703 170.107944
1295.7 0.848581 151.243187 1.521864 69.898146 0.043488 51.934906 0.873006 169.766971
1310.65 0.848075 150.624921 1.512495 69.240783 0.044097 51.603313 0.873028 169.350423
1325.6 0.847935 149.991506 1.502782 68.613364 0.044803 51.173954 0.872415 168.895164
1340.55 0.847974 149.292783 1.492398 67.952325 0.045417 50.761785 0.871138 168.447786
1355.5 0.848662 148.633654 1.483 67.373535 0.046084 50.410865 0.869485 168.04606
1370.45 0.84934 147.979428 1.474588 66.774085 0.046659 50.109735 0.867922 167.625382
1385.4 0.849844 147.301532 1.466918 66.178713 0.047386 49.770993 0.868271 167.307386
1400.35 0.850751 146.627575 1.460781 65.486748 0.048186 49.406638 0.867972 166.888861
1415.3 0.851331 145.99539 1.453976 64.795616 0.048757 48.969486 0.86798 166.478393
1430.25 0.851828 145.292763 1.446414 64.070653 0.049543 48.414253 0.868093 166.021634
1445.2 0.851424 144.649822 1.438603 63.310163 0.050087 47.984773 0.868166 165.50315
1460.15 0.851685 144.110668 1.430725 62.574552 0.050742 47.644592 0.867585 165.087796
1475.1 0.853091 143.503911 1.422209 61.850542 0.051474 47.185572 0.866481 164.637995
1490.05 0.852992 142.800939 1.413482 61.101939 0.052204 46.662839 0.86615 164.214445
1505 0.85238 142.091786 1.405212 60.343333 0.052839 46.210133 0.865101 163.77323
1519.95 0.851074 141.362808 1.39628 59.577112 0.053498 45.615952 0.86531 163.278481
1534.9 0.849632 140.628796 1.387076 58.81224 0.054048 45.18466 0.864211 162.832355
1549.85 0.847771 139.882854 1.377791 58.08739 0.054768 44.61097 0.86391 162.298938
1564.8 0.845391 139.142394 1.368266 57.372269 0.055303 44.020629 0.863408 161.771555
1579.75 0.843185 138.374781 1.358876 56.660868 0.055884 43.639398 0.862882 161.26724
1594.7 0.841157 137.563214 1.349669 55.931883 0.056498 43.016943 0.86188 160.78164
1609.65 0.839203 136.790229 1.340735 55.250405 0.057107 42.577405 0.861548 160.263978
1624.6 0.837787 136.019351 1.331753 54.572512 0.057659 42.045912 0.861043 159.772591
1639.55 0.836783 135.213059 1.323827 53.865936 0.058248 41.595336 0.860799 159.25484
1654.5 0.836209 134.421088 1.316285 53.187662 0.058802 41.089162 0.860188 158.691761
1669.45 0.835078 133.71155 1.308672 52.488155 0.059451 40.585055 0.859875 158.176563
1684.4 0.835614 133.000884 1.300209 51.756562 0.060133 40.036162 0.859285 157.64064
1699.35 0.836388 132.275027 1.291561 51.06972 0.060648 39.56552 0.857836 157.097258
1714.3 0.837141 131.502723 1.283793 50.356358 0.061373 38.944558 0.857601 156.551819
1729.25 0.836615 130.720315 1.275005 49.643428 0.061954 38.480628 0.857049 155.999311
1744.2 0.837519 129.982435 1.268443 48.950989 0.062523 37.850389 0.856272 155.428307
1759.15 0.836416 129.208379 1.260009 48.209993 0.063102 37.343993 0.855714 154.855537
1774.1 0.836739 128.435837 1.252734 47.453025 0.063673 36.804525 0.855239 154.29727
1789.05 0.835986 127.642123 1.243412 46.709074 0.064218 36.226574 0.854626 153.727291
1804 0.835039 126.887336 1.234879 46.034889 0.064722 35.798489 0.854684 153.21438
1818.95 0.834342 126.096619 1.227223 45.346809 0.065247 35.097309 0.854437 152.594153
1833.9 0.833382 125.271176 1.219386 44.593443 0.06589 34.743443 0.854095 152.071918
1848.85 0.832784 124.446137 1.211903 43.863394 0.066357 34.002694 0.853381 151.442268
1863.8 0.832271 123.622998 1.203465 43.172412 0.066825 33.567312 0.853038 150.87281
1878.75 0.831058 122.819078 1.1954 42.446379 0.067394 32.868579 0.852743 150.248631
1893.7 0.83124 121.994393 1.187497 41.725302 0.067764 32.406802 0.852141 149.709118
1908.65 0.831523 121.164298 1.179715 41.022667 0.068392 31.906167 0.85228 149.093442
1923.6 0.831793 120.365844 1.171694 40.341933 0.068755 31.246833 0.851972 148.480402
1938.55 0.833024 119.543595 1.164076 39.648778 0.069195 30.713878 0.851715 147.890455
1953.5 0.834876 118.777075 1.157206 39.003708 0.069805 30.212308 0.851695 147.28161
1968.45 0.836408 117.999493 1.150741 38.332252 0.070271 29.645552 0.851467 146.71144
1983.4 0.838665 117.242452 1.144311 37.638476 0.070823 29.084676 0.851578 146.09131
1998.35 0.84089 116.485703 1.137276 36.941733 0.071269 28.592133 0.851637 145.545991
2013.3 0.843632 115.754944 1.131251 36.221549 0.071731 27.915549 0.851864 144.914204
2028.25 0.844909 115.043702 1.124147 35.530184 0.07218 27.413284 0.851771 144.327326
2043.2 0.846758 114.313641 1.117277 34.808885 0.072739 26.909685 0.851323 143.712299
2058.15 0.848489 113.617215 1.110275 34.089839 0.073178 26.339339 0.85092 143.189564
2073.1 0.849473 112.944865 1.102887 33.380685 0.073674 25.647285 0.851095 142.516708
2088.05 0.849667 112.220349 1.094741 32.651214 0.074137 25.127514 0.851082 142.008499
2103 0.849775 111.503661 1.086199 31.886091 0.074403 24.481491 0.850455 141.362809
2117.95 0.849853 110.791935 1.078439 31.192573 0.074869 24.033373 0.851216 140.784349
2132.9 0.849567 110.104141 1.070436 30.507972 0.075157 23.537372 0.85099 140.200982
2147.85 0.848958 109.376413 1.061512 29.814232 0.075617 22.810232 0.851984 139.566543
2162.8 0.848543 108.668196 1.0529 29.147703 0.075879 22.332903 0.852582 139.023132
2177.75 0.84877 107.986473 1.044784 28.483156 0.076366 21.873756 0.852797 138.433996
2192.7 0.849783 107.275473 1.037404 27.805433 0.076543 21.271033 0.853342 137.819338
2207.65 0.849855 106.602714 1.029207 27.154701 0.07685 20.730001 0.853333 137.247058
2222.6 0.850856 105.939781 1.021461 26.530911 0.07726 20.198011 0.853536 136.683056
2237.55 0.852132 105.275902 1.013944 25.822759 0.077588 19.640959 0.853494 136.08666
2252.5 0.853806 104.607036 1.006697 25.176149 0.077882 19.151249 0.853543 135.480102
2267.45 0.854895 103.958819 0.999335 24.523667 0.078212 18.665667 0.853755 134.944974
2282.4 0.855809 103.352211 0.991739 23.896148 0.078497 18.129648 0.854053 134.354411
2297.35 0.856177 102.814623 0.984255 23.281298 0.079002 17.566298 0.854799 133.779146
2312.3 0.857769 102.26664 0.977785 22.63959 0.07912 17.09319 0.854631 133.217771
2327.25 0.859505 101.66611 0.970675 21.967209 0.079511 16.502609 0.855181 132.655268
2342.2 0.860012 101.101479 0.963396 21.343049 0.079842 16.097749 0.855691 132.099233
2357.15 0.860074 100.513147 0.95621 20.700009 0.079952 15.602709 0.856225 131.506905
2372.1 0.86032 99.962233 0.948652 20.089066 0.080359 15.080566 0.856408 130.934466
2387.05 0.859465 99.367315 0.941057 19.466872 0.080652 14.543472 0.856718 130.415932
2402 0.859342 98.798653 0.933591 18.847801 0.080704 14.103801 0.857601 129.869208
2416.95 0.858316 98.223095 0.925365 18.285118 0.080992 13.575718 0.85787 129.325951
2431.9 0.857598 97.637626 0.917979 17.66213 0.081254 13.11183 0.858077 128.769857
2446.85 0.856927 97.05819 0.90991 17.081746 0.081623 12.627946 0.858506 128.2666
2461.8 0.856534 96.46673 0.901634 16.497549 0.081608 12.087349 0.85854 127.711684
2476.75 0.856507 95.858719 0.893888 15.971187 0.081602 11.678487 0.858875 127.170809
2491.7 0.85626 95.263623 0.886342 15.433789 0.081938 11.222889 0.859135 126.640974
2506.65 0.856629 94.698264 0.878892 14.929249 0.082158 10.774049 0.859397 126.103935
2521.6 0.858644 94.110861 0.873428 14.371272 0.08245 10.350372 0.860362 125.575667
2536.55 0.860115 93.552964 0.866425 13.813051 0.082635 9.995951 0.86098 125.103054
2551.5 0.862501 92.971032 0.859716 13.230655 0.082856 9.473955 0.861048 124.563976
2566.45 0.864736 92.413549 0.852916 12.692357 0.083133 9.034057 0.861701 124.072184
2581.4 0.867389 91.866388 0.847431 12.141278 0.08337 8.560378 0.862396 123.604816
2596.35 0.870134 91.327114 0.842112 11.528848 0.083678 8.128948 0.862853 123.099976
2611.3 0.872357 90.816777 0.835818 10.933694 0.083774 7.721894 0.863005 122.614268
2626.25 0.874171 90.291608 0.829012 10.317242 0.083932 7.172842 0.864044 122.117924
2641.2 0.875433 89.765899 0.822425 9.774452 0.084194 6.862152 0.86444 121.643073
2656.15 0.876947 89.262738 0.816734 9.191636 0.084457 6.423736 0.865017 121.182131
2671.1 0.876998 88.794843 0.810231 8.645936 0.08457 5.923936 0.865588 120.690455
2686.05 0.877461 88.287041 0.804414 8.031657 0.084728 5.536457 0.866348 120.245209
2701 0.877766 87.817485 0.796926 7.537972 0.084791 5.015972 0.86725 119.760093
2715.95 0.877474 87.328494 0.790177 7.025706 0.08488 4.763206 0.868 119.304999
2730.9 0.877863 86.837857 0.78429 6.541019 0.085165 4.252819 0.869067 118.882048
2745.85 0.878056 86.374228 0.778828 5.997677 0.085248 3.931877 0.869515 118.459287
2760.8 0.878103 85.891693 0.772176 5.483547 0.085379 3.477847 0.869973 117.987245
2775.75 0.878784 85.424995 0.766376 4.979366 0.085472 3.009766 0.870414 117.58215
2790.7 0.879486 84.912882 0.759718 4.470887 0.085733 2.648687 0.871175 117.155027
2805.65 0.880712 84.472562 0.754392 4.002206 0.085804 2.277606 0.871877 116.736797
2820.6 0.881906 83.987271 0.748742 3.494301 0.085904 1.932801 0.872304 116.331387
2835.55 0.884008 83.562962 0.742776 2.965249 0.086014 1.535049 0.873013 115.94129
2850.5 0.885279 83.125401 0.736019 2.494168 0.086089 1.132418 0.873706 115.462515
2865.45 0.888124 82.660407 0.730957 2.050953 0.086303 0.855633 0.874635 115.097891
2880.4 0.890253 82.284379 0.726285 1.597326 0.086582 0.428776 0.874875 114.725136
2895.35 0.892207 81.884222 0.72184 1.091624 0.086739 -0.015656 0.876154 114.350269
2910.3 0.89441 81.540763 0.716784 0.4953 0.086818 -0.40155 0.876932 113.959135
2925.25 0.896252 81.171952 0.71095 -0.083068 0.086904 -0.707178 0.878212 113.61905
2940.2 0.896733 80.875878 0.704639 -0.559441 0.087024 -1.012351 0.87842 113.2489
2955.15 0.897733 80.549303 0.699505 -0.972607 0.087317 -1.409537 0.878768 112.881072
2970.1 0.897339 80.267261 0.694746 -1.396692 0.087435 -1.750512 0.879326 112.521404
2985.05 0.896635 79.979766 0.689826 -1.891797 0.087631 -2.147107 0.880035 112.179522
3000 0.895827 79.68368 0.684828 -2.387129 0.087599 -2.478689 0.880869 111.811676
