!Hittite Microwave Corporation								
!12 Elizabeth Drive								
!Chelmsford, MA 01824								
!Tel: 978-250-3343								
!Fax: 978-250-3373								
!Device: HMC479MP86, DC-5 GHz, SiGe HBT Gain Block MMIC Amplifier in Micro-P package								
!Misc: Vs = 8V, Room							
!
# MHZ S MA R 50

50 0.461 119.95 5.09 133.15 0.097 -42.956 0.338 114.721
116.333 0.325 143.346 5.504 156.093 0.106 -19.245 0.192 139.98
182.667 0.299 147.689 5.561 160.613 0.106 -12.07 0.163 146.702
249 0.288 147.391 5.564 161.387 0.107 -8.141 0.152 148.457
315.333 0.279 144.942 5.552 160.697 0.107 -6.325 0.148 148.413
381.667 0.274 141.655 5.536 159.467 0.107 -5.11 0.144 146.305
448 0.266 137.935 5.52 157.931 0.107 -3.837 0.139 145.129
514.333 0.26 133.961 5.5 155.991 0.106 -2.877 0.136 142.821
580.667 0.254 129.708 5.478 153.872 0.107 -2.141 0.132 140.478
647 0.248 125.781 5.443 151.823 0.106 -1.349 0.129 137.657
713.333 0.241 121.137 5.4 149.643 0.106 -0.946 0.125 135.138
779.667 0.234 116.891 5.343 147.569 0.107 -0.235 0.121 132.177
846 0.227 112.124 5.295 145.466 0.107 -0.069 0.117 129.238
912.333 0.22 107.694 5.254 143.547 0.107 0.902 0.112 126.546
978.667 0.213 102.948 5.222 141.622 0.107 1.337 0.108 124.038
1045 0.205 98.471 5.195 139.632 0.107 1.47 0.103 120.603
1111.333 0.197 93.191 5.15 137.494 0.109 2.15 0.096 118.385
1177.667 0.19 88.013 5.134 135.34 0.108 2.972 0.093 115.663
1244 0.184 82.438 5.108 133.266 0.107 2.801 0.088 113.127
1310.333 0.177 77.183 5.061 131.079 0.109 3.415 0.083 110.864
1376.667 0.171 71.205 5.015 128.859 0.11 4.018 0.078 109.277
1443 0.165 65.705 4.983 126.747 0.11 4.245 0.073 106.77
1509.333 0.16 59.554 4.924 124.644 0.11 4.732 0.068 104.82
1575.667 0.155 53.818 4.884 122.59 0.111 4.514 0.063 103.272
1642 0.152 47.744 4.837 120.552 0.112 5.717 0.058 101.01
1708.333 0.148 42.398 4.79 118.509 0.112 5.935 0.054 99.653
1774.667 0.144 36.588 4.75 116.569 0.112 6.231 0.05 96.737
1841 0.14 31.6 4.708 114.63 0.114 5.713 0.047 93.718
1907.333 0.137 25.812 4.666 112.587 0.114 6.972 0.042 92.114
1973.667 0.132 20.548 4.624 110.665 0.114 7.046 0.037 87.641
2040 0.128 15.621 4.582 108.57 0.118 7.526 0.034 83.997
2106.333 0.124 9.486 4.539 106.64 0.116 7.83 0.029 81.084
2172.667 0.121 4.442 4.495 104.68 0.118 7.585 0.025 73.819
2239 0.115 -1.2 4.456 102.669 0.119 8.879 0.023 69.976
2305.333 0.113 -6.956 4.405 100.739 0.119 8.13 0.018 62.731
2371.667 0.11 -12.531 4.35 98.783 0.122 8.481 0.015 54.159
2438 0.108 -17.489 4.312 96.929 0.121 9.322 0.013 47.798
2504.333 0.105 -23.279 4.257 95.044 0.123 8.594 0.01 37.773
2570.667 0.103 -28.29 4.2 93.316 0.125 9.154 9.311e-3 23.071
2637 0.101 -33.261 4.158 91.493 0.123 9.545 7.01e-3 19.106
2703.333 0.099 -36.653 4.11 89.848 0.128 8.837 8.584e-3 -0.241
2769.667 0.097 -40.998 4.067 88.165 0.128 9.622 8.234e-3 -10.518
2836 0.094 -44.588 4.03 86.562 0.129 8.537 0.01 -26.208
2902.333 0.092 -48.032 3.978 84.968 0.131 9.472 0.011 -23.044
2968.667 0.088 -50.032 3.955 83.237 0.131 9.067 0.012 -22.243
3035 0.082 -54.397 3.922 81.975 0.136 8.786 0.014 -36.19
3101.333 0.081 -56.494 3.898 80.048 0.134 9.279 0.017 -36.435
3167.667 0.075 -57.362 3.875 78.537 0.136 8.526 0.02 -34.898
3234 0.071 -59.79 3.829 76.53 0.137 9.082 0.022 -34.209
3300.333 0.065 -61.787 3.842 75.053 0.138 8.575 0.027 -40.617
3366.667 0.061 -64.849 3.795 73.284 0.139 8.793 0.032 -39.238
3433 0.059 -64.472 3.788 71.143 0.14 8.166 0.034 -37.746
3499.333 0.052 -65.265 3.744 69.49 0.141 8.595 0.041 -41.309
3565.667 0.049 -68.063 3.719 67.372 0.142 8.446 0.046 -42.229
3632 0.046 -66.621 3.682 66.138 0.144 8.387 0.05 -43.436
3698.333 0.044 -64.83 3.634 63.725 0.145 8.249 0.057 -42.841
3764.667 0.042 -61.065 3.608 62.072 0.147 8.304 0.063 -42.996
3831 0.041 -57.454 3.54 60.022 0.148 7.796 0.07 -44.685
3897.333 0.043 -56.648 3.51 58.686 0.149 8.043 0.077 -43.628
3963.667 0.046 -49.184 3.449 56.89 0.151 7.796 0.086 -44.268
4030 0.046 -46.334 3.431 55.272 0.152 8.192 0.095 -44.963
4096.333 0.052 -43.862 3.36 53.945 0.154 7.234 0.104 -46.366
4162.667 0.057 -42.563 3.332 52.361 0.156 7.325 0.114 -47.931
4229 0.063 -40.28 3.273 51.478 0.156 7.148 0.125 -48.798
4295.333 0.068 -39.496 3.263 49.588 0.16 6.838 0.135 -51.591
4361.667 0.073 -39.906 3.225 48.743 0.16 6.386 0.146 -53.448
4428 0.08 -41.184 3.192 46.854 0.163 6.464 0.156 -55.517
4494.333 0.085 -41.284 3.176 46.168 0.164 5.93 0.167 -58.288
4560.667 0.09 -42.854 3.15 44.688 0.167 5.289 0.177 -60.309
4627 0.095 -45.143 3.175 43.33 0.167 5.25 0.186 -62.439
4693.333 0.102 -47.805 3.121 41.672 0.17 4.805 0.198 -64.486
4759.667 0.109 -49.73 3.119 40.134 0.171 4.489 0.208 -66.644
4826 0.114 -51.948 3.095 38.957 0.173 3.687 0.217 -69.681
4892.333 0.122 -55.554 3.086 37.01 0.174 3.447 0.229 -71.258
4958.667 0.13 -58.202 3.061 35.408 0.176 2.898 0.239 -73.774
5025 0.139 -61.068 3.035 33.632 0.176 2.482 0.251 -76.437
5091.333 0.146 -64.221 3.009 32.143 0.178 2.114 0.26 -78.746
5157.667 0.154 -67.804 2.975 30.544 0.179 1.767 0.27 -81.347
5224 0.165 -70.824 2.946 28.967 0.181 1.257 0.281 -83.459
5290.333 0.171 -73.684 2.913 27.674 0.182 0.642 0.291 -86.607
5356.667 0.181 -77.365 2.883 26.462 0.184 0.322 0.303 -89.005
5423 0.189 -80.46 2.868 25.156 0.185 -4.259e-3 0.312 -91.677
5489.333 0.2 -83.879 2.847 24.218 0.187 -0.402 0.323 -94.387
5555.667 0.209 -87.15 2.838 22.817 0.188 -1.109 0.332 -96.992
5622 0.218 -90.328 2.843 21.885 0.192 -1.015 0.342 -99.346
5688.333 0.227 -94.45 2.855 19.827 0.191 -2.314 0.348 -101.869
5754.667 0.236 -97.33 2.854 18.063 0.194 -3.163 0.355 -104.411
5821 0.248 -100.558 2.835 16.215 0.189 -2.465 0.365 -106.612
5887.333 0.256 -104.303 2.833 13.865 0.197 -4.516 0.368 -109.167
5953.667 0.268 -107.913 2.803 11.758 0.198 -3.703 0.375 -111.606
6020 0.279 -110.661 2.792 9.837 0.195 -6.053 0.381 -113.749
6086.333 0.292 -114.03 2.699 7.488 0.198 -5.681 0.385 -116.126
6152.667 0.305 -117.562 2.664 5.714 0.196 -6.209 0.39 -118.663
6219 0.318 -120.307 2.55 4.546 0.2 -6.834 0.398 -121.136
6285.333 0.327 -123.366 2.541 3.062 0.201 -6.95 0.4 -124.139
6351.667 0.341 -126.695 2.459 2.883 0.197 -7.789 0.407 -127.03
6418 0.353 -128.779 2.373 0.419 0.209 -9.548 0.41 -129.247
6484.333 0.363 -132.24 2.428 2.665 0.202 -5.894 0.415 -133.357
6550.667 0.376 -134.537 2.372 1.727 0.2 -9.667 0.424 -136.148
6617 0.384 -136.941 2.443 0.978 0.223 -7.288 0.425 -138.747
6683.333 0.396 -140.098 2.425 1.32 0.2 -9.754 0.432 -142.179
6749.667 0.41 -142.301 2.508 -1.185 0.217 -10.221 0.441 -144.652
6816 0.416 -144.369 2.56 -1.279 0.204 -8.44 0.442 -146.856
6882.333 0.428 -147.779 2.527 -4.581 0.215 -13.099 0.449 -150.108
6948.667 0.443 -150.035 2.623 -7.278 0.223 -9.381 0.462 -152.12
7015 0.45 -152.205 2.606 -10.863 0.205 -12.229 0.464 -153.709
7081.333 0.457 -155.658 2.547 -13.336 0.224 -14.714 0.466 -156.853
7147.667 0.468 -158.565 2.518 -15.731 0.226 -14.106 0.475 -159.032
7214 0.478 -160.746 2.413 -19.451 0.209 -14.238 0.484 -159.902
7280.333 0.48 -164.405 2.401 -21.645 0.232 -16.43 0.477 -163.387
7346.667 0.489 -166.37 2.3 -22.063 0.224 -18.6 0.486 -164.756
7413 0.496 -169.142 2.115 -24.433 0.228 -19.915 0.491 -166.623
7479.333 0.511 -172.382 2.178 -25.467 0.222 -15.894 0.501 -169.775
7545.667 0.514 -174.537 2.091 -24.936 0.219 -22.151 0.504 -171.705
7612 0.52 -177.583 2.06 -25.594 0.227 -17.906 0.503 -175.046
7678.333 0.527 179.83 2.015 -25.506 0.219 -21.666 0.512 -177.046
7744.667 0.532 177.165 2.009 -26.933 0.22 -20.52 0.515 179.958
7811 0.536 174.67 2.097 -26.896 0.209 -23.08 0.516 176.919
7877.333 0.539 172.063 2.022 -27.503 0.225 -22.986 0.521 174.144
7943.667 0.541 169.262 2.023 -28.521 0.212 -19.932 0.523 171.337
8010 0.544 166.923 2.044 -32.869 0.22 -24.28 0.528 168.576
8076.333 0.546 164.527 2.098 -32.926 0.214 -22.164 0.53 165.826
8142.667 0.549 161.817 2.034 -35.927 0.223 -21.957 0.536 163.012
8209 0.548 159.273 2.01 -37.478 0.217 -23.997 0.543 160.474
8275.333 0.553 156.563 1.96 -41.381 0.218 -22.165 0.55 157.62
8341.667 0.549 153.466 1.934 -44.383 0.235 -22.688 0.553 154.54
8408 0.547 150.953 1.843 -39.86 0.22 -27.185 0.562 152.508
8474.333 0.55 148.403 1.792 -47.675 0.225 -22.922 0.567 149.904
8540.667 0.547 145.552 1.745 -47.067 0.228 -23.958 0.571 147.353
8607 0.544 143.299 1.593 -48.05 0.22 -26.828 0.572 145.021
8673.333 0.539 140.104 1.647 -47.205 0.235 -27.158 0.573 142.085
8739.667 0.541 137.275 1.572 -46.184 0.226 -25.083 0.581 139.456
8806 0.538 135.417 1.535 -50.623 0.224 -27.954 0.581 137.675
8872.333 0.532 132.092 1.555 -45.693 0.243 -27.159 0.578 134.397
8938.667 0.533 129.349 1.55 -47.464 0.223 -27.665 0.584 131.731
9005 0.529 126.296 1.547 -47.626 0.245 -26.812 0.581 129.416
9071.333 0.528 123.98 1.528 -46.414 0.231 -26.902 0.581 126.383
9137.667 0.522 121.333 1.533 -48.482 0.238 -31.456 0.58 124.378
9204 0.518 118.108 1.588 -47.109 0.257 -26.181 0.574 121.419
9270.333 0.519 115.553 1.549 -49.211 0.238 -29.41 0.578 118.674
9336.667 0.512 112.853 1.581 -50.194 0.247 -31.828 0.574 116.098
9403 0.509 109.486 1.591 -51.1 0.258 -29.144 0.571 113.392
9469.333 0.506 106.531 1.587 -53.42 0.244 -33.181 0.572 110.994
9535.667 0.505 103.137 1.599 -53.173 0.252 -32.314 0.569 108.002
9602 0.501 100.419 1.568 -56.07 0.244 -34.296 0.565 105.155
9668.333 0.496 96.29 1.588 -57.381 0.259 -35.528 0.565 102.62
9734.667 0.498 93.101 1.571 -58.424 0.256 -33.397 0.564 99.538
9801 0.493 89.777 1.544 -60.489 0.253 -37.913 0.563 97.131
9867.333 0.495 85.885 1.557 -60.926 0.26 -35.784 0.564 93.829
9933.667 0.495 82.098 1.538 -62.265 0.261 -36.772 0.567 90.933
10000 0.495 78.38 1.521 -63.456 0.265 -38.155 0.564 87.876
