# MHZ S MA R 50

50 0.999 -2.537 1.619e-3 174.964 708.8e-6 -173.434 1 -3.373
174.75 1.002 -8.418 4.94e-3 146.953 246.5e-6 28.394 1.003 -12.387
299.5 1.002 -14.499 170.1e-6 150.442 77.69e-6 152.538 1 -21.298
424.25 1.004 -20.631 131.8e-6 54.726 104.4e-6 -171.694 0.998 -29.544
549 1.002 -26.855 411.2e-6 143.977 127.3e-6 -66.136 0.997 -38.889
673.75 1.002 -32.918 1.698e-3 137.66 241.1e-6 -44.763 0.988 -48.358
798.5 0.998 -39.035 6.01e-3 121.169 653.4e-6 -71.08 0.955 -58.234
923.25 0.994 -45.123 0.017 90.927 1.625e-3 -96.927 0.87 -67.04
1048 0.992 -51.222 0.031 48.516 2.607e-3 -137.604 0.805 -68.431
1172.75 0.988 -57.245 0.039 14.81 2.967e-3 -169.709 0.846 -71.618
1297.5 0.983 -63.307 0.046 -4.998 3.203e-3 174.139 0.878 -78.575
1422.25 0.977 -69.363 0.056 -17.257 3.43e-3 163.854 0.886 -86.153
1547 0.973 -75.38 0.061 -27.095 3.827e-3 153.687 0.886 -93.81
1671.75 0.968 -81.555 0.077 -39.073 4.524e-3 142.068 0.878 -101.466
1796.5 0.963 -87.689 0.094 -48.681 5.299e-3 135.778 0.867 -109.042
1921.25 0.956 -93.945 0.112 -53.639 5.743e-3 130.955 0.85 -116.743
2046 0.95 -100.288 0.121 -60.838 6.168e-3 123.094 0.83 -124.459
2170.75 0.942 -106.735 0.149 -69.894 7.475e-3 112.376 0.806 -132.33
2295.5 0.934 -113.316 0.172 -77.007 8.769e-3 103.285 0.782 -140.323
2420.25 0.923 -120.187 0.19 -81.284 9.287e-3 94.173 0.754 -148.627
2545 0.911 -127.274 0.205 -84.573 9.954e-3 86.434 0.723 -157.134
2669.75 0.898 -134.571 0.241 -86.526 0.011 74.772 0.695 -166.011
2794.5 0.88 -142.073 0.274 -92.069 0.012 59.522 0.664 -175.044
2919.25 0.862 -149.961 0.32 -92.779 0.014 45.251 0.637 175.484
3044 0.84 -158.397 0.386 -94.538 0.014 36.381 0.607 165.436
3168.75 0.813 -167.292 0.474 -96.877 0.014 23.811 0.578 155.025
3293.5 0.785 -176.753 0.561 -102.761 0.014 3.152 0.551 144.134
3418.25 0.749 173.065 0.708 -107.828 0.014 -12.149 0.522 133.046
3543 0.712 162.198 0.897 -114.429 0.014 -23.562 0.493 122.172
3667.75 0.672 150.384 1.045 -122.99 0.014 -39.514 0.468 111.397
3792.5 0.63 137.72 1.194 -135.236 0.012 -56.218 0.446 101.054
3917.25 0.589 123.958 1.38 -140.356 0.01 -67.047 0.428 90.915
4042 0.552 109.088 1.665 -147.641 9.221e-3 -76.727 0.414 81.49
4166.75 0.519 93.497 1.785 -157.821 8.309e-3 -90.772 0.404 72.48
4291.5 0.495 77.171 2.001 -169.451 7.085e-3 -102.024 0.397 64.031
4416.25 0.482 60.964 2.103 -175.407 6.169e-3 -109.872 0.394 56.084
4541 0.478 45.209 2.297 176.513 5.314e-3 -116.342 0.392 48.409
4665.75 0.48 30.445 2.361 166.74 4.632e-3 -123.952 0.394 41.022
4790.5 0.489 17.163 2.626 160.073 4.239e-3 -129.667 0.397 33.982
4915.25 0.503 5.412 2.66 153.537 3.978e-3 -133.451 0.402 27.506
5040 0.516 -4.958 2.803 144.556 3.664e-3 -138.851 0.407 21.149
5164.75 0.528 -13.918 2.764 136.7 3.369e-3 -141.006 0.412 15.286
5289.5 0.54 -21.769 2.997 132.402 3.099e-3 -141.458 0.417 9.78
5414.25 0.551 -28.668 2.982 125.77 3.049e-3 -143.82 0.425 4.414
5539 0.557 -34.814 3.256 117.707 3.313e-3 -147.651 0.429 -0.56
5663.75 0.562 -40.253 3.286 112.68 3.273e-3 -147.906 0.434 -5.271
5788.5 0.563 -45.078 3.368 109.75 3.273e-3 -146.698 0.438 -9.626
5913.25 0.562 -49.479 3.27 105.337 3.326e-3 -147.688 0.444 -13.701
6038 0.557 -53.59 3.626 98.455 3.581e-3 -150.876 0.447 -17.547
6162.75 0.548 -57.398 3.67 94.786 3.862e-3 -151.069 0.449 -21.111
6287.5 0.538 -60.956 3.826 92.61 3.868e-3 -152.728 0.45 -24.426
6412.25 0.523 -64.267 3.681 87.821 4.037e-3 -153.614 0.452 -27.642
6537 0.503 -67.528 4.062 82.329 4.53e-3 -154.955 0.45 -30.658
6661.75 0.48 -70.917 4.154 77.284 4.635e-3 -158.919 0.447 -33.377
6786.5 0.452 -74.149 4.467 74.882 4.925e-3 -160.98 0.444 -36.048
6911.25 0.42 -77.387 4.393 69.525 5.346e-3 -162.229 0.439 -38.399
7036 0.383 -80.772 4.627 64.602 5.659e-3 -164.217 0.432 -40.9
7160.75 0.342 -84.287 4.799 57.402 6.05e-3 -168.47 0.423 -43.077
7285.5 0.297 -87.873 5.209 54.756 6.628e-3 -170.14 0.412 -45.244
7410.25 0.247 -91.376 5.292 50.607 7.085e-3 -172.377 0.401 -47.162
7535 0.195 -95.631 5.36 44.593 7.557e-3 -175.065 0.387 -49.17
7659.75 0.142 -99.544 5.482 36.402 7.699e-3 -179.605 0.375 -50.996
7784.5 0.087 -105.669 5.767 32.519 8.223e-3 177.175 0.358 -52.982
7909.25 0.033 -119.154 5.88 28.698 8.702e-3 174.184 0.34 -54.926
8034 0.025 98.866 5.935 23.234 8.921e-3 173.036 0.321 -57.101
8158.75 0.075 80.758 6.046 16.375 9.015e-3 169.545 0.303 -59.352
8283.5 0.124 74.199 6.103 11.912 9.447e-3 166.524 0.282 -61.561
8408.25 0.169 70.041 6.161 7.508 9.731e-3 163.76 0.26 -63.986
8533 0.21 67.319 6.222 2.426 0.01 160.963 0.237 -66.996
8657.75 0.248 64.992 6.3 -2.199 0.01 158.164 0.214 -70.598
8782.5 0.28 62.686 6.328 -6.693 0.011 156.07 0.19 -74.823
8907.25 0.309 60.663 6.359 -11.111 0.011 153.554 0.166 -79.516
9032 0.332 59.189 6.4 -15.682 0.011 151.961 0.142 -85.909
9156.75 0.353 57.707 6.438 -19.765 0.011 150.137 0.12 -94.136
9281.5 0.368 56.481 6.476 -24.116 0.012 147.966 0.099 -106.494
9406.25 0.38 55.186 6.517 -28.108 0.012 146.315 0.084 -121.287
9531 0.389 53.957 6.562 -32.247 0.012 145.18 0.076 -141.555
9655.75 0.394 53.055 6.6 -36.422 0.012 143.158 0.076 -163.047
9780.5 0.395 51.745 6.639 -40.159 0.012 141.142 0.085 179.52
9905.25 0.394 50.769 6.695 -44.116 0.013 139.621 0.097 165.543
10030 0.389 49.679 6.756 -48.275 0.013 137.61 0.111 155.47
10154.75 0.382 48.48 6.815 -52.102 0.013 136.094 0.126 147.997
10279.5 0.373 46.913 6.876 -55.346 0.014 135.695 0.138 141.459
10404.25 0.359 45.367 6.858 -59.456 0.014 134.601 0.148 137.726
10529 0.341 43.804 6.929 -63.263 0.014 132.885 0.157 133.89
10653.75 0.322 41.476 6.976 -67.259 0.015 131.319 0.162 131.786
10778.5 0.3 38.86 7.03 -70.257 0.015 129.98 0.164 129.366
10903.25 0.277 35.49 7.116 -74.808 0.015 128.574 0.164 127.455
11028 0.252 32.157 7.127 -78.345 0.015 127.133 0.161 126.267
11152.75 0.226 27.492 7.101 -82.878 0.016 126.107 0.156 125.355
11277.5 0.2 21.795 7.124 -86.948 0.016 125.315 0.147 125.468
11402.25 0.172 14.561 7.345 -90.69 0.016 123.275 0.139 127.051
11527 0.149 4.49 7.351 -94.044 0.017 121.344 0.127 128.38
11651.75 0.13 -8.764 7.231 -98.481 0.017 121.238 0.114 131.142
11776.5 0.116 -24.087 7.221 -103.162 0.017 120.272 0.103 134.543
11901.25 0.112 -41.384 7.23 -106.609 0.017 118.661 0.09 140.075
12026 0.118 -58.073 7.167 -109.887 0.017 116.479 0.078 148.257
12150.75 0.129 -71.973 7.063 -114.407 0.018 115.494 0.069 160.777
12275.5 0.143 -81.679 7.009 -118.426 0.018 116.079 0.066 175.681
12400.25 0.158 -88.53 6.949 -122.288 0.018 113.753 0.066 -169.399
12525 0.176 -93.266 6.842 -125.049 0.018 111.177 0.07 -156.636
12649.75 0.192 -96.779 6.835 -128.486 0.019 109.881 0.076 -144.862
12774.5 0.207 -99.203 6.715 -132.511 0.019 111.265 0.086 -135.111
12899.25 0.22 -100.533 6.664 -136.309 0.019 111.096 0.095 -127.99
13024 0.234 -101.188 6.546 -138.582 0.019 107.626 0.106 -122.443
13148.75 0.247 -101.435 6.476 -141.609 0.019 105.234 0.115 -116.963
13273.5 0.259 -101.384 6.279 -146.478 0.019 105.483 0.126 -112.305
13398.25 0.27 -101.043 6.228 -150.554 0.019 105.315 0.139 -108.475
13523 0.282 -100.798 6.026 -151.744 0.019 104.434 0.152 -105.643
13647.75 0.294 -100.177 6.05 -153.946 0.019 101.892 0.163 -102.893
13772.5 0.304 -99.69 5.926 -158.937 0.019 102.213 0.176 -101.013
13897.25 0.315 -99.362 5.901 -162.654 0.02 102.018 0.187 -99.387
14022 0.323 -99.45 5.634 -164.638 0.02 103.278 0.2 -98.73
14146.75 0.332 -99.296 5.528 -167.734 0.018 101.882 0.213 -98.494
14271.5 0.343 -99.244 5.46 -170.459 0.018 97.832 0.223 -98.073
14396.25 0.353 -100.02 5.539 -172.169 0.02 99.256 0.233 -98.265
14521 0.359 -101.053 5.197 -174.778 0.02 103.268 0.243 -99.004
14645.75 0.363 -101.278 5.186 -179.833 0.019 100.693 0.252 -100.136
14770.5 0.376 -101.733 5.131 176.811 0.018 95.58 0.26 -101.504
14895.25 0.389 -103.326 5.239 177.747 0.02 93.175 0.267 -102.434
15020 0.389 -106.625 4.717 174.277 0.021 95.836 0.273 -104.529
15144.75 0.379 -106.304 4.844 171.939 0.021 101.487 0.277 -106.741
15269.5 0.457 -105.769 4.988 166.912 0.019 106.182 0.281 -109.001
15394.25 0.381 -131.163 4.816 163.525 0.017 100.371 0.287 -111.134
15519 0.38 -106.643 4.394 161.106 0.016 88.011 0.294 -113.756
15643.75 0.429 -116.351 4.517 160.436 0.02 82.418 0.298 -116.666
15768.5 0.414 -119.371 4.557 158.511 0.022 90.765 0.301 -119.264
15893.25 0.421 -120.248 4.38 157.33 0.021 96.033 0.306 -122.037
16018 0.438 -123.091 4.163 151.225 0.019 92.907 0.314 -124.957
16142.75 0.448 -126.878 4.224 148.604 0.019 88.172 0.32 -128.205
16267.5 0.453 -129.426 4.144 147.598 0.021 87.826 0.325 -130.816
16392.25 0.46 -131.572 4.085 146.797 0.021 91.004 0.33 -133.514
16517 0.471 -133.841 3.874 142.074 0.02 89.82 0.337 -136.301
16641.75 0.481 -136.279 3.933 140.647 0.02 89.905 0.344 -138.791
16766.5 0.487 -138.425 3.858 137.638 0.02 88.685 0.35 -141.349
16891.25 0.495 -140.008 3.775 136.979 0.021 85.653 0.356 -143.351
17016 0.506 -141.365 3.599 134.132 0.02 83.065 0.363 -145.105
17140.75 0.519 -142.652 3.591 134.488 0.019 82.997 0.372 -146.833
17265.5 0.53 -144.447 3.618 131.941 0.018 82.745 0.378 -148.853
17390.25 0.539 -146.021 3.549 129.939 0.018 83.527 0.384 -150.711
17515 0.543 -147.302 3.397 127.542 0.019 85.363 0.387 -152.297
17639.75 0.545 -148.081 3.341 127.149 0.018 87.117 0.388 -153.924
17764.5 0.551 -148.794 3.342 125.586 0.018 86.849 0.389 -155.323
17889.25 0.554 -149.676 3.314 123.618 0.018 87.11 0.388 -156.815
18014 0.554 -150.393 3.287 121.374 0.019 88.513 0.387 -158.066
18138.75 0.552 -150.714 3.261 120.024 0.019 87.572 0.383 -159.081
18263.5 0.551 -151.15 3.225 118.616 0.019 87.755 0.378 -160.43
18388.25 0.546 -151.89 3.213 116.763 0.019 87.092 0.372 -161.993
18513 0.539 -152.367 3.214 114.949 0.02 87.405 0.362 -163.656
18637.75 0.529 -152.755 3.231 113.215 0.021 87.018 0.352 -165.446
18762.5 0.521 -153.076 3.226 111.119 0.021 83.499 0.34 -168.102
18887.25 0.51 -153.914 3.205 109.105 0.021 80.718 0.321 -170.375
19012 0.496 -154.841 3.207 107.386 0.02 77.467 0.306 -172.109
19136.75 0.482 -156.361 3.227 105.479 0.018 82.364 0.297 -175.53
19261.5 0.458 -159.142 3.262 102.553 0.02 88.089 0.276 178.751
19386.25 0.431 -160.926 3.255 100.038 0.022 83.858 0.254 173.765
19511 0.403 -163.873 3.3 96.94 0.023 82.142 0.235 166.973
19635.75 0.368 -168.132 3.323 93.077 0.024 76.898 0.216 159.042
19760.5 0.327 -172.84 3.323 89.68 0.023 71.932 0.194 149.112
19885.25 0.285 -179.114 3.187 86.445 0.023 67.088 0.166 139.222
20010 0.239 172.089 3.069 83.248 0.021 64.269 0.148 141.776
20134.75 0.174 163.936 3.075 80.477 0.02 70.234 0.194 134.265
20259.5 0.159 168.565 3.176 79.577 0.021 71.156 0.217 117.675
20384.25 0.177 148.43 3.143 77.074 0.022 65.702 0.228 105.025
20509 0.186 124.211 3.064 71.423 0.021 59.231 0.229 97.78
20633.75 0.21 101.274 3.047 66.15 0.021 59.515 0.261 98.264
20758.5 0.244 82.355 3.219 62.414 0.021 60.476 0.312 91.994
20883.25 0.271 67.586 2.925 60.672 0.019 58.71 0.348 86.293
21008 0.273 61.597 2.755 58.153 0.019 53.24 0.386 81.701
21132.75 0.329 63.543 2.703 51.287 0.019 52.22 0.418 77.846
21257.5 0.397 58.761 2.874 48.977 0.019 53.725 0.449 74.513
21382.25 0.452 54.518 2.661 46.679 0.018 52.615 0.476 72.461
21507 0.502 51.028 2.507 44.078 0.017 47.394 0.503 70.984
21631.75 0.544 47.93 2.455 38.259 0.018 46.317 0.527 69.262
21756.5 0.579 45.998 2.341 37.956 0.018 46.943 0.548 68.117
21881.25 0.614 44.278 2.264 32.834 0.017 44.899 0.569 67.37
22006 0.643 42.953 2.235 31.223 0.017 46.83 0.589 66.987
22130.75 0.668 42.133 2.164 33.454 0.016 47.644 0.606 66.409
22255.5 0.692 41.847 1.861 30.972 0.015 41.407 0.619 66.266
22380.25 0.712 41.592 1.879 23.635 0.016 40.112 0.63 66.269
22505 0.728 41.327 2.01 24.092 0.016 46.071 0.638 66.421
22629.75 0.743 41.484 1.861 30.307 0.014 45.004 0.65 66.368
22754.5 0.757 41.865 1.716 23.046 0.014 38.818 0.656 66.724
22879.25 0.768 42.078 1.884 17.966 0.015 40.701 0.655 66.799
23004 0.775 42.437 1.994 21.418 0.015 44.7 0.658 66.839
23128.75 0.783 42.984 1.599 24.314 0.013 39.877 0.66 66.855
23253.5 0.789 43.34 1.612 16.835 0.014 36.335 0.659 66.935
23378.25 0.789 43.672 1.824 15.761 0.014 42.812 0.65 66.902
23503 0.787 44.157 1.829 22.211 0.013 44.318 0.646 66.549
23627.75 0.786 44.431 1.547 18.636 0.013 39.468 0.637 66.244
23752.5 0.783 44.584 1.614 14.782 0.014 42.877 0.624 65.489
23877.25 0.777 44.756 1.691 15.239 0.013 42.663 0.61 64.553
24002 0.767 44.636 1.65 15.442 0.013 41.055 0.596 63.442
24126.75 0.753 44.596 1.752 11.522 0.013 45.723 0.577 62.087
24251.5 0.738 44.183 1.897 13.688 0.013 47.92 0.557 60.032
24376.25 0.721 43.774 1.801 14.02 0.013 40.152 0.534 58.027
24501 0.7 42.842 1.721 8.056 0.015 37.159 0.512 55.309
24625.75 0.673 41.688 1.882 7.244 0.015 39.62 0.485 51.989
24750.5 0.647 40.344 2.068 10.593 0.014 40.493 0.462 48.163
24875.25 0.617 38.343 2.01 8.894 0.014 36.122 0.442 43.763
25000 0.582 35.91 1.987 0.214 0.016 33.974 0.42 38.455
