!Hittite Microwave Corporation								
!20 Alpha Road								
!Chelmsford, MA 01824								
!Tel: 978-250-3343								
!Fax: 978-250-3373								
!Device: HMC595, DC-3 GHz, GaAs T/R Switch in SOT26 SMT package  															
!Misc: Vctl = 5V, Port1 = RFC, Port2 = RF1, Port3 = RF2, RF1 ON, Room
!
# MHZ S MA R 50

50 6.843e-3 -3.908 0.978 -3.216 4.62e-3 76.501
          0.977 -3.196 6.003e-3 1.309 4.719e-3 73.865
          4.642e-3 76.674 4.724e-3 73.692 0.97 -17.038
69.75 7.506e-3 -19.863 0.977 -4.416 5.587e-3 81.049
          0.977 -4.366 6.927e-3 -17.958 5.418e-3 75.987
          5.567e-3 81.101 5.437e-3 75.855 0.967 -23.843
89.5 6.761e-3 -18.734 0.976 -5.577 8.554e-3 79.05
          0.976 -5.557 6.648e-3 -13.851 8.879e-3 74.022
          8.594e-3 79.21 8.869e-3 74.001 0.964 -30.28
109.25 8.279e-3 -25.989 0.977 -6.778 0.01 71.016
          0.977 -6.718 8.115e-3 -24.091 9.777e-3 63.846
          0.01 71.186 9.777e-3 63.946 0.965 -36.708
129 8.284e-3 -34.945 0.976 -7.959 0.011 69.173
          0.976 -7.939 7.897e-3 -30 0.011 60.901
          0.011 69.263 0.011 61.032 0.96 -43.177
148.75 8.314e-3 -32.542 0.976 -9.082 0.014 61.9
          0.976 -9.052 7.646e-3 -24.247 0.012 52.511
          0.014 61.93 0.012 52.531 0.958 -49.334
168.5 9.661e-3 -44.066 0.976 -10.361 0.014 63.269
          0.976 -10.321 8.623e-3 -36.293 0.014 53.513
          0.014 63.358 0.014 53.593 0.953 -55.494
188.25 9.31e-3 -45.934 0.975 -11.493 0.016 61.93
          0.975 -11.453 8.662e-3 -38.068 0.015 50.229
          0.016 61.989 0.015 50.29 0.949 -61.38
208 9.996e-3 -47.814 0.975 -12.655 0.017 57.269
          0.975 -12.615 9.633e-3 -40.004 0.017 45.674
          0.017 57.319 0.017 45.684 0.946 -67.181
227.75 0.011 -53.471 0.975 -13.874 0.019 54.843
          0.975 -13.854 0.01 -45.94 0.018 42.153
          0.019 54.872 0.018 42.163 0.941 -72.845
247.5 0.011 -57.777 0.975 -15.066 0.02 51.757
          0.974 -15.026 0.01 -50.221 0.019 38.307
          0.02 51.776 0.019 38.378 0.937 -78.314
267.25 0.011 -62.258 0.974 -16.237 0.021 49.444
          0.974 -16.157 0.01 -53.482 0.02 34.771
          0.021 49.544 0.02 34.842 0.934 -83.625
287 0.012 -64.778 0.974 -17.418 0.022 46.5
          0.974 -17.378 0.011 -55.945 0.021 31.054
          0.022 46.54 0.021 31.094 0.929 -88.869
306.75 0.013 -68.694 0.974 -18.589 0.023 43.895
          0.973 -18.569 0.012 -59.776 0.022 27.359
          0.023 43.904 0.022 27.399 0.925 -93.912
326.5 0.014 -72.663 0.973 -19.791 0.024 41.801
          0.973 -19.731 0.013 -63.776 0.023 24.088
          0.024 41.841 0.023 24.139 0.921 -98.776
346.25 0.014 -76.591 0.972 -20.941 0.025 39.709
          0.972 -20.901 0.013 -66.273 0.024 20.531
          0.025 39.768 0.024 20.571 0.917 -103.496
366 0.014 -78.926 0.972 -22.103 0.025 37.455
          0.972 -22.053 0.014 -69.457 0.024 17.053
          0.025 37.515 0.024 17.124 0.914 -108.055
385.75 0.015 -80.944 0.973 -23.265 0.026 35.411
          0.973 -23.225 0.015 -70.496 0.025 13.352
          0.026 35.441 0.025 13.393 0.912 -112.478
405.5 0.016 -85.143 0.973 -24.437 0.027 33.538
          0.973 -24.407 0.015 -72.826 0.025 10.513
          0.027 33.578 0.025 10.563 0.909 -116.748
425.25 0.016 -87.756 0.972 -25.618 0.027 31.654
          0.972 -25.578 0.016 -74.827 0.026 7.592
          0.027 31.703 0.026 7.633 0.906 -120.91
445 0.017 -90.057 0.972 -26.79 0.028 29.718
          0.972 -26.75 0.017 -76.772 0.026 4.527
          0.028 29.758 0.026 4.568 0.902 -124.967
464.75 0.018 -92.844 0.972 -27.971 0.028 27.88
          0.972 -27.931 0.018 -79.826 0.027 1.504
          0.028 27.9 0.027 1.544 0.899 -128.905
484.5 0.019 -96.086 0.971 -29.152 0.029 26.01
          0.971 -29.112 0.018 -81.89 0.027 -1.419
          0.029 26.06 0.027 -1.369 0.896 -132.693
504.25 0.02 -98.91 0.972 -30.334 0.029 23.791
          0.972 -30.294 0.019 -84.051 0.027 -4.282
          0.029 23.82 0.027 -4.242 0.894 -136.416
524 0.021 -101.379 0.972 -31.496 0.029 22.512
          0.972 -31.456 0.02 -86.68 0.028 -7.565
          0.029 22.542 0.028 -7.525 0.891 -140.026
543.75 0.022 -104.488 0.971 -32.648 0.029 21.158
          0.971 -32.618 0.021 -89.479 0.028 -10.223
          0.029 21.187 0.028 -10.172 0.889 -143.497
563.5 0.022 -107.076 0.971 -33.83 0.03 19.922
          0.971 -33.79 0.022 -92.423 0.028 -12.919
          0.03 19.942 0.028 -12.868 0.886 -146.907
583.25 0.023 -109.706 0.971 -35.004 0.03 18.453
          0.971 -34.964 0.022 -94.114 0.028 -15.573
          0.03 18.483 0.028 -15.533 0.884 -150.217
603 0.024 -111.182 0.971 -36.184 0.03 16.963
          0.971 -36.144 0.023 -95.746 0.028 -18.198
          0.03 17.002 0.028 -18.167 0.883 -153.453
622.75 0.025 -113.366 0.97 -37.358 0.03 15.912
          0.97 -37.318 0.024 -97.716 0.028 -21.207
          0.03 15.952 0.028 -21.167 0.881 -156.6
642.5 0.026 -115.493 0.97 -38.519 0.03 14.724
          0.97 -38.489 0.025 -99.542 0.028 -23.649
          0.03 14.765 0.028 -23.588 0.879 -159.663
662.25 0.026 -116.56 0.97 -39.692 0.03 13.517
          0.97 -39.652 0.026 -100.597 0.028 -26.728
          0.03 13.558 0.028 -26.688 0.877 -162.686
682 0.027 -118.104 0.97 -40.875 0.03 12.454
          0.969 -40.835 0.027 -102.155 0.028 -29.308
          0.03 12.494 0.028 -29.257 0.875 -165.654
701.75 0.028 -120.241 0.969 -42.047 0.03 11.474
          0.969 -42.007 0.027 -104.152 0.028 -31.74
          0.03 11.514 0.028 -31.679 0.874 -168.542
721.5 0.029 -123.002 0.969 -43.22 0.03 10.495
          0.969 -43.18 0.028 -106.043 0.028 -34.27
          0.03 10.535 0.028 -34.209 0.872 -171.354
741.25 0.03 -125.107 0.97 -44.393 0.031 9.524
          0.97 -44.353 0.029 -107.466 0.028 -36.939
          0.031 9.564 0.028 -36.868 0.873 -174.115
761 0.031 -126.843 0.969 -45.556 0.031 8.574
          0.969 -45.516 0.03 -108.866 0.028 -39.357
          0.031 8.644 0.028 -39.307 0.872 -176.813
780.75 0.032 -128.976 0.969 -46.729 0.03 7.685
          0.969 -46.689 0.031 -110.45 0.028 -41.975
          0.03 7.705 0.028 -41.924 0.871 -179.477
800.5 0.033 -131.174 0.969 -47.902 0.03 6.893
          0.969 -47.872 0.032 -112.502 0.028 -44.805
          0.03 6.924 0.028 -44.744 0.87 177.93
820.25 0.034 -133.24 0.969 -49.085 0.03 6.202
          0.968 -49.055 0.033 -114.155 0.027 -47.289
          0.03 6.252 0.027 -47.238 0.869 175.383
840 0.035 -135.016 0.968 -50.268 0.03 5.572
          0.968 -50.228 0.034 -115.141 0.027 -49.701
          0.03 5.612 0.027 -49.661 0.867 172.868
859.75 0.036 -136.524 0.968 -51.431 0.03 4.994
          0.968 -51.401 0.035 -116.391 0.027 -52.096
          0.03 5.023 0.027 -52.045 0.866 170.395
879.5 0.037 -138.399 0.968 -52.615 0.03 4.445
          0.967 -52.565 0.036 -118.552 0.027 -54.568
          0.03 4.485 0.027 -54.517 0.867 167.967
899.25 0.038 -140.507 0.967 -53.758 0.03 3.875
          0.967 -53.728 0.036 -120.484 0.026 -57.434
          0.03 3.905 0.026 -57.383 0.866 165.57
919 0.038 -142.194 0.967 -54.931 0.03 3.387
          0.967 -54.901 0.037 -121.451 0.026 -60.042
          0.03 3.437 0.026 -60.002 0.864 163.209
938.75 0.039 -143.559 0.967 -56.104 0.03 2.99
          0.967 -56.074 0.038 -121.633 0.026 -62.53
          0.03 3.03 0.026 -62.48 0.864 160.88
958.5 0.04 -144.999 0.968 -57.288 0.03 2.634
          0.968 -57.248 0.039 -123.058 0.026 -65.079
          0.03 2.674 0.026 -64.999 0.863 158.593
978.25 0.042 -146.427 0.968 -58.451 0.03 2.27
          0.967 -58.411 0.04 -124.9 0.025 -67.676
          0.03 2.31 0.025 -67.615 0.862 156.34
998 0.043 -148.24 0.967 -59.634 0.03 1.987
          0.967 -59.584 0.042 -127.234 0.025 -70.242
          0.03 2.038 0.025 -70.192 0.861 154.121
1017.75 0.044 -150.447 0.967 -60.809 0.03 1.734
          0.967 -60.769 0.042 -128.576 0.025 -72.939
          0.03 1.765 0.025 -72.859 0.861 151.943
1037.5 0.045 -152.655 0.966 -61.972 0.03 1.435
          0.966 -61.912 0.043 -129.382 0.024 -75.623
          0.03 1.486 0.024 -75.512 0.86 149.789
1057.25 0.046 -154.257 0.966 -63.156 0.03 1.256
          0.966 -63.096 0.045 -130.272 0.024 -78.389
          0.03 1.326 0.024 -78.299 0.86 147.656
1077 0.047 -155.735 0.966 -64.349 0.03 1.131
          0.966 -64.299 0.046 -132.14 0.024 -81.051
          0.03 1.182 0.024 -80.98 0.859 145.528
1096.75 0.048 -157.291 0.966 -65.512 0.03 1.077
          0.964 -65.462 0.046 -132.845 0.024 -83.854
          0.03 1.078 0.024 -83.763 0.859 143.413
1116.5 0.049 -158.669 0.966 -66.654 0.03 1.056
          0.966 -66.624 0.048 -133.515 0.023 -86.736
          0.03 1.097 0.023 -86.626 0.859 141.34
1136.25 0.05 -160.238 0.965 -67.829 0.03 1.076
          0.965 -67.809 0.049 -135.352 0.023 -89.63
          0.03 1.126 0.023 -89.56 0.86 139.296
1156 0.051 -162.165 0.965 -69.003 0.03 1.139
          0.965 -68.973 0.051 -136.493 0.023 -92.491
          0.03 1.199 0.023 -92.451 0.86 137.258
1175.75 0.052 -163.588 0.965 -70.225 0.03 1.237
          0.965 -70.165 0.052 -138.307 0.022 -95.441
          0.03 1.297 0.022 -95.401 0.859 135.252
1195.5 0.053 -164.818 0.965 -71.39 0.03 1.346
          0.965 -71.35 0.053 -139.53 0.022 -98.432
          0.03 1.406 0.022 -98.392 0.858 133.276
1215.25 0.054 -166.005 0.965 -72.552 0.03 1.46
          0.964 -72.522 0.054 -140.769 0.022 -101.492
          0.03 1.5 0.022 -101.401 0.858 131.304
1235 0.056 -167.668 0.964 -73.755 0.03 1.526
          0.964 -73.705 0.055 -142.442 0.021 -104.68
          0.03 1.587 0.021 -104.58 0.857 129.344
1254.75 0.057 -169.436 0.964 -74.92 0.031 1.634
          0.964 -74.88 0.056 -143.906 0.021 -107.871
          0.031 1.694 0.021 -107.78 0.857 127.424
1274.5 0.058 -171.064 0.964 -76.082 0.031 1.837
          0.964 -76.062 0.057 -145.162 0.021 -111.089
          0.031 1.857 0.021 -111.039 0.856 125.517
1294.25 0.059 -172.486 0.964 -77.265 0.031 2.021
          0.963 -77.225 0.058 -146.21 0.02 -114.459
          0.031 2.072 0.02 -114.378 0.856 123.622
1314 0.06 -174 0.963 -78.438 0.031 2.2
          0.963 -78.398 0.059 -147.36 0.02 -117.897
          0.031 2.27 0.02 -117.797 0.856 121.728
1333.75 0.061 -175.539 0.963 -79.632 0.032 2.33
          0.963 -79.592 0.061 -148.623 0.02 -121.377
          0.032 2.38 0.02 -121.276 0.855 119.834
1353.5 0.062 -177.088 0.963 -80.814 0.032 2.463
          0.963 -80.754 0.062 -150.05 0.02 -124.915
          0.032 2.503 0.02 -124.814 0.855 117.983
1373.25 0.063 -178.406 0.963 -81.977 0.032 2.518
          0.962 -81.937 0.063 -151.044 0.019 -128.482
          0.032 2.588 0.019 -128.401 0.855 116.123
1393 0.064 -179.86 0.962 -83.149 0.033 2.616
          0.962 -83.119 0.064 -152.129 0.019 -132.22
          0.033 2.686 0.019 -132.16 0.855 114.293
1412.75 0.065 178.715 0.962 -84.332 0.033 2.655
          0.962 -84.312 0.064 -153.414 0.019 -136.149
          0.033 2.685 0.019 -136.038 0.855 112.455
1432.5 0.066 177.197 0.962 -85.535 0.033 2.755
          0.962 -85.485 0.065 -154.681 0.019 -140.029
          0.033 2.825 0.019 -139.958 0.854 110.635
1452.25 0.067 175.935 0.962 -86.706 0.034 2.807
          0.962 -86.656 0.067 -155.718 0.019 -143.896
          0.034 2.897 0.019 -143.795 0.854 108.828
1472 0.068 174.52 0.962 -87.879 0.034 2.859
          0.961 -87.839 0.068 -156.704 0.018 -147.833
          0.034 2.859 0.018 -147.762 0.854 107.051
1491.75 0.069 172.898 0.962 -89.03 0.035 2.803
          0.962 -88.99 0.069 -157.845 0.018 -151.87
          0.035 2.863 0.018 -151.759 0.853 105.284
1511.5 0.07 171.258 0.962 -90.213 0.035 2.796
          0.962 -90.193 0.07 -159.203 0.018 -156.047
          0.035 2.786 0.018 -155.966 0.853 103.508
1531.25 0.07 170.108 0.961 -91.424 0.036 2.67
          0.961 -91.364 0.07 -160.529 0.018 -160.263
          0.036 2.78 0.018 -160.193 0.852 101.721
1551 0.071 169.02 0.96 -92.586 0.036 2.634
          0.96 -92.556 0.07 -161.752 0.018 -164.542
          0.036 2.674 0.018 -164.451 0.852 99.933
1570.75 0.072 167.854 0.96 -93.768 0.037 2.487
          0.96 -93.738 0.072 -162.82 0.018 -168.847
          0.037 2.497 0.018 -168.746 0.852 98.156
1590.5 0.073 166.305 0.96 -94.949 0.038 2.33
          0.96 -94.909 0.072 -164.122 0.018 -173.101
          0.038 2.32 0.018 -173.05 0.851 96.409
1610.25 0.074 164.701 0.961 -96.13 0.038 2.072
          0.961 -96.11 0.073 -165.65 0.019 -177.393
          0.038 2.092 0.019 -177.312 0.852 94.652
1630 0.075 163.422 0.961 -97.311 0.039 1.823
          0.96 -97.291 0.074 -166.634 0.019 178.366
          0.039 1.903 0.019 178.385 0.851 92.933
1649.75 0.076 162.075 0.96 -98.492 0.039 1.574
          0.96 -98.492 0.075 -167.647 0.019 174.065
          0.039 1.644 0.019 174.095 0.851 91.214
1669.5 0.076 160.6 0.96 -99.682 0.04 1.353
          0.96 -99.662 0.076 -168.801 0.019 169.755
          0.04 1.363 0.019 169.795 0.851 89.485
1689.25 0.077 159.158 0.96 -100.893 0.041 0.99
          0.96 -100.833 0.077 -169.947 0.02 165.446
          0.041 1.1 0.02 165.516 0.851 87.764
1709 0.078 157.875 0.96 -102.064 0.041 0.737
          0.96 -102.024 0.078 -171.11 0.02 161.188
          0.041 0.757 0.02 161.248 0.85 86.043
1728.75 0.079 156.867 0.96 -103.255 0.042 0.391
          0.96 -103.225 0.079 -172.044 0.021 157.06
          0.042 0.401 0.021 157.11 0.85 84.328
1748.5 0.08 155.529 0.959 -104.434 0.042 0.054
          0.959 -104.404 0.079 -173.252 0.021 153.015
          0.042 0.054 0.021 153.075 0.849 82.624
1768.25 0.08 154.057 0.959 -105.615 0.043 -0.345
          0.959 -105.585 0.08 -174.676 0.022 149.01
          0.043 -0.265 0.022 149.08 0.849 80.909
1788 0.081 152.679 0.959 -106.805 0.044 -0.686
          0.959 -106.765 0.081 -175.912 0.022 145.126
          0.044 -0.656 0.022 145.177 0.849 79.202
1807.75 0.081 151.392 0.959 -107.994 0.044 -1.068
          0.959 -107.954 0.081 -177.144 0.023 141.313
          0.044 -1.018 0.023 141.364 0.849 77.513
1827.5 0.082 150.213 0.958 -109.194 0.045 -1.462
          0.958 -109.154 0.082 -178.317 0.023 137.53
          0.045 -1.452 0.023 137.581 0.848 75.823
1847.25 0.083 148.907 0.958 -110.384 0.046 -1.829
          0.958 -110.354 0.082 -179.484 0.024 133.817
          0.046 -1.789 0.024 133.857 0.848 74.142
1867 0.083 147.563 0.957 -111.573 0.046 -2.237
          0.957 -111.543 0.083 179.336 0.025 130.134
          0.046 -2.177 0.025 130.204 0.848 72.448
1886.75 0.084 146.317 0.957 -112.752 0.047 -2.618
          0.957 -112.722 0.084 178.273 0.026 126.58
          0.047 -2.558 0.026 126.63 0.847 70.773
1906.5 0.084 144.919 0.956 -113.941 0.048 -2.971
          0.957 -113.901 0.084 177.11 0.026 123.126
          0.048 -2.931 0.026 123.176 0.847 69.095
1926.25 0.085 143.53 0.956 -115.13 0.048 -3.346
          0.956 -115.1 0.084 175.954 0.027 119.782
          0.048 -3.336 0.027 119.843 0.846 67.416
1946 0.085 142.206 0.956 -116.329 0.049 -3.753
          0.956 -116.289 0.085 174.866 0.028 116.478
          0.049 -3.733 0.028 116.528 0.845 65.734
1965.75 0.086 140.93 0.956 -117.518 0.05 -4.132
          0.956 -117.498 0.085 173.891 0.029 113.253
          0.05 -4.101 0.029 113.293 0.845 64.06
1985.5 0.086 139.609 0.955 -118.715 0.051 -4.541
          0.956 -118.685 0.086 172.717 0.03 110.079
          0.051 -4.471 0.03 110.149 0.845 62.386
2005.25 0.087 138.315 0.955 -119.914 0.051 -4.904
          0.955 -119.884 0.087 171.436 0.031 107.023
          0.051 -4.844 0.031 107.083 0.844 60.718
2025 0.087 137.12 0.955 -121.122 0.052 -5.298
          0.955 -121.092 0.087 170.087 0.032 103.985
          0.052 -5.288 0.032 104.046 0.844 59.048
2044.75 0.087 135.905 0.955 -122.31 0.053 -5.684
          0.955 -122.29 0.087 168.94 0.033 101.027
          0.053 -5.644 0.033 101.077 0.844 57.375
2064.5 0.087 134.752 0.954 -123.509 0.054 -6.063
          0.955 -123.479 0.087 167.942 0.034 98.098
          0.054 -6.013 0.034 98.148 0.843 55.7
2084.25 0.087 133.436 0.954 -124.707 0.055 -6.442
          0.954 -124.677 0.088 166.873 0.035 95.238
          0.055 -6.392 0.035 95.278 0.843 54.043
2104 0.088 132.092 0.954 -125.905 0.056 -6.862
          0.954 -125.865 0.088 165.625 0.037 92.417
          0.056 -6.782 0.037 92.487 0.843 52.373
2123.75 0.088 130.776 0.955 -127.103 0.056 -7.193
          0.955 -127.073 0.088 164.369 0.038 89.645
          0.056 -7.153 0.038 89.705 0.842 50.71
2143.5 0.089 129.477 0.955 -128.311 0.057 -7.576
          0.955 -128.271 0.088 163.151 0.039 86.902
          0.057 -7.546 0.039 86.973 0.843 49.066
2163.25 0.089 128.325 0.955 -129.508 0.058 -7.958
          0.955 -129.468 0.089 162.026 0.04 84.18
          0.058 -7.898 0.04 84.241 0.843 47.401
2183 0.09 127.161 0.955 -130.706 0.06 -8.352
          0.955 -130.686 0.089 160.92 0.041 81.516
          0.06 -8.302 0.041 81.576 0.842 45.762
2202.75 0.09 125.941 0.955 -131.923 0.061 -8.766
          0.955 -131.883 0.09 159.819 0.043 78.941
          0.061 -8.706 0.043 78.961 0.842 44.1
2222.5 0.09 124.653 0.954 -133.121 0.062 -9.169
          0.954 -133.091 0.09 158.589 0.044 76.355
          0.062 -9.109 0.044 76.395 0.842 42.466
2242.25 0.09 123.467 0.954 -134.319 0.063 -9.603
          0.954 -134.299 0.09 157.303 0.045 73.808
          0.063 -9.553 0.045 73.858 0.841 40.83
2262 0.09 122.336 0.954 -135.536 0.064 -10.057
          0.954 -135.506 0.09 156.114 0.047 71.3
          0.064 -9.997 0.047 71.351 0.841 39.171
2281.75 0.09 121.22 0.953 -136.743 0.065 -10.52
          0.953 -136.723 0.09 155.141 0.048 68.814
          0.065 -10.48 0.048 68.854 0.839 37.502
2301.5 0.09 119.916 0.953 -137.961 0.067 -11.023
          0.953 -137.941 0.09 154.08 0.049 66.366
          0.067 -10.973 0.049 66.416 0.839 35.818
2321.25 0.09 118.652 0.953 -139.169 0.068 -11.515
          0.953 -139.139 0.09 152.936 0.051 63.946
          0.068 -11.475 0.051 64.006 0.839 34.173
2341 0.09 117.415 0.952 -140.366 0.069 -12.046
          0.952 -140.336 0.09 151.458 0.052 61.557
          0.069 -11.996 0.052 61.597 0.838 32.525
2360.75 0.091 116.101 0.952 -141.572 0.071 -12.616
          0.952 -141.552 0.091 150.129 0.053 59.169
          0.071 -12.565 0.053 59.219 0.838 30.888
2380.5 0.091 114.823 0.952 -142.8 0.072 -13.205
          0.952 -142.77 0.091 148.927 0.055 56.828
          0.072 -13.155 0.055 56.869 0.837 29.247
2400.25 0.091 113.592 0.952 -144.018 0.074 -13.823
          0.952 -143.998 0.091 147.568 0.056 54.488
          0.074 -13.793 0.056 54.488 0.837 27.603
2420 0.091 112.486 0.951 -145.244 0.075 -14.489
          0.951 -145.214 0.091 146.232 0.058 52.139
          0.075 -14.439 0.058 52.179 0.836 25.97
2439.75 0.091 111.567 0.951 -146.462 0.077 -15.186
          0.951 -146.442 0.091 144.889 0.059 49.848
          0.077 -15.136 0.059 49.898 0.836 24.324
2459.5 0.091 110.473 0.951 -147.68 0.079 -15.901
          0.951 -147.65 0.091 143.684 0.06 47.567
          0.079 -15.861 0.06 47.617 0.835 22.685
2479.25 0.091 109.4 0.95 -148.907 0.08 -16.683
          0.95 -148.877 0.09 142.415 0.062 45.247
          0.08 -16.623 0.062 45.287 0.835 21.037
2499 0.091 108.159 0.95 -150.135 0.082 -17.476
          0.95 -150.115 0.09 141.091 0.063 43.006
          0.082 -17.436 0.063 43.046 0.834 19.376
2518.75 0.091 106.942 0.95 -151.363 0.084 -18.288
          0.949 -151.333 0.09 139.774 0.065 40.835
          0.084 -18.258 0.065 40.875 0.834 17.763
2538.5 0.091 105.585 0.949 -152.589 0.086 -19.145
          0.949 -152.559 0.09 138.15 0.066 38.606
          0.086 -19.106 0.066 38.656 0.834 16.152
2558.25 0.091 104.463 0.949 -153.807 0.088 -20.035
          0.949 -153.787 0.09 136.632 0.067 36.466
          0.088 -20.005 0.067 36.506 0.834 14.538
2578 0.091 103.688 0.948 -155.045 0.089 -20.963
          0.949 -155.015 0.09 135.149 0.069 34.346
          0.089 -20.934 0.069 34.376 0.833 12.912
2597.75 0.092 102.849 0.948 -156.283 0.091 -21.949
