!Hittite Microwave Corporation								
!20 Alpha Road								
!Chelmsford, MA 01824								
!Tel: 978-250-3343								
!Fax: 978-250-3373							
!Device: HMC559, DC-20 GHz, GaAs MMIC PHEMT Wideband Power Amplifier Die							
!Misc: Vdd=+10V, 400mA, Room							
!
# MHZ S MA R 50

50 0.018 -94.238 5.069 174.487 132e-6 -178.567 0.09 -151.849
251.007 8.697e-3 -49.476 4.902 170.439 200.7e-6 -146.509 0.11 -167.638
452.013 0.019 -79.616 4.828 164.14 338.5e-6 -128.219 0.121 -168.362
653.02 0.023 -109.943 4.706 158.41 524.4e-6 -124.074 0.131 -171.885
854.027 0.025 -128.515 4.618 153.275 678.3e-6 -125.286 0.14 -175.386
1055.034 0.026 -140.484 4.562 148.181 770e-6 -135.606 0.144 -178.756
1256.04 0.028 -149.376 4.52 143.105 911.6e-6 -141.891 0.147 177.922
1457.047 0.029 -154.725 4.493 138.095 1.083e-3 -149.686 0.151 175.482
1658.054 0.03 -158.228 4.486 132.962 1.301e-3 -153.915 0.153 173.545
1859.06 0.032 -160.708 4.472 127.791 1.489e-3 -160.033 0.152 171.545
2060.067 0.031 -160.709 4.461 122.543 1.645e-3 -165.272 0.153 169.469
2261.074 0.033 -164.891 4.444 117.309 1.883e-3 -172.011 0.153 167.393
2462.081 0.033 -169.086 4.436 112.061 2.065e-3 177.929 0.153 164.425
2663.087 0.034 -172.833 4.423 106.87 2.285e-3 172.059 0.154 161.609
2864.094 0.037 -175.533 4.41 101.627 2.442e-3 166.246 0.156 159.3
3065.101 0.037 -176.634 4.403 96.444 2.707e-3 159.029 0.158 156.314
3266.107 0.038 177.954 4.396 91.218 2.867e-3 152.444 0.16 153.656
3467.114 0.042 175.245 4.392 86.056 3.023e-3 145.277 0.162 152.086
3668.121 0.043 173.787 4.387 80.802 3.31e-3 138.498 0.162 149.431
3869.128 0.046 171.663 4.383 75.604 3.502e-3 134.919 0.164 146.753
4070.134 0.046 173.141 4.384 70.443 3.677e-3 129.785 0.163 144.437
4271.141 0.046 170.043 4.379 65.291 3.984e-3 125.407 0.161 140.782
4472.148 0.05 169.443 4.384 60.123 4.177e-3 119.764 0.162 137.928
4673.154 0.052 172.016 4.392 54.891 4.493e-3 113.813 0.159 134.68
4874.161 0.05 169.934 4.395 49.649 4.74e-3 107.251 0.159 131.188
5075.168 0.054 168.571 4.399 44.444 5.026e-3 102.824 0.159 128.236
5276.174 0.056 165.297 4.41 39.221 5.304e-3 98.384 0.16 123.859
5477.181 0.06 163.281 4.418 33.92 5.545e-3 93.239 0.159 119.905
5678.188 0.064 163.707 4.429 28.748 5.862e-3 88.117 0.158 117.216
5879.195 0.065 161.351 4.446 23.502 6.168e-3 82.11 0.159 113.927
6080.201 0.071 158.69 4.472 18.239 6.428e-3 77.866 0.16 110.162
6281.208 0.078 158.359 4.489 12.961 6.757e-3 73.289 0.156 107.174
6482.215 0.079 157.716 4.504 7.584 7.132e-3 68.71 0.154 102.992
6683.221 0.086 156.462 4.518 2.275 7.435e-3 63.953 0.149 98.558
6884.228 0.089 156.753 4.537 -3.036 7.776e-3 59.37 0.141 93.327
7085.235 0.094 155.173 4.559 -8.426 8.214e-3 53.611 0.136 88.711
7286.242 0.101 154.431 4.581 -13.825 8.478e-3 48.283 0.132 83.348
7487.248 0.101 154.511 4.607 -19.13 8.815e-3 44.21 0.128 76.791
7688.255 0.106 151.803 4.63 -24.613 9.323e-3 40.131 0.124 70.76
7889.262 0.113 150.588 4.658 -30.083 9.644e-3 35.281 0.119 65.264
8090.268 0.116 148.785 4.686 -35.632 9.929e-3 29.993 0.113 58.216
8291.275 0.121 146.854 4.708 -41.216 0.01 24.403 0.107 51.019
8492.282 0.124 145.11 4.736 -46.821 0.011 19.301 0.097 43.57
8693.289 0.129 140.89 4.762 -52.403 0.011 14.794 0.09 33.931
8894.295 0.138 139.243 4.785 -58.036 0.011 10.194 0.086 21.506
9095.302 0.143 138.548 4.815 -63.688 0.012 6.097 0.08 5.217
9296.309 0.146 135.85 4.848 -69.402 0.012 0.363 0.076 -9.215
9497.315 0.156 132.613 4.866 -75.057 0.013 -4.412 0.076 -20.329
9698.322 0.164 130.152 4.884 -80.928 0.013 -9.749 0.082 -33.763
9899.329 0.169 129.064 4.9 -86.791 0.014 -14.661 0.09 -47.829
10100.336 0.176 126.543 4.909 -92.456 0.014 -19.155 0.095 -60.371
10301.342 0.179 124.004 4.929 -98.236 0.014 -23.489 0.107 -72.673
10502.349 0.187 121.842 4.953 -104.011 0.015 -29.243 0.121 -85.446
10703.356 0.193 119.236 4.972 -109.791 0.015 -34.212 0.129 -97.71
10904.362 0.193 116.733 4.979 -115.688 0.016 -39.194 0.14 -105.917
11105.369 0.2 114.417 4.98 -121.602 0.016 -43.81 0.156 -113.168
11306.376 0.203 111.463 4.99 -127.574 0.017 -48.434 0.172 -121.878
11507.383 0.21 108.142 4.98 -133.478 0.017 -53.026 0.184 -129.577
11708.389 0.213 106.366 4.971 -139.366 0.018 -58.323 0.198 -136.148
11909.396 0.213 103.483 4.982 -145.269 0.018 -63.853 0.217 -143.918
12110.403 0.221 100.901 4.991 -150.86 0.019 -69.32 0.237 -152.474
12311.409 0.226 99.85 4.978 -156.589 0.019 -74.194 0.254 -160.463
12512.416 0.227 97.639 4.959 -162.541 0.02 -78.048 0.274 -166.537
12713.423 0.224 95.426 4.962 -168.18 0.02 -82.726 0.298 -172.075
12914.43 0.225 93.162 4.97 -173.835 0.021 -87.875 0.316 -178.61
13115.436 0.228 91.366 4.954 -179.633 0.022 -93.726 0.329 175.648
13316.443 0.223 90.34 4.957 174.596 0.023 -99.526 0.345 170.931
13517.45 0.222 88.216 4.959 168.803 0.023 -105.158 0.363 165.026
13718.456 0.219 86.014 4.949 163.231 0.023 -109.835 0.375 158.502
13919.463 0.22 83.416 4.945 157.556 0.024 -113.585 0.384 153.028
14120.47 0.221 80.711 4.95 151.783 0.025 -118.849 0.402 147.223
14321.477 0.212 80.165 4.955 146.314 0.026 -124.355 0.415 140.337
14522.483 0.209 78.143 4.957 140.684 0.027 -129.521 0.419 133.719
14723.49 0.209 75.562 4.978 135.014 0.028 -134.441 0.429 128.514
14924.497 0.209 75.939 5 129.419 0.029 -140.035 0.441 122.798
15125.503 0.205 74.56 5.016 123.817 0.029 -145.84 0.446 116.147
15326.51 0.197 73.531 5.043 118.227 0.03 -151.201 0.444 110.201
15527.517 0.198 73.729 5.092 112.542 0.031 -156.455 0.451 104.484
15728.523 0.201 71.988 5.12 106.734 0.032 -162.076 0.461 97.556
15929.53 0.204 72.968 5.148 100.973 0.033 -167.632 0.463 90.249
16130.537 0.199 72.323 5.201 95.304 0.034 -172.895 0.463 83.924
16331.544 0.203 70.605 5.245 89.536 0.035 -178.574 0.466 77.374
16532.55 0.208 71.481 5.297 83.798 0.036 175.481 0.459 70.599
16733.557 0.209 71.331 5.373 78.059 0.037 170.142 0.445 64.745
16934.564 0.212 73.353 5.465 71.952 0.038 164.797 0.437 59.075
17135.57 0.208 74.305 5.544 65.849 0.039 159.104 0.43 51.507
17336.577 0.22 72.78 5.629 59.752 0.04 153.882 0.413 42.058
17537.584 0.229 73.651 5.703 53.423 0.041 148.254 0.393 33.172
17738.591 0.228 72.494 5.768 47.121 0.043 142.537 0.386 23.562
17939.597 0.238 69.937 5.862 40.807 0.044 136.979 0.379 12.255
18140.604 0.241 69.871 5.964 34.461 0.044 131.219 0.36 0.826
18341.611 0.245 68.744 6.041 27.93 0.046 125.976 0.347 -8.952
18542.617 0.242 63.374 6.108 21.266 0.047 121.196 0.343 -19.203
18743.624 0.238 62.229 6.247 14.623 0.049 115.363 0.333 -33.408
18944.631 0.24 62.406 6.393 7.803 0.051 109.208 0.316 -48.329
19145.638 0.229 59.126 6.488 0.666 0.052 103.288 0.308 -62.229
19346.644 0.219 57.82 6.642 -6.49 0.054 98.28 0.327 -78.973
19547.651 0.213 58.1 6.783 -13.615 0.057 92.035 0.351 -97.746
19748.658 0.198 61.803 6.921 -20.913 0.059 85.438 0.37 -115.588
19949.664 0.188 62.63 7.047 -28.977 0.062 78.725 0.405 -130.069
20150.671 0.19 62.852 7.158 -37.481 0.064 70.975 0.446 -144.507
20351.678 0.186 72.391 7.247 -45.816 0.067 62.996 0.485 -159.957
20552.685 0.18 74.366 7.241 -53.891 0.068 54.923 0.5 -174.598
20753.691 0.192 74.737 7.267 -62.469 0.069 47.203 0.519 173.225
20954.698 0.206 80.195 7.256 -70.839 0.07 39.344 0.556 162.704
21155.705 0.212 77.256 7.199 -78.886 0.07 30.919 0.579 151.197
21356.711 0.222 79.168 7.158 -86.763 0.07 24.209 0.595 140.726
21557.718 0.247 83.748 7.104 -95.092 0.071 17.382 0.605 131.183
21758.725 0.252 79.643 7.04 -103.429 0.071 9.776 0.605 121.658
21959.732 0.268 77.511 6.949 -111.515 0.07 2.501 0.587 112.959
22160.738 0.305 77.381 6.886 -119.435 0.07 -4.305 0.563 105.823
22361.745 0.313 74.058 6.75 -127.47 0.07 -11.612 0.559 98.428
22562.752 0.33 72.226 6.614 -135.099 0.07 -18.7 0.551 90.24
22763.758 0.35 67.269 6.515 -142.857 0.069 -25.629 0.523 82.336
22964.765 0.359 64.804 6.419 -150.069 0.068 -32.265 0.5 76.789
23165.772 0.399 59.389 6.305 -157.814 0.067 -38.674 0.474 71.096
23366.779 0.383 56.666 6.263 -164.742 0.068 -43.605 0.437 65.112
23567.785 0.376 59.591 6.314 -171.901 0.069 -49.752 0.385 62.375
23768.792 0.364 59.792 6.342 -179.301 0.07 -56.402 0.329 62.367
23969.799 0.356 58.476 6.336 172.84 0.071 -62.868 0.288 61.689
24170.805 0.348 65.969 6.459 164.576 0.074 -69.182 0.234 65.088
24371.812 0.328 74.568 6.679 156.562 0.077 -76.813 0.174 77.778
24572.819 0.327 82.577 6.897 147.17 0.08 -85.826 0.182 97.864
24773.826 0.374 90.681 7.055 136.03 0.083 -96.323 0.227 112.247
24974.832 0.46 90.018 7.085 123.761 0.084 -106.84 0.28 117.332
25175.839 0.554 85.352 6.857 110.853 0.084 -118.756 0.365 114.891
25376.846 0.626 77.944 6.419 98.616 0.08 -129.85 0.425 109.519
25577.852 0.693 69.569 5.942 87.947 0.075 -139.941 0.446 100.233
25778.859 0.721 61.7 5.457 78.48 0.07 -149.035 0.466 94.124
25979.866 0.756 52.583 5.006 69.755 0.065 -156.701 0.461 88.116
26180.872 0.798 44.102 4.645 61.72 0.062 -164.186 0.462 81.273
26381.879 0.773 39.877 4.358 54.677 0.057 -170.872 0.461 79.515
26582.886 0.78 34.744 4.081 47.587 0.054 -178.193 0.464 74.92
26783.893 0.794 28.479 3.859 40.794 0.048 176.284 0.496 69.245
26984.899 0.776 25.341 3.704 34.121 0.045 172.355 0.472 66.823
27185.906 0.783 19.909 3.581 27.402 0.045 169.106 0.447 63.855
27386.913 0.748 15.491 3.492 21.105 0.046 164.644 0.473 67.718
27587.919 0.711 11.45 3.483 13.454 0.046 160.978 0.463 68.98
27788.926 0.689 3.813 3.484 5.652 0.047 153.95 0.473 65.713
27989.933 0.596 -0.253 3.532 -3.093 0.049 148.45 0.497 67.536
28190.94 0.508 -3.651 3.525 -13.61 0.05 140.356 0.466 65.023
28391.946 0.419 -3.602 3.449 -25.509 0.051 131.716 0.471 61.026
28592.953 0.293 10.096 3.318 -37.993 0.052 120.837 0.478 68.882
28793.96 0.277 21.545 3.052 -50.25 0.049 110.763 0.488 66.117
28994.966 0.313 36.181 2.739 -61.992 0.046 101.351 0.558 63.427
29195.973 0.404 44.202 2.472 -71.445 0.044 93.217 0.565 68.118
29396.98 0.468 42.113 2.206 -80.315 0.04 86.71 0.582 62.993
29597.987 0.497 40.498 2 -89.593 0.038 80.706 0.665 59.431
29798.993 0.556 36.282 1.822 -95.266 0.037 74.442 0.611 59.439
30000 0.599 33.239 1.625 -101.734 0.036 66.459 0.605 52.372
