!Hittite Microwave Corporation								
!20 Alpha Rd								
!Chelmsford, MA 01824								
!Tel: 978-250-3343								
!Fax: 978-250-3373
!Device: HMC544, DC - 3 GHz  SPDT Switch in  SOT26 SMT package
!Misc: Port1=RFC, Port2= RF1, Port3=RF2, RF1 ON, Data taken on a part mounted on 101659-4 Eval PCB,Bias: +5VDC
# MHZ S MA R 50

0.05 0.012 -0.172 4.318e-3 -61.111 0.973 -0.062
          4.156e-3 -45.923 0.993 -0.66 3.807e-3 -35.709
          0.974 -0.082 3.125e-3 -63.671 6.697e-3 2.542
30.05 0.014 4.57 31.69e-6 -65.14 0.973 -1.282
          1.835e-6 -56.583 0.993 -1.704 21.96e-6 -48.657
          0.974 -1.294 467.4e-6 113.762 8.604e-3 3.916
60.049 0.015 9.622 4.259e-3 110.498 0.974 -2.503
          4.156e-3 112.993 0.994 -2.749 3.77e-3 118.377
          0.974 -2.506 4.068e-3 111.176 0.011 6.081
90.049 0.016 12.551 7.132e-3 104.266 0.974 -3.722
          6.859e-3 102.85 0.994 -3.922 6.535e-3 105.908
          0.974 -3.697 6.653e-3 105.535 0.011 10.102
120.049 0.017 11.927 8.058e-3 96.745 0.973 -4.9
          7.768e-3 96.494 0.994 -5.281 7.853e-3 97.394
          0.973 -4.853 7.884e-3 97.138 0.012 15.244
150.049 0.018 12.64 0.01 94.432 0.972 -6.019
          0.01 94.439 0.994 -6.533 0.01 94.809
          0.973 -6.023 0.01 94.447 0.012 19.762
180.049 0.019 12.747 0.013 92.557 0.972 -7.156
          0.013 91.467 0.993 -7.798 0.013 92.356
          0.972 -7.166 0.012 91.851 0.013 23.931
210.048 0.019 12.869 0.015 90.403 0.971 -8.297
          0.015 90.056 0.992 -9.086 0.015 89.751
          0.97 -8.294 0.015 89.512 0.014 24.62
240.048 0.02 11.31 0.017 88.005 0.97 -9.43
          0.017 87.511 0.992 -10.38 0.017 87.402
          0.97 -9.418 0.017 86.962 0.015 28.159
270.048 0.021 8.381 0.02 85.121 0.971 -10.568
          0.02 85.147 0.994 -11.68 0.019 84.111
          0.971 -10.561 0.019 84.101 0.016 23.603
300.048 0.021 6.911 0.022 83.41 0.97 -11.738
          0.022 83.383 0.994 -12.974 0.021 82.085
          0.97 -11.734 0.021 81.994 0.016 20.312
330.047 0.022 4.408 0.024 82.251 0.97 -12.879
          0.024 82.256 0.993 -14.278 0.023 80.452
          0.97 -12.877 0.023 80.58 0.017 19.117
360.047 0.022 2.628 0.026 80.701 0.969 -14.016
          0.026 80.723 0.993 -15.54 0.026 78.846
          0.969 -14.02 0.025 79.121 0.017 18.607
390.047 0.023 1.709 0.028 79.195 0.97 -15.149
          0.028 79.163 0.992 -16.807 0.028 77.519
          0.97 -15.148 0.028 77.481 0.017 16.622
420.047 0.023 0.861 0.031 77.736 0.969 -16.302
          0.031 77.716 0.992 -18.084 0.03 75.989
          0.969 -16.289 0.03 75.995 0.017 16.055
450.046 0.022 -0.314 0.033 76.309 0.969 -17.427
          0.033 76.118 0.992 -19.346 0.032 74.256
          0.969 -17.428 0.032 74.413 0.018 14.986
480.046 0.022 -2.147 0.035 74.87 0.968 -18.559
          0.035 74.731 0.991 -20.643 0.034 72.532
          0.968 -18.565 0.034 72.736 0.018 13.649
510.046 0.021 -5.018 0.037 73.457 0.969 -19.701
          0.037 73.252 0.993 -21.94 0.036 70.954
          0.969 -19.695 0.036 71.128 0.018 11.473
540.046 0.021 -8.327 0.04 72.084 0.968 -20.83
          0.039 71.808 0.992 -23.256 0.038 69.481
          0.968 -20.828 0.039 69.68 0.019 10.539
570.045 0.021 -11.194 0.042 70.691 0.968 -21.978
          0.042 70.698 0.991 -24.577 0.041 68.225
          0.968 -21.974 0.041 68.256 0.019 12.371
600.045 0.02 -13.594 0.044 69.322 0.967 -23.106
          0.044 69.293 0.991 -25.87 0.043 66.797
          0.968 -23.109 0.043 66.775 0.019 11.877
630.045 0.02 -16.259 0.046 67.997 0.967 -24.228
          0.046 67.959 0.991 -27.145 0.045 65.402
          0.967 -24.241 0.045 65.32 0.019 10.911
660.044 0.019 -19.525 0.048 66.721 0.967 -25.369
          0.048 66.708 0.99 -28.426 0.047 63.983
          0.966 -25.376 0.047 63.939 0.019 9.545
690.044 0.019 -22.532 0.05 65.478 0.966 -26.501
          0.05 65.455 0.989 -29.712 0.049 62.571
          0.966 -26.506 0.049 62.594 0.02 8.751
720.044 0.018 -25.554 0.053 64.182 0.966 -27.634
          0.053 64.166 0.988 -30.982 0.051 61.136
          0.965 -27.643 0.051 61.182 0.02 8.895
750.044 0.017 -28.692 0.055 62.873 0.966 -28.763
          0.055 62.831 0.988 -32.257 0.054 59.671
          0.966 -28.774 0.054 59.698 0.02 8.978
780.043 0.016 -32.357 0.057 61.61 0.966 -29.887
          0.057 61.56 0.987 -33.545 0.056 58.258
          0.966 -29.902 0.056 58.261 0.02 8.495
810.043 0.015 -37.284 0.059 60.333 0.966 -31.029
          0.059 60.294 0.989 -34.838 0.058 56.887
          0.966 -31.03 0.058 56.876 0.02 7.529
840.043 0.015 -42.727 0.061 59.071 0.966 -32.162
          0.061 59.018 0.988 -36.132 0.06 55.543
          0.966 -32.167 0.06 55.521 0.019 6.6
870.043 0.014 -48.232 0.063 57.853 0.966 -33.288
          0.063 58.032 0.988 -37.402 0.062 54.258
          0.966 -33.307 0.062 54.177 0.02 7.773
900.042 0.013 -53.802 0.066 56.697 0.965 -34.435
          0.065 56.818 0.987 -38.66 0.064 52.813
          0.965 -34.44 0.064 52.771 0.02 7.1
930.042 0.012 -59.536 0.068 55.47 0.965 -35.57
          0.068 55.429 0.986 -39.905 0.066 51.348
          0.965 -35.582 0.066 51.341 0.02 5.572
960.042 0.011 -66.451 0.07 54.176 0.964 -36.673
          0.07 54.145 0.986 -41.165 0.068 50.003
          0.964 -36.708 0.069 49.953 0.02 5.15
990.042 0.01 -75.305 0.072 52.854 0.964 -37.808
          0.072 52.818 0.985 -42.452 0.071 48.654
          0.964 -37.828 0.071 48.596 0.02 4.086
1020.041 9.699e-3 -85.277 0.074 51.588 0.964 -38.942
          0.074 51.535 0.985 -43.727 0.073 47.29
          0.963 -38.947 0.073 47.253 0.02 3.192
1050.041 9.29e-3 -96.258 0.076 50.377 0.963 -40.065
          0.076 50.305 0.984 -44.977 0.075 46.019
          0.963 -40.085 0.075 45.985 0.02 2.105
1080.041 9.068e-3 -109.78 0.078 49.172 0.963 -41.205
          0.078 49.143 0.983 -46.243 0.077 44.47
          0.963 -41.215 0.077 44.451 0.02 1.913
1110.041 8.909e-3 -122.502 0.08 47.971 0.962 -42.326
          0.08 47.944 0.982 -47.495 0.079 43.069
          0.963 -42.346 0.079 43.039 0.02 1.222
1140.04 9.28e-3 -135.679 0.082 46.729 0.963 -43.468
          0.082 46.681 0.983 -48.773 0.081 41.628
          0.963 -43.488 0.081 41.598 0.021 0.397
1170.04 9.915e-3 -150.363 0.085 45.528 0.964 -44.611
          0.084 45.504 0.983 -50.063 0.083 40.321
          0.963 -44.612 0.083 40.296 0.02 -0.968
1200.04 0.011 -162.2 0.087 44.364 0.963 -45.728
          0.086 44.359 0.982 -51.355 0.085 38.979
          0.963 -45.736 0.085 38.964 0.02 -2.186
1230.04 0.012 -172.626 0.089 43.182 0.963 -46.871
          0.088 43.173 0.981 -52.668 0.087 37.566
          0.963 -46.879 0.087 37.534 0.02 -3.283
1260.039 0.014 177.208 0.09 42.037 0.962 -48.003
          0.09 42.023 0.981 -53.968 0.089 36.233
          0.963 -48.039 0.089 36.199 0.02 -3.788
1290.039 0.016 168.553 0.092 40.872 0.962 -49.159
          0.092 40.88 0.98 -55.274 0.091 34.903
          0.963 -49.192 0.091 34.822 0.02 -4.923
1320.039 0.018 161.191 0.094 39.716 0.962 -50.287
          0.094 39.742 0.978 -56.575 0.093 33.628
          0.962 -50.314 0.093 33.574 0.02 -6.286
1350.039 0.02 154.352 0.096 38.576 0.961 -51.427
          0.096 38.616 0.977 -57.857 0.095 32.359
          0.962 -51.447 0.095 32.336 0.02 -7.962
1380.038 0.022 148.47 0.098 37.456 0.961 -52.563
          0.098 37.475 0.977 -59.135 0.097 31.116
          0.961 -52.58 0.097 31.074 0.02 -8.831
1410.038 0.024 142.948 0.1 36.359 0.96 -53.72
          0.1 36.47 0.976 -60.417 0.098 29.863
          0.961 -53.707 0.099 29.83 0.019 -8.587
1440.038 0.026 137.571 0.102 35.278 0.96 -54.857
          0.102 35.386 0.975 -61.705 0.1 28.531
          0.96 -54.859 0.101 28.525 0.019 -10.437
1470.038 0.028 132.554 0.104 34.216 0.961 -55.969
          0.104 34.298 0.976 -63.013 0.102 27.238
          0.96 -55.998 0.103 27.213 0.019 -12.887
1500.037 0.031 127.724 0.106 33.187 0.96 -57.094
          0.106 33.279 0.976 -64.276 0.104 25.992
          0.96 -57.12 0.104 25.951 0.018 -14.591
1530.037 0.033 123.007 0.108 32.185 0.96 -58.219
          0.108 32.291 0.975 -65.543 0.106 24.793
          0.96 -58.242 0.106 24.733 0.018 -16.609
1560.037 0.035 118.423 0.11 31.136 0.96 -59.387
          0.109 31.307 0.974 -66.829 0.108 23.578
          0.96 -59.393 0.108 23.549 0.018 -18.004
1590.037 0.037 113.861 0.112 30.129 0.959 -60.523
          0.111 30.292 0.974 -68.141 0.11 22.42
          0.959 -60.554 0.11 22.384 0.018 -19.899
1620.036 0.039 109.48 0.114 29.137 0.959 -61.676
          0.114 29.298 0.973 -69.44 0.111 21.275
          0.959 -61.713 0.112 21.227 0.018 -22.031
1650.036 0.041 105.323 0.116 28.163 0.959 -62.834
          0.116 28.329 0.973 -70.706 0.113 20.116
          0.959 -62.861 0.113 20.057 0.017 -24.656
1680.036 0.043 101.061 0.118 27.188 0.959 -63.99
          0.118 27.406 0.972 -71.971 0.115 18.981
          0.958 -63.992 0.115 18.917 0.017 -26.793
1710.036 0.044 96.452 0.12 26.222 0.959 -65.122
          0.12 26.47 0.971 -73.242 0.117 17.891
          0.958 -65.146 0.117 17.818 0.017 -28.585
1740.035 0.045 91.857 0.122 25.325 0.958 -66.265
          0.122 25.521 0.971 -74.518 0.119 16.793
          0.958 -66.307 0.119 16.703 0.017 -30.287
1770.035 0.047 87.249 0.125 24.353 0.957 -67.418
          0.124 24.584 0.97 -75.808 0.121 15.64
          0.957 -67.446 0.121 15.55 0.016 -32.058
1800.035 0.048 82.642 0.127 23.414 0.957 -68.553
          0.127 23.621 0.969 -77.072 0.123 14.641
          0.956 -68.581 0.123 14.475 0.016 -34.34
1830.035 0.049 78.122 0.129 22.449 0.956 -69.701
          0.129 22.727 0.969 -78.363 0.125 13.542
          0.956 -69.714 0.125 13.429 0.016 -36.567
1860.034 0.049 73.158 0.132 21.511 0.956 -70.838
          0.132 21.797 0.97 -79.615 0.127 12.503
          0.956 -70.852 0.127 12.375 0.015 -37.87
1890.034 0.049 67.996 0.134 20.481 0.956 -72.014
          0.134 20.788 0.969 -80.897 0.129 11.464
          0.956 -72.002 0.13 11.322 0.015 -39.268
1920.034 0.05 62.578 0.137 19.523 0.955 -73.129
          0.137 19.777 0.968 -82.18 0.131 10.451
          0.955 -73.136 0.132 10.276 0.015 -41.449
1950.034 0.05 57.15 0.14 18.488 0.954 -74.272
          0.14 18.748 0.968 -83.465 0.134 9.425
          0.955 -74.283 0.134 9.164 0.014 -44.35
1980.033 0.05 51.798 0.142 17.431 0.954 -75.423
          0.142 17.698 0.967 -84.77 0.136 8.31
          0.954 -75.431 0.136 8.098 0.014 -47.157
2010.033 0.049 46.207 0.145 16.366 0.953 -76.569
          0.145 16.64 0.967 -86.055 0.139 7.27
          0.953 -76.588 0.139 7.047 0.013 -49.391
2040.033 0.049 40.282 0.148 15.223 0.953 -77.724
          0.148 15.584 0.966 -87.338 0.141 6.121
          0.952 -77.731 0.141 5.934 0.013 -52.268
2070.033 0.048 34.039 0.151 14.095 0.952 -78.88
          0.151 14.4 0.965 -88.635 0.144 5.1
          0.952 -78.882 0.144 4.839 0.012 -54.292
2100.032 0.047 27.606 0.154 12.957 0.951 -80.056
          0.154 13.229 0.964 -89.967 0.146 3.948
          0.951 -80.034 0.147 3.737 0.012 -57.674
2130.032 0.046 21.197 0.157 11.79 0.95 -81.155
          0.157 12.157 0.963 -91.283 0.149 2.849
          0.951 -81.204 0.149 2.553 0.011 -60.596
2160.032 0.045 14.166 0.16 10.556 0.951 -82.34
          0.16 10.831 0.962 -92.62 0.152 1.678
          0.951 -82.324 0.152 1.39 0.011 -65.081
2190.032 0.043 6.591 0.163 9.242 0.95 -83.466
          0.163 9.559 0.961 -93.893 0.155 0.463
          0.95 -83.501 0.155 0.178 0.01 -65.971
2220.031 0.042 -1.356 0.166 8.019 0.949 -84.608
          0.166 8.25 0.959 -95.181 0.158 -0.731
          0.949 -84.62 0.158 -1.058 9.802e-3 -68.804
2250.031 0.042 -9.439 0.169 6.638 0.948 -85.757
          0.169 6.979 0.959 -96.482 0.161 -2.145
          0.948 -85.771 0.161 -2.366 9.117e-3 -71.766
2280.031 0.041 -17.359 0.172 5.419 0.947 -86.9
          0.172 5.541 0.958 -97.794 0.164 -3.338
          0.948 -86.905 0.164 -3.64 8.672e-3 -76.093
2310.031 0.04 -25.576 0.175 3.993 0.948 -88.01
          0.175 4.264 0.959 -99.05 0.167 -4.691
          0.948 -88.057 0.167 -4.966 8.051e-3 -76.903
2340.03 0.039 -34.423 0.178 2.57 0.946 -89.163
          0.178 2.832 0.957 -100.469 0.17 -6.032
          0.947 -89.208 0.17 -6.371 7.61e-3 -81.996
2370.03 0.038 -43.595 0.181 1.183 0.946 -90.337
          0.181 1.406 0.957 -101.776 0.173 -7.399
          0.946 -90.316 0.173 -7.699 6.884e-3 -84.865
2400.03 0.038 -52.909 0.184 -0.24 0.945 -91.429
          0.184 -0.023 0.955 -103.069 0.177 -8.809
          0.946 -91.485 0.176 -9.12 6.547e-3 -89.063
2430.03 0.038 -62.269 0.186 -1.712 0.944 -92.578
          0.187 -1.519 0.954 -104.409 0.18 -10.19
          0.945 -92.627 0.179 -10.599 6.083e-3 -93.532
2460.029 0.038 -71.955 0.189 -3.179 0.944 -93.697
          0.19 -2.988 0.953 -105.696 0.183 -11.674
          0.944 -93.781 0.182 -12.042 5.829e-3 -95.382
2490.029 0.038 -81.78 0.192 -4.542 0.943 -94.867
          0.192 -4.448 0.952 -106.982 0.186 -13.174
          0.943 -94.913 0.185 -13.523 5.027e-3 -95.316
2520.029 0.039 -91.136 0.194 -6.086 0.942 -95.99
          0.195 -5.861 0.951 -108.293 0.189 -14.67
          0.942 -96.05 0.188 -15.002 4.315e-3 -97.466
2550.029 0.041 -99.835 0.197 -7.497 0.942 -97.14
          0.197 -7.344 0.95 -109.597 0.192 -16.14
          0.942 -97.165 0.191 -16.482 3.701e-3 -105.408
2580.028 0.042 -108.22 0.199 -8.989 0.94 -98.283
          0.2 -8.877 0.949 -110.885 0.195 -17.659
          0.94 -98.339 0.194 -18.057 3.577e-3 -115.034
2610.028 0.043 -116.699 0.201 -10.43 0.94 -99.319
          0.202 -10.335 0.948 -112.255 0.198 -19.087
          0.939 -99.483 0.197 -19.586 3.135e-3 -121.127
2640.028 0.046 -124.868 0.204 -11.923 0.94 -100.524
          0.204 -11.882 0.946 -113.573 0.201 -20.722
          0.939 -100.583 0.2 -21.13 2.879e-3 -123.862
2670.028 0.048 -132.477 0.206 -13.441 0.939 -101.661
          0.206 -13.353 0.945 -114.921 0.203 -22.291
          0.938 -101.727 0.202 -22.661 2.295e-3 -136.252
2700.027 0.05 -139.419 0.208 -14.917 0.938 -102.787
          0.209 -14.863 0.944 -116.262 0.206 -23.834
          0.938 -102.881 0.205 -24.257 1.935e-3 -151.74
2730.027 0.053 -145.942 0.21 -16.368 0.937 -103.922
          0.21 -16.337 0.943 -117.619 0.209 -25.361
          0.937 -104.025 0.208 -25.827 2.169e-3 -160.675
2760.027 0.055 -152.504 0.212 -17.798 0.939 -105.065
          0.213 -17.818 0.944 -118.942 0.212 -26.975
          0.938 -105.149 0.211 -27.397 2.359e-3 -164.209
2790.027 0.058 -158.875 0.214 -19.307 0.939 -106.171
          0.214 -19.309 0.943 -120.241 0.215 -28.574
          0.937 -106.271 0.213 -29.011 2.276e-3 -162.17
2820.026 0.062 -164.562 0.216 -20.762 0.938 -107.346
          0.216 -20.793 0.943 -121.592 0.217 -30.143
          0.937 -107.406 0.216 -30.563 2.157e-3 -174.132
2850.026 0.065 -170.062 0.218 -22.277 0.938 -108.49
          0.218 -22.274 0.942 -122.883 0.22 -31.781
          0.937 -108.539 0.218 -32.139 1.97e-3 168.653
2880.026 0.067 -175.343 0.219 -23.641 0.937 -109.614
          0.219 -23.732 0.941 -124.212 0.222 -33.305
          0.936 -109.696 0.22 -33.727 2.275e-3 158.975
2910.026 0.07 179.441 0.221 -25.159 0.937 -110.789
          0.221 -25.158 0.94 -125.567 0.224 -34.973
          0.935 -110.846 0.223 -35.365 2.834e-3 147.122
2940.025 0.073 174.152 0.222 -26.557 0.937 -111.936
          0.222 -26.57 0.939 -126.88 0.227 -36.543
          0.934 -111.983 0.225 -36.95 2.935e-3 142.842
2970.025 0.076 169.343 0.223 -27.939 0.936 -113.109
          0.223 -27.95 0.938 -128.272 0.229 -38.199
          0.934 -113.123 0.227 -38.582 3.455e-3 133.443
3000.025 0.079 164.551 0.224 -29.314 0.936 -114.265
          0.224 -29.321 0.938 -129.621 0.231 -39.817
          0.934 -114.281 0.229 -40.153 3.904e-3 121.662
3030.025 0.082 159.967 0.225 -30.62 0.935 -115.412
          0.225 -30.646 0.936 -131.005 0.233 -41.406
          0.933 -115.438 0.231 -41.737 4.509e-3 114.444
3060.024 0.085 155.442 0.227 -32.027 0.935 -116.59
          0.226 -32.01 0.936 -132.387 0.235 -43.044
          0.933 -116.589 0.233 -43.331 5.423e-3 114.64
3090.024 0.088 150.995 0.227 -33.317 0.934 -117.744
          0.227 -33.339 0.935 -133.745 0.237 -44.61
          0.932 -117.76 0.235 -44.963 5.994e-3 117.468
3120.024 0.091 146.602 0.228 -34.634 0.934 -118.931
          0.228 -34.596 0.934 -135.102 0.239 -46.269
          0.932 -118.9 0.236 -46.553 6.578e-3 115.871
3150.024 0.094 142.221 0.229 -35.89 0.933 -120.105
          0.229 -35.857 0.934 -136.436 0.24 -47.863
          0.931 -120.065 0.238 -48.143 6.942e-3 114.131
3180.023 0.096 137.823 0.23 -37.148 0.933 -121.265
          0.23 -37.126 0.933 -137.809 0.242 -49.479
          0.931 -121.239 0.239 -49.7 7.443e-3 110.728
3210.023 0.098 133.459 0.231 -38.383 0.932 -122.432
          0.231 -38.35 0.932 -139.186 0.243 -51.017
          0.931 -122.428 0.241 -51.261 8.067e-3 108.583
3240.023 0.1 129.134 0.232 -39.662 0.932 -123.62
          0.232 -39.563 0.931 -140.549 0.245 -52.597
          0.93 -123.576 0.242 -52.853 8.85e-3 108.685
3270.023 0.102 124.672 0.233 -40.881 0.933 -124.812
          0.232 -40.734 0.932 -141.996 0.246 -54.192
          0.93 -124.739 0.243 -54.44 9.616e-3 108.313
3300.022 0.104 120.324 0.233 -42.054 0.932 -126.029
          0.233 -41.893 0.931 -143.406 0.247 -55.767
          0.93 -125.904 0.244 -55.831 0.01 107.053
3330.022 0.106 116.177 0.234 -43.194 0.93 -127.178
          0.234 -43.027 0.93 -144.795 0.248 -57.25
          0.93 -127.099 0.245 -57.31 0.01 106.71
3360.022 0.108 112.126 0.235 -44.24 0.93 -128.332
          0.235 -44.13 0.929 -146.219 0.249 -58.719
          0.929 -128.283 0.246 -58.81 0.011 105.981
3390.022 0.109 108.073 0.235 -45.372 0.93 -129.552
          0.235 -45.198 0.929 -147.622 0.25 -60.216
          0.928 -129.46 0.247 -60.238 0.012 104.454
3420.021 0.111 103.934 0.236 -46.374 0.929 -130.741
          0.236 -46.209 0.928 -149.028 0.251 -61.637
          0.929 -130.638 0.247 -61.624 0.012 102.564
3450.021 0.112 99.758 0.237 -47.414 0.929 -131.919
          0.237 -47.23 0.927 -150.433 0.252 -63.089
          0.928 -131.816 0.248 -62.964 0.013 102.291
3480.021 0.113 95.719 0.238 -48.407 0.928 -133.119
          0.238 -48.194 0.926 -151.849 0.253 -64.503
          0.927 -133.01 0.249 -64.309 0.013 102.454
3510.021 0.114 91.782 0.239 -49.428 0.927 -134.303
          0.239 -49.208 0.924 -153.266 0.253 -65.854
          0.927 -134.211 0.25 -65.676 0.013 101.276
3540.02 0.114 87.765 0.24 -50.369 0.927 -135.476
          0.24 -50.162 0.923 -154.704 0.254 -67.169
          0.926 -135.408 0.25 -67.015 0.014 97.478
3570.02 0.115 83.67 0.241 -51.349 0.926 -136.696
          0.241 -51.069 0.921 -156.167 0.254 -68.522
          0.926 -136.607 0.251 -68.257 0.014 93.449
3600.02 0.115 79.468 0.242 -52.363 0.925 -137.893
          0.243 -52.093 0.919 -157.647 0.255 -69.822
          0.925 -137.812 0.251 -69.476 0.015 96.5
3630.02 0.115 75.444 0.243 -53.266 0.924 -139.068
          0.244 -53.031 0.917 -159.059 0.255 -71.033
          0.924 -139.024 0.252 -70.778 0.016 98.894
3660.019 0.116 71.631 0.245 -54.151 0.923 -140.273
          0.246 -53.951 0.915 -160.507 0.256 -72.278
          0.924 -140.218 0.253 -71.914 0.016 95
3690.019 0.115 67.855 0.246 -55.053 0.923 -141.483
          0.247 -54.832 0.913 -161.962 0.257 -73.441
          0.923 -141.431 0.253 -73.018 0.017 92.624
3720.019 0.115 64.007 0.248 -55.956 0.922 -142.688
          0.249 -55.754 0.91 -163.411 0.257 -74.609
          0.922 -142.638 0.254 -74.148 0.017 90.484
3750.019 0.114 60.108 0.25 -56.853 0.921 -143.901
          0.251 -56.68 0.908 -164.867 0.258 -75.774
          0.921 -143.86 0.255 -75.265 0.017 89.521
3780.018 0.113 56.271 0.252 -57.833 0.921 -145.121
          0.253 -57.602 0.908 -166.29 0.26 -76.952
          0.921 -145.076 0.257 -76.365 0.018 87.813
3810.018 0.112 52.588 0.254 -58.746 0.92 -146.344
