!Hittite Microwave Corporation								
!20 Alpha Road								
!Chelmsford, MA 01824								
!Tel: 978-250-3343								
!Fax: 978-250-3373								
!Device: HMC518, 20-32 GHz, GaAs PHEMT MMIC Low Noise Amplifier Die																
!Misc: Vdd1 = Vdd2 = Vdd3 = +3.5V, data includes two K connectors, Room							
!
# MHZ S MA R 50

14831 0.776 66.278 2.76 100.793 1.93e-3 -70.972 0.527 116.235
15032.75 0.715 44.43 3.08 87.935 1.883e-3 -73.123 0.51 106.499
15234.5 0.644 19.703 3.39 69.568 1.743e-3 -100.428 0.489 96.815
15436.25 0.556 -8.963 3.851 53.069 1.606e-3 -92.37 0.468 87.116
15638 0.488 -39.759 4.075 36.952 1.317e-3 -88.307 0.445 77.458
15839.75 0.439 -73.251 4.494 17.882 938.8e-6 -103.205 0.421 67.65
16041.5 0.418 -106.216 4.59 -0.521 821.2e-6 -125.05 0.397 57.993
16243.25 0.415 -137.225 4.585 -16.743 770.9e-6 -114.094 0.372 48.256
16445 0.426 -164.2 4.666 -32.331 585.7e-6 -107.555 0.346 38.388
16646.75 0.443 172.715 4.695 -46.678 454.3e-6 -121.16 0.321 28.388
16848.5 0.457 152.942 4.737 -61.653 359.3e-6 -100.274 0.296 18.02
17050.25 0.466 135.595 4.711 -74.824 382.4e-6 -77.053 0.271 7.845
17252 0.469 119.476 4.76 -88.692 219e-6 -59.101 0.246 -3.029
17453.75 0.47 104.61 4.74 -101.414 73.81e-6 -54.008 0.223 -14.468
17655.5 0.464 90.186 4.741 -114.149 127e-6 -65.259 0.201 -26.111
17857.25 0.455 76.587 4.72 -126.405 149.8e-6 52.874 0.18 -38.663
18059 0.444 63.483 4.734 -137.889 395.8e-6 -10.17 0.162 -51.744
18260.75 0.432 50.631 4.748 -149.484 421.7e-6 22.034 0.144 -65.902
18462.5 0.416 38.193 4.807 -160.667 419.9e-6 24.617 0.131 -81.003
18664.25 0.398 25.527 4.868 -172.076 588.8e-6 24.428 0.119 -96.944
18866 0.377 12.854 4.908 176.65 932.3e-6 27.416 0.109 -113.68
19067.75 0.357 -0.321 4.96 165.434 1.045e-3 19.363 0.103 -131.545
19269.5 0.339 -12.97 4.996 154.442 1.227e-3 14.511 0.1 -149.47
19471.25 0.319 -25.371 5.06 143.55 1.549e-3 12.864 0.1 -166.867
19673 0.302 -37.768 5.139 132.606 2.072e-3 3.726 0.101 176.205
19874.75 0.284 -50.19 5.199 121.27 2.513e-3 -3.632 0.105 160.54
20076.5 0.269 -63.189 5.247 110.259 2.861e-3 -13.029 0.108 145.85
20278.25 0.258 -76.101 5.295 99.204 3.124e-3 -26.834 0.11 132.836
20480 0.25 -89.6 5.334 88.172 3.421e-3 -36.9 0.111 121.505
20681.75 0.245 -102.737 5.374 77.232 3.555e-3 -42.222 0.112 111.421
20883.5 0.24 -115.207 5.391 66.687 3.738e-3 -49.261 0.111 101.868
21085.25 0.236 -126.983 5.439 55.59 3.901e-3 -59.463 0.112 92.536
21287 0.231 -138.37 5.428 44.943 4.141e-3 -65.511 0.111 83.596
21488.75 0.23 -149.792 5.401 34.371 4.365e-3 -71.892 0.106 74.533
21690.5 0.229 -160.582 5.411 24.645 4.47e-3 -79.645 0.102 65.084
21892.25 0.231 -170.742 5.456 14.312 4.603e-3 -85.823 0.098 56.497
22094 0.233 -179.917 5.492 4.018 4.9e-3 -88.454 0.091 47.029
22295.75 0.234 171.3 5.504 -6.182 5.176e-3 -96.643 0.082 37.303
22497.5 0.234 163.097 5.545 -16.282 5.337e-3 -105.495 0.074 27.018
22699.25 0.233 154.823 5.574 -26.596 5.448e-3 -114.529 0.064 14.884
22901 0.233 146.571 5.602 -36.779 5.764e-3 -119.813 0.055 0.364
23102.75 0.234 138.462 5.622 -46.94 5.965e-3 -125.237 0.046 -17.905
23304.5 0.238 130.785 5.643 -57.089 5.85e-3 -132.399 0.039 -41.38
23506.25 0.243 123.98 5.661 -67.164 6.027e-3 -141.678 0.037 -69.869
23708 0.244 117.81 5.689 -77.181 6.351e-3 -150.695 0.041 -98.565
23909.75 0.241 111.651 5.716 -87.359 6.669e-3 -155.738 0.049 -122.457
24111.5 0.237 104.906 5.735 -97.483 6.805e-3 -160.793 0.06 -141.012
24313.25 0.232 97.931 5.749 -107.708 6.834e-3 -170.162 0.073 -155.953
24515 0.228 91 5.768 -117.903 6.854e-3 -178.952 0.088 -167.795
24716.75 0.225 84.226 5.762 -127.969 7.242e-3 174.334 0.103 -177.45
24918.5 0.222 78.035 5.802 -138.181 7.358e-3 166.349 0.119 174.208
25120.25 0.214 72.77 5.798 -148.674 7.42e-3 159.84 0.133 165.466
25322 0.202 67.702 5.762 -159.475 7.58e-3 152.285 0.146 157.536
25523.75 0.186 63.003 5.685 -169.549 7.528e-3 145.411 0.16 150.654
25725.5 0.166 58.116 5.572 -179.325 8.055e-3 138.543 0.176 144.372
25927.25 0.147 52.819 5.48 171.404 8.853e-3 129.426 0.189 138.688
26129 0.13 47.514 5.464 162.623 9.144e-3 121.28 0.199 132.61
26330.75 0.115 43.796 5.493 153.327 9.201e-3 114.01 0.209 126.955
26532.5 0.1 44.567 5.522 143.73 9.334e-3 105.544 0.218 121.315
26734.25 0.087 50.232 5.542 134.115 9.644e-3 95.471 0.23 116.052
26936 0.078 61.004 5.626 124.299 0.01 86.058 0.237 111.142
27137.75 0.075 76.762 5.655 113.815 0.01 78.433 0.243 105.679
27339.5 0.083 89.534 5.637 103.123 0.01 71.088 0.251 100.534
27541.25 0.1 97.223 5.579 92.936 0.011 62.196 0.26 95.675
27743 0.121 99.99 5.536 82.863 0.011 51.68 0.267 91.054
27944.75 0.147 98.141 5.48 72.73 0.011 41.973 0.276 85.854
28146.5 0.175 94.348 5.414 62.742 0.012 33.766 0.286 80.778
28348.25 0.202 89.409 5.361 52.591 0.012 26.584 0.298 75.511
28550 0.229 84.111 5.277 42.26 0.012 18.887 0.305 70.23
28751.75 0.255 78.153 5.192 32.283 0.012 9.756 0.315 64.993
28953.5 0.279 71.796 5.103 22.192 0.013 0.939 0.325 59.156
29155.25 0.299 64.829 4.963 12.806 0.013 -7.589 0.334 53.016
29357 0.321 57.416 4.859 3.944 0.013 -16.027 0.342 46.76
29558.75 0.339 49.756 4.905 -4.464 0.013 -24.19 0.348 39.789
29760.5 0.357 41.534 4.901 -14.8 0.013 -33.152 0.354 32.408
29962.25 0.373 34.062 4.855 -24.939 0.014 -40.133 0.358 25.258
30164 0.386 26.463 4.799 -33.794 0.014 -49.195 0.357 17.816
30365.75 0.394 19.246 4.77 -44.931 0.014 -56.063 0.357 10.464
30567.5 0.401 11.743 4.648 -53.688 0.015 -62.91 0.35 2.914
30769.25 0.408 4.278 4.614 -62.41 0.015 -72.935 0.343 -4.116
30971 0.414 -3.176 4.866 -71.728 0.015 -81.92 0.334 -11.362
31172.75 0.424 -10.457 4.801 -84.786 0.016 -88.696 0.324 -17.935
31374.5 0.434 -17.118 4.73 -95.077 0.017 -96.641 0.308 -23.891
31576.25 0.446 -23.363 4.789 -104.273 0.018 -109.409 0.292 -29.401
31778 0.458 -28.684 4.882 -118.173 0.019 -118.819 0.277 -33.485
31979.75 0.472 -34.416 4.726 -131.866 0.018 -132.225 0.27 -35.904
32181.5 0.488 -40.889 4.317 -143.452 0.015 -135.069 0.264 -37.179
32383.25 0.507 -48.024 4.263 -152.934 0.02 -141.014 0.266 -38.231
32585 0.537 -55.762 4.1 -164.083 0.02 -161.258 0.279 -39.354
32786.75 0.572 -63.625 3.962 -176.878 0.019 -168.514 0.302 -41.18
32988.5 0.611 -71.841 3.748 173.941 0.018 174.911 0.331 -45.188
33190.25 0.646 -80.158 3.675 161.352 0.015 170.727 0.367 -51.016
33392 0.681 -89.253 3.538 150.117 0.017 162.146 0.406 -57.881
33593.75 0.71 -98.475 3.249 136.831 0.018 151.233 0.445 -66.001
33795.5 0.732 -108.177 3.131 125.24 0.016 133.89 0.484 -74.877
33997.25 0.755 -117.868 2.714 112.159 0.015 123.244 0.521 -84.223
34199 0.776 -127.195 2.431 103.766 0.016 114.035 0.557 -93.37
34400.75 0.803 -136.811 2.274 98.061 0.012 103.779 0.583 -102.902
34602.5 0.821 -146.16 2.262 85.574 0.011 96.842 0.612 -112.459
34804.25 0.834 -155.126 2.03 73.515 0.01 83.054 0.637 -121.725
35006 0.84 -164.09 1.82 61.984 0.011 81.764 0.657 -130.924
