!Hittite Microwave Corporation								
!20 Alpha Road								
!Chelmsford, MA 01824								
!Tel: 978-250-3343								
!Fax: 978-250-3373								
!Device: HMC516lc5, 12-16 GHz, LNA															
!Misc:  Vdd = +3V, Room							
!
# MHZ S MA R 50

50 0.294 -0.943 75.55e-6 -79.011 54.42e-6 45.119 0.998 -4.157
249.75 0.294 -5.329 309e-6 -33.442 54.13e-6 -64.782 0.991 -20.916
449.5 0.294 -9.806 186.3e-6 37.226 48.27e-6 14.346 0.986 -37.559
649.25 0.292 -14.061 1.147e-3 15.707 125.2e-6 -36.743 0.948 -59.515
849 0.289 -18.646 0.014 -33.686 592.7e-6 -94.316 0.675 -94.208
1048.75 0.286 -23.12 0.09 179.012 941.7e-6 141.862 0.476 -49.614
1248.5 0.282 -27.772 0.086 48.995 333.6e-6 120.085 0.761 -68.821
1448.25 0.277 -32.378 0.027 -30.194 357.6e-6 121.396 0.814 -93.059
1648 0.272 -37.105 0.011 -40.19 414.5e-6 109.32 0.771 -116.845
1847.75 0.267 -41.879 7.016e-3 -17.871 426.2e-6 91.509 0.617 -139.655
2047.5 0.26 -46.598 8.014e-3 -16.253 370.5e-6 78.807 0.414 -150.182
2247.25 0.254 -51.319 5.803e-3 -34.228 335.4e-6 75.552 0.321 -143.563
2447 0.249 -55.745 712.1e-6 154.504 368.6e-6 79.884 0.32 -138.797
2646.75 0.242 -60.328 0.011 118.692 321.8e-6 75.912 0.332 -141.33
2846.5 0.236 -64.272 0.027 103.861 368.3e-6 80.831 0.334 -146.935
3046.25 0.228 -68.245 0.05 90.161 415.4e-6 70.071 0.328 -154.246
3246 0.216 -72.464 0.083 78.203 376.1e-6 68.513 0.315 -162.596
3445.75 0.202 -74.638 0.133 63.49 404.3e-6 72.77 0.297 -171.963
3645.5 0.187 -76.346 0.19 48.566 461.6e-6 70.256 0.279 177.471
3845.25 0.169 -76.854 0.268 37.655 511.5e-6 68.995 0.263 165.521
4045 0.151 -76.017 0.387 25.507 504.9e-6 62.067 0.25 153.183
4244.75 0.132 -71.361 0.543 11.792 539.7e-6 54.422 0.241 141.085
4444.5 0.115 -61.063 0.747 -2.364 511.2e-6 49.276 0.244 129.985
4644.25 0.109 -44.949 1.018 -16.769 528.2e-6 47.491 0.256 119.5
4844 0.122 -27.44 1.371 -31.852 534.5e-6 42.238 0.272 110.422
5043.75 0.155 -16.204 1.837 -47.827 535.4e-6 36.793 0.289 103.042
5243.5 0.205 -12.847 2.414 -64.795 498.6e-6 38.655 0.304 97.127
5443.25 0.265 -15.636 3.126 -83.025 521.2e-6 33.635 0.317 92.527
5643 0.327 -23.366 3.936 -102.622 524.9e-6 24.038 0.326 88.968
5842.75 0.384 -34.806 4.837 -123.785 518.9e-6 24.465 0.329 86.024
6042.5 0.427 -49.171 5.807 -147.254 542.5e-6 15.586 0.327 83.234
6242.25 0.447 -65.195 6.646 -171.068 514.1e-6 11.492 0.317 80.581
6442 0.442 -82.224 7.498 163.176 499.4e-6 6.926 0.303 77.564
6641.75 0.424 -97.476 7.891 140.534 499e-6 5.644 0.28 74.013
6841.5 0.4 -111.271 8.229 118.942 498.7e-6 -1.818 0.252 69.131
7041.25 0.378 -122.709 8.376 99.631 480.9e-6 -6.269 0.221 62.134
7241 0.361 -132.309 8.497 81.788 465.9e-6 -9.352 0.189 51.685
7440.75 0.345 -139.812 8.531 65.121 460.8e-6 -17.409 0.163 36.687
7640.5 0.329 -145.881 8.516 49.331 457.9e-6 -22.069 0.152 16.89
7840.25 0.315 -150.238 8.566 34.28 461.6e-6 -29.79 0.159 -3.382
8040 0.298 -153.374 8.509 20.043 430.9e-6 -35.587 0.183 -19.35
8239.75 0.281 -154.85 8.509 6.338 402.1e-6 -43.542 0.214 -30.283
8439.5 0.262 -155.662 8.439 -6.704 380.4e-6 -44.534 0.246 -36.999
8639.25 0.244 -155.448 8.433 -19.496 353.2e-6 -52.096 0.275 -41.041
8839 0.222 -154.867 8.409 -31.892 344.5e-6 -51.972 0.298 -43.209
9038.75 0.199 -151.932 8.429 -43.639 379.6e-6 -57.979 0.318 -44.433
9238.5 0.176 -146.989 8.499 -55.492 331.8e-6 -73.172 0.326 -44.428
9438.25 0.165 -140.35 8.596 -67.252 288.3e-6 -89.642 0.332 -44.246
9638 0.155 -135.782 8.717 -78.897 234.6e-6 -102.877 0.325 -43.827
9837.75 0.15 -130.398 8.858 -90.348 194.7e-6 -116.458 0.314 -43.195
10037.5 0.146 -125.971 9.024 -101.95 87.78e-6 -146.03 0.296 -42.882
10237.25 0.145 -122.792 9.224 -113.325 41.63e-6 77.765 0.271 -42.805
10437 0.144 -121.179 9.348 -125.026 107.8e-6 56.334 0.239 -43.525
10636.75 0.143 -121.632 9.572 -136.559 197.3e-6 26.931 0.202 -45.346
10836.5 0.146 -123.758 9.701 -148.421 260.5e-6 47.109 0.165 -49.62
11036.25 0.149 -127.909 9.939 -160.129 384e-6 32.121 0.127 -57.892
11236 0.152 -134.155 10.12 -171.976 484.9e-6 19.484 0.098 -73.638
11435.75 0.154 -141.863 10.334 175.945 600.8e-6 13.675 0.083 -99.497
11635.5 0.16 -151.198 10.469 164.027 741.2e-6 4.697 0.092 -126.16
11835.25 0.166 -161.102 10.63 151.855 892.4e-6 -6.365 0.117 -141.685
12035 0.176 -170.965 10.711 139.817 978e-6 -17.123 0.146 -149.704
12234.75 0.191 178.141 10.742 128.019 993.3e-6 -22.121 0.175 -153.76
12434.5 0.208 166.185 10.768 116.687 1.147e-3 -24.663 0.201 -156.343
12634.25 0.222 155.2 10.771 105.073 1.311e-3 -32.007 0.22 -157.086
12834 0.238 145.739 10.72 93.847 1.487e-3 -39.203 0.233 -157.245
13033.75 0.257 137.826 10.772 82.344 1.604e-3 -46.656 0.239 -156.921
13233.5 0.276 130.163 10.672 71.293 1.723e-3 -51.687 0.241 -156.834
13433.25 0.291 124.149 10.791 61.27 1.935e-3 -58.98 0.231 -157.168
13633 0.306 118.045 10.974 49.296 2.077e-3 -66.794 0.217 -156.194
13832.75 0.315 114.185 11.017 37.976 2.242e-3 -73.884 0.203 -155.667
14032.5 0.321 110.192 11.085 26.331 2.414e-3 -81.159 0.186 -156.005
14232.25 0.319 106.935 11.013 14.957 2.573e-3 -88.123 0.167 -157.71
14432 0.311 104.075 10.988 3.634 2.725e-3 -95.666 0.146 -160.317
14631.75 0.297 101.582 10.972 -7.593 2.896e-3 -103.063 0.127 -164.616
14831.5 0.275 98.899 10.992 -18.822 3.105e-3 -110.312 0.109 -171.505
15031.25 0.246 96.013 11.014 -29.959 3.288e-3 -118.099 0.096 -179.339
15231 0.212 92.136 11.109 -41.544 3.525e-3 -126.564 0.086 169.718
15430.75 0.173 86.21 11.193 -53.042 3.753e-3 -135.212 0.08 158.644
15630.5 0.136 75.581 11.222 -64.733 3.959e-3 -144.263 0.077 148.437
15830.25 0.107 54.49 11.311 -76.516 4.145e-3 -153.586 0.073 138.339
16030 0.101 23.383 11.285 -88.441 4.345e-3 -162.641 0.069 132.258
16229.75 0.128 -3.123 11.272 -100.547 4.566e-3 -172.607 0.063 128.156
16429.5 0.175 -17.575 11.16 -112.642 4.701e-3 177.438 0.057 128.025
16629.25 0.23 -24.547 11.006 -124.867 4.81e-3 168.823 0.052 129.49
16829 0.286 -27.312 10.884 -137.318 5.05e-3 163.282 0.051 126.164
17028.75 0.348 -30.151 10.644 -149.899 6.013e-3 148.121 0.045 136.905
17228.5 0.391 -31.457 10.41 -161.853 5.881e-3 132.767 0.063 137.806
17428.25 0.434 -31.318 10.194 -173.961 5.759e-3 124.089 0.078 124.822
17628 0.469 -31.325 9.984 174.095 5.947e-3 113.375 0.098 113.852
17827.75 0.493 -31.357 9.765 162.248 6.035e-3 102.658 0.123 100.86
18027.5 0.511 -31.741 9.561 150.254 6.216e-3 93.054 0.151 91.084
18227.25 0.516 -33.25 9.36 138.243 6.431e-3 82.153 0.18 81.912
18427 0.509 -35.871 9.179 126.299 6.611e-3 72.619 0.205 74.287
18626.75 0.486 -40.573 9.006 114.083 6.903e-3 62.283 0.23 67.715
18826.5 0.453 -48.199 8.86 101.47 7.227e-3 51.39 0.249 61.329
19026.25 0.412 -60.258 8.729 88.315 7.559e-3 40.335 0.261 56.29
19226 0.378 -77.495 8.55 74.561 7.879e-3 28.471 0.27 49.772
19425.75 0.37 -99.486 8.274 60.249 8.076e-3 15.979 0.274 41.634
19625.5 0.402 -121.687 7.876 45.646 8.087e-3 3.166 0.274 31.139
19825.25 0.465 -139.409 7.343 31.337 7.941e-3 -9.103 0.272 17.299
20025 0.537 -151.859 6.7 17.644 7.622e-3 -20.286 0.273 0.602
20224.75 0.605 -159.651 6.048 4.845 7.122e-3 -30.115 0.288 -17.748
20424.5 0.661 -164.135 5.439 -6.972 6.887e-3 -38.642 0.321 -35.084
20624.25 0.706 -166.42 4.876 -17.898 6.562e-3 -47.528 0.367 -50.134
20824 0.736 -167.013 4.366 -27.868 6.154e-3 -55.608 0.418 -61.918
21023.75 0.756 -166.847 3.911 -37.008 5.706e-3 -62.078 0.467 -71.346
21223.5 0.764 -165.766 3.546 -45.18 5.41e-3 -67.44 0.508 -78.207
21423.25 0.765 -164.808 3.256 -52.954 5.167e-3 -72.434 0.544 -83.935
21623 0.755 -163.678 3.022 -60.222 5.009e-3 -77.262 0.568 -88.23
21822.75 0.737 -163.255 2.855 -67.401 4.838e-3 -83.011 0.581 -92.267
22022.5 0.713 -163.646 2.721 -74.761 4.579e-3 -88.681 0.585 -96.427
22222.25 0.682 -165.551 2.639 -82.463 4.445e-3 -93.713 0.584 -100.955
22422 0.643 -169.182 2.576 -90.802 4.164e-3 -98.842 0.577 -106.441
22621.75 0.602 -175.299 2.532 -100.117 4.045e-3 -103.077 0.568 -113.269
22821.5 0.563 176.268 2.475 -110.174 3.932e-3 -109.094 0.562 -121.75
23021.25 0.534 164.935 2.397 -120.939 3.786e-3 -114.989 0.562 -131.469
23221 0.52 152.839 2.293 -131.981 3.54e-3 -124.451 0.574 -141.677
23420.75 0.532 140.755 2.167 -142.991 3.068e-3 -129.361 0.6 -151.49
23620.5 0.552 130.221 2.023 -153.621 2.66e-3 -133.521 0.633 -159.855
23820.25 0.587 122.304 1.864 -163.522 2.423e-3 -137.492 0.675 -166.613
24020 0.615 116.781 1.716 -172.545 2.035e-3 -142.345 0.713 -171.152
24219.75 0.646 113.377 1.579 179.36 1.865e-3 -141.38 0.75 -174.252
24419.5 0.665 111.672 1.465 172.063 1.722e-3 -146.187 0.778 -175.607
24619.25 0.682 110.844 1.376 165.318 1.548e-3 -151.762 0.802 -175.884
24819 0.686 111.04 1.314 158.961 1.165e-3 -169.508 0.815 -175.131
25018.75 0.687 111.277 1.267 152.522 727.3e-6 -152.268 0.818 -174.082
25218.5 0.679 111.816 1.244 146.035 865.5e-6 -148.445 0.813 -172.926
25418.25 0.667 111.637 1.236 139.011 930.2e-6 -165.139 0.798 -171.885
25618 0.648 110.986 1.247 131.187 1.034e-3 163.417 0.771 -171.758
25817.75 0.63 109.308 1.267 122.262 1.389e-3 130.022 0.735 -172.893
26017.5 0.607 106.493 1.29 112.114 1.884e-3 96.904 0.693 -176.053
26217.25 0.586 102.438 1.305 100.507 2.427e-3 74.397 0.642 178.033
26417 0.569 97.461 1.306 87.287 3.173e-3 58.177 0.596 168.481
26616.75 0.56 92.123 1.276 72.88 4.178e-3 44.33 0.57 155.6
26816.5 0.565 86.885 1.211 57.793 5.303e-3 29.013 0.577 140.612
27016.25 0.576 82.059 1.118 42.529 6.151e-3 12.579 0.62 126.872
27216 0.591 78.665 0.999 27.485 6.515e-3 -0.505 0.686 116.569
27415.75 0.607 76.994 0.87 13.347 6.778e-3 -8.533 0.758 109.938
27615.5 0.627 76.364 0.74 0.502 7.33e-3 -13.888 0.827 106.787
27815.25 0.637 77.348 0.624 -10.76 8.035e-3 -20.26 0.883 106.219
28015 0.645 79.365 0.526 -20.532 8.858e-3 -26.302 0.926 108.103
28214.75 0.642 82.308 0.445 -28.893 9.456e-3 -32.923 0.957 111.635
28414.5 0.627 85.986 0.383 -36.301 9.865e-3 -33.751 0.984 116.553
28614.25 0.603 90.82 0.333 -43.044 0.012 -29.924 0.997 122.408
28814 0.564 96.638 0.295 -49.808 0.018 -39.048 1 129.312
29013.75 0.518 104.75 0.259 -57.01 0.023 -61.39 1.007 137.297
29213.5 0.483 115.354 0.225 -62.736 0.023 -83.236 1.021 144.82
29413.25 0.472 124.241 0.201 -65.833 0.02 -96.803 1.021 151.606
29613 0.442 129.664 0.193 -69.728 0.018 -98.308 1.004 157.871
29812.75 0.381 134.904 0.193 -77.185 0.02 -92.895 0.959 162.914
30012.5 0.312 140.392 0.189 -87.906 0.026 -96.616 0.87 168.111
30212.25 0.22 146.32 0.174 -100.987 0.032 -109.867 0.76 176.143
30412 0.125 151.379 0.161 -108.713 0.038 -115.903 0.713 -177.069
30611.75 0.026 -166.491 0.169 -122.208 0.059 -134.698 0.633 -179.216
30811.5 0.078 -31.066 0.161 -142.642 0.068 -164.322 0.484 169.024
31011.25 0.136 -21.603 0.146 -164.662 0.076 167.568 0.307 132.774
31211 0.234 6.976 0.122 168.51 0.073 133.34 0.348 67.89
31410.75 0.388 15.741 0.09 143.038 0.059 103.778 0.57 34.073
31610.5 0.546 17.907 0.061 120.687 0.044 81.977 0.747 21.57
31810.25 0.669 20.12 0.041 100.514 0.034 64.894 0.858 18.092
32010 0.766 23.337 0.026 81.599 0.025 48.069 0.924 20.086
32209.75 0.836 27.781 0.015 69.304 0.017 35.714 0.968 25.02
32409.5 0.885 33.1 9.673e-3 64.518 0.012 35.148 1.002 31.506
32609.25 0.914 39.661 6.979e-3 62.088 9.2e-3 39.588 1.021 39.021
32809 0.938 46.98 5.737e-3 60.883 7.883e-3 45.263 1.031 47.356
33008.75 0.951 54.67 5.239e-3 60.537 7.324e-3 51.737 1.036 56.415
33208.5 0.96 62.873 5.529e-3 55.575 7.181e-3 56.635 1.037 65.999
33408.25 0.954 70.873 5.975e-3 48.894 7.3e-3 63.224 1.032 75.808
33608 0.944 79.395 6.593e-3 40.513 7.89e-3 70.483 1.024 86.007
33807.75 0.916 87.418 6.861e-3 30.918 9.592e-3 77.588 1.009 96.371
34007.5 0.875 95.451 6.598e-3 27.976 0.013 78.935 0.991 106.817
34207.25 0.804 102.833 7.959e-3 39.464 0.018 73.434 0.966 117.372
34407 0.696 110.663 0.012 36.697 0.023 63.717 0.935 127.678
34606.75 0.536 120.709 0.017 24.223 0.029 51.823 0.882 137.452
34806.5 0.359 144.11 0.022 8.78 0.037 37.37 0.798 146.939
35006.25 0.332 -168.177 0.027 -10.877 0.046 17.023 0.656 158.339
35206 0.485 -140.236 0.03 -33.903 0.052 -8.003 0.493 -179.827
35405.75 0.627 -127.781 0.028 -57.943 0.049 -33.883 0.48 -142.239
35605.5 0.719 -118.555 0.023 -74.032 0.041 -53.392 0.63 -118.726
35805.25 0.776 -109.067 0.018 -81.324 0.032 -65.224 0.764 -106.852
36005 0.808 -99.167 0.016 -78.691 0.028 -68.761 0.843 -97.403
36204.75 0.825 -88.59 0.017 -75.075 0.027 -69.785 0.885 -87.871
36404.5 0.838 -77.345 0.021 -79.459 0.029 -75.789 0.903 -77.973
36604.25 0.849 -66.118 0.023 -93.017 0.031 -88.087 0.906 -67.369
36804 0.86 -54.994 0.023 -106.982 0.029 -100.802 0.907 -56.125
37003.75 0.862 -43.873 0.022 -116.233 0.028 -110.463 0.907 -44.78
37203.5 0.864 -32.633 0.021 -123.639 0.027 -118.099 0.907 -33.785
37403.25 0.86 -21.232 0.022 -129.444 0.027 -125.094 0.893 -22.914
37603 0.858 -9.721 0.022 -137.958 0.028 -134.838 0.869 -10.961
37802.75 0.856 1.574 0.023 -144.718 0.029 -143.898 0.849 1.879
38002.5 0.844 12.778 0.026 -153.598 0.031 -154.198 0.848 15.723
38202.25 0.825 24.77 0.029 -167.135 0.033 -167.765 0.867 28.939
38402 0.807 37.826 0.03 174.532 0.034 174.452 0.888 41.11
38601.75 0.807 51.729 0.029 157.38 0.031 157.45 0.908 52.631
38801.5 0.825 64.903 0.026 144.903 0.028 145.103 0.918 63.777
39001.25 0.841 77.095 0.024 136.022 0.026 136.282 0.92 75.002
39201 0.849 89.06 0.023 125.914 0.024 126.434 0.915 86.477
39400.75 0.855 101.281 0.021 117.325 0.023 118.045 0.908 98.25
39600.5 0.861 113.322 0.021 111.23 0.022 112.08 0.898 110.255
39800.25 0.862 125.49 0.021 103.881 0.022 104.861 0.885 122.602
40000 0.862 137.592 0.021 95.605 0.022 96.715 0.873 135.237
