!Hittite Microwave Corporation								
!20 Alpha Road								
!Chelmsford, MA 01824								
!Tel: 978-250-3343								
!Fax: 978-250-3373								
!Device: HMC519, 18-32 GHz, GaAs PHEMT MMIC Low Noise Amplifier															
!Misc: +3V, Room							
!
# MHZ S MA R 50

50 0.998 -0.537 537.4e-6 -146.564 681.1e-6 -89.884 1.001 -0.358
249.75 1.005 -1.822 166.8e-6 24.708 207e-6 23.305 1.006 -2.124
449.5 1.006 -3.414 60.08e-6 -119.263 79.52e-6 109.222 1.007 -3.99
649.25 1.008 -4.994 40.53e-6 -171.014 54.57e-6 63.86 1.009 -5.781
849 1.008 -6.553 30.26e-6 -0.036 73.97e-6 -53.128 1.008 -7.656
1048.75 1.009 -8.18 42.02e-6 8.524 90.69e-6 44.387 1.009 -9.539
1248.5 1.009 -9.778 126.8e-6 110.137 23.74e-6 69.668 1.007 -11.284
1448.25 1.007 -11.311 124.8e-6 -114.776 17.85e-6 167.151 1.008 -13.193
1648 1.006 -12.888 34.45e-6 -117.062 54.44e-6 -104.78 1.007 -14.947
1847.75 1.005 -14.419 295.8e-6 134.319 23.22e-6 38.624 1.004 -16.942
2047.5 1.003 -15.997 76.79e-6 106.629 80.66e-6 38.034 1.003 -18.66
2247.25 1.003 -17.58 54.36e-6 158.249 34.09e-6 169.321 1 -20.569
2447 1.001 -19.214 110.4e-6 167.046 73.77e-6 -106.446 0.999 -22.474
2646.75 0.999 -20.861 277.1e-6 151.17 46.06e-6 -27.114 0.992 -24.319
2846.5 0.998 -22.408 668.5e-6 113.972 50.19e-6 39.946 0.985 -26.246
3046.25 0.996 -24.013 1.507e-3 35.837 39.85e-6 56.927 0.976 -27.721
3246 0.996 -25.614 1.497e-3 -43.006 79.3e-6 -133.321 0.972 -28.853
3445.75 0.995 -27.216 656.8e-6 -112.369 99.03e-6 -45.419 0.973 -30.283
3645.5 0.994 -28.803 326.5e-6 -137.097 53.49e-6 -49.324 0.975 -31.971
3845.25 0.992 -30.531 223.5e-6 -152.522 106.5e-6 -29.146 0.974 -33.709
4045 0.989 -32.216 143e-6 -135.553 70.95e-6 -50.424 0.971 -35.471
4244.75 0.987 -33.913 63.77e-6 -168.011 113e-6 -86.529 0.97 -37.237
4444.5 0.985 -35.61 81.5e-6 -63.025 150.1e-6 -44.007 0.967 -39.083
4644.25 0.982 -37.283 496.4e-6 -109.185 162e-6 1.873 0.964 -40.832
4844 0.979 -38.993 152.4e-6 -133.364 42.16e-6 -58.471 0.96 -42.602
5043.75 0.977 -40.705 136.6e-6 160.267 125.1e-6 -12.117 0.954 -44.45
5243.5 0.974 -42.431 163.3e-6 111.751 140.6e-6 -21.591 0.949 -46.112
5443.25 0.97 -44.152 141.5e-6 173.611 298.5e-6 -20.082 0.945 -47.931
5643 0.967 -45.903 554.3e-6 133.125 198.5e-6 -46.723 0.941 -49.623
5842.75 0.965 -47.683 1.123e-3 134.467 112.2e-6 -45.672 0.937 -51.35
6042.5 0.962 -49.412 563.3e-6 163.495 240.2e-6 -30.899 0.932 -53.042
6242.25 0.959 -51.095 1.018e-3 167.681 380.5e-6 -5.459 0.928 -54.839
6442 0.957 -52.779 1.577e-3 163.535 357.9e-6 -26.112 0.924 -56.497
6641.75 0.954 -54.577 2.43e-3 162.511 277.7e-6 -10.859 0.918 -58.44
6841.5 0.952 -56.147 3.878e-3 157.927 327.8e-6 -25.301 0.913 -60.065
7041.25 0.95 -57.882 6.041e-3 156.531 310.3e-6 -22.771 0.905 -61.958
7241 0.949 -59.611 9.782e-3 148.37 442.4e-6 2.414 0.897 -63.736
7440.75 0.948 -61.175 0.014 141.197 376.9e-6 -18.702 0.886 -65.467
7640.5 0.949 -62.944 0.022 132.251 405.8e-6 -8.571 0.874 -67.257
7840.25 0.948 -64.649 0.033 120.118 595.7e-6 -7.97 0.856 -68.613
8040 0.949 -66.377 0.046 106.844 552.8e-6 -4.197 0.842 -69.828
8239.75 0.951 -68.264 0.061 90.928 548.6e-6 -6.087 0.827 -70.449
8439.5 0.951 -70.137 0.076 79.187 487.6e-6 1.942 0.821 -71.176
8639.25 0.953 -72.138 0.095 65.513 639.5e-6 -5.211 0.817 -71.76
8839 0.955 -74.157 0.111 55.272 624.2e-6 7.06 0.816 -72.603
9038.75 0.956 -76.266 0.135 45.531 638.9e-6 9.478 0.82 -73.612
9238.5 0.956 -78.483 0.16 36.133 632.3e-6 17.136 0.819 -74.997
9438.25 0.959 -80.756 0.189 27.783 616e-6 7.012 0.824 -76.395
9638 0.959 -83.218 0.225 19.282 748e-6 10.337 0.824 -77.923
9837.75 0.959 -85.739 0.264 10.666 762.9e-6 18.247 0.825 -79.762
10037.5 0.958 -88.404 0.309 3.653 865.6e-6 23.59 0.824 -81.646
10237.25 0.955 -91.237 0.359 -3.499 840.3e-6 32.512 0.821 -83.601
10437 0.952 -94.199 0.437 -10.565 784.6e-6 33.74 0.816 -85.659
10636.75 0.946 -97.419 0.501 -18.546 712.7e-6 34.143 0.812 -87.933
10836.5 0.945 -100.674 0.609 -24.836 723.5e-6 61.414 0.803 -90.159
11036.25 0.933 -104.389 0.707 -33.508 1.125e-3 94.501 0.797 -92.609
11236 0.922 -108.277 0.845 -42.456 1.998e-3 81.383 0.787 -94.599
11435.75 0.911 -112.263 0.926 -50.646 2.636e-3 60.17 0.776 -97.024
11635.5 0.901 -116.702 1.108 -55.758 2.56e-3 43.525 0.767 -99.417
11835.25 0.885 -121.542 1.294 -65.24 2.746e-3 42.702 0.757 -101.996
12035 0.866 -126.941 1.504 -71.229 2.469e-3 25.278 0.747 -104.651
12234.75 0.843 -133.051 1.753 -80.772 2.255e-3 29.262 0.735 -107.244
12434.5 0.813 -139.856 2.073 -87.283 2.66e-3 23.938 0.723 -110.28
12634.25 0.774 -147.589 2.479 -97.127 2.004e-3 22.047 0.711 -112.881
12834 0.726 -156.199 2.821 -108.485 2.283e-3 18.581 0.698 -116.073
13033.75 0.664 -166.092 3.538 -117.595 1.889e-3 27.329 0.685 -119.037
13233.5 0.591 -177.163 3.626 -133.503 2.227e-3 25.204 0.673 -122.206
13433.25 0.498 169.592 4.298 -142.234 2.093e-3 16.693 0.66 -125.509
13633 0.396 154.241 4.339 -154.438 1.991e-3 19.015 0.647 -128.973
13832.75 0.285 134.813 5.227 -163.613 1.574e-3 14.031 0.633 -132.219
14032.5 0.187 106.954 5.386 -178.718 1.451e-3 25.875 0.619 -135.654
14232.25 0.127 58.432 5.977 171.221 1.536e-3 27.914 0.604 -139.034
14432 0.147 4.503 6.215 155.218 1.448e-3 30.976 0.589 -142.494
14631.75 0.208 -26.535 6.231 143.047 1.22e-3 36.338 0.574 -145.941
14831.5 0.269 -44.652 5.841 129.485 1.294e-3 32.246 0.557 -149.181
15031.25 0.322 -57.759 5.649 124.364 1.258e-3 40.135 0.542 -152.733
15231 0.363 -68.193 5.459 115 1.458e-3 43.924 0.526 -156.103
15430.75 0.395 -76.763 5.546 110.181 1.378e-3 46.015 0.509 -159.617
15630.5 0.418 -84.471 5.431 105.324 1.164e-3 43.972 0.491 -162.952
15830.25 0.434 -91.583 5.732 97.575 1.02e-3 40.761 0.474 -166.407
16030 0.443 -97.773 5.69 89.744 1.104e-3 39.058 0.457 -169.824
16229.75 0.447 -103.507 5.578 84.421 1.049e-3 34.878 0.439 -173.287
16429.5 0.447 -108.992 5.696 78.665 976.9e-6 28.958 0.42 -176.914
16629.25 0.441 -114.28 5.747 73.595 734.2e-6 29.511 0.403 179.414
16829 0.432 -119.081 5.886 66.772 876.4e-6 25.184 0.385 175.578
17028.75 0.421 -124.032 5.865 61.636 432.6e-6 10.528 0.368 171.799
17228.5 0.406 -128.573 6.012 55.066 276.1e-6 15.49 0.35 167.716
17428.25 0.389 -133.059 5.986 49.121 297.8e-6 -54.419 0.335 163.209
17628 0.37 -137.419 5.995 43.35 519e-6 -53.648 0.319 158.662
17827.75 0.35 -141.723 5.931 37.666 559.5e-6 -83.172 0.305 153.796
18027.5 0.328 -146.022 5.924 33.1 456e-6 -78.516 0.292 148.79
18227.25 0.305 -150.106 5.879 27.99 838.8e-6 -101.156 0.28 143.577
18427 0.282 -154.267 5.917 23.929 1.026e-3 -110.566 0.27 137.887
18626.75 0.26 -158.583 5.952 18.952 1.196e-3 -117.773 0.261 132.45
18826.5 0.237 -162.462 5.963 14.217 1.402e-3 -115.98 0.254 126.411
19026.25 0.215 -166.851 5.991 9.423 1.722e-3 -121.575 0.248 120.783
19226 0.194 -170.952 5.955 4.781 1.916e-3 -122.17 0.244 115.024
19425.75 0.174 -175.875 5.949 0.549 2.161e-3 -112.93 0.243 109.609
19625.5 0.157 179.635 5.961 -3.198 2.302e-3 -118.811 0.242 104.311
19825.25 0.142 175.114 6.028 -7.905 2.999e-3 -117.668 0.241 99.63
20025 0.13 170.63 6.027 -12.346 3.483e-3 -123.891 0.241 95.408
20224.75 0.123 166.401 6.041 -16.715 3.831e-3 -125.789 0.243 91.944
20424.5 0.12 160.74 5.981 -21.143 3.982e-3 -129.37 0.246 89.182
20624.25 0.118 155.063 6.056 -25.31 3.791e-3 -133.668 0.25 86.307
20824 0.118 148.976 5.884 -29.021 4.069e-3 -134.69 0.256 83.708
21023.75 0.12 143.59 6.063 -33.021 4.396e-3 -136.322 0.26 81.708
21223.5 0.123 139.257 5.993 -36.979 4.427e-3 -133.484 0.263 79.951
21423.25 0.128 135.31 6.01 -43.171 4.539e-3 -136.457 0.266 78.558
21623 0.135 132.173 5.71 -45.92 4.679e-3 -139.152 0.267 77.631
21822.75 0.143 129.338 5.721 -49.211 4.979e-3 -138.142 0.268 76.736
22022.5 0.152 127.269 5.751 -51.382 5.135e-3 -134.106 0.268 76.389
22222.25 0.162 125.642 5.733 -56.382 5.506e-3 -133.089 0.267 76.769
22422 0.171 124.416 5.647 -58.405 5.951e-3 -138.449 0.265 77.057
22621.75 0.182 123.161 5.696 -62.212 6.298e-3 -138.48 0.261 77.566
22821.5 0.192 122.04 5.679 -64.832 6.334e-3 -139.608 0.257 78.68
23021.25 0.201 121.376 5.675 -68.807 6.603e-3 -142.944 0.253 80.068
23221 0.21 120.98 5.681 -71.595 6.514e-3 -140.69 0.246 81.661
23420.75 0.217 120.627 5.791 -74.786 6.754e-3 -141.337 0.239 83.843
23620.5 0.225 120.715 5.689 -78.741 7.341e-3 -142.881 0.232 86.388
23820.25 0.231 120.705 5.726 -81.833 7.255e-3 -140.7 0.225 89.805
24020 0.236 121.054 5.642 -85.374 7.094e-3 -143.064 0.219 93.457
24219.75 0.239 121.475 5.704 -88.619 7.517e-3 -145.075 0.215 97.602
24419.5 0.24 122.023 5.6 -91.986 7.964e-3 -146.79 0.21 102.274
24619.25 0.24 122.677 5.645 -95.163 7.812e-3 -149.335 0.208 107.172
24819 0.24 123.649 5.626 -97.989 8.54e-3 -148.315 0.207 112.23
25018.75 0.236 124.91 5.571 -102.546 8.252e-3 -147.536 0.208 117.641
25218.5 0.232 126.199 5.49 -104.592 8.432e-3 -150.452 0.21 122.59
25418.25 0.227 127.66 5.435 -107.9 8.258e-3 -150.376 0.211 126.581
25618 0.224 130.218 5.469 -109.539 8.774e-3 -150.382 0.22 131.479
25817.75 0.217 133.074 5.396 -112.386 9.917e-3 -150.61 0.23 135.865
26017.5 0.21 136.251 5.497 -114.108 9.944e-3 -154.137 0.236 139.603
26217.25 0.203 139.87 5.599 -118.1 0.01 -156.171 0.244 142.644
26417 0.196 143.847 5.615 -120.961 0.011 -156.399 0.251 144.875
26616.75 0.189 148.31 5.712 -124.763 0.011 -156.896 0.259 147.198
26816.5 0.185 153.102 5.747 -127.514 0.011 -159.542 0.268 150.497
27016.25 0.181 158.869 5.835 -132.976 0.011 -163.243 0.271 151.363
27216 0.179 165.023 5.701 -136.65 0.012 -167.072 0.277 152.578
27415.75 0.178 171.246 5.63 -140.591 0.012 -168.459 0.279 153.989
27615.5 0.179 177.683 5.585 -143.211 0.012 -170.794 0.28 155.582
27815.25 0.183 -175.615 5.567 -146.806 0.013 -173.462 0.279 156.503
28015 0.187 -169.43 5.503 -150.012 0.013 -173.588 0.279 158.148
28214.75 0.195 -163.653 5.474 -153.418 0.014 -173.794 0.282 160.013
28414.5 0.207 -157.987 5.452 -156.8 0.014 -177.476 0.278 161.118
28614.25 0.22 -153.474 5.385 -160.072 0.014 179.657 0.279 163.482
28814 0.236 -149.255 5.339 -163.326 0.014 178.079 0.279 165.686
29013.75 0.253 -145.811 5.265 -166.683 0.015 175.228 0.28 167.641
29213.5 0.271 -143.49 5.211 -169.049 0.015 172.351 0.285 168.962
29413.25 0.29 -141.453 5.225 -171.717 0.016 170.067 0.292 170.575
29613 0.309 -140.194 5.351 -175.429 0.016 167.948 0.298 171.931
29812.75 0.329 -139.379 5.252 -179.73 0.016 166.281 0.307 172.576
30012.5 0.344 -138.892 5.228 176.648 0.016 165.757 0.318 172.956
30212.25 0.359 -138.99 5.233 173.904 0.017 161.326 0.326 172.646
30412 0.373 -139.085 5.1 168.606 0.018 158.65 0.333 171.416
30611.75 0.385 -139.334 5.103 167.489 0.018 158.658 0.339 170.286
30811.5 0.394 -139.616 5.136 164.472 0.018 155.553 0.339 168.317
31011.25 0.404 -139.743 5.442 158.468 0.02 155.268 0.34 166.292
31211 0.408 -139.723 5.124 152.863 0.02 148.596 0.332 163.431
31410.75 0.415 -139.665 5.148 149.89 0.021 150.259 0.319 160.838
31610.5 0.424 -139.484 5.326 145.044 0.022 145.674 0.301 157.808
31810.25 0.433 -138.693 5.093 137.067 0.023 136.751 0.272 154.711
32010 0.447 -138.104 4.837 132.566 0.023 133.262 0.239 152.221
32209.75 0.465 -137.705 4.702 131.034 0.02 130.197 0.202 150.103
32409.5 0.49 -136.769 4.816 124.807 0.024 135.567 0.153 150.515
32609.25 0.52 -136.702 4.719 118.933 0.027 122.846 0.104 159.966
32809 0.558 -137.285 4.548 112.161 0.025 111.304 0.069 -169.356
33008.75 0.595 -138.594 4.34 106.541 0.023 103.831 0.087 -126.614
33208.5 0.635 -140.65 4.15 100.152 0.02 112.093 0.141 -109.237
33408.25 0.676 -143.116 3.93 94.629 0.024 103.289 0.205 -105.663
33608 0.713 -146.151 3.62 87.857 0.023 97.76 0.269 -107.289
33807.75 0.746 -149.471 3.445 82.758 0.021 91.701 0.33 -110.055
34007.5 0.773 -152.899 3.026 75.296 0.02 81.073 0.389 -113.785
34207.25 0.797 -156.266 2.685 72.265 0.02 82.536 0.436 -117.297
34407 0.815 -159.558 2.447 72.229 0.015 71.972 0.482 -120.922
34606.75 0.831 -162.794 2.42 67.392 0.015 70.493 0.521 -124.404
34806.5 0.842 -165.696 2.18 61.902 0.014 75.1 0.557 -127.509
35006.25 0.853 -168.756 1.969 56.909 0.012 69.11 0.584 -130.588
35206 0.862 -171.291 1.773 52.575 0.011 68.294 0.61 -132.972
35405.75 0.87 -173.861 1.495 48.318 0.011 72.654 0.632 -135.763
35605.5 0.876 -176.183 1.22 48.852 9.586e-3 72.133 0.649 -137.989
35805.25 0.879 -178.455 1.154 53.148 9.804e-3 78.991 0.665 -139.947
36005 0.886 179.295 1.031 53.533 8.495e-3 68.878 0.676 -141.833
36204.75 0.889 177.322 0.995 54.442 7.841e-3 77.306 0.688 -143.686
36404.5 0.892 175.114 0.934 55.866 8.631e-3 66.697 0.694 -145.571
36604.25 0.897 173.137 0.902 53.461 7.887e-3 73.531 0.701 -147.26
36804 0.9 171.096 0.823 53.145 8.981e-3 75.128 0.705 -149.263
37003.75 0.9 169.076 0.778 53.612 8.682e-3 80.216 0.711 -151.182
37203.5 0.901 166.937 0.746 52.262 8.432e-3 74.768 0.709 -153.151
37403.25 0.904 164.659 0.693 50.821 7.788e-3 68.754 0.708 -155.741
37603 0.904 162.694 0.639 50.254 8.185e-3 72.124 0.71 -158.125
37802.75 0.904 160.506 0.593 49.951 7.423e-3 70.918 0.71 -160.692
38002.5 0.903 158.295 0.548 50.536 6.545e-3 73.593 0.706 -163.254
38202.25 0.902 156.148 0.508 51.86 6.4e-3 72.142 0.705 -166.497
38402 0.899 153.892 0.497 53.719 6.582e-3 82.115 0.699 -169.579
38601.75 0.896 151.7 0.475 53.587 5.977e-3 80.632 0.698 -172.614
38801.5 0.89 149.594 0.466 53.971 6.849e-3 85.439 0.695 -175.967
39001.25 0.886 147.509 0.448 52.374 6.504e-3 83.454 0.692 -179.396
39201 0.881 145.38 0.43 52.221 7.598e-3 81.678 0.69 177.358
39400.75 0.876 143.268 0.415 49.528 7.728e-3 86.415 0.686 173.747
39600.5 0.876 141.279 0.395 46.933 8.148e-3 90.511 0.684 170.663
39800.25 0.869 139.381 0.351 46.392 8.248e-3 84.327 0.686 167.233
40000 0.867 137.482 0.337 50.761 9.941e-3 88.343 0.69 163.736
