!Hittite Microwave Corporation								
!20 Alpha Rd								
!Chelmsford, MA 01824								
!Tel: 978-250-3343								
!Fax: 978-250-3373
!Device: HMC547LP3, DC - 20 GHz GaAs MMIC SPDT Non-Reflective Switch in leadless QFN SMT package
!Misc: Port1=RFC, Port2= RF1, Port3=RF2, RF1 ON, Data taken on a part mounted on probable matrix board,Bias: -5VDC								
!

# GHZ S DB R 50.0						
0.04	-20.41	43.51	-1.06	-4.01	-70.3	31.54
	-1.08	-4.13	-17.64	6.38	-59.75	110.73
	-63.35	-53.88	-65.02	-22.8	-12.12	7.74
0.34	-18.74	1.07	-1.31	-6.12	-61.33	-15.18
	-1.32	-6.23	-18.75	-1.78	-62.9	71.62
	-64.78	17.31	-66.25	73.64	-36.97	99.08
0.64	-18.44	-3.39	-1.36	-10.75	-63.39	-24.07
	-1.37	-10.79	-18.5	-6.36	-67.53	28.55
	-64.85	-14.56	-76.12	106.45	-38.02	73.22
0.94	-18.46	-6.99	-1.37	-15.35	-62.46	20.62
	-1.38	-15.44	-18.4	-11.81	-72.18	9.5
	-62.41	2.61	-66.8	19.91	-37.76	51.28
1.24	-18.52	-9.97	-1.41	-19.98	-66.71	32.22
	-1.41	-20.1	-18.32	-16.82	-71.52	-14.5
	-65.07	10.04	-68.68	-10.19	-36.34	41.21
1.54	-18.48	-13.57	-1.42	-24.63	-63.01	41.91
	-1.43	-24.7	-18.14	-21.19	-67.63	36.56
	-64.91	35.08	-66.86	6.06	-35.9	36.24
1.84	-18.48	-17.3	-1.43	-29.27	-62.78	24.58
	-1.44	-29.31	-18.07	-26.12	-75.29	-12.77
	-61.77	39.64	-67.13	0.6	-35.41	27.31
2.14	-18.46	-20.41	-1.45	-33.92	-58.69	38.44
	-1.45	-34	-17.97	-30.75	-68.19	30.32
	-61.53	36.16	-74.77	-11.48	-34.51	21.29
2.44	-18.52	-24.06	-1.46	-38.6	-59.18	70.34
	-1.46	-38.7	-17.89	-35.59	-70.61	16.01
	-58.14	48.71	-80.55	-6.83	-33.97	16.93
2.74	-18.55	-27.64	-1.47	-43.23	-60.28	43.29
	-1.48	-43.27	-17.86	-40.2	-66.04	-6.76
	-59.64	44.59	-72.25	37.05	-33.52	9.83
3.04	-18.59	-30.75	-1.49	-47.91	-57.41	49.47
	-1.49	-47.99	-17.72	-44.56	-72.83	95.47
	-56.92	45.78	-67.23	64.09	-33.04	3.52
3.34	-18.58	-33.97	-1.51	-52.54	-55.7	52.83
	-1.51	-52.58	-17.72	-49.11	-72.98	56.55
	-56.97	48.76	-66.26	44.53	-32.43	-1.3
3.64	-18.64	-37.39	-1.51	-57.23	-55.8	44.3
	-1.52	-57.26	-17.6	-53.65	-71.53	17.12
	-54.97	45.93	-65.38	83.19	-32.15	-8.42
3.94	-18.67	-40.41	-1.52	-61.83	-53.96	36.06
	-1.53	-61.89	-17.55	-57.87	-65.68	46.97
	-54.56	42.31	-68.68	52.11	-31.67	-13.66
4.24	-18.7	-43.57	-1.54	-66.5	-52.68	41.25
	-1.54	-66.6	-17.52	-62.08	-66.85	71.9
	-54.96	45	-66.43	45.85	-31.33	-20.51
4.54	-18.7	-46.83	-1.55	-71.2	-53.43	46.21
	-1.56	-71.27	-17.46	-66.93	-62.3	65.41
	-53.14	39.66	-63.3	53.28	-30.97	-25.94
4.84	-18.74	-49.51	-1.57	-75.82	-54.27	38.86
	-1.57	-75.87	-17.33	-70.72	-60.92	62.45
	-53.09	35.43	-60.97	48.54	-30.48	-33.11
5.14	-18.78	-52.93	-1.58	-80.47	-52.25	33.99
	-1.57	-80.52	-17.32	-75.11	-62.72	44.44
	-53.06	35.69	-63.26	48.36	-30.08	-39.31
5.44	-18.72	-56.09	-1.58	-85.15	-52.24	31.77
	-1.58	-85.22	-17.25	-79.25	-59.25	40.07
	-52.39	36.95	-61.57	57.42	-29.76	-45.2
5.74	-18.77	-58.46	-1.6	-89.75	-51.99	32.13
	-1.6	-89.78	-17.22	-83.36	-61.21	46.08
	-51.86	29.94	-59.38	51.16	-29.44	-52.3
6.04	-18.81	-62.12	-1.61	-94.51	-52.05	28.07
	-1.61	-94.56	-17.19	-87.31	-58.76	49.87
	-50.99	25.93	-59.8	28.72	-28.9	-58.83
6.34	-18.73	-65.24	-1.62	-99.22	-51.36	32.02
	-1.63	-99.3	-17.12	-91.14	-58.81	41.4
	-51.3	26	-57.1	46.58	-28.53	-65.09
6.64	-18.81	-68.55	-1.63	-103.82	-51.7	28.37
	-1.64	-104.04	-17.06	-95.16	-57.83	38.24
	-50.75	27.95	-59.11	45.76	-28.05	-71.79
6.94	-18.83	-71.43	-1.64	-108.5	-51.3	21.79
	-1.65	-108.65	-17.03	-98.8	-57.54	25.97
	-51.21	22.84	-58.33	29.3	-27.58	-78.46
7.24	-18.76	-74.62	-1.66	-113.2	-51.05	19.01
	-1.66	-113.34	-17.01	-102.98	-56.91	25
	-51.46	23.72	-57.58	21.29	-27.09	-83.89
7.54	-18.75	-77.74	-1.67	-117.85	-50.82	21.2
	-1.67	-118.04	-16.99	-106.86	-56.28	12
	-50.98	22.44	-56.62	13.67	-26.7	-90.88
7.84	-18.67	-81.04	-1.67	-122.53	-49.58	25.04
	-1.69	-122.65	-17.02	-110.54	-56.64	14.65
	-50.48	25.52	-57.49	4.66	-26.3	-96.22
8.14	-18.59	-84.92	-1.68	-127.25	-50.41	22.17
	-1.69	-127.38	-17.04	-114.52	-56.61	-5.51
	-50.54	18.9	-55.88	-4.99	-25.75	-102.08
8.44	-18.48	-88.25	-1.69	-131.95	-50.67	22.17
	-1.69	-132.12	-16.92	-118.67	-57.53	-23.58
	-50.27	19.49	-57.53	-8.86	-25.41	-108.24
8.74	-18.51	-92.72	-1.7	-136.7	-49.68	20.52
	-1.71	-136.85	-17.02	-122.32	-56.78	-22.45
	-49.37	17.25	-57.19	-22.34	-24.92	-114.2
9.04	-18.45	-96.05	-1.72	-141.37	-48.88	19.09
	-1.73	-141.56	-17.07	-126.18	-56.35	-28.64
	-49.01	17.4	-56.65	-35.23	-24.45	-120.14
9.34	-18.35	-99.47	-1.73	-146.04	-49	20.19
	-1.73	-146.2	-17.04	-130.26	-62.19	-34.94
	-48.98	14.02	-60.58	-29.88	-24.04	-126.13
9.639999	-18.35	-104.08	-1.73	-150.84	-48.67	12.27
	-1.74	-151.01	-17.03	-133.69	-58.38	-43.11
	-48.25	14.36	-58.95	-46.23	-23.52	-131.73
9.94	-18.26	-107.67	-1.74	-155.56	-48.3	13.31
	-1.75	-155.69	-17.07	-138.08	-59.41	-47.91
	-47.38	15.11	-62.88	-44.96	-22.98	-137.23
10.24	-18.25	-111.38	-1.75	-160.31	-47.7	8.49
	-1.75	-160.41	-17.15	-141.7	-61.7	-76.6
	-48.04	6.41	-60.22	-71.06	-22.54	-142.3
10.54	-18.13	-115.53	-1.75	-165	-46.85	5.64
	-1.76	-165.16	-17.16	-145.33	-61.2	-66.8
	-47.45	5.29	-67.88	-27.88	-22.08	-147.46
10.840001	-18.09	-120.13	-1.76	-169.78	-47.4	3.12
	-1.77	-169.88	-17.25	-149.73	-60.25	-101.97
	-46.92	0.88	-65	-101.92	-21.64	-152.2
11.14	-18.12	-123.96	-1.77	-174.55	-46.65	-3.82
	-1.78	-174.66	-17.33	-154.03	-59.88	-120.49
	-47.42	1.6	-59.53	-114.22	-21.26	-157.5
11.44	-18.11	-129.32	-1.78	-179.49	-47.52	-2.34
	-1.77	-179.49	-17.41	-158.54	-62.68	-168.52
	-47.18	-1.16	-62.46	-130.12	-20.86	-162.2
11.74	-18.04	-133.93	-1.78	175.71	-47.36	-5.99
	-1.79	175.76	-17.58	-162.85	-59.28	-160.86
	-46.71	-8.39	-60.25	178.23	-20.52	-167.4
12.039999	-18.08	-137.68	-1.79	170.99	-47.28	-6.2
	-1.8	171.06	-17.64	-167.51	-60.65	143.19
	-46.66	-8.5	-62.96	104.7	-20.15	-172.43
12.34	-18.1	-143.82	-1.8	166.13	-46.3	-13.55
	-1.8	166.18	-17.9	-172.64	-62.37	-177.51
	-46.26	-14.81	-61.95	-172.79	-19.77	-177.74
12.64	-18.02	-148.33	-1.8	161.34	-46.19	-14.28
	-1.81	161.42	-17.93	-177.43	-65.34	-160.27
	-46.14	-8.39	-69.36	161.43	-19.35	177.06
12.94	-18.12	-153.21	-1.8	156.49	-45.14	-19.42
	-1.81	156.55	-18.15	176.79	-75.67	162.26
	-45.81	-19.67	-66.48	134.49	-18.96	171.9
13.240001	-18.2	-158.97	-1.8	151.58	-46.45	-27.89
	-1.81	151.8	-18.36	171.93	-62.55	176.3
	-45.85	-37.87	-72.61	146.36	-18.58	167
13.54	-18.15	-163.46	-1.81	146.73	-48.18	-34.21
	-1.82	146.88	-18.5	166.37	-58.4	-173.96
	-47.91	-35.23	-57.25	179.82	-18.25	162.12
13.84	-18.36	-168.5	-1.83	141.83	-49.31	-28.11
	-1.83	142.07	-18.77	160.94	-55.16	167.82
	-48.44	-25.37	-53.69	176.92	-17.91	157.22
14.14	-18.45	-174.38	-1.84	136.96	-47.88	-30.69
	-1.84	137.18	-19.03	154.93	-50.44	143.74
	-48.57	-30.75	-52.12	144.08	-17.63	152.4
14.439999	-18.38	-179.48	-1.85	132.03	-49.06	-23.43
	-1.85	132.24	-19.29	148.91	-49.05	124.02
	-50.1	-26.17	-48.72	130.2	-17.3	147.18
14.74	-18.75	175.15	-1.85	127.18	-49.04	-15.67
	-1.86	127.32	-19.41	141.65	-49.57	97.32
	-49.19	-16.01	-49.52	103.94	-16.98	142.28
15.04	-18.74	168.17	-1.86	122.22	-50.25	-11.66
	-1.87	122.49	-19.71	135.6	-48.08	88.37
	-50.33	-16.64	-47.88	78.48	-16.71	136.85
15.34	-18.87	162.94	-1.87	117.31	-48.74	-12.81
	-1.87	117.56	-19.92	127.42	-49.94	70.59
	-48.08	-9.92	-52.42	73.55	-16.41	131.36
15.640001	-19.25	157.29	-1.88	112.43	-47.12	-12.01
	-1.87	112.63	-20.08	120.01	-48.41	76.31
	-47.23	-10.57	-47.59	70.38	-16.06	125.85
15.94	-19.28	150.08	-1.88	107.34	-47.36	-9.15
	-1.89	107.5	-20.49	112.55	-51.82	64.83
	-46.34	-7.29	-51.3	68.07	-15.81	120.62
16.24	-19.52	146.15	-1.89	102.33	-45.4	-4.01
	-1.9	102.63	-20.36	105.46	-48.29	57.94
	-45.56	-4.22	-49.02	62.22	-15.44	115.08
16.54	-19.74	139.4	-1.89	97.4	-44.47	-8.92
	-1.91	97.57	-20.6	97.06	-49.49	49.58
	-44.59	-10.24	-49.79	45.68	-15.15	109.89
16.839999	-19.95	132.82	-1.92	92.3	-43.53	-12.27
	-1.93	92.6	-20.56	89.42	-49.09	55.68
	-43.2	-13	-48.92	55.92	-14.8	104.37
17.14	-20.09	127.6	-1.93	87.51	-43.11	-19.57
	-1.94	87.58	-20.64	80.78	-46.04	14.6
	-43.26	-23.39	-46.13	20.64	-14.5	99.17
17.44	-20.31	120.78	-1.94	82.46	-42.93	-24.04
	-1.96	82.55	-20.54	72.89	-55.61	2.62
	-43.42	-25.38	-53.9	9.01	-14.19	93.69
17.739999	-20.61	114.07	-1.96	77.38	-42.62	-26.51
	-1.97	77.43	-20.6	65.55	-53.18	37.78
	-42.45	-23.57	-51.76	55.35	-13.9	88.11
18.040001	-20.6	108.37	-1.99	72.29	-41.4	-25.96
	-1.99	72.31	-20.44	56.98	-50.74	30.98
	-41.86	-28.89	-49.72	27.9	-13.59	82.39
18.34	-20.82	101.06	-2.01	67.24	-41.19	-33.87
	-2.02	67.32	-20.3	49.52	-51.39	22.05
	-41.17	-34	-52.62	25.43	-13.3	76.76
18.639999	-20.81	94.23	-2.03	62.13	-40.54	-39.07
	-2.04	62.23	-20.03	41.29	-53.44	31.56
	-41.08	-39.53	-52.81	30.08	-12.95	70.66
18.94	-20.8	88.89	-2.05	57.01	-41.01	-42.06
	-2.06	57.09	-20.04	35.64	-52.2	34.77
	-40.74	-39.96	-52.88	32.21	-12.65	64.8
19.239999	-21.19	82.68	-2.07	51.96	-40.06	-51.08
	-2.07	52.05	-19.74	27.51	-49.39	27.2
	-40.19	-47.82	-50.09	34.11	-12.26	59.11
19.540001	-20.81	76.91	-2.1	46.73	-39.89	-53.18
	-2.09	46.84	-19.88	23.64	-50.97	21.05
	-39.67	-54.36	-52.09	18.4	-11.88	53.59
19.84	-20.83	72.45	-2.11	41.59	-39.95	-55.63
	-2.13	41.63	-19.48	17.7	-51.38	24.15
	-39.68	-54	-51.08	20.12	-11.52	48.07
20.139999	-20.77	66.67	-2.13	36.44	-39.42	-59.98
	-2.13	36.49	-19.56	13.99	-48.72	33.63
	-39.62	-61.51	-49.07	18.24	-11.14	42.86
20.440001	-20.26	61.23	-2.15	31.12	-39.17	-67.53
	-2.17	31.23	-19.44	9.21	-48.14	8.54
	-39.24	-66.34	-48.91	3.48	-10.8	37.47
20.74	-20.2	57.33	-2.19	25.84	-38.95	-69.83
	-2.19	25.94	-19.27	6.31	-49.42	-1.43
	-39.34	-72.17	-48.89	-3.54	-10.48	32.24
21.040001	-19.69	53.47	-2.22	20.53	-39.03	-73.96
	-2.23	20.63	-19.56	2.3	-49.69	-7.52
	-39.09	-77.55	-49.51	-15.07	-10.12	26.97
21.34	-19.22	48.95	-2.25	15.3	-38.96	-81.5
	-2.26	15.43	-19.21	1.39	-51.21	-32.47
	-39.43	-80.97	-51.67	-30.57	-9.73	21.59
21.639999	-18.5	46.84	-2.28	9.89	-39.14	-81.68
	-2.29	9.99	-19.43	-0.26	-56.83	-2.87
	-39.3	-80.54	-55.79	-19.72	-9.38	16.32
21.940001	-18.22	41.81	-2.31	4.63	-38.63	-85.44
	-2.32	4.67	-18.94	-0.94	-53.29	6.07
	-38.85	-84.69	-54.28	2.07	-9.02	10.89
22.24	-17.28	39.46	-2.36	-1	-38.67	-92.81
	-2.36	-0.88	-19.01	0.21	-53.93	3.27
	-38.94	-89.99	-53.76	6.36	-8.66	6.41
22.539999	-16.73	35.96	-2.4	-6.35	-38.17	-97.73
	-2.4	-6.25	-18.53	0.35	-51.4	-15.21
	-38.17	-92.87	-51.29	-11.41	-8.3	1.39
22.840001	-16.1	31.83	-2.45	-11.86	-38.04	-97.08
	-2.45	-11.72	-18.1	1.42	-50.51	-12.12
	-37.99	-100.55	-49.33	-16.56	-7.95	-3.18
23.14	-15.25	29.05	-2.51	-17.39	-37.79	-105.06
	-2.52	-17.26	-17.63	3.06	-49.54	-28.39
	-37.87	-104.56	-50.09	-32.1	-7.64	-7.62
23.439999	-14.51	24.9	-2.57	-22.91	-38.23	-105.28
	-2.58	-22.83	-16.97	3.61	-52.67	-67.22
	-38.05	-108.2	-51.43	-64.94	-7.34	-12.21
23.74	-13.79	21.43	-2.63	-28.66	-37.59	-110.65
	-2.63	-28.46	-16.35	4.31	-54.45	-103.77
	-37.53	-111.75	-55.7	-119.09	-7.06	-16.96
24.039999	-12.87	16.83	-2.7	-34.31	-37.74	-118.3
	-2.7	-34.12	-15.47	5.12	-61.91	-134.41
	-37.46	-117.29	-56.73	-177.43	-6.78	-21.43
24.340001	-12.15	13.1	-2.79	-40.05	-37.33	-125.81
	-2.79	-39.89	-14.77	4.33	-53.53	122.03
	-37.4	-125.49	-55.54	104.52	-6.49	-25.85
24.64	-11.31	9.03	-2.91	-45.77	-37.48	-130.82
	-2.9	-45.62	-13.77	4.42	-48.32	67.28
	-37.31	-131.18	-49.06	81.02	-6.18	-30.43
24.939999	-10.53	4.75	-3	-51.5	-37.2	-136.16
	-3	-51.41	-12.87	2.19	-51.14	4.89
	-37.09	-136.11	-50.76	6.61	-5.97	-34.78
25.240001	-9.78	0.79	-3.15	-57.33	-36.61	-144.91
	-3.15	-57.21	-11.83	0.82	-55.92	-29.37
	-36.8	-146.43	-60.5	-30.27	-5.65	-38.42
25.54	-8.99	-3.78	-3.29	-63.05	-37.02	-157.29
	-3.28	-62.89	-10.96	-2.68	-56.4	28.19
	-36.63	-157.19	-54.25	47.56	-5.4	-42.19
25.840001	-8.35	-8.19	-3.43	-68.88	-37.94	-169.31
	-3.45	-68.71	-10.12	-5.39	-49.62	-15.76
	-37.61	-169.45	-49.67	-11.54	-5.09	-45.8
26.14	-7.63	-13.44	-3.58	-74.76	-39.52	-175.42
	-3.59	-74.62	-9.36	-8.89	-49.82	-113.86
	-39.37	-171.86	-48.77	-109.64	-4.83	-49.69
26.439999	-7.22	-17.95	-3.83	-80.78	-39.6	-174.99
	-3.82	-80.66	-8.71	-12.22	-44.58	152.88
	-40.23	-176.85	-46.8	157.24	-4.72	-53.61
26.740001	-6.56	-21.99	-4.05	-86.39	-41.15	177.24
	-4.07	-86.19	-7.97	-15.11	-44.82	128.94
	-40.72	178.15	-44.66	129.62	-4.56	-56.99
27.04	-6.03	-27.82	-4.27	-92.03	-41.28	-179.34
	-4.26	-91.83	-7.3	-19.54	-40.69	107.76
	-41.27	-177.63	-40.39	109.48	-4.35	-60.56
27.339999	-5.54	-31.8	-4.53	-97.54	-40.92	169.3
	-4.52	-97.33	-6.7	-23.66	-38.32	93.22
	-41.68	170.85	-38.58	92.93	-4.09	-64.44
27.640001	-5.12	-37.41	-4.76	-103.31	-43.62	160.7
	-4.76	-103.06	-6.17	-28.18	-36.51	56.37
	-44.9	160.04	-36.44	60.25	-3.95	-68.6
27.94	-4.75	-41.77	-5.07	-108.82	-46.19	168.54
	-5.06	-108.74	-5.73	-32.54	-38.38	36.03
	-46.25	162.43	-38.17	36.15	-3.88	-71.77
28.239999	-4.36	-46.21	-5.36	-114.01	-47.57	175.67
	-5.37	-113.85	-5.31	-36.48	-40.5	38.49
	-48.43	171.59	-41.42	32.72	-3.72	-74.74
28.54	-4.02	-50.72	-5.66	-119.06	-47.36	-156.15
	-5.66	-119.02	-4.9	-40.69	-38.98	60.53
	-48.29	-166.12	-38.79	63.67	-3.57	-77.58
28.839999	-3.67	-54.59	-5.96	-123.96	-45.87	-168.03
	-5.96	-123.77	-4.51	-44.21	-34.14	42.89
	-45.24	-167.01	-34.21	43.94	-3.37	-80.16
29.140001	-3.32	-59.38	-6.22	-129.03	-44.85	-179.74
	-6.24	-128.93	-4.18	-48.44	-32.02	27.56
	-44.5	177.11	-32.1	27.82	-3.25	-83.05
29.44	-3.15	-63.19	-6.57	-134.01	-46.02	168.04
	-6.58	-133.8	-3.85	-51.62	-29.85	2.38
	-44.72	162.55	-30	3.39	-3.11	-85.66
29.739999	-2.89	-67.55	-6.85	-138.83	-47.96	155.59
	-6.85	-138.53	-3.44	-56.14	-31.41	-26.19
	-48.24	156.09	-31.68	-25.72	-2.96	-88.89
30.040001	-2.69	-71.64	-7.19	-143.81	-57.99	-178.93
	-7.18	-143.62	-3.21	-60.41	-32.32	-31.56
	-63.29	174.31	-32.55	-32.55	-2.92	-92.38
