!Hittite Microwave Corporation								
!20 Alpha Road								
!Chelmsford, MA 01824								
!Tel: 978-250-3343								
!Fax: 978-250-3373								
!Device: HMC516, 7-17 GHz, GaAs PHEMT MMIC Low Noise Amplifier Die																
!Misc: Vdd1 = Vdd2 = Vdd3 = +2.5V, data includes two K connectors, Room							
!
# MHZ S MA R 50

3000 0.975 -141.464 0.032 42.404 165.7e-6 123.425 0.365 133.821
3300 0.975 -156.861 0.042 60.972 277.6e-6 124.065 0.342 114.111
3600 0.964 -173.17 0.074 61.923 206.2e-6 144.253 0.327 95.385
3900 0.951 169.8 0.139 58.212 306.3e-6 99.163 0.312 76.607
4200 0.936 151.814 0.282 49.751 362.4e-6 96.755 0.299 59.298
4500 0.914 132.195 0.673 32.803 422e-6 94.347 0.294 42.591
4800 0.875 109.757 1.61 4.75 543.9e-6 71.949 0.29 25.682
5100 0.803 83.182 2.921 -25.44 716e-6 65.447 0.287 8.911
5400 0.663 49.793 4.415 -56.713 569.8e-6 34.664 0.283 -7.962
5700 0.429 5.093 5.903 -94.457 666.1e-6 11.219 0.279 -24.549
6000 0.166 -82.385 7.573 -137.851 529.7e-6 3.852 0.275 -41.397
6300 0.22 158.363 8.822 178.153 330.7e-6 -9.912 0.274 -58.392
6600 0.342 112.764 9.537 142.067 403.5e-6 -32.948 0.269 -75.442
6900 0.395 85.481 9.964 111.638 379.4e-6 -21.332 0.262 -92.865
7200 0.422 64.371 9.584 86.039 194.2e-6 -26.686 0.254 -110.021
7500 0.425 46.977 9.365 62.617 188.7e-6 -36.322 0.246 -127.378
7800 0.416 28.653 9.108 40.625 78.6e-6 8.351 0.237 -144.198
8100 0.401 11.32 9.124 19.311 75.83e-6 -69.319 0.228 -161.027
8400 0.377 -5.164 9.185 -1.021 84.41e-6 -127.216 0.22 -177.182
8700 0.346 -23.774 9.353 -21.626 211.9e-6 108.294 0.213 166.824
9000 0.314 -39.987 9.445 -42.08 437.4e-6 100.574 0.206 150.864
9300 0.266 -57.36 9.531 -62.127 504.2e-6 98.079 0.201 135.334
9600 0.228 -73.994 9.612 -81.861 583.1e-6 76.693 0.197 119.311
9900 0.181 -87.555 9.783 -101.389 834.7e-6 66.713 0.195 104.818
10200 0.135 -101.212 9.832 -120.997 1.08e-3 54.434 0.193 90.182
10500 0.103 -108.457 9.814 -139.965 1.247e-3 38.057 0.193 75.005
10800 0.07 -104.513 9.799 -158.919 1.47e-3 28.903 0.193 59.515
11100 0.061 -92.86 9.826 -177.209 1.591e-3 21.498 0.195 42.641
11400 0.078 -82.707 9.981 164.099 2.152e-3 8.033 0.192 25.824
11700 0.091 -87.583 9.885 145.296 2.39e-3 -4.925 0.19 9.894
12000 0.111 -96.219 9.823 126.881 2.465e-3 -23.865 0.191 -6.521
12300 0.129 -106.571 9.785 108.98 2.688e-3 -34.743 0.191 -23.159
12600 0.143 -122.054 9.63 91.556 2.796e-3 -47.369 0.189 -39.899
12900 0.166 -134.389 9.634 74.564 2.861e-3 -61.015 0.185 -56.898
13200 0.175 -150.219 9.726 57.259 2.981e-3 -70.165 0.182 -74.439
13500 0.195 -163.668 9.642 40.055 3.307e-3 -82.412 0.178 -91.683
13800 0.205 -177.06 9.477 23.467 3.271e-3 -94.672 0.175 -109.071
14100 0.219 167.812 9.553 7.221 3.665e-3 -108.307 0.173 -126.222
14400 0.235 156.082 9.673 -8.448 3.873e-3 -121.767 0.171 -142.832
14700 0.244 141.636 9.902 -25.482 4.001e-3 -134.114 0.166 -158.976
15000 0.265 129.941 9.944 -43.588 4.199e-3 -146.418 0.161 -173.91
15300 0.278 117.042 10.013 -61.099 4.63e-3 -160.677 0.158 171.842
15600 0.302 104.989 9.908 -78.39 4.563e-3 179.449 0.153 158.661
15900 0.321 93.048 9.999 -94.853 4.727e-3 169.376 0.147 146.995
16200 0.354 78.531 10.184 -113.058 5.412e-3 154.811 0.147 138.072
16500 0.389 66.398 10.214 -131.233 5.593e-3 137.019 0.147 131.526
16800 0.422 50.445 10.24 -149.439 6.25e-3 121.024 0.154 125.13
17100 0.474 34.625 10.217 -168.773 6.517e-3 102.874 0.175 118.936
17400 0.511 17.903 10.14 171.93 6.785e-3 84.527 0.199 109.52
17700 0.567 -1.192 10.038 151.957 7.538e-3 67.04 0.236 96.484
18000 0.606 -19.95 9.746 130.989 7.826e-3 48.246 0.276 81.314
18300 0.647 -40.319 9.273 109.658 7.84e-3 26.784 0.319 63.521
18600 0.679 -59.937 8.559 88.906 7.769e-3 9.36 0.362 45.036
18900 0.695 -80.152 7.803 69.01 7.61e-3 -8.104 0.395 25.898
19200 0.712 -98.894 7.06 49.479 7.713e-3 -23.321 0.424 5.815
19500 0.705 -118.184 6.27 30.382 7.199e-3 -36.955 0.449 -14.712
19800 0.715 -136.651 5.477 13.075 7.484e-3 -51.561 0.474 -35.726
20100 0.708 -153.718 4.839 -3.481 7.179e-3 -70.774 0.498 -55.624
20400 0.712 -170.273 4.295 -19.733 6.822e-3 -84.89 0.517 -75.004
20700 0.714 173.922 3.761 -34.421 6.398e-3 -95.02 0.534 -93.577
21000 0.71 159.245 3.291 -47.274 6.66e-3 -108.37 0.55 -111.781
21300 0.712 144.817 3.07 -60.774 5.985e-3 -123.82 0.567 -129.046
21600 0.718 130.384 2.86 -78.76 5.313e-3 -131.597 0.587 -145.36
21900 0.711 118.315 2.478 -91.851 5.292e-3 -144.54 0.606 -161.15
22200 0.72 105.249 2.306 -104.124 5.433e-3 -148.781 0.632 -175.936
22500 0.717 94.155 2.003 -118.008 4.965e-3 -170.147 0.65 170.509
22800 0.693 82.049 1.813 -129.521 4.161e-3 -174.867 0.668 157.231
23100 0.733 70.711 1.714 -141.844 4.539e-3 174.677 0.685 144.484
23400 0.716 60.606 1.589 -151.111 4.227e-3 169.804 0.702 131.859
23700 0.716 48.734 1.51 -166.247 4.416e-3 159.081 0.722 120.17
24000 0.747 39.391 1.414 179.101 3.658e-3 153.353 0.74 108.92
24300 0.694 28.298 1.335 166.789 4.421e-3 136.791 0.758 97.905
24600 0.701 18.788 1.255 153.478 4.046e-3 130.906 0.768 87.415
24900 0.676 9.096 1.171 139.059 4.193e-3 124.964 0.775 76.899
25200 0.632 -3.504 1.036 126.13 4.04e-3 115.947 0.778 66.512
25500 0.634 -9.756 0.944 115.376 4.505e-3 108.679 0.778 56.115
25800 0.615 -24.052 0.916 106.597 5.289e-3 95.582 0.789 46.644
26100 0.614 -33.024 0.988 95.419 6.549e-3 75.833 0.792 37.098
26400 0.608 -38.843 1.012 78.272 5.603e-3 61.107 0.802 28.284
26700 0.561 -55.438 1.03 59.305 5.636e-3 47.24 0.816 19.339
27000 0.514 -60.954 1.038 37.275 5.262e-3 27.63 0.831 9.519
27300 0.511 -76.769 0.875 15.821 5.262e-3 6.684 0.852 -0.298
27600 0.462 -91.545 0.763 -1.336 5.017e-3 -8.092 0.86 -10.516
27900 0.411 -94.555 0.656 -17.679 4.404e-3 -20.67 0.879 -21.671
28200 0.407 -111.964 0.557 -34.812 3.9e-3 -29.533 0.895 -32.248
28500 0.295 -116.598 0.473 -50.694 3.453e-3 -46.942 0.892 -43.51
28800 0.276 -120.887 0.399 -64.781 3.34e-3 -63.931 0.902 -53.636
29100 0.211 -134.191 0.33 -77.015 2.856e-3 -69.647 0.903 -64.81
29400 0.113 -122.215 0.295 -87.221 2.723e-3 -78.1 0.911 -75.781
29700 0.158 -127.148 0.261 -104.64 2.71e-3 -80.716 0.911 -86.532
30000 0.102 -116.108 0.211 -118.22 2.421e-3 -79.135 0.913 -97.905
30300 0.161 -99.641 0.178 -130.484 2.522e-3 -102.237 0.917 -109.102
30600 0.221 -110.484 0.149 -138.455 2.538e-3 -112.472 0.919 -120.719
30900 0.228 -105.838 0.133 -153.317 2.163e-3 -115.097 0.925 -131.928
31200 0.322 -118.783 0.098 -167.377 1.761e-3 -135.939 0.91 -143.452
31500 0.348 -131.934 0.084 -177.007 1.65e-3 -126.357 0.914 -156.032
31800 0.382 -144.894 0.058 168.362 1.564e-3 -129.171 0.906 -167.62
32100 0.475 -158.727 0.039 176.245 1.255e-3 -133.803 0.89 179.877
32400 0.497 179.15 0.036 179.29 1.867e-3 -131.895 0.9 168.06
32700 0.581 166.795 0.03 -172.41 1.05e-3 -142.683 0.895 156.352
33000 0.628 151.251 0.033 -166.182 1.556e-3 -121.781 0.891 144.814
