!Hittite Microwave Corporation								
!20 Alpha Road								
!Chelmsford, MA 01824								
!Tel: 978-250-3343								
!Fax: 978-250-3373								
!Device: HMC516, 7-17 GHz, GaAs PHEMT MMIC Low Noise Amplifier Die																
!Misc: Vdd1 = Vdd2 = Vdd3 = +3V, data includes two K connectors, Room							
!
# MHZ S MA R 50

3000 0.975 -141.487 0.035 46.416 150.1e-6 109.997 0.35 134.473
3300 0.975 -156.903 0.047 66.575 237e-6 129.579 0.326 114.883
3600 0.964 -173.195 0.086 68.281 221e-6 110.747 0.311 96.312
3900 0.951 169.745 0.173 63.792 340.7e-6 90.463 0.296 77.644
4200 0.935 151.727 0.372 52.63 349.5e-6 102.673 0.283 60.479
4500 0.913 131.994 0.899 30.539 407.2e-6 88.493 0.278 43.852
4800 0.872 109.388 1.904 2.298 533.2e-6 72.229 0.274 26.965
5100 0.798 82.538 3.105 -25.768 661.9e-6 66.255 0.271 10.24
5400 0.649 48.455 4.726 -57.713 628.7e-6 30.099 0.267 -6.52
5700 0.403 1.945 6.333 -96.14 645.6e-6 10.181 0.262 -23.026
6000 0.152 -97.821 8.056 -140.08 455.8e-6 0.628 0.259 -39.898
6300 0.241 151.131 9.295 176.385 323.5e-6 -15.672 0.258 -56.942
6600 0.358 109.654 10.003 140.981 320.4e-6 -14.968 0.252 -74.069
6900 0.406 83.56 10.322 111.126 259.8e-6 -2.959 0.245 -91.5
7200 0.431 63.187 9.836 85.646 243.4e-6 -15.048 0.237 -108.723
7500 0.429 45.646 9.748 61.705 278.1e-6 -45.843 0.229 -126.205
7800 0.417 27.272 9.624 39.121 115.8e-6 -5.358 0.219 -142.887
8100 0.4 10.122 9.664 17.476 27.89e-6 117.408 0.211 -159.7
8400 0.373 -6.22 9.821 -3.583 89.81e-6 -135.665 0.203 -175.731
8700 0.34 -24.513 9.978 -24.516 185.1e-6 56.748 0.196 168.242
9000 0.307 -40.29 10.103 -45.453 379.1e-6 98.405 0.19 152.335
9300 0.258 -57.021 10.191 -65.825 514.1e-6 82.116 0.185 136.823
9600 0.219 -72.764 10.267 -85.824 603.1e-6 70.79 0.181 120.773
9900 0.174 -84.812 10.397 -105.483 846.8e-6 60.76 0.18 106.263
10200 0.131 -96.154 10.459 -125.332 1.034e-3 53.105 0.179 91.378
10500 0.103 -100.577 10.438 -144.443 1.235e-3 34.794 0.18 75.856
10800 0.077 -94.453 10.421 -163.391 1.375e-3 26.719 0.179 59.972
11100 0.074 -86.772 10.455 178.431 1.462e-3 17.996 0.18 42.591
11400 0.094 -83.025 10.617 159.954 1.861e-3 4.57 0.176 25.534
11700 0.105 -89.88 10.546 141.411 2.381e-3 -10.403 0.173 9.491
12000 0.124 -98.812 10.511 123.339 2.278e-3 -22.791 0.174 -6.956
12300 0.141 -109.194 10.492 105.712 2.429e-3 -36.845 0.174 -23.613
12600 0.155 -124.332 10.357 88.507 2.583e-3 -48.587 0.171 -40.43
12900 0.178 -136.594 10.378 71.657 2.666e-3 -59.115 0.167 -57.367
13200 0.187 -152.424 10.467 54.509 2.821e-3 -70.126 0.164 -75.039
13500 0.208 -165.858 10.405 37.429 3.062e-3 -80.106 0.16 -92.508
13800 0.217 -179.446 10.244 20.891 3.196e-3 -94.709 0.156 -109.969
14100 0.231 165.294 10.319 4.603 3.147e-3 -107.033 0.156 -127.23
14400 0.245 153.347 10.426 -11.162 3.462e-3 -119.006 0.154 -143.861
14700 0.254 138.7 10.617 -28.148 3.707e-3 -129.699 0.149 -159.969
15000 0.273 126.893 10.646 -46.099 3.927e-3 -144.226 0.145 -174.72
15300 0.285 113.923 10.699 -63.525 4.286e-3 -158.559 0.142 171.112
15600 0.306 101.908 10.576 -80.751 4.18e-3 -175.324 0.137 158.28
15900 0.322 90.003 10.629 -97.204 4.405e-3 171.903 0.132 146.953
16200 0.354 75.69 10.801 -115.272 5.03e-3 157.008 0.133 138.735
16500 0.385 63.912 10.801 -133.296 5.056e-3 139.485 0.134 132.743
16800 0.417 48.131 10.804 -151.4 5.664e-3 123.032 0.142 126.636
17100 0.466 32.758 10.767 -170.527 5.807e-3 107.124 0.163 120.57
17400 0.5 16.358 10.672 170.375 6.088e-3 86.623 0.187 111.013
17700 0.556 -2.414 10.567 150.613 6.766e-3 69.998 0.222 97.832
18000 0.593 -20.857 10.274 129.878 7.359e-3 51.053 0.263 82.534
18300 0.635 -40.954 9.796 108.72 7.155e-3 29.264 0.304 64.532
18600 0.668 -60.459 9.073 88.091 6.954e-3 12.419 0.346 46.117
18900 0.685 -80.5 8.295 68.193 7.174e-3 -4.061 0.379 26.921
19200 0.705 -99.168 7.531 48.664 7.054e-3 -19.153 0.408 6.677
19500 0.699 -118.431 6.707 29.541 6.709e-3 -33.82 0.433 -13.848
19800 0.711 -136.881 5.871 12.15 7.059e-3 -48.286 0.459 -35.077
20100 0.706 -153.975 5.194 -4.478 6.841e-3 -66.759 0.484 -55.083
20400 0.71 -170.586 4.609 -20.813 6.055e-3 -81.721 0.503 -74.569
20700 0.713 173.645 4.041 -35.607 5.981e-3 -91.223 0.52 -93.215
21000 0.709 158.96 3.537 -48.492 6.269e-3 -104.546 0.537 -111.452
21300 0.711 144.49 3.297 -62.089 5.604e-3 -121.647 0.556 -128.776
21600 0.719 130.098 3.068 -80.042 5.262e-3 -129.835 0.577 -145.086
21900 0.711 118.015 2.662 -93.221 5.007e-3 -141.054 0.596 -161.007
22200 0.72 104.921 2.475 -105.459 5.161e-3 -147.681 0.623 -175.777
22500 0.717 93.818 2.153 -119.451 4.76e-3 -165.755 0.641 170.576
22800 0.692 81.669 1.946 -131.09 4.093e-3 -170.137 0.661 157.342
23100 0.732 70.372 1.84 -143.385 4.283e-3 179.899 0.678 144.63
23400 0.715 60.24 1.705 -152.691 3.965e-3 173.675 0.695 131.983
23700 0.714 48.4 1.621 -167.874 4.168e-3 163.457 0.716 120.278
24000 0.745 39.102 1.518 177.481 3.743e-3 156.02 0.734 108.964
24300 0.692 28.053 1.431 165.106 4.206e-3 141.144 0.752 98.045
24600 0.698 18.532 1.346 151.711 3.99e-3 132.609 0.762 87.52
24900 0.672 8.871 1.256 137.266 4.091e-3 131.528 0.77 77.034
25200 0.63 -4.008 1.111 124.141 3.948e-3 124.144 0.775 66.736
25500 0.63 -10.142 1.009 113.397 4.296e-3 111.622 0.773 56.335
25800 0.612 -24.13 0.979 104.621 5.17e-3 96.825 0.787 46.661
26100 0.611 -33.085 1.054 93.258 5.544e-3 78.064 0.787 37.332
26400 0.604 -38.772 1.077 76.13 5.404e-3 61.668 0.8 28.386
26700 0.558 -55.385 1.097 57.137 5.339e-3 50.112 0.813 19.701
27000 0.511 -60.921 1.1 35.109 5.397e-3 28.39 0.827 9.933
27300 0.508 -76.589 0.927 13.643 5.066e-3 11.327 0.851 -0.031
27600 0.459 -91.403 0.808 -3.562 4.631e-3 -4.722 0.859 -10.287
27900 0.409 -94.217 0.693 -19.917 4.322e-3 -15.393 0.879 -21.521
28200 0.406 -111.586 0.587 -37.095 3.771e-3 -26.818 0.892 -32
28500 0.294 -115.91 0.498 -52.75 3.119e-3 -41.197 0.894 -43.24
28800 0.275 -120.066 0.419 -66.923 3.149e-3 -55.361 0.902 -53.502
29100 0.212 -133.141 0.347 -79.006 2.965e-3 -68.086 0.903 -64.705
29400 0.116 -120.613 0.309 -89.225 2.996e-3 -64.086 0.911 -75.679
29700 0.161 -126.347 0.273 -106.697 2.596e-3 -72.701 0.91 -86.44
30000 0.107 -116.428 0.221 -120.215 2.237e-3 -86.255 0.911 -97.894
30300 0.165 -101.032 0.187 -132.185 2.214e-3 -101.714 0.917 -108.968
30600 0.224 -111.642 0.156 -140.178 2.612e-3 -107.165 0.918 -120.561
30900 0.229 -107.011 0.139 -154.85 2.134e-3 -112.854 0.924 -131.799
31200 0.321 -119.595 0.102 -168.666 1.846e-3 -111.657 0.91 -143.336
31500 0.345 -132.727 0.088 -178.124 1.736e-3 -126.569 0.913 -155.872
31800 0.38 -145.471 0.06 167.022 1.504e-3 -128.454 0.905 -167.484
32100 0.471 -159.079 0.042 175.67 1.531e-3 -124.162 0.89 -179.907
32400 0.493 179.012 0.038 177.778 2.021e-3 -124.14 0.902 168.42
32700 0.577 166.779 0.032 -173.224 1.639e-3 -129.803 0.893 156.457
33000 0.625 151.29 0.035 -166.304 1.25e-3 -126.346 0.889 144.942
