!Hittite Microwave Corporation								
!20 Alpha Road								
!Chelmsford, MA 01824								
!Tel: 978-250-3343								
!Fax: 978-250-3373								
!Device: HMC517, 17-26 GHz, GaAs PHEMT MMIC Low Noise Amplifier Die																
!Misc: Vdd1 = Vdd2 = Vdd3 = +3V, data includes two K connectors, Room							
!
# MHZ S MA R 50

12035 0.967 -56.601 2.357 -64.312 2.927e-3 61.288 0.918 -114.771
12236.65 0.946 -73.983 2.584 -81.791 2.677e-3 48.897 0.91 -123.682
12438.3 0.917 -90.033 2.862 -94.061 3.136e-3 38.701 0.906 -133.118
12639.95 0.887 -106.509 3.225 -110.604 2.784e-3 23.649 0.9 -142.192
12841.6 0.853 -122.208 3.41 -127.086 3.112e-3 22.107 0.893 -151.847
13043.25 0.81 -138.077 4.105 -141.358 2.525e-3 7.918 0.888 -161.298
13244.9 0.77 -153.614 3.87 -161.469 2.802e-3 6.926 0.879 -170.951
13446.55 0.722 -169.141 4.417 -172.432 3.193e-3 -9.793 0.874 179.337
13648.2 0.675 175.581 4.32 173.511 2.901e-3 -13.009 0.863 169.402
13849.85 0.629 160.382 5.251 162.329 3.179e-3 -25.009 0.853 159.423
14051.5 0.578 145.187 5.449 144.504 2.939e-3 -37.259 0.841 149.382
14253.15 0.531 130.749 6.265 131.236 3.115e-3 -44.219 0.827 139.14
14454.8 0.486 115.499 6.666 110.683 2.92e-3 -56.631 0.81 128.886
14656.45 0.439 101.797 6.779 94.034 2.714e-3 -58.003 0.792 118.57
14858.1 0.398 87.374 6.445 76.734 2.378e-3 -72.831 0.769 108.075
15059.75 0.357 73.28 6.501 67.599 2.597e-3 -79.244 0.748 97.899
15261.4 0.318 59.808 6.528 53.468 2.42e-3 -87.832 0.722 87.544
15463.05 0.29 45.884 7.003 43.31 2.126e-3 -95.012 0.695 76.995
15664.7 0.252 32.328 7.259 32.216 2.016e-3 -100.519 0.664 66.619
15866.35 0.227 18.572 7.892 16.914 2.156e-3 -111.231 0.633 55.98
16068 0.201 3.871 8.02 2.535 2.042e-3 -123.241 0.601 45.666
16269.65 0.177 -11.067 8.15 -9.803 1.92e-3 -132.009 0.566 35.392
16471.3 0.164 -24.722 8.568 -22.957 1.79e-3 -138.659 0.533 25
16672.95 0.144 -41.781 8.892 -35.899 1.759e-3 -155.296 0.5 14.688
16874.6 0.134 -56.113 9.178 -50.302 1.811e-3 -168.095 0.467 4.581
17076.25 0.127 -72.972 9.343 -63.309 1.588e-3 -179.712 0.434 -5.557
17277.9 0.122 -88.538 9.576 -77.517 1.616e-3 165.105 0.403 -15.594
17479.55 0.118 -100.382 9.606 -90.817 1.718e-3 150.033 0.376 -25.552
17681.2 0.119 -116.258 9.634 -103.944 1.694e-3 135.565 0.35 -35.436
17882.85 0.117 -126.682 9.609 -116.685 1.812e-3 122.022 0.326 -45.261
18084.5 0.122 -138.428 9.637 -128.717 1.938e-3 107.735 0.306 -55.141
18286.15 0.124 -148.329 9.649 -140.836 2.146e-3 99.451 0.287 -64.995
18487.8 0.125 -157.72 9.738 -152.597 2.33e-3 85.216 0.271 -74.998
18689.45 0.133 -167.207 9.811 -164.704 2.518e-3 73.087 0.256 -85.093
18891.1 0.133 -175.856 9.842 -176.62 2.77e-3 60.259 0.243 -95.251
19092.75 0.142 176.098 9.858 171.441 3.01e-3 47.25 0.232 -105.185
19294.4 0.144 168.5 9.833 159.877 3.323e-3 36.943 0.221 -115.354
19496.05 0.148 160.828 9.856 148.595 3.576e-3 29.737 0.213 -125.294
19697.7 0.154 154.298 9.912 137.162 3.787e-3 19.544 0.206 -134.998
19899.35 0.156 146.656 9.964 125.312 4.193e-3 8.574 0.2 -144.242
20101 0.16 140.562 9.953 113.774 4.536e-3 -0.237 0.194 -153.399
20302.65 0.162 133.616 9.922 102.31 4.767e-3 -9.516 0.19 -162.227
20504.3 0.164 126.934 9.904 90.893 4.927e-3 -16.765 0.187 -170.48
20705.95 0.167 121.113 9.871 79.671 5.272e-3 -25.65 0.183 -178.342
20907.6 0.17 114.302 9.821 68.595 5.657e-3 -34.729 0.18 174.407
21109.25 0.171 108.89 9.892 57.433 5.992e-3 -42.502 0.177 167.799
21310.9 0.174 102.244 9.838 45.617 6.141e-3 -50.761 0.176 161.71
21512.55 0.173 95.919 9.675 33.861 6.369e-3 -58.078 0.175 156.334
21714.2 0.173 89.198 9.444 23.287 6.729e-3 -65.43 0.173 151.09
21915.85 0.173 81.338 9.406 13.144 7.163e-3 -73.864 0.171 146.299
22117.5 0.169 73.446 9.377 2.472 7.525e-3 -82.213 0.169 142.149
22319.15 0.168 65.829 9.291 -8.48 7.644e-3 -90.115 0.169 138.682
22520.8 0.159 57.172 9.204 -18.933 7.763e-3 -98.641 0.169 135.785
22722.45 0.15 48.755 9.154 -29.462 8.089e-3 -106.894 0.17 133.311
22924.1 0.138 38.442 9.084 -40.08 8.502e-3 -113.94 0.171 131.735
23125.75 0.123 27.145 9.018 -50.788 8.795e-3 -121.686 0.174 130.179
23327.4 0.107 16.18 8.983 -60.942 9.004e-3 -129.905 0.18 128.937
23529.05 0.09 -1.379 8.92 -71.747 9.294e-3 -137.859 0.188 127.87
23730.7 0.068 -18.19 8.817 -82.506 9.699e-3 -145.999 0.199 126.445
23932.35 0.061 -47.308 8.687 -93.347 9.914e-3 -153.798 0.213 124.734
24134 0.056 -84.515 8.589 -103.926 9.982e-3 -161.966 0.228 122.18
24335.65 0.065 -115.343 8.431 -114.708 0.01 -170.921 0.245 119.13
24537.3 0.085 -135.589 8.3 -125.343 0.011 -179.368 0.263 115.551
24738.95 0.111 -157.588 8.155 -135.246 0.011 172.685 0.281 111.352
24940.6 0.133 -166.276 8.025 -146.866 0.011 164.078 0.297 106.35
25142.25 0.157 -179.277 7.765 -157.072 0.011 155.161 0.313 101.319
25343.9 0.184 170.937 7.462 -166.938 0.011 144.28 0.327 95.669
25545.55 0.194 163.302 7.334 -175.687 0.011 133.865 0.338 90.7
25747.2 0.24 152.169 7.234 175.625 0.011 127.775 0.351 84.91
25948.85 0.245 149.802 7.217 167.137 0.011 118.296 0.36 79.182
26150.5 0.276 139.771 7.403 156.741 0.012 110.923 0.36 73.525
26352.15 0.302 136.843 7.469 146.143 0.013 103.147 0.358 68.103
26553.8 0.292 131.104 7.526 134.573 0.012 93.864 0.354 63.123
26755.45 0.352 123.995 7.554 123.555 0.013 84.983 0.347 59.357
26957.1 0.338 122.581 7.58 110.647 0.013 74.398 0.338 55.721
27158.75 0.398 113.359 7.377 97.508 0.013 64.075 0.331 52.686
27360.4 0.438 110.962 7.143 85.319 0.014 53.021 0.326 51.011
27562.05 0.445 105.419 6.842 73.443 0.014 41.82 0.327 50.362
27763.7 0.544 98.021 6.588 61.098 0.014 30.482 0.336 50.087
27965.35 0.531 93.444 6.256 48.698 0.014 19.422 0.354 49.175
28167 0.633 84.157 5.915 36.427 0.013 9.39 0.387 46.87
28368.65 0.658 76.527 5.53 24.254 0.012 -1.373 0.422 43.116
28570.3 0.677 68.581 5.041 12.984 0.012 -12.482 0.461 37.989
28771.95 0.774 58.816 4.614 1.436 0.011 -21.064 0.5 32.121
28973.6 0.729 50.115 4.163 -9.223 0.011 -31.619 0.532 25.273
29175.25 0.825 41.679 3.704 -18.124 0.01 -39.353 0.564 18.261
29376.9 0.8 31.391 3.385 -25.504 0.01 -48.262 0.59 10.654
29578.55 0.821 24.863 3.276 -33.557 9.015e-3 -52.235 0.615 2.757
29780.2 0.87 16.004 2.952 -43.99 8.693e-3 -62.846 0.635 -5.1
29981.85 0.811 5.81 2.725 -52.862 8.2e-3 -68.314 0.654 -12.498
30183.5 0.884 1.189 2.514 -58.85 8.05e-3 -76.147 0.666 -20.599
30385.15 0.841 -10.964 2.244 -69.612 7.687e-3 -80.933 0.681 -28.269
30586.8 0.861 -15.716 2.072 -72.724 7.362e-3 -84.631 0.692 -36.166
30788.45 0.894 -24.045 1.956 -77.644 6.697e-3 -92.229 0.701 -44.126
30990.1 0.842 -34.694 2.059 -88.977 6.897e-3 -93.146 0.711 -52.099
31191.75 0.9 -37.5 1.749 -98.487 6.429e-3 -104.221 0.719 -59.822
31393.4 0.871 -50.309 1.63 -103.544 6.827e-3 -101.989 0.723 -67.931
31595.05 0.861 -54.319 1.67 -110.966 7.007e-3 -112.393 0.729 -76.076
31796.7 0.904 -63.481 1.468 -125.643 6.306e-3 -124.531 0.735 -84.25
31998.35 0.838 -74.407 1.196 -133.615 5.731e-3 -131.444 0.742 -92.342
32200 0.9 -76.892 1.035 -128.177 4.857e-3 -117.878 0.74 -100.205
