!Hittite Microwave Corporation								
!20 Alpha Road								
!Chelmsford, MA 01824								
!Tel: 978-250-3343								
!Fax: 978-250-3373								
!Device: HMC518, 20-32 GHz, GaAs PHEMT MMIC Low Noise Amplifier Die																
!Misc: Vdd1 = Vdd2 = Vdd3 = +3V, data includes two K connectors, Room							
!
# MHZ S MA R 50

14831 0.802 67.663 2.703 102.422 1.978e-3 -71.523 0.541 116.028
15032.75 0.746 46.119 3.022 89.867 2.014e-3 -74.989 0.522 106.416
15234.5 0.681 21.923 3.34 71.726 1.665e-3 -96.218 0.501 96.625
15436.25 0.597 -6.228 3.822 55.259 1.509e-3 -88.892 0.481 86.912
15638 0.53 -35.982 4.064 39.25 1.527e-3 -101.385 0.458 77.142
15839.75 0.477 -68.548 4.504 19.978 1.06e-3 -108.083 0.435 67.275
16041.5 0.449 -100.736 4.609 1.449 822.8e-6 -137.997 0.411 57.524
16243.25 0.439 -131.878 4.614 -15.097 699.8e-6 -123.798 0.386 47.654
16445 0.444 -159.257 4.7 -30.875 496.4e-6 -126.849 0.361 37.632
16646.75 0.456 177.052 4.729 -45.411 314.3e-6 -136.957 0.336 27.499
16848.5 0.468 156.703 4.767 -60.6 338.5e-6 -115.471 0.311 17.021
17050.25 0.475 138.908 4.736 -73.858 322e-6 -112.314 0.285 6.659
17252 0.477 122.488 4.777 -87.842 299.7e-6 -43.977 0.26 -4.393
17453.75 0.476 107.362 4.749 -100.65 46.07e-6 -108.151 0.238 -15.875
17655.5 0.469 92.705 4.742 -113.437 66.2e-6 -156.118 0.215 -27.651
17857.25 0.46 78.949 4.713 -125.686 189e-6 -44.263 0.195 -40.262
18059 0.448 65.756 4.721 -137.163 347.3e-6 14.497 0.177 -53.39
18260.75 0.436 52.825 4.73 -148.716 346.7e-6 20.114 0.16 -67.33
18462.5 0.42 40.386 4.784 -159.857 427.2e-6 15.297 0.146 -82.2
18664.25 0.4 27.664 4.84 -171.236 817.6e-6 34.171 0.134 -97.724
18866 0.379 15.008 4.877 177.462 1.036e-3 23.807 0.125 -113.717
19067.75 0.359 1.844 4.925 166.296 1.124e-3 20.789 0.119 -130.569
19269.5 0.341 -10.818 4.957 155.355 1.229e-3 13.467 0.115 -147.659
19471.25 0.32 -23.188 5.019 144.509 1.734e-3 1.216 0.115 -164.324
19673 0.303 -35.574 5.097 133.634 2.034e-3 3.674 0.116 179.567
19874.75 0.284 -47.923 5.156 122.332 2.57e-3 -0.838 0.119 164.385
20076.5 0.268 -60.862 5.202 111.347 3.093e-3 -9.707 0.121 150.113
20278.25 0.257 -73.703 5.251 100.359 3.491e-3 -24.879 0.123 137.223
20480 0.248 -87.247 5.288 89.357 3.679e-3 -33.723 0.123 126.023
20681.75 0.243 -100.433 5.327 78.407 3.613e-3 -42.149 0.124 115.809
20883.5 0.237 -112.949 5.342 67.934 3.833e-3 -50.766 0.124 106.058
21085.25 0.233 -124.746 5.396 56.854 4.08e-3 -58.687 0.125 96.414
21287 0.229 -136.214 5.384 46.18 4.116e-3 -65.54 0.123 87.265
21488.75 0.226 -147.636 5.349 35.573 4.188e-3 -72.081 0.12 78.214
21690.5 0.226 -158.504 5.354 25.975 4.657e-3 -78.179 0.115 68.913
21892.25 0.228 -168.749 5.405 15.71 4.786e-3 -85.375 0.111 59.948
22094 0.229 -177.971 5.443 5.429 4.788e-3 -91.413 0.103 50.533
22295.75 0.231 173.28 5.452 -4.752 5.128e-3 -98.04 0.095 41.254
22497.5 0.231 165.063 5.502 -14.78 5.443e-3 -106.151 0.086 31.294
22699.25 0.23 156.808 5.528 -25.06 5.637e-3 -114.826 0.076 19.894
22901 0.23 148.631 5.557 -35.195 6.047e-3 -120.59 0.067 7.166
23102.75 0.232 140.595 5.581 -45.342 6.123e-3 -126.775 0.057 -8.456
23304.5 0.237 132.872 5.606 -55.502 6.098e-3 -134.71 0.048 -28.132
23506.25 0.242 125.994 5.625 -65.589 6.481e-3 -143.319 0.043 -52.598
23708 0.243 119.84 5.651 -75.559 6.691e-3 -150.39 0.042 -80.618
23909.75 0.241 113.706 5.681 -85.682 6.894e-3 -156.472 0.046 -107.851
24111.5 0.237 106.985 5.703 -95.772 6.981e-3 -163.196 0.055 -130.083
24313.25 0.233 100.043 5.721 -105.99 7.11e-3 -172.191 0.067 -147.195
24515 0.23 93.109 5.743 -116.164 7.265e-3 -179.971 0.082 -160.908
24716.75 0.228 86.293 5.739 -126.237 7.502e-3 173.414 0.097 -171.871
24918.5 0.225 79.994 5.783 -136.428 7.623e-3 165.268 0.112 178.955
25120.25 0.218 74.67 5.789 -146.929 7.657e-3 158.579 0.127 169.82
25322 0.207 69.625 5.757 -157.74 7.792e-3 150.865 0.141 161.193
25523.75 0.191 65.378 5.678 -167.809 7.797e-3 145.068 0.155 153.904
25725.5 0.171 60.54 5.567 -177.649 8.235e-3 137.918 0.17 147.439
25927.25 0.154 54.853 5.475 172.967 8.852e-3 127.8 0.185 141.144
26129 0.137 49.248 5.455 164.103 9.415e-3 120.21 0.195 135.026
26330.75 0.122 45.311 5.481 154.813 9.629e-3 113.259 0.206 129.347
26532.5 0.107 45.394 5.511 145.211 9.55e-3 104.193 0.216 123.66
26734.25 0.094 49.777 5.528 135.61 9.821e-3 93.596 0.227 118.4
26936 0.085 59.549 5.614 125.97 0.01 83.971 0.235 113.356
27137.75 0.08 73.208 5.645 115.482 0.011 76.163 0.242 107.863
27339.5 0.086 85.305 5.637 104.735 0.011 68.069 0.25 102.56
27541.25 0.1 93.825 5.582 94.529 0.011 58.686 0.258 97.711
27743 0.119 97.195 5.538 84.433 0.011 49.88 0.267 93.116
27944.75 0.144 95.876 5.48 74.306 0.011 41.013 0.277 87.835
28146.5 0.172 92.595 5.417 64.256 0.012 32.503 0.287 82.528
28348.25 0.2 88.105 5.369 54.086 0.013 24.245 0.299 77.357
28550 0.227 82.889 5.29 43.697 0.013 16.715 0.309 72.171
28751.75 0.252 77.132 5.202 33.821 0.013 8.253 0.319 66.595
28953.5 0.276 70.92 5.107 23.641 0.013 -1.331 0.33 60.26
29155.25 0.296 63.954 4.974 14.23 0.013 -9.845 0.339 54.325
29357 0.318 56.645 4.863 5.421 0.013 -18.268 0.346 47.802
29558.75 0.335 49.022 4.902 -3.012 0.014 -25.733 0.353 40.797
29760.5 0.353 40.906 4.902 -13.356 0.014 -34.628 0.359 33.279
29962.25 0.369 33.443 4.87 -23.477 0.014 -42.05 0.362 26.081
30164 0.381 25.822 4.805 -32.432 0.014 -51.807 0.361 18.601
30365.75 0.39 18.652 4.78 -43.607 0.015 -59.083 0.361 11.275
30567.5 0.396 11.194 4.664 -52.356 0.016 -66.002 0.354 3.806
30769.25 0.403 3.794 4.627 -61.166 0.016 -76.666 0.346 -3.451
30971 0.407 -3.488 4.879 -70.54 0.016 -84.197 0.335 -10.623
31172.75 0.417 -10.654 4.821 -83.658 0.017 -90.957 0.324 -17.003
31374.5 0.426 -17.204 4.75 -94.022 0.018 -98.744 0.309 -22.751
31576.25 0.438 -23.237 4.796 -103.246 0.018 -112.888 0.292 -28.024
31778 0.451 -28.421 4.892 -117.215 0.019 -121.36 0.278 -31.997
31979.75 0.467 -33.993 4.746 -131.043 0.019 -136.012 0.272 -33.387
32181.5 0.482 -40.306 4.321 -142.908 0.016 -138.619 0.27 -34.697
32383.25 0.503 -47.453 4.252 -152.376 0.02 -144.369 0.275 -35.991
32585 0.534 -55.287 4.082 -163.583 0.02 -165.802 0.291 -37.318
32786.75 0.571 -63.227 3.933 -176.43 0.019 -171.19 0.316 -39.597
32988.5 0.611 -71.588 3.697 174.505 0.018 171.952 0.349 -44.266
33190.25 0.647 -79.918 3.621 161.82 0.016 165.838 0.387 -50.516
33392 0.682 -89.098 3.48 150.7 0.018 157.933 0.426 -58.039
33593.75 0.711 -98.393 3.19 137.511 0.018 147.689 0.465 -66.254
33795.5 0.733 -108.18 3.068 125.833 0.017 129.685 0.503 -75.374
33997.25 0.756 -117.884 2.648 112.84 0.015 120.49 0.539 -84.576
34199 0.777 -127.274 2.367 104.68 0.016 109.583 0.574 -93.832
34400.75 0.802 -136.849 2.215 99.181 0.012 103.361 0.601 -103.724
34602.5 0.82 -146.221 2.204 86.722 0.011 91.934 0.625 -113.374
34804.25 0.832 -155.234 1.973 74.745 0.01 78.927 0.65 -122.585
35006 0.838 -164.187 1.766 63.32 0.01 76.86 0.67 -131.682
