!Hittite Microwave Corporation								
!20 Alpha Rd								
!Chelmsford, MA 01824								
!Tel: 978-250-3343								
!Fax: 978-250-3373
!Device: HMC564, 7 - 12 GHz GaAs PHEMT MMIC LNA DIE; Measuremments were performed with part mounted on gold plate
!RF IN and OUT were connected to 50 Ohms substrates via two  1 mil diameter bondwires
!Misc:Bias: +3VDC; T= +25C;
# GHZ S DB R 50.0								
!Freq (GHz)	S11 (mag)	S11 (ph)	S21 (mag)	S21 (ph)	S12 (mag)	S12 (ph)	S22 (mag)	S22 (ph)
0.050000001	0.003659672	-2.3601861	-47.98035812	-135.4575348	-75.69802094	17.41563225	-0.005219076	-1.291298747
0.149749994	-0.006467759	-6.833529949	-65.27589417	39.94442749	-75.96653748	-107.7468033	-0.017833548	-4.003351212
0.249500006	-0.018665509	-11.31611729	-67.92155457	92.08750153	-75.04522705	-92.50557709	-0.016936373	-6.591315269
0.349249989	-0.011135418	-15.9316864	-85.94956207	-85.84906006	-89.44248962	115.2251968	-0.006177949	-9.259807587
0.449000001	-0.032509573	-20.55111313	-61.74581528	133.7170563	-81.75523376	-147.1214447	-0.035395294	-11.9118042
0.548750043	-0.034763936	-25.33548546	-67.24146271	138.9064941	-84.03840637	50.48155594	-0.068972386	-14.63555336
0.648499966	-0.051892996	-30.25542068	-72.38261414	-60.07491684	-78.05188751	-79.76318359	-0.095858678	-17.24180603
0.748250008	-0.071737096	-35.29460526	-81.93360138	-62.0216217	-80.21435547	-143.4398804	-0.108550742	-19.92441368
0.84799999	-0.086008303	-40.51758575	-78.94406128	125.4926224	-79.79102325	66.00026703	-0.131558195	-22.82073593
0.947750032	-0.117942914	-45.84349442	-65.81658936	-143.9453888	-89.24066925	68.10613251	-0.18712084	-25.83234978
1.047500014	-0.160291135	-51.74213028	-60.05923462	-162.6611328	-81.32988739	61.8483429	-0.279990971	-28.72099686
1.147250056	-0.211898535	-57.89831924	-50.84890747	-166.495163	-92.60755157	33.84297562	-0.415012985	-31.62179756
1.247000098	-0.29069832	-64.48130035	-44.73561859	-177.8410339	-86.24909973	-160.7320709	-0.603956759	-34.36747742
1.346749902	-0.382889718	-71.81005096	-38.08402252	168.3634491	-84.76074982	160.5023956	-0.826536357	-36.44757843
1.446499944	-0.525840938	-79.76194	-32.24152756	151.120697	-80.52291107	-147.5680847	-1.031516314	-37.76307297
1.546249986	-0.729401767	-88.99203491	-27.02237511	131.9963074	-82.32022095	-165.2219391	-1.077498794	-38.61961746
1.646000028	-1.024243593	-99.73205566	-22.4834156	112.9693909	-75.23945618	151.536438	-1.024901628	-39.92925644
1.74575007	-1.485299349	-112.6150665	-18.34524727	94.45758057	-79.55732727	154.3103333	-0.909004688	-41.71995163
1.845499992	-2.234884977	-129.1302643	-14.46632385	75.32737732	-75.34259033	168.0215607	-0.792880893	-44.11000443
1.945250034	-3.456273079	-150.6364136	-11.00523949	55.51704788	-70.31335449	137.8601685	-0.693578482	-46.85641479
2.044999838	-5.479189396	178.6625671	-8.12577343	34.32904816	-64.39407349	111.6273346	-0.592987478	-50.12179565
2.14474988	-8.015665054	132.236084	-6.210898399	17.29772758	-62.88490677	113.6492615	-0.597510874	-54.01420975
2.244499922	-8.607076645	69.87725067	-3.126802921	11.12709141	-57.63286591	95.1558075	-0.816363156	-58.19618225
2.344250202	-6.782290459	19.54083061	1.755327463	-11.59626484	-53.2135849	61.89513397	-1.169716358	-60.3521347
2.444000006	-5.535048962	-13.24619865	4.568529129	-46.77438736	-50.96803665	22.557827	-1.30273807	-61.38402176
2.543749809	-5.149168015	-31.48129463	5.079699993	-82.50977325	-50.97462463	-13.30540943	-1.238270164	-63.07873535
2.64350009	-4.282570839	-41.86878586	3.415720701	-107.5311203	-53.28389359	-38.80577469	-1.17270875	-65.75810242
2.743249893	-3.219436884	-54.51885223	1.833956122	-113.8618546	-54.90717316	-51.376091	-1.189254642	-68.63310242
2.843000174	-2.604481936	-67.88787842	2.210017204	-113.2843781	-54.63656616	-47.65766907	-1.26613152	-71.61750031
2.942749977	-2.358187675	-81.17011261	3.735239744	-116.8193665	-53.71756363	-50.75383759	-1.329293728	-74.39047241
3.042500019	-2.317775249	-94.07682037	5.4769907	-124.4231873	-52.01700592	-56.95373917	-1.410510659	-77.15260315
3.142250061	-2.523376942	-106.7800751	7.166790485	-134.5102081	-50.7079277	-67.25863647	-1.483280659	-79.91331482
3.241999865	-2.891051054	-119.9003677	8.709176064	-146.0978241	-49.0106163	-76.99453735	-1.554035425	-82.73699188
3.341749907	-3.483629465	-133.2714386	10.12050438	-158.6101074	-47.7413063	-87.48121643	-1.62893784	-85.47737122
3.441499949	-4.35909605	-147.2423706	11.36112118	-171.9006348	-46.50063705	-100.2702332	-1.699470282	-88.37094116
3.54124999	-5.518426418	-161.803009	12.43776703	174.3479004	-45.48519135	-111.3019638	-1.763798952	-91.40756226
3.641000032	-7.095716	-177.0243225	13.31238174	160.5609589	-44.60810852	-124.8558044	-1.843997478	-94.43235779
3.740750074	-9.071454048	166.2644043	14.01819038	146.7510071	-44.03533554	-135.8577423	-1.942540526	-97.70084381
3.840499878	-11.52946472	147.5325775	14.55552197	133.383606	-43.26152802	-147.7661133	-2.046279669	-101.1102753
3.940250158	-14.51804733	123.4172287	14.95580578	120.4389114	-42.98959732	-158.7518768	-2.155629396	-104.4460602
4.039999962	-17.25133324	91.26155853	15.24037933	108.286499	-42.71539688	-169.2100983	-2.330643415	-107.9258575
4.139750004	-18.48529625	49.59265518	15.4874382	96.79363251	-42.53396606	-178.4087372	-2.488384962	-111.4701691
4.239500046	-17.09776688	14.23587513	15.64601612	85.85366821	-42.3143692	172.7446899	-2.667457819	-114.8309097
4.339250088	-15.40590858	-9.31114769	15.79459953	75.58110046	-42.19004059	165.7744446	-2.883769035	-118.0234451
4.43900013	-13.67171955	-26.85751534	15.89462376	65.68753052	-42.03353882	157.7455902	-3.11063242	-121.601265
4.538750172	-12.52456665	-38.74987793	15.98173141	56.21257019	-41.78713226	150.7096863	-3.329322815	-124.9537582
4.638499737	-11.58559036	-49.51567459	16.03930855	47.41959	-41.81913757	144.4732666	-3.581680775	-128.1846466
4.738250256	-10.75758648	-58.00148392	16.14352608	38.90705109	-41.78553772	138.2262726	-3.858757019	-131.6588898
4.838000298	-10.29713535	-65.47861481	16.21194649	30.70402145	-41.51203156	132.5528717	-4.085425854	-134.9663391
4.937749863	-9.799821854	-73.02954865	16.31936646	22.77207947	-41.51264954	125.4968414	-4.352680683	-138.1238861
5.037499905	-9.4815588	-79.37809753	16.39996719	14.76748466	-41.46766663	121.3027267	-4.658279896	-141.6268311
5.137249947	-9.301624298	-85.86621094	16.47583199	7.133346081	-41.32764053	117.1273727	-4.943623066	-145.1205902
5.236999989	-8.997136116	-92.29877472	16.52406502	-0.275508493	-41.30113602	111.4631271	-5.253895283	-148.3482208
5.336750031	-8.866518021	-97.40911865	16.59910965	-7.169930458	-41.10453415	107.1937332	-5.587827206	-151.8709412
5.436500072	-8.764958382	-103.4254837	16.69400406	-14.3688364	-41.11862946	101.7956619	-5.905777931	-155.3738098
5.536249638	-8.606737137	-108.6166458	16.7850399	-21.29591179	-40.95538712	98.0503006	-6.231739998	-158.6483612
5.63599968	-8.666239738	-113.4034424	16.89314461	-28.21309662	-40.82360458	93.72734833	-6.608302116	-162.1010742
5.735750198	-8.623370171	-119.0623856	16.95745277	-35.08733749	-40.76070786	89.42443085	-6.962172508	-165.9656219
5.83550024	-8.634737968	-123.4279556	17.01675987	-41.61224365	-40.57418823	85.82827759	-7.322328091	-169.2238617
5.935249805	-8.725377083	-129.0132446	17.07499695	-48.19303894	-40.4166069	81.73936462	-7.741373062	-172.7501678
6.034999847	-8.688209534	-134.283905	17.16410828	-54.55495453	-40.34901047	78.88973999	-8.132501602	-176.709198
6.134750366	-8.767069817	-138.2873535	17.23434448	-60.83647919	-40.20898819	74.95301819	-8.524626732	179.8040314
6.234499931	-8.863073349	-143.9998932	17.32139778	-67.20319366	-39.96509552	70.87663269	-8.940295219	176.2384796
6.334249973	-8.842465401	-148.2813568	17.37697029	-73.61643219	-39.7758255	67.80305481	-9.411018372	172.2545929
6.434000015	-9.050780296	-152.3475189	17.43252945	-79.77552032	-39.73225403	63.75837708	-9.812801361	168.2756195
6.53374958	-9.19282341	-158.0774078	17.48838806	-85.92276001	-39.60276413	60.07965469	-10.32689381	164.59758
6.633500099	-9.24779129	-161.779892	17.54580688	-91.79088593	-39.40823364	55.74081802	-10.81579876	160.0474854
6.733250141	-9.54510498	-167.07164	17.59060669	-97.78078461	-39.34069443	53.44664383	-11.2970705	155.9263611
6.832999706	-9.584142685	-172.2679291	17.65557289	-103.8469238	-39.08241653	50.18340683	-11.82751083	151.724884
6.932749748	-9.746602058	-175.8181305	17.69657135	-109.7637253	-39.04346085	47.03885651	-12.43630695	147.2986145
7.032500267	-10.02608967	178.6022644	17.74344254	-115.6743546	-38.89434814	43.11158371	-12.94022942	142.0991516
7.132250309	-10.10195827	174.3514557	17.77170753	-121.519371	-38.7826004	40.34679794	-13.54573441	137.713562
7.231999874	-10.36243916	170.2974091	17.79452705	-127.0978012	-38.60911942	37.31311417	-14.22054291	131.844223
7.331749916	-10.66901493	164.6107788	17.83033371	-132.7645874	-38.53620148	33.35714722	-14.77130032	126.2674713
7.431499958	-10.72770786	160.8215942	17.85153961	-138.3358002	-38.38041306	30.56946373	-15.43476009	120.4571457
7.53125	-11.10860634	155.9150238	17.91260147	-144.0714874	-38.334095	27.74719429	-16.12387466	114.2860336
7.631000042	-11.29059124	150.6696625	17.92532539	-149.6271973	-38.25281906	24.90216064	-16.69839287	106.680336
7.730750084	-11.43245602	146.8665009	17.93108749	-155.1164856	-38.11886215	20.87070656	-17.28979683	100.2518921
7.830499649	-11.91664219	141.1582031	17.94465637	-160.7097626	-37.93977356	17.87472534	-17.9824295	91.59420776
7.930250168	-11.95011616	136.8135071	17.95116806	-165.9688873	-37.83512878	15.71286392	-18.36728668	82.91496277
8.029999733	-12.33384609	132.6515198	17.96391678	-171.2766724	-37.74456406	12.57794762	-18.82674217	74.87349701
8.129750252	-12.64615726	127.6493912	17.97795105	-176.5976563	-37.64598083	10.15594864	-19.22517586	65.56861115
8.229499817	-12.66533089	123.6603546	17.99975395	178.1064911	-37.38686752	7.409959316	-19.46631622	55.87553024
8.329249382	-13.23852348	119.4239883	18.0052948	172.8732147	-37.23452377	4.842355251	-19.43528175	47.48300552
8.428999901	-13.42560482	114.313942	18.00885201	167.5093384	-37.2210083	1.89705646	-19.71680832	37.68906403
8.52875042	-13.67089653	110.5306015	18.01007652	162.4133301	-37.14123917	-0.857150972	-19.52119827	28.1303997
8.628500938	-14.19072914	105.8137207	18.00776672	157.3170471	-36.97260666	-3.209989786	-19.40712738	20.34100151
8.728250504	-14.1888361	100.7952805	18.02209854	152.1858063	-36.8483963	-5.84335947	-19.30908775	11.65038013
8.828000069	-14.53599644	97.48052216	18.02131653	147.139679	-36.78184891	-8.317091942	-19.11732292	2.986739635
8.927750587	-14.88935375	93.07897949	18.00455093	142.0546112	-36.64075851	-11.49190712	-18.65331268	-3.551114559
9.027500153	-14.99523735	89.45702362	18.03331757	137.0732422	-36.45799637	-14.29627037	-18.52167511	-10.06426048
9.127249718	-15.62277699	86.908638	18.01968575	132.0093994	-36.49982071	-17.02419472	-18.20498276	-17.57936287
9.227000237	-15.86803818	82.03393555	18.02141953	127.079628	-36.14815521	-19.1463871	-17.90424728	-23.40195847
9.326749802	-16.29781151	78.97722626	18.02032661	122.071106	-36.07719421	-22.15602303	-17.7020874	-29.29396439
9.426499367	-16.70921707	75.06510162	18.0195713	117.1732407	-35.93451309	-25.23973083	-17.41856766	-35.53767395
9.526250839	-16.92519188	70.26774597	17.99282837	112.2091904	-35.70508957	-26.73718452	-16.8978138	-40.8733139
9.626000404	-17.32600021	68.51242065	17.9976387	107.3965683	-35.6469841	-29.5553875	-16.78646469	-45.0341568
9.725749969	-17.62009048	65.27986908	17.9974556	102.4441528	-35.48784256	-31.96352005	-16.56147575	-51.18280411
9.825500488	-17.89950752	62.27134705	17.97862434	97.63476563	-35.3090744	-34.40406036	-16.23044014	-55.41124344
9.925250053	-18.50405884	61.69525146	17.9629879	92.82371521	-35.17074203	-37.00244904	-16.07409286	-59.63162613
10.02499962	-18.97562027	56.8249855	17.96238518	88.0328598	-34.99157715	-39.81814575	-15.97155476	-64.45296478
10.12475014	-19.29750443	56.60512924	17.96343422	83.15398407	-34.97223663	-41.86017227	-15.6681509	-69.98490906
10.2244997	-19.73542595	53.43454361	17.93153191	78.44499969	-34.75327682	-44.86061096	-15.47817421	-72.49319458
10.32424927	-20.2174511	51.32618713	17.92240143	73.62308502	-34.54928207	-47.26974487	-15.41702175	-77.41635132
10.42400074	-20.3159523	51.30832672	17.90612602	68.89014435	-34.42484665	-50.03130341	-15.2062645	-81.54664612
10.52375031	-20.86488533	50.95555878	17.87418365	64.16208649	-34.29906464	-52.25788879	-15.1186409	-84.67944336
10.62349987	-20.99136162	50.98052979	17.85540771	59.56749344	-34.06378555	-55.16979218	-15.21310425	-88.75539398
10.72325039	-21.07876015	53.31124496	17.85370636	54.84247589	-33.8071022	-57.70217896	-15.15409279	-93.98666382
10.82299995	-22.19042015	54.30864716	17.84989166	50.22699738	-33.70457077	-60.32602692	-14.98578453	-97.08847809
10.92274952	-21.54866791	56.40556335	17.82751274	45.4953804	-33.51216125	-63.00885391	-15.12106705	-101.1984634
11.02250004	-22.07894135	59.3186264	17.81026268	40.84727859	-33.38272095	-65.55371857	-15.0598278	-105.6693115
11.1222496	-22.07419777	60.18523407	17.79200935	36.07696533	-33.06376266	-68.03832245	-15.01867676	-109.2186508
11.22199917	-21.28321838	61.83823395	17.7581749	31.46372604	-32.97524643	-71.02167511	-15.16111946	-112.8072815
11.32174969	-21.44083595	66.18787384	17.7401619	26.98052216	-32.68762589	-74.15776825	-15.35616016	-117.7654495
11.42150021	-20.83917618	65.38828278	17.72050667	22.42009544	-32.51275253	-76.64768982	-15.34100437	-122.0845032
11.52125072	-20.19743729	66.74855804	17.70924377	17.71858597	-32.3790741	-79.70083618	-15.53414917	-125.6610413
11.62100029	-19.8298645	69.87039948	17.69902992	13.09792042	-32.16993332	-82.1873703	-15.69336128	-131.0621796
11.72074986	-19.39347076	66.74198914	17.66737556	8.49186039	-31.99259377	-85.60528564	-15.77056885	-135.338089
11.82050037	-18.76409912	70.15488434	17.63630295	3.932804346	-31.75843239	-88.16752625	-15.87858486	-139.2966156
11.92024994	-18.34276962	69.77031708	17.61383629	-0.778797448	-31.68868637	-91.00323486	-16.07137108	-143.5361023
12.0199995	-18.00219727	66.81052399	17.58383369	-5.198442459	-31.46415138	-93.96670532	-16.16437912	-148.6602325
12.11975002	-17.13389015	68.25577545	17.59172821	-9.81947422	-31.27116585	-96.57719421	-16.358778	-152.9850006
12.21949959	-16.96136284	63.52725601	17.57271385	-14.46514988	-31.10094452	-99.74414063	-16.74431801	-158.5266724
12.31925011	-16.10233498	61.04541397	17.52248573	-19.22454262	-30.88811493	-103.4086227	-17.04342651	-163.2342987
12.41900063	-15.73223686	60.68302917	17.4665947	-23.4717598	-30.78737259	-105.9453812	-17.12623024	-167.7971039
12.51875019	-15.45000744	58.12468719	17.47652054	-28.17128563	-30.56379128	-108.107254	-17.2268486	-173.3012848
12.61849976	-14.58747387	56.76503754	17.42238998	-32.68829346	-30.33539009	-111.3871918	-17.57014656	-179.3423462
12.71825027	-14.32285786	55.85333633	17.40676689	-37.20853043	-30.13486481	-114.5947037	-17.81448936	175.6213531
12.81799984	-14.17226601	51.74084854	17.38586617	-41.78546906	-29.97937393	-117.9528198	-18.0553627	169.1122131
12.9177494	-13.45585251	48.83265305	17.36367989	-46.62011719	-29.79085159	-120.9521713	-18.26910591	163.1281891
13.01749992	-13.4562006	47.10170364	17.29500771	-51.16479874	-29.55930519	-124.2713165	-18.64404488	155.8890381
13.11724949	-12.91236591	41.44668198	17.2745018	-55.62231064	-29.42234802	-127.5204773	-18.93917465	148.0183868
13.21700001	-12.35903645	40.33689499	17.19810295	-60.16312408	-29.29013824	-131.0786591	-19.24875259	140.9526062
13.31675053	-12.25496674	37.8828392	17.15098	-64.62389374	-29.17166901	-133.9936523	-19.4332943	133.2622681
13.41650009	-11.72802353	33.81636429	17.12601089	-68.9616394	-29.08938026	-137.7273407	-19.64866066	125.0547714
13.51624966	-11.51037788	33.22108078	17.12004471	-73.57382965	-28.95079231	-140.1132355	-19.65148163	118.331604
13.61600018	-11.50579643	29.28933144	17.03122902	-78.0193634	-28.72374725	-143.5806122	-19.42558479	109.9437714
13.71574974	-11.04438877	26.18856621	17.01956177	-82.93219757	-28.66413498	-146.5005798	-19.28561974	101.7418365
13.81549931	-10.84993076	24.92590141	16.99141884	-87.35665131	-28.41135597	-149.4982452	-19.24105072	93.45489502
13.91524982	-10.6853714	19.2779026	16.93831635	-92.14966583	-28.23991013	-152.9894409	-18.74504852	84.46595001
14.01499939	-10.24030113	17.28891373	16.87063599	-96.43120575	-28.17100143	-156.269455	-18.25711632	76.90323639
14.11475086	-10.15593243	14.83568192	16.85454369	-101.0837402	-27.98087692	-158.9778137	-17.82773972	70.25595093
14.21450043	-9.886523247	10.79884815	16.79793358	-105.846489	-27.79182625	-162.2600098	-17.42589951	63.15005112
14.31424999	-9.572181702	9.737064362	16.7198391	-110.4241943	-27.66254425	-165.1561584	-17.0091095	56.04958725
14.41400051	-9.653024673	5.654027462	16.68327522	-115.0270309	-27.44785118	-168.9658813	-16.43562889	50.46696091
14.51375008	-9.396611214	2.31668973	16.60984421	-119.6905212	-27.34082222	-172.320755	-16.16871452	43.56412125
14.61349964	-9.160227776	-0.100395508	16.55140495	-124.2740479	-27.21297646	-175.7839661	-15.56644821	37.33694077
14.71325016	-9.147702217	-4.641674519	16.47079659	-128.8972473	-27.01652718	-178.8674469	-15.17562008	30.96676445
14.81299973	-8.703771591	-7.83777523	16.40339088	-133.664978	-26.87447929	177.6505737	-14.61751366	25.4551506
14.91274929	-8.637548447	-10.57668209	16.32005119	-138.3501129	-26.69917107	174.3592224	-14.25004959	19.38262367
15.01250076	-8.655070305	-14.79382324	16.23323631	-142.9151306	-26.55778694	170.5804749	-13.78404999	14.29954529
15.11225033	-8.320127487	-17.41967392	16.1422863	-147.5706024	-26.40062141	167.1932831	-13.5713501	9.080062866
15.21199989	-8.490977287	-20.59955978	16.05407524	-152.096756	-26.34237099	164.1365204	-13.08610153	4.277402878
15.31175041	-8.335980415	-24.62304306	15.9532671	-156.8300781	-26.15902519	160.5593262	-12.840765	-1.075571537
15.41149998	-8.180906296	-27.17975998	15.85845757	-161.2856903	-26.07492828	157.1693115	-12.38012409	-5.848083019
15.51124954	-8.355156898	-30.80760193	15.75484943	-165.8641815	-25.91369247	153.322937	-12.09102535	-10.78569508
15.61100006	-8.087124825	-34.53970718	15.63518333	-170.4977417	-25.79210281	149.9596252	-11.71200752	-15.19428444
15.71074963	-8.154015541	-36.89761353	15.54828644	-175.0546112	-25.64438629	146.2036896	-11.46670723	-19.49286842
15.81049919	-8.21090889	-40.27890015	15.41928864	-179.578064	-25.57406616	142.618103	-11.14696503	-23.79430962
15.91025066	-8.053467751	-43.81089783	15.28522778	175.8826294	-25.48760223	138.977066	-11.03979111	-28.14562416
16.01000023	-8.239233971	-45.59539032	15.19201279	171.4721069	-25.39525223	135.4587555	-10.75629425	-32.28704834
16.10975075	-8.230558395	-49.69980621	15.06257153	167.017395	-25.25367546	132.096817	-10.57091331	-36.06383896
16.20949936	-8.168189049	-52.14130783	14.94558907	162.5394897	-25.20255661	128.6234436	-10.29424763	-40.1884079
16.30924988	-8.462464333	-54.34384918	14.83234882	158.2174072	-25.13636971	125.0644608	-10.11860943	-43.87327194
16.4090004	-8.423119545	-58.91286469	14.70718575	153.5626526	-25.00950432	121.5252838	-9.87246418	-47.72401428
16.50874901	-8.559612274	-60.46195984	14.5818119	149.1141205	-24.9491806	118.1870346	-9.780958176	-51.00800323
16.60849953	-8.782588959	-63.83366013	14.46931744	144.739563	-24.91077995	114.7505417	-9.568995476	-55.44743347
16.70825005	-8.739544868	-68.08224487	14.30694771	140.1868286	-24.81921005	111.2510834	-9.458756447	-59.0032692
16.80799866	-8.97180748	-69.18466187	14.18772984	135.901001	-24.67582893	107.7262573	-9.29785347	-63.15098572
16.90775108	-9.120292664	-73.30027008	14.08162975	131.6029816	-24.59418488	104.1554337	-9.170125008	-67.19766235
17.00749969	-9.248189926	-76.3419342	13.95485306	127.1251907	-24.53425407	100.1615067	-8.94144249	-71.26551819
17.10725021	-9.551473618	-77.19665527	13.8065815	122.411644	-24.46550179	96.5415802	-8.936890602	-73.96219635
