!Hittite Microwave Corporation								
!20 Alpha Rd								
!Chelmsford, MA 01824								
!Tel: 978-250-3343								
!Fax: 978-250-3373
!Device: HMC545, DC - 4 GHz  T/R Switch in  SOT26 SMT package
!Misc: Port1=RFC, Port2= RF1, Port3=RF2, RF1 ON, Data taken on a part mounted on 101659-4 Eval PCB,Bias: +5VDC								
# MHZ S MA R 50

0.03 0.014 21.101 0.981 -0.308 2.77e-3 -14.368
          0.982 -0.268 0.014 17.678 2.726e-3 -14.508
          2.777e-3 -14.598 2.698e-3 -13.278 0.993 -7.991e-3
20.03 9.979e-3 -14.338 0.981 -0.687 2.438e-3 20.842
          0.981 -0.647 9.711e-3 -14.16 2.46e-3 21.252
          2.371e-3 22.673 2.304e-3 21.902 0.987 -4.2
40.03 0.011 -21.188 0.981 -1.236 3.139e-3 44.413
          0.981 -1.206 9.964e-3 -23.398 3.187e-3 47.563
          3.114e-3 43.763 3.176e-3 47.143 0.987 -8.162
60.03 0.012 -27.536 0.98 -1.765 4.157e-3 58.177
          0.98 -1.795 0.012 -32.743 4.124e-3 54.324
          4.09e-3 57.316 4.162e-3 53.544 0.986 -12.173
80.029 0.012 -33.941 0.98 -2.354 5.41e-3 62.751
          0.98 -2.354 0.013 -38.444 5.275e-3 60.235
          5.391e-3 64.571 5.239e-3 61.035 0.986 -16.183
100.029 0.013 -41.207 0.979 -2.963 6.601e-3 66.083
          0.979 -2.923 0.015 -40.837 6.602e-3 63.059
          6.685e-3 66.424 6.617e-3 63.538 0.986 -20.071
120.029 0.014 -48.4 0.979 -3.432 8.073e-3 67.208
          0.978 -3.462 0.016 -42.271 8.074e-3 62.852
          8.073e-3 67.108 8.084e-3 62.812 0.985 -23.948
140.029 0.016 -56.115 0.979 -4.06 9.46e-3 66.826
          0.978 -4.08 0.016 -48.325 9.441e-3 61.247
          9.438e-3 66.887 9.398e-3 61.437 0.984 -27.971
160.029 0.018 -62.198 0.98 -4.629 0.011 66.096
          0.979 -4.629 0.017 -57.579 0.011 60.112
          0.011 66.226 0.01 60.332 0.986 -31.822
180.029 0.021 -65.829 0.979 -5.178 0.012 65.036
          0.979 -5.228 0.02 -64.9 0.012 59.05
          0.012 65.286 0.012 58.84 0.985 -35.78
200.028 0.024 -68.127 0.978 -5.747 0.013 62.236
          0.978 -5.737 0.024 -68.014 0.013 56.211
          0.013 61.856 0.013 55.891 0.986 -39.565
220.028 0.026 -69.697 0.978 -6.224 0.014 61.322
          0.978 -6.324 0.027 -67.516 0.014 54.763
          0.014 61.102 0.014 54.323 0.986 -43.215
240.028 0.028 -71.212 0.978 -6.803 0.015 60.227
          0.978 -6.863 0.029 -66.392 0.015 53.065
          0.015 60.378 0.015 52.965 0.985 -46.794
260.028 0.03 -72.586 0.978 -7.412 0.016 58.804
          0.978 -7.372 0.03 -66.975 0.016 51.05
          0.016 58.775 0.016 51.23 0.983 -50.39
280.028 0.032 -73.598 0.978 -7.86 0.018 57.715
          0.978 -7.92 0.031 -69.211 0.017 49.376
          0.017 57.936 0.017 49.206 0.982 -53.942
300.028 0.035 -75.612 0.977 -8.459 0.018 56.018
          0.978 -8.489 0.033 -73.412 0.018 46.774
          0.018 56.118 0.018 46.974 0.98 -57.5
320.028 0.038 -77.122 0.975 -8.987 0.019 54.742
          0.976 -9.087 0.037 -75.921 0.019 45.084
          0.019 54.892 0.019 45.104 0.98 -60.896
340.027 0.041 -77.87 0.977 -9.546 0.02 53.628
          0.977 -9.576 0.041 -75.715 0.02 42.904
          0.02 53.247 0.02 42.644 0.981 -64.14
360.027 0.043 -78.001 0.976 -10.084 0.021 51.916
          0.976 -10.144 0.043 -74.538 0.021 40.616
          0.021 51.956 0.021 40.586 0.98 -67.36
380.027 0.044 -77.891 0.976 -10.633 0.022 50.476
          0.976 -10.713 0.043 -74.538 0.022 38.689
          0.022 50.396 0.022 38.449 0.978 -70.538
400.027 0.045 -78.393 0.976 -11.192 0.023 48.987
          0.975 -11.202 0.044 -76.285 0.023 36.554
          0.023 49.067 0.023 36.484 0.977 -73.723
420.027 0.046 -79.401 0.975 -11.71 0.023 47.67
          0.976 -11.76 0.045 -79.401 0.023 34.33
          0.024 47.75 0.024 34.441 0.975 -76.736
440.027 0.046 -81.77 0.975 -12.227 0.024 46.276
          0.975 -12.297 0.048 -82.017 0.024 32.347
          0.024 46.467 0.024 32.367 0.977 -79.668
460.027 0.048 -84.92 0.975 -12.775 0.025 45.203
          0.975 -12.815 0.052 -82.573 0.025 30.345
          0.025 45.093 0.025 30.524 0.975 -82.488
480.026 0.05 -88.157 0.975 -13.303 0.025 43.99
          0.976 -13.343 0.054 -81.977 0.025 28.753
          0.025 43.85 0.025 28.563 0.972 -85.267
500.026 0.053 -90.361 0.975 -13.841 0.026 43.02
          0.975 -13.921 0.056 -81.644 0.026 26.891
          0.026 42.74 0.026 26.642 0.97 -88.063
520.026 0.056 -91.591 0.975 -14.418 0.026 41.672
          0.975 -14.438 0.056 -82.858 0.026 25.011
          0.026 41.472 0.027 24.661 0.969 -90.819
540.026 0.058 -91.547 0.975 -14.935 0.027 40.483
          0.976 -14.995 0.057 -85.676 0.027 22.963
          0.027 40.363 0.027 22.823 0.971 -93.463
560.026 0.061 -91.404 0.975 -15.443 0.027 39.214
          0.975 -15.523 0.059 -88.218 0.027 21.184
          0.027 39.145 0.027 20.863 0.97 -95.889
580.026 0.062 -92.482 0.975 -15.98 0.028 37.887
          0.975 -16.03 0.063 -89.431 0.028 19.164
          0.028 37.968 0.028 19.064 0.969 -98.354
600.025 0.062 -93.148 0.975 -16.527 0.028 36.902
          0.975 -16.587 0.066 -89.249 0.028 17.405
          0.028 36.913 0.028 17.295 0.965 -100.798
620.025 0.063 -95.494 0.973 -17.085 0.028 36.108
          0.973 -17.105 0.067 -89.002 0.029 15.646
          0.028 35.938 0.029 15.566 0.964 -103.162
640.025 0.064 -98.222 0.973 -17.652 0.028 34.944
          0.973 -17.702 0.068 -89.97 0.029 13.777
          0.029 34.855 0.029 13.657 0.962 -105.556
660.025 0.066 -100.967 0.972 -18.158 0.029 34.233
          0.972 -18.248 0.069 -91.937 0.029 12.148
          0.029 33.862 0.029 11.989 0.962 -107.801
680.025 0.069 -103.153 0.973 -18.683 0.029 33.23
          0.972 -18.723 0.072 -93.78 0.029 10.52
          0.029 33.101 0.029 10.269 0.961 -109.917
700.025 0.072 -104.532 0.972 -19.19 0.029 32.297
          0.973 -19.27 0.075 -94.616 0.03 8.701
          0.029 32.138 0.03 8.441 0.96 -111.964
720.025 0.075 -105.548 0.972 -19.736 0.029 31.715
          0.972 -19.756 0.077 -94.452 0.03 7.24
          0.029 31.285 0.03 6.781 0.955 -114.1
740.024 0.078 -105.942 0.972 -20.274 0.029 30.855
          0.973 -20.314 0.078 -94.23 0.03 5.481
          0.029 30.646 0.03 5.14 0.957 -116.187
760.024 0.079 -106.299 0.973 -20.83 0.029 30.105
          0.973 -20.91 0.078 -95.304 0.03 3.791
          0.029 29.987 0.03 3.48 0.955 -118.256
780.024 0.08 -107.16 0.973 -21.366 0.029 29.417
          0.973 -21.356 0.078 -97.282 0.03 2.049
          0.03 29.116 0.03 1.85 0.956 -120.236
800.024 0.081 -108.298 0.972 -21.873 0.03 28.727
          0.973 -21.923 0.081 -98.809 0.031 0.328
          0.03 28.457 0.031 0.098 0.955 -122.098
820.024 0.082 -109.968 0.973 -22.398 0.03 28.016
          0.972 -22.488 0.084 -99.395 0.031 -1.243
          0.03 27.968 0.031 -1.524 0.953 -123.871
840.024 0.084 -111.678 0.972 -22.984 0.03 27.388
          0.972 -22.944 0.087 -99.006 0.031 -2.887
          0.03 27.479 0.031 -3.058 0.951 -125.686
860.024 0.086 -113.143 0.972 -23.45 0.03 27.231
          0.972 -23.52 0.087 -98.811 0.031 -4.352
          0.03 26.891 0.031 -4.752 0.95 -127.532
880.023 0.089 -114.219 0.971 -24.017 0.03 26.743
          0.971 -24.027 0.087 -99.475 0.031 -6.016
          0.03 26.242 0.031 -6.346 0.95 -129.419
900.023 0.091 -114.643 0.971 -24.543 0.03 26.434
          0.97 -24.603 0.087 -101.31 0.031 -7.22
          0.03 25.785 0.031 -7.951 0.951 -131.129
920.023 0.093 -114.758 0.972 -25.078 0.03 26.026
          0.97 -25.118 0.089 -103.003 0.031 -8.896
          0.029 25.698 0.031 -9.416 0.948 -132.7
940.023 0.094 -115.156 0.971 -25.644 0.03 25.608
          0.97 -25.674 0.092 -103.581 0.031 -10.572
          0.03 25.318 0.031 -10.893 0.947 -134.273
960.023 0.094 -115.69 0.968 -26.151 0.03 25.106
          0.97 -26.121 0.093 -103.401 0.031 -12.07
          0.03 25.088 0.031 -12.341 0.946 -135.958
980.023 0.094 -116.78 0.971 -26.658 0.03 24.938
          0.971 -26.688 0.093 -103.253 0.031 -13.609
          0.03 24.418 0.031 -14.029 0.945 -137.643
1000.023 0.094 -117.963 0.969 -27.194 0.029 24.553
          0.969 -27.234 0.092 -104.294 0.031 -15.567
          0.029 24.142 0.031 -15.748 0.946 -139.272
1020.022 0.095 -119.236 0.97 -27.73 0.029 24.374
          0.97 -27.73 0.092 -106.268 0.031 -16.987
          0.029 23.932 0.031 -17.248 0.947 -140.873
1040.022 0.096 -120.31 0.971 -28.246 0.029 24.192
          0.969 -28.296 0.094 -107.984 0.031 -18.449
          0.029 23.953 0.031 -18.82 0.947 -142.336
1060.022 0.097 -121.359 0.971 -28.741 0.029 24.102
          0.969 -28.761 0.097 -108.552 0.031 -19.94
          0.029 23.823 0.031 -20.36 0.946 -143.72
1080.022 0.098 -122.118 0.969 -29.317 0.029 24.023
          0.969 -29.307 0.098 -108.005 0.031 -21.573
          0.029 23.823 0.031 -21.763 0.945 -145.126
1100.022 0.099 -122.886 0.969 -29.815 0.029 24.16
          0.969 -29.835 0.097 -107.591 0.031 -23.03
          0.029 23.901 0.031 -23.471 0.943 -146.716
1120.022 0.098 -123.664 0.969 -30.293 0.029 24.106
          0.969 -30.353 0.095 -108.39 0.031 -24.657
          0.029 23.796 0.031 -24.997 0.944 -148.237
1140.021 0.097 -124.823 0.968 -30.86 0.029 24.222
          0.969 -30.9 0.095 -110.509 0.031 -26.263
          0.029 23.575 0.03 -27.022 0.947 -149.69
1160.021 0.097 -126.329 0.968 -31.356 0.029 24.282
          0.968 -31.456 0.096 -112.487 0.03 -27.672
          0.029 24.057 0.03 -28.371 0.947 -150.974
1180.021 0.097 -128.003 0.968 -31.931 0.029 24.198
          0.967 -32.001 0.1 -113.053 0.03 -29.638
          0.029 24.021 0.03 -30.078 0.945 -152.271
1200.021 0.098 -129.689 0.967 -32.407 0.029 24.569
          0.967 -32.477 0.102 -112.395 0.03 -31.319
          0.028 23.93 0.03 -31.667 0.943 -153.599
1220.021 0.099 -131.277 0.969 -32.964 0.029 24.507
          0.968 -33.024 0.102 -111.387 0.03 -32.821
          0.029 24.067 0.03 -33.091 0.945 -155.03
1240.021 0.1 -131.928 0.968 -33.422 0.029 24.631
          0.968 -33.502 0.1 -111.355 0.03 -34.215
          0.028 24.344 0.03 -34.835 0.945 -156.403
1260.021 0.101 -132.412 0.967 -33.958 0.029 24.977
          0.968 -33.998 0.098 -112.769 0.03 -36.028
          0.029 24.547 0.029 -36.107 0.945 -157.656
1280.02 0.101 -132.663 0.968 -34.575 0.029 24.959
          0.967 -34.585 0.099 -114.602 0.029 -37.631
          0.029 24.697 0.029 -37.983 0.946 -158.973
1300.02 0.101 -133.51 0.967 -35.051 0.029 25.107
          0.968 -35.081 0.101 -115.439 0.029 -39.245
          0.028 25.269 0.029 -39.515 0.945 -160.17
1320.02 0.1 -134.743 0.969 -35.608 0.029 25.331
          0.967 -35.628 0.103 -115.006 0.029 -40.882
          0.028 25.279 0.029 -41.034 0.944 -161.431
1340.02 0.1 -136.221 0.967 -36.065 0.029 25.683
          0.969 -36.105 0.103 -114.137 0.029 -42.542
          0.029 25.471 0.029 -42.623 0.942 -162.795
1360.02 0.1 -137.652 0.969 -36.604 0.029 25.703
          0.967 -36.644 0.101 -113.818 0.029 -44.162
          0.028 25.731 0.028 -44.274 0.942 -164.14
1380.02 0.101 -138.718 0.967 -37.232 0.029 25.727
          0.968 -37.192 0.099 -114.942 0.028 -45.905
          0.028 25.83 0.028 -46.012 0.943 -165.407
1400.019 0.103 -139.473 0.967 -37.689 0.029 26.033
          0.967 -37.689 0.1 -116.73 0.028 -47.713
          0.029 26.151 0.028 -47.735 0.945 -166.655
1420.019 0.104 -139.386 0.969 -38.274 0.029 26.356
          0.967 -38.304 0.102 -117.587 0.028 -49.453
          0.028 26.306 0.028 -49.403 0.944 -167.865
1440.019 0.105 -139.319 0.967 -38.771 0.029 26.451
          0.967 -38.771 0.104 -116.929 0.028 -51.086
          0.029 26.602 0.027 -50.996 0.943 -169.006
1460.019 0.104 -139.485 0.969 -39.29 0.029 26.671
          0.969 -39.34 0.104 -115.693 0.027 -52.883
          0.029 26.772 0.027 -53.002 0.942 -170.313
1480.019 0.103 -139.879 0.968 -39.86 0.029 26.929
          0.97 -39.9 0.102 -115.082 0.027 -54.739
          0.029 26.769 0.027 -54.719 0.943 -171.654
1500.019 0.103 -140.355 0.967 -40.339 0.029 27.043
          0.968 -40.329 0.099 -115.819 0.027 -56.387
          0.029 27.173 0.027 -56.227 0.944 -172.884
1520.019 0.103 -140.82 0.967 -40.878 0.029 27.046
          0.97 -40.878 0.099 -117.631 0.027 -58.195
          0.029 27.215 0.026 -57.926 0.945 -174.115
1540.018 0.103 -141.284 0.967 -41.396 0.029 27.474
          0.967 -41.446 0.101 -118.78 0.026 -60.17
          0.029 27.506 0.026 -59.999 0.945 -175.204
1560.018 0.104 -141.333 0.968 -41.942 0.029 27.683
          0.968 -41.992 0.103 -118.505 0.026 -61.865
          0.029 27.993 0.026 -61.844 0.943 -176.345
1580.018 0.104 -141.114 0.968 -42.55 0.029 27.659
          0.968 -42.6 0.104 -117.335 0.026 -63.872
          0.028 27.882 0.026 -63.658 0.942 -177.528
1600.018 0.103 -140.66 0.968 -43.02 0.029 28.081
          0.969 -43.09 0.102 -116.274 0.026 -65.762
          0.028 28.064 0.025 -65.559 0.942 -178.894
1620.018 0.102 -140.188 0.969 -43.511 0.029 28.184
          0.969 -43.611 0.099 -115.943 0.025 -67.828
          0.028 28.582 0.025 -67.668 0.941 179.869
1640.018 0.099 -140.636 0.966 -44.076 0.029 28.833
          0.968 -44.146 0.097 -117.659 0.025 -69.885
          0.028 28.945 0.025 -69.624 0.943 178.696
1660.018 0.097 -140.786 0.968 -44.595 0.029 29.097
          0.968 -44.635 0.099 -119.134 0.025 -71.881
          0.028 29.319 0.025 -71.609 0.943 177.669
1680.017 0.096 -141.458 0.968 -45.173 0.029 29.218
          0.968 -45.263 0.101 -119.285 0.025 -74.126
          0.028 29.587 0.025 -73.707 0.941 176.561
1700.017 0.094 -142.467 0.968 -45.722 0.028 29.668
          0.968 -45.792 0.103 -118.132 0.025 -76.011
          0.028 29.847 0.024 -75.92 0.939 175.339
1720.017 0.094 -143.373 0.968 -46.25 0.028 29.972
          0.968 -46.35 0.102 -116.732 0.024 -78.271
          0.028 30.471 0.024 -77.919 0.937 174.056
1740.017 0.094 -143.786 0.969 -46.851 0.028 30.473
          0.969 -46.931 0.099 -116.412 0.024 -80.611
          0.028 30.734 0.024 -80.309 0.938 172.843
1760.017 0.094 -143.984 0.97 -47.322 0.028 30.984
          0.97 -47.412 0.097 -117.647 0.024 -83.046
          0.028 31.216 0.024 -82.536 0.942 171.6
1780.017 0.094 -143.845 0.97 -47.912 0.028 31.487
          0.969 -48.022 0.097 -119.355 0.023 -84.972
          0.028 31.827 0.023 -84.533 0.942 170.51
1800.016 0.093 -143.754 0.968 -48.469 0.028 31.999
          0.969 -48.519 0.1 -119.985 0.023 -87.359
          0.028 32.538 0.023 -86.8 0.94 169.491
1820.016 0.091 -143.951 0.97 -48.987 0.028 32.587
          0.969 -49.077 0.102 -119.394 0.023 -89.708
          0.028 33.117 0.023 -89.12 0.94 168.38
1840.016 0.09 -144.675 0.969 -49.597 0.028 33.183
          0.969 -49.747 0.102 -118.008 0.023 -91.912
          0.028 33.83 0.023 -91.566 0.938 167.074
1860.016 0.089 -145.74 0.97 -50.047 0.028 34.106
          0.97 -50.137 0.1 -117.206 0.023 -94.489
          0.028 34.58 0.023 -93.504 0.939 165.892
1880.016 0.088 -147.111 0.97 -50.698 0.028 34.841
          0.969 -50.758 0.098 -117.87 0.023 -96.952
          0.028 35.361 0.023 -96.295 0.939 164.801
1900.016 0.089 -148.287 0.969 -51.168 0.028 35.787
          0.969 -51.278 0.098 -119.154 0.022 -99.307
          0.028 36.365 0.023 -98.786 0.94 163.762
1920.016 0.09 -149.087 0.97 -51.697 0.028 37.118
          0.969 -51.817 0.1 -120.291 0.022 -102.075
          0.028 37.518 0.022 -101.518 0.938 162.774
1940.015 0.092 -149.691 0.969 -52.314 0.028 38.194
          0.967 -52.374 0.102 -120.147 0.022 -104.603
          0.028 38.692 0.022 -104.252 0.936 161.653
1960.015 0.093 -149.448 0.968 -52.842 0.028 39.333
          0.969 -52.942 0.103 -119.284 0.022 -106.917
          0.028 39.863 0.022 -106.468 0.934 160.451
1980.015 0.094 -148.91 0.969 -53.361 0.028 40.522
          0.968 -53.461 0.102 -118.673 0.022 -109.485
          0.028 41.061 0.022 -109.185 0.936 159.301
2000.015 0.094 -148.403 0.968 -53.931 0.028 41.715
          0.968 -53.991 0.1 -118.956 0.022 -111.993
          0.028 42.176 0.022 -111.554 0.937 158.212
2020.015 0.094 -147.965 0.969 -54.492 0.028 42.862
          0.968 -54.582 0.1 -120.301 0.022 -114.388
          0.028 43.153 0.022 -114.039 0.936 157.237
2040.015 0.093 -148.25 0.968 -55.072 0.029 44.124
          0.967 -55.122 0.101 -121.401 0.022 -116.89
          0.029 44.571 0.022 -116.716 0.933 156.262
2060.015 0.093 -148.799 0.968 -55.621 0.029 45.197
          0.967 -55.701 0.104 -121.675 0.022 -119.558
          0.029 45.698 0.022 -119.178 0.931 155.144
2080.014 0.094 -149.646 0.968 -56.208 0.029 46.078
          0.969 -56.288 0.106 -120.726 0.022 -121.911
          0.029 46.841 0.022 -121.811 0.932 154.019
2100.014 0.095 -150.404 0.968 -56.727 0.03 47.408
          0.969 -56.787 0.105 -119.963 0.022 -124.426
          0.03 47.977 0.022 -124.461 0.932 152.802
2120.014 0.097 -150.224 0.969 -57.278 0.03 48.677
          0.968 -57.388 0.103 -120.509 0.022 -127.202
          0.03 49.172 0.022 -127.234 0.934 151.841
2140.014 0.099 -149.607 0.969 -57.837 0.031 49.919
          0.969 -57.897 0.103 -122.283 0.022 -129.973
          0.031 50.199 0.022 -129.761 0.934 150.86
2160.014 0.1 -148.609 0.969 -58.398 0.031 51.029
          0.969 -58.458 0.104 -123.829 0.022 -132.911
          0.032 50.974 0.022 -132.289 0.932 149.951
2180.014 0.1 -147.45 0.968 -58.987 0.032 51.945
          0.967 -59.007 0.107 -124.433 0.022 -135.193
          0.032 52.085 0.022 -135.321 0.929 148.932
2200.013 0.099 -146.82 0.967 -59.526 0.033 52.748
          0.967 -59.606 0.11 -123.8 0.023 -137.665
          0.033 52.924 0.023 -137.713 0.928 147.762
2220.013 0.097 -146.996 0.967 -60.146 0.034 53.46
          0.967 -60.206 0.11 -122.827 0.023 -140.643
          0.034 53.47 0.023 -140.504 0.929 146.644
2240.013 0.096 -147.598 0.968 -60.718 0.034 53.854
          0.967 -60.718 0.108 -122.629 0.023 -143.028
          0.035 54.258 0.023 -143.222 0.929 145.67
2260.013 0.095 -148.387 0.968 -61.28 0.035 54.323
          0.968 -61.35 0.106 -123.934 0.023 -145.868
          0.036 54.417 0.023 -145.778 0.929 144.768
2280.013 0.097 -149.695 0.967 -61.802 0.036 54.858
          0.967 -61.882 0.108 -125.981 0.023 -148.189
          0.036 55.07 0.023 -147.899 0.927 143.938
2300.013 0.1 -149.69 0.967 -62.291 0.037 55.288
          0.967 -62.421 0.111 -127.165 0.024 -150.517
          0.037 55.505 0.024 -150.316 0.925 142.95
2320.013 0.101 -149.964 0.965 -62.959 0.038 55.705
          0.967 -63.019 0.114 -126.872 0.024 -152.866
          0.038 55.856 0.024 -152.982 0.923 141.912
2340.012 0.102 -149.089 0.965 -63.468 0.039 56.163
          0.966 -63.538 0.115 -125.882 0.025 -155.054
          0.039 56.142 0.025 -155.162 0.922 140.825
2360.012 0.101 -148.261 0.965 -64.088 0.04 56.172
          0.966 -64.118 0.114 -125.273 0.025 -157.398
          0.04 56.054 0.025 -157.567 0.923 139.74
2380.012 0.1 -148.262 0.965 -64.641 0.04 56.396
          0.966 -64.751 0.111 -126.362 0.025 -159.521
          0.041 56.177 0.025 -159.987 0.922 138.939
2400.012 0.099 -148.192 0.966 -65.264 0.041 56.449
          0.968 -65.294 0.112 -128.331 0.026 -162.082
          0.042 56.228 0.026 -162.184 0.924 138.049
2420.012 0.099 -150.017 0.966 -65.796 0.042 56.417
          0.967 -65.916 0.114 -129.874 0.026 -164.106
          0.042 56.319 0.027 -164.729 0.92 137.091
2440.012 0.1 -150.545 0.965 -66.347 0.043 56.517
          0.966 -66.437 0.118 -130.357 0.027 -166.402
          0.043 56.238 0.027 -166.592 0.918 136.067
2460.012 0.102 -152.266 0.964 -66.967 0.044 56.266
          0.966 -67.077 0.12 -129.744 0.028 -168.437
          0.044 56.345 0.028 -168.476 0.918 134.994
2480.011 0.104 -152.862 0.965 -67.457 0.045 56.356
          0.965 -67.637 0.119 -129.681 0.028 -170.381
          0.045 56.318 0.028 -170.637 0.92 134.034
2500.011 0.107 -152.873 0.964 -68.119 0.046 56.433
          0.966 -68.209 0.118 -130.703 0.029 -172.53
          0.046 56.022 0.029 -172.772 0.919 133.176
2520.011 0.108 -153.062 0.964 -68.682 0.046 56.187
