!Hittite Microwave Corporation								
!20 Alpha Road								
!Chelmsford, MA 01824								
!Tel: 978-250-3343								
!Fax: 978-250-3373								
!Device: HMC518, 20-32 GHz, GaAs PHEMT MMIC Low Noise Amplifier Die																
!Misc: Vdd1 = Vdd2 = Vdd3 = +2.5V, data includes two K connectors, Room							
!
# MHZ S MA R 50

14831 0.823 68.934 2.616 103.689 2.071e-3 -68.304 0.552 116.035
15032.75 0.772 47.665 2.928 91.347 2.081e-3 -79.885 0.534 106.345
15234.5 0.713 23.907 3.243 73.403 1.782e-3 -100.443 0.515 96.47
15436.25 0.632 -3.832 3.736 57.011 1.751e-3 -90.033 0.495 86.732
15638 0.567 -33.035 3.987 41.035 1.698e-3 -97.941 0.472 76.833
15839.75 0.511 -64.78 4.44 21.696 1.242e-3 -112.443 0.449 66.904
16041.5 0.479 -96.222 4.552 3.032 951.7e-6 -135.39 0.425 57.03
16243.25 0.462 -127.378 4.566 -13.727 779.5e-6 -130.522 0.401 47.122
16445 0.462 -155.065 4.654 -29.747 516.4e-6 -125.154 0.375 37.002
16646.75 0.47 -179.176 4.684 -44.437 422.1e-6 -147.801 0.35 26.723
16848.5 0.479 160.024 4.717 -59.796 418.2e-6 -157.916 0.325 16.112
17050.25 0.485 141.903 4.684 -73.133 331.8e-6 -117.399 0.301 5.527
17252 0.485 125.095 4.723 -87.264 128.9e-6 -58.006 0.275 -5.603
17453.75 0.482 109.704 4.685 -100.102 155.3e-6 87.52 0.253 -17.147
17655.5 0.475 94.98 4.67 -112.926 51.86e-6 100.238 0.231 -28.991
17857.25 0.465 81.094 4.634 -125.201 111e-6 66.518 0.211 -41.669
18059 0.453 67.772 4.638 -136.645 387.6e-6 30.225 0.193 -54.863
18260.75 0.44 54.781 4.64 -148.189 419.2e-6 27.207 0.176 -68.748
18462.5 0.424 42.321 4.692 -159.278 529.4e-6 42.106 0.163 -83.271
18664.25 0.403 29.635 4.741 -170.649 755.7e-6 29.593 0.151 -98.284
18866 0.382 16.904 4.777 178.109 1.132e-3 34.008 0.142 -113.77
19067.75 0.361 3.777 4.821 166.964 1.17e-3 26.278 0.135 -129.989
19269.5 0.343 -8.89 4.847 156.074 1.392e-3 12.147 0.132 -146.188
19471.25 0.322 -21.23 4.907 145.281 1.763e-3 3.265 0.131 -162.108
19673 0.305 -33.54 4.984 134.475 2.225e-3 3.067 0.131 -177.63
19874.75 0.286 -45.865 5.041 123.183 2.612e-3 -0.866 0.134 167.7
20076.5 0.27 -58.756 5.085 112.232 3.1e-3 -11.15 0.136 153.825
20278.25 0.258 -71.629 5.132 101.261 3.486e-3 -23.661 0.137 141.3
20480 0.248 -85.149 5.168 90.315 3.622e-3 -36.492 0.138 129.852
20681.75 0.242 -98.296 5.209 79.45 3.672e-3 -43.41 0.138 119.395
20883.5 0.237 -110.887 5.221 69.017 3.822e-3 -50.638 0.139 109.668
21085.25 0.232 -122.747 5.281 57.915 4.231e-3 -58.054 0.139 100.08
21287 0.227 -134.211 5.268 47.228 4.557e-3 -67.119 0.138 90.73
21488.75 0.225 -145.656 5.226 36.617 4.506e-3 -73.587 0.134 81.591
21690.5 0.225 -156.558 5.228 27.159 4.673e-3 -78.925 0.129 72.129
21892.25 0.226 -166.84 5.283 16.928 4.756e-3 -86.525 0.125 63.378
22094 0.228 -176.14 5.324 6.692 5.235e-3 -92.309 0.117 54.052
22295.75 0.229 175.022 5.33 -3.444 5.44e-3 -99.087 0.109 44.874
22497.5 0.23 166.822 5.379 -13.406 5.516e-3 -107.696 0.1 35.266
22699.25 0.23 158.606 5.411 -23.701 5.76e-3 -115.032 0.09 24.537
22901 0.23 150.429 5.443 -33.811 6.006e-3 -120.509 0.079 12.549
23102.75 0.231 142.381 5.466 -43.924 6.317e-3 -127.906 0.069 -1.239
23304.5 0.236 134.588 5.496 -54.091 6.402e-3 -135.703 0.059 -18.016
23506.25 0.242 127.669 5.519 -64.144 6.507e-3 -143.622 0.051 -38.679
23708 0.244 121.528 5.547 -74.068 6.632e-3 -151.816 0.046 -63.778
23909.75 0.243 115.386 5.579 -84.175 6.83e-3 -157.88 0.047 -90.982
24111.5 0.239 108.659 5.604 -94.258 7.211e-3 -162.742 0.053 -115.629
24313.25 0.235 101.703 5.625 -104.437 7.356e-3 -172.743 0.062 -136.021
24515 0.233 94.759 5.651 -114.588 7.408e-3 177.724 0.076 -152.35
24716.75 0.231 87.889 5.651 -124.716 7.829e-3 170.95 0.091 -164.889
24918.5 0.228 81.597 5.701 -134.915 7.915e-3 163.148 0.106 -175.332
25120.25 0.222 76.213 5.708 -145.407 7.975e-3 156.828 0.121 174.617
25322 0.212 71.109 5.68 -156.203 8.278e-3 149.757 0.135 165.413
25523.75 0.196 66.77 5.615 -166.295 8.353e-3 142.835 0.149 158.023
25725.5 0.177 61.65 5.516 -176.243 8.808e-3 134.427 0.163 151.246
25927.25 0.159 55.922 5.429 174.273 9.29e-3 126.511 0.178 144.394
26129 0.143 50.326 5.4 165.402 9.702e-3 118.976 0.191 138.167
26330.75 0.128 46.194 5.415 156.103 9.724e-3 111.163 0.201 132.541
26532.5 0.113 46.044 5.436 146.632 9.732e-3 101.706 0.212 126.524
26734.25 0.1 49.359 5.455 137.028 0.01 90.819 0.225 121.066
26936 0.089 57.608 5.547 127.352 0.011 82.399 0.234 116.142
27137.75 0.083 70.371 5.589 116.883 0.011 74.733 0.241 110.678
27339.5 0.087 82.181 5.573 106.109 0.011 67.093 0.25 105.156
27541.25 0.099 91.043 5.519 95.856 0.011 57.756 0.261 100.137
27743 0.118 95.025 5.477 85.742 0.012 48.37 0.27 95.253
27944.75 0.142 94.423 5.427 75.61 0.012 39.101 0.28 89.942
28146.5 0.17 91.525 5.367 65.543 0.013 30.348 0.29 84.591
28348.25 0.197 87.274 5.32 55.345 0.013 22.544 0.301 79.177
28550 0.223 82.427 5.241 44.997 0.013 14.352 0.311 73.775
28751.75 0.249 76.631 5.156 35.041 0.013 5.734 0.323 68.068
28953.5 0.273 70.407 5.06 24.803 0.013 -3.999 0.335 61.447
29155.25 0.294 63.485 4.928 15.37 0.014 -12.107 0.344 55.461
29357 0.315 56.264 4.819 6.494 0.014 -20.692 0.352 49.071
29558.75 0.332 48.686 4.85 -1.907 0.014 -28.405 0.358 41.871
29760.5 0.35 40.511 4.859 -12.251 0.015 -37.362 0.363 34.368
29962.25 0.365 33.047 4.83 -22.451 0.015 -44.24 0.366 27.09
30164 0.377 25.489 4.775 -31.39 0.015 -54.828 0.365 19.502
30365.75 0.385 18.397 4.75 -42.613 0.015 -62.777 0.363 11.966
30567.5 0.39 10.987 4.625 -51.436 0.016 -70.196 0.355 4.599
30769.25 0.397 3.742 4.588 -60.354 0.017 -80.755 0.347 -2.508
30971 0.401 -3.515 4.843 -69.785 0.017 -87.128 0.335 -9.56
31172.75 0.41 -10.5 4.797 -82.963 0.018 -94.409 0.324 -15.928
31374.5 0.419 -16.911 4.714 -93.44 0.019 -101.68 0.308 -21.19
31576.25 0.432 -22.772 4.754 -102.721 0.019 -116.254 0.291 -25.931
31778 0.445 -27.731 4.846 -116.769 0.02 -125.656 0.279 -29.24
31979.75 0.462 -33.113 4.703 -130.799 0.02 -139.37 0.275 -31.36
32181.5 0.48 -39.372 4.284 -143.017 0.016 -142.715 0.275 -31.307
32383.25 0.502 -46.653 4.194 -152.557 0.021 -149.225 0.286 -32.739
32585 0.535 -54.548 3.998 -163.753 0.021 -170.369 0.307 -34.759
32786.75 0.573 -62.616 3.841 -176.724 0.019 -176.31 0.336 -38.1
32988.5 0.614 -71.103 3.594 174.391 0.018 166.837 0.371 -43.7
33190.25 0.65 -79.605 3.512 161.741 0.016 160.854 0.411 -50.386
33392 0.686 -88.983 3.37 150.701 0.018 152.677 0.45 -58.109
33593.75 0.715 -98.418 3.072 137.5 0.017 144.816 0.488 -66.808
33795.5 0.735 -108.257 2.954 125.945 0.016 126.42 0.526 -76.186
33997.25 0.758 -117.912 2.534 113.068 0.015 113.403 0.56 -85.519
34199 0.778 -127.374 2.26 105.159 0.016 103.218 0.594 -95.003
34400.75 0.803 -136.971 2.118 99.976 0.012 95.665 0.619 -104.699
34602.5 0.819 -146.36 2.111 87.451 0.011 89.572 0.642 -114.364
34804.25 0.832 -155.265 1.884 75.593 0.01 79.953 0.666 -123.425
35006 0.837 -164.244 1.684 64.323 0.01 75.43 0.682 -132.643
