!Hittite Microwave Corporation								
!20 Alpha Road								
!Chelmsford, MA 01824								
!Tel: 978-250-3343								
!Fax: 978-250-3373								
!Device: HMC517, 17-26 GHz, GaAs PHEMT MMIC Low Noise Amplifier Die																
!Misc: Vdd1 = Vdd2 = Vdd3 = +3.5V, data includes two K connectors, Room							
!
# MHZ S MA R 50

12035 0.949 -58.829 2.382 -65.006 3.136e-3 59.125 0.917 -114.767
12236.65 0.93 -76.036 2.611 -82.294 2.659e-3 49.259 0.909 -123.697
12438.3 0.902 -92.013 2.895 -94.586 3.175e-3 40.193 0.905 -133.11
12639.95 0.874 -108.362 3.265 -111.033 2.783e-3 20.317 0.898 -142.221
12841.6 0.84 -124.058 3.457 -127.542 3.018e-3 22.463 0.892 -151.898
13043.25 0.799 -139.838 4.166 -141.781 2.545e-3 7.643 0.887 -161.307
13244.9 0.76 -155.385 3.933 -161.944 2.858e-3 6.281 0.878 -170.996
13446.55 0.713 -170.938 4.495 -172.982 3.223e-3 -10.311 0.872 179.256
13648.2 0.668 173.859 4.404 172.912 2.874e-3 -10.032 0.86 169.354
13849.85 0.622 158.565 5.353 161.633 3.229e-3 -29.317 0.85 159.465
14051.5 0.573 143.355 5.562 143.71 2.951e-3 -37.491 0.838 149.388
14253.15 0.527 128.881 6.395 130.38 3.165e-3 -44.79 0.823 139.204
14454.8 0.483 113.551 6.806 109.724 2.866e-3 -56.979 0.806 128.957
14656.45 0.437 99.842 6.925 92.958 2.675e-3 -62.716 0.788 118.656
14858.1 0.397 85.397 6.589 75.601 2.386e-3 -75.608 0.765 108.298
15059.75 0.357 71.191 6.649 66.338 2.617e-3 -80.504 0.743 98.058
15261.4 0.318 57.673 6.677 52.117 2.517e-3 -84.734 0.716 87.796
15463.05 0.291 43.733 7.155 41.834 2.095e-3 -93.678 0.69 77.244
15664.7 0.254 30.068 7.41 30.613 2.016e-3 -101.29 0.658 66.952
15866.35 0.229 16.373 8.053 15.257 2.194e-3 -112.79 0.628 56.474
16068 0.204 1.658 8.179 0.791 1.959e-3 -118.912 0.596 46.227
16269.65 0.18 -13.307 8.302 -11.616 1.896e-3 -133.363 0.562 36.06
16471.3 0.167 -26.89 8.714 -24.814 1.844e-3 -142.205 0.529 25.803
16672.95 0.148 -43.79 9.032 -37.804 1.745e-3 -154.775 0.496 15.674
16874.6 0.139 -57.854 9.322 -52.212 1.662e-3 -166.911 0.463 5.703
17076.25 0.132 -74.311 9.48 -65.288 1.553e-3 -174.775 0.432 -4.263
17277.9 0.128 -89.46 9.711 -79.513 1.498e-3 169.543 0.402 -14.217
17479.55 0.124 -101.093 9.736 -92.843 1.626e-3 155.647 0.375 -24.03
17681.2 0.125 -116.389 9.758 -106.028 1.744e-3 136.308 0.35 -33.736
17882.85 0.123 -126.641 9.722 -118.791 1.736e-3 126.558 0.327 -43.438
18084.5 0.128 -138.159 9.738 -130.874 1.797e-3 109.153 0.307 -53.249
18286.15 0.13 -147.962 9.738 -143.025 2.015e-3 94.872 0.289 -62.998
18487.8 0.131 -157.155 9.819 -154.757 2.198e-3 79.744 0.273 -72.859
18689.45 0.14 -166.644 9.884 -166.884 2.299e-3 70.336 0.259 -82.908
18891.1 0.141 -175.526 9.908 -178.83 2.483e-3 55.476 0.246 -93.062
19092.75 0.15 176.346 9.912 169.234 2.798e-3 44.395 0.235 -102.916
19294.4 0.152 168.624 9.875 157.666 3.066e-3 35.798 0.225 -113
19496.05 0.157 160.897 9.887 146.373 3.361e-3 28.512 0.216 -122.797
19697.7 0.163 154.187 9.934 134.97 3.594e-3 18.913 0.21 -132.464
19899.35 0.164 146.408 9.981 123.13 3.889e-3 8.667 0.204 -141.75
20101 0.169 140.155 9.96 111.595 4.137e-3 1.167 0.199 -150.892
20302.65 0.17 133.004 9.921 100.165 4.506e-3 -7.395 0.195 -159.687
20504.3 0.173 126.232 9.904 88.769 4.854e-3 -14.386 0.192 -167.883
20705.95 0.175 120.138 9.86 77.552 5.286e-3 -24.263 0.189 -175.762
20907.6 0.178 113.178 9.801 66.506 5.615e-3 -35.688 0.186 176.941
21109.25 0.18 107.526 9.869 55.388 5.769e-3 -43.415 0.185 170.126
21310.9 0.182 100.672 9.817 43.557 5.92e-3 -49.685 0.184 163.906
21512.55 0.181 94.112 9.648 31.806 6.263e-3 -58.495 0.183 158.271
21714.2 0.18 87.259 9.404 21.25 6.542e-3 -66.917 0.182 152.601
21915.85 0.18 79.316 9.363 11.143 6.88e-3 -72.958 0.18 147.518
22117.5 0.175 71.309 9.331 0.472 7.332e-3 -80.173 0.18 143.173
22319.15 0.174 63.587 9.241 -10.443 7.356e-3 -88.525 0.179 139.418
22520.8 0.164 54.7 9.143 -20.823 7.533e-3 -96.998 0.179 136.064
22722.45 0.155 46.126 9.092 -31.323 7.827e-3 -104.761 0.18 133.082
22924.1 0.143 35.633 9.02 -41.912 8.051e-3 -112.421 0.182 130.947
23125.75 0.128 24.152 8.951 -52.606 8.268e-3 -120.78 0.184 128.984
23327.4 0.113 12.814 8.918 -62.731 8.72e-3 -128.414 0.189 127.322
23529.05 0.096 -4.732 8.855 -73.513 9.056e-3 -136.263 0.196 125.691
23730.7 0.076 -21.85 8.75 -84.245 9.133e-3 -144.395 0.206 124.041
23932.35 0.069 -48.822 8.616 -95.053 9.277e-3 -151.946 0.218 122.281
24134 0.065 -82.316 8.514 -105.63 9.506e-3 -160.963 0.232 119.759
24335.65 0.073 -111.327 8.357 -116.376 9.878e-3 -169.555 0.247 116.813
24537.3 0.091 -131.309 8.224 -126.952 0.01 -177.548 0.264 113.335
24738.95 0.116 -153.502 8.082 -136.827 0.011 173.836 0.281 109.352
24940.6 0.138 -162.864 7.941 -148.442 0.011 164.626 0.296 104.539
25142.25 0.163 -176.331 7.678 -158.568 0.011 155.89 0.311 99.574
25343.9 0.19 173.586 7.372 -168.424 0.011 146.584 0.326 94.278
25545.55 0.2 165.458 7.268 -177.155 0.011 135.496 0.337 89.249
25747.2 0.246 154.308 7.157 174.176 0.011 128.094 0.348 83.922
25948.85 0.253 151.786 7.149 165.668 0.011 120.896 0.353 78.326
26150.5 0.286 141.367 7.328 155.205 0.011 112.701 0.356 72.774
26352.15 0.313 137.865 7.372 144.699 0.012 106.239 0.354 67.605
26553.8 0.305 131.971 7.427 133.257 0.012 97.41 0.352 62.576
26755.45 0.367 124.329 7.444 122.295 0.012 85.441 0.344 58.874
26957.1 0.353 122.199 7.464 109.423 0.012 75.762 0.336 54.773
27158.75 0.413 112.795 7.269 96.459 0.013 66.438 0.33 51.46
27360.4 0.451 110.023 7.04 84.411 0.013 55.078 0.325 49.683
27562.05 0.456 104.189 6.75 72.776 0.013 45.119 0.324 48.752
27763.7 0.553 96.864 6.514 60.573 0.013 34.262 0.33 48.366
27965.35 0.537 92.209 6.197 48.36 0.013 23.981 0.346 47.507
28167 0.636 83.152 5.869 36.247 0.013 13.918 0.376 45.36
28368.65 0.658 75.656 5.498 24.227 0.012 3.117 0.41 41.964
28570.3 0.676 67.853 5.03 12.885 0.011 -7.447 0.445 37.429
28771.95 0.772 58.279 4.63 1.331 0.011 -16.205 0.482 31.942
28973.6 0.726 49.666 4.2 -9.32 0.011 -27.236 0.516 25.296
29175.25 0.823 41.413 3.754 -18.337 0.01 -36.118 0.546 18.473
29376.9 0.798 31.197 3.44 -25.835 0.01 -43.288 0.573 11.072
29578.55 0.817 24.655 3.326 -34.007 9.074e-3 -50.196 0.598 3.238
29780.2 0.869 15.907 3.007 -44.474 8.859e-3 -58.567 0.622 -4.494
29981.85 0.81 5.632 2.774 -53.581 8.305e-3 -61.374 0.639 -11.968
30183.5 0.884 1.126 2.564 -59.58 7.823e-3 -74.017 0.654 -19.863
30385.15 0.84 -11.07 2.29 -70.515 7.428e-3 -79.919 0.668 -27.492
30586.8 0.861 -15.75 2.122 -73.861 7.436e-3 -83.207 0.68 -35.389
30788.45 0.896 -24.079 2.001 -78.808 6.707e-3 -88.649 0.689 -43.37
30990.1 0.841 -34.783 2.103 -90.025 7.055e-3 -91.421 0.7 -51.355
31191.75 0.902 -37.564 1.793 -99.702 6.333e-3 -101.353 0.709 -59.147
31393.4 0.872 -50.344 1.669 -104.89 6.933e-3 -99.807 0.712 -67.057
31595.05 0.862 -54.394 1.709 -112.383 6.717e-3 -111.225 0.72 -75.298
31796.7 0.906 -63.561 1.508 -127.096 6.382e-3 -121.165 0.727 -83.368
31998.35 0.839 -74.525 1.231 -135.211 5.445e-3 -125.274 0.728 -90.987
32200 0.903 -77.028 1.06 -130.129 4.704e-3 -115.941 0.734 -99.218
