!Hittite Microwave Corporation								
!20 Alpha Road								
!Chelmsford, MA 01824								
!Tel: 978-250-3343								
!Fax: 978-250-3373								
!Device: HMC536MS8G, DC-6 GHz, GaAs MMIC Positive Control T/R Switch in 8 lead MSOP8G SMT package with exposed ground paddle  															
!Misc: Vctl = 5V, Port1 = RFC, Port2 = RF1, Port3 = RF2, RF2 ON, Room
!
# MHZ S MA R 50

50 0.045 5.079 2.642e-3 93.734 0.94 -1.934
          2.645e-3 94.184 0.987 -6.554 2.437e-3 93.851
          0.94 -1.894 2.434e-3 93.221 0.052 -1.515
79.75 0.047 6.324 4.367e-3 88.863 0.939 -2.886
          4.355e-3 88.964 0.988 -10.163 4.109e-3 88.405
          0.94 -2.901 4.098e-3 88.37 0.051 0.393
109.5 0.049 7.466 5.687e-3 81.724 0.939 -3.917
          5.693e-3 82.081 0.987 -13.95 5.169e-3 83.985
          0.939 -3.927 5.175e-3 83.906 0.052 0.256
139.25 0.051 8.085 7.277e-3 80.367 0.938 -4.959
          7.259e-3 80.468 0.984 -17.689 6.688e-3 82.37
          0.939 -4.964 6.7e-3 82.389 0.053 0.035
169 0.053 8.533 8.989e-3 77.895 0.937 -5.982
          8.979e-3 77.906 0.981 -21.396 8.244e-3 80.066
          0.938 -5.982 8.254e-3 80.047 0.053 -0.322
198.75 0.055 8.275 0.01 74.497 0.937 -6.993
          0.01 74.497 0.979 -25.088 9.578e-3 77.129
          0.938 -7.002 9.583e-3 77.189 0.053 -1.048
228.5 0.057 7.836 0.012 72.206 0.938 -8.014
          0.012 72.235 0.977 -28.767 0.011 75.065
          0.938 -8.005 0.011 74.987 0.053 -1.571
258.25 0.059 6.984 0.013 69.593 0.937 -9.022
          0.013 69.637 0.974 -32.397 0.012 72.001
          0.938 -9.032 0.012 71.966 0.054 -1.961
288 0.061 5.974 0.015 67.041 0.937 -10.049
          0.015 67.12 0.97 -36.033 0.014 70.493
          0.937 -10.04 0.014 70.473 0.054 -2.97
317.75 0.062 4.889 0.016 64.586 0.937 -11.052
          0.016 64.621 0.966 -39.619 0.015 68.342
          0.937 -11.062 0.015 68.361 0.055 -3.274
347.5 0.064 3.541 0.018 61.93 0.937 -12.045
          0.018 61.911 0.962 -43.16 0.016 66.125
          0.937 -12.074 0.016 66.116 0.055 -3.752
377.25 0.066 1.883 0.019 59.614 0.936 -13.062
          0.019 59.608 0.957 -46.69 0.018 64.086
          0.937 -13.072 0.018 64.105 0.056 -4.431
407 0.067 0.393 0.02 57.278 0.936 -14.069
          0.02 57.287 0.953 -50.156 0.019 61.977
          0.936 -14.079 0.019 61.988 0.056 -4.858
436.75 0.069 -1.509 0.022 54.447 0.935 -15.071
          0.022 54.487 0.948 -53.605 0.02 59.857
          0.936 -15.081 0.02 59.872 0.056 -5.243
466.5 0.07 -3.456 0.023 52.153 0.935 -16.073
          0.023 52.155 0.943 -57.02 0.021 57.826
          0.936 -16.083 0.021 57.836 0.057 -5.795
496.25 0.071 -5.526 0.024 49.868 0.936 -17.071
          0.024 49.878 0.939 -60.384 0.022 55.842
          0.936 -17.081 0.022 55.853 0.057 -6.116
526 0.072 -7.55 0.025 47.556 0.936 -18.077
          0.025 47.557 0.933 -63.703 0.024 53.783
          0.936 -18.077 0.024 53.802 0.057 -6.727
555.75 0.073 -9.568 0.026 45.149 0.934 -19.073
          0.026 45.164 0.927 -66.978 0.025 51.622
          0.936 -19.087 0.025 51.637 0.058 -7.32
585.5 0.073 -11.744 0.027 42.884 0.934 -20.08
          0.027 42.875 0.922 -70.209 0.026 49.741
          0.934 -20.091 0.026 49.742 0.058 -7.853
615.25 0.074 -13.908 0.028 40.598 0.934 -21.077
          0.028 40.594 0.916 -73.397 0.027 47.82
          0.935 -21.092 0.027 47.828 0.058 -8.193
645 0.074 -16.068 0.029 38.317 0.934 -22.073
          0.029 38.325 0.91 -76.53 0.028 45.669
          0.935 -22.083 0.028 45.68 0.059 -8.496
674.75 0.074 -18.365 0.03 36.152 0.934 -23.084
          0.03 36.147 0.904 -79.625 0.029 43.796
          0.934 -23.094 0.029 43.806 0.059 -8.85
704.5 0.074 -20.695 0.031 33.951 0.935 -24.076
          0.031 33.951 0.9 -82.667 0.029 41.895
          0.935 -24.086 0.029 41.905 0.06 -9.074
734.25 0.073 -23.151 0.032 31.803 0.934 -25.076
          0.032 31.803 0.895 -85.682 0.03 40.013
          0.935 -25.086 0.03 40.029 0.06 -9.352
764 0.072 -25.654 0.033 29.721 0.934 -26.076
          0.033 29.721 0.889 -88.654 0.031 38.292
          0.934 -26.086 0.031 38.312 0.06 -9.52
793.75 0.071 -28.078 0.034 27.683 0.933 -27.062
          0.034 27.688 0.883 -91.567 0.032 36.529
          0.934 -27.072 0.032 36.534 0.061 -9.746
823.5 0.07 -30.415 0.035 25.671 0.933 -28.048
          0.034 25.68 0.877 -94.435 0.033 34.758
          0.934 -28.058 0.033 34.777 0.062 -9.995
853.25 0.068 -32.665 0.035 23.589 0.933 -29.047
          0.035 23.577 0.872 -97.284 0.033 33.096
          0.933 -29.051 0.033 33.11 0.063 -10.586
883 0.066 -35.006 0.036 21.431 0.933 -30.047
          0.036 21.477 0.866 -100.084 0.034 31.467
          0.933 -30.057 0.034 31.487 0.063 -11.039
912.75 0.065 -37.443 0.036 19.465 0.933 -31.046
          0.036 19.463 0.861 -102.832 0.034 29.816
          0.933 -31.066 0.034 29.814 0.063 -11.257
942.5 0.062 -39.891 0.037 17.497 0.932 -32.055
          0.037 17.543 0.855 -105.569 0.035 28.194
          0.933 -32.066 0.035 28.21 0.064 -11.495
972.25 0.06 -42.319 0.038 15.586 0.932 -33.051
          0.038 15.582 0.851 -108.25 0.036 26.591
          0.932 -33.055 0.036 26.607 0.064 -11.951
1002 0.057 -44.725 0.038 13.664 0.933 -34.044
          0.038 13.662 0.847 -110.909 0.036 25.063
          0.933 -34.054 0.036 25.064 0.065 -12.153
1031.75 0.054 -46.847 0.039 11.826 0.932 -35.044
          0.038 11.835 0.842 -113.533 0.037 23.563
          0.933 -35.047 0.037 23.569 0.066 -12.374
1061.5 0.051 -48.948 0.039 9.988 0.932 -36.043
          0.039 9.992 0.837 -116.118 0.037 22.084
          0.932 -36.053 0.037 22.106 0.066 -12.63
1091.25 0.048 -50.942 0.039 8.184 0.932 -37.049
          0.039 8.214 0.832 -118.697 0.038 20.652
          0.932 -37.043 0.038 20.689 0.066 -12.797
1121 0.044 -52.745 0.04 6.416 0.931 -38.024
          0.04 6.425 0.827 -121.235 0.038 19.223
          0.932 -38.042 0.038 19.241 0.067 -12.944
1150.75 0.04 -54.371 0.04 4.679 0.931 -39.025
          0.04 4.687 0.822 -123.758 0.038 17.858
          0.932 -39.041 0.038 17.866 0.068 -13.135
1180.5 0.036 -55.896 0.04 2.934 0.931 -40.015
          0.04 2.96 0.817 -126.216 0.039 16.599
          0.931 -40.025 0.039 16.62 0.068 -13.481
1210.25 0.031 -56.837 0.04 1.321 0.931 -41.014
          0.04 1.312 0.813 -128.633 0.039 15.328
          0.931 -41.03 0.039 15.331 0.069 -13.99
1240 0.027 -56.471 0.041 -0.37 0.93 -42.013
          0.041 -0.352 0.809 -131.097 0.039 14.112
          0.93 -42.023 0.039 14.093 0.07 -14.198
1269.75 0.023 -54.773 0.041 -1.994 0.93 -42.99
          0.041 -1.976 0.804 -133.518 0.039 12.867
          0.93 -43.007 0.039 12.892 0.07 -14.003
1299.5 0.018 -50.727 0.041 -3.537 0.931 -44.011
          0.041 -3.516 0.801 -135.923 0.04 11.723
          0.931 -43.995 0.04 11.749 0.071 -14.072
1329.25 0.014 -41.378 0.041 -5.033 0.93 -45.003
          0.041 -5.01 0.797 -138.281 0.04 10.665
          0.931 -45 0.04 10.663 0.072 -14.536
1359 0.01 -22.764 0.041 -6.524 0.931 -45.974
          0.041 -6.514 0.793 -140.545 0.04 9.636
          0.931 -46.001 0.04 9.64 0.073 -14.892
1388.75 9.789e-3 6.041 0.041 -7.992 0.931 -46.986
          0.041 -7.978 0.789 -142.877 0.04 8.58
          0.931 -46.982 0.04 8.628 0.074 -15.041
1418.5 0.012 30.133 0.041 -9.447 0.93 -47.969
          0.041 -9.427 0.785 -145.192 0.041 7.621
          0.931 -47.984 0.041 7.631 0.074 -15.175
1448.25 0.016 43.579 0.041 -10.808 0.93 -48.96
          0.041 -10.825 0.782 -147.485 0.041 6.641
          0.931 -48.987 0.041 6.639 0.075 -15.425
1478 0.022 50.101 0.041 -12.173 0.93 -49.966
          0.041 -12.166 0.778 -149.772 0.041 5.686
          0.93 -49.972 0.041 5.702 0.076 -15.793
1507.75 0.027 52.597 0.041 -13.405 0.93 -50.972
          0.041 -13.387 0.775 -152.009 0.041 4.856
          0.93 -50.972 0.041 4.894 0.076 -15.939
1537.5 0.033 54.087 0.041 -14.616 0.93 -51.976
          0.041 -14.603 0.771 -154.191 0.042 4.039
          0.93 -51.985 0.042 4.068 0.077 -16.055
1567.25 0.039 54.274 0.041 -15.811 0.929 -52.967
          0.042 -15.831 0.768 -156.353 0.042 3.25
          0.93 -52.981 0.042 3.29 0.079 -16.715
1597 0.045 52.919 0.042 -17.001 0.929 -53.968
          0.042 -17.037 0.765 -158.552 0.042 2.514
          0.929 -53.983 0.042 2.49 0.079 -16.898
1626.75 0.051 51.213 0.042 -18.16 0.929 -54.97
          0.042 -18.17 0.762 -160.729 0.042 1.726
          0.929 -54.973 0.042 1.756 0.08 -17.17
1656.5 0.057 49.204 0.042 -19.291 0.93 -55.968
          0.042 -19.286 0.759 -162.904 0.043 0.967
          0.93 -55.973 0.043 0.956 0.081 -17.468
1686.25 0.063 46.997 0.042 -20.39 0.928 -56.96
          0.042 -20.404 0.757 -165.038 0.043 0.246
          0.928 -56.963 0.043 0.243 0.081 -17.749
1716 0.069 44.66 0.042 -21.455 0.928 -57.955
          0.042 -21.451 0.754 -167.163 0.043 -0.508
          0.928 -57.965 0.043 -0.498 0.082 -18.103
1745.75 0.075 42.179 0.042 -22.53 0.928 -58.954
          0.042 -22.521 0.751 -169.285 0.044 -1.281
          0.928 -58.954 0.044 -1.27 0.083 -18.59
1775.5 0.081 39.535 0.042 -23.546 0.927 -59.94
          0.042 -23.533 0.748 -171.379 0.044 -2.005
          0.929 -59.949 0.044 -2.014 0.084 -18.948
1805.25 0.087 36.742 0.042 -24.525 0.928 -60.937
          0.042 -24.521 0.745 -173.465 0.045 -2.772
          0.928 -60.95 0.045 -2.796 0.085 -19.302
1835 0.093 33.913 0.042 -25.483 0.928 -61.93
          0.042 -25.444 0.742 -175.541 0.045 -3.542
          0.928 -61.942 0.045 -3.559 0.086 -19.756
1864.75 0.098 31.341 0.042 -26.421 0.927 -62.921
          0.042 -26.424 0.74 -177.558 0.045 -4.338
          0.928 -62.931 0.045 -4.317 0.087 -20.387
1894.5 0.104 28.552 0.042 -27.37 0.927 -63.913
          0.042 -27.364 0.737 -179.579 0.046 -5.132
          0.928 -63.923 0.046 -5.102 0.088 -21.034
1924.25 0.109 25.573 0.042 -28.278 0.926 -64.906
          0.042 -28.277 0.734 178.382 0.046 -5.899
          0.926 -64.916 0.046 -5.915 0.089 -21.518
1954 0.114 22.546 0.042 -29.217 0.926 -65.896
          0.042 -29.198 0.732 176.348 0.047 -6.752
          0.926 -65.906 0.047 -6.758 0.09 -22.05
1983.75 0.118 19.458 0.043 -30.162 0.927 -66.886
          0.043 -30.148 0.731 174.339 0.047 -7.581
          0.927 -66.896 0.047 -7.576 0.091 -22.644
2013.5 0.123 16.142 0.043 -31.077 0.926 -67.882
          0.043 -31.089 0.729 172.338 0.048 -8.441
          0.927 -67.9 0.048 -8.466 0.091 -23.084
2043.25 0.127 12.754 0.043 -32.098 0.926 -68.875
          0.043 -32.088 0.727 170.33 0.048 -9.349
          0.926 -68.882 0.048 -9.359 0.092 -23.489
2073 0.131 9.549 0.043 -33.058 0.926 -69.863
          0.043 -33.072 0.725 168.343 0.049 -10.287
          0.926 -69.871 0.049 -10.29 0.093 -24.02
2102.75 0.135 6.336 0.044 -34.108 0.925 -70.855
          0.044 -34.095 0.723 166.366 0.049 -11.247
          0.926 -70.852 0.049 -11.279 0.094 -24.64
2132.5 0.138 3.118 0.044 -35.134 0.925 -71.841
          0.044 -35.137 0.721 164.409 0.05 -12.253
          0.926 -71.846 0.05 -12.278 0.094 -25.224
2162.25 0.14 -0.125 0.044 -36.173 0.925 -72.822
          0.044 -36.197 0.719 162.478 0.051 -13.304
          0.925 -72.832 0.051 -13.275 0.095 -25.863
2192 0.142 -3.41 0.044 -37.258 0.924 -73.815
          0.044 -37.284 0.717 160.55 0.051 -14.37
          0.925 -73.825 0.051 -14.366 0.096 -26.531
2221.75 0.144 -6.709 0.045 -38.389 0.923 -74.797
          0.045 -38.401 0.716 158.619 0.052 -15.478
          0.925 -74.804 0.052 -15.479 0.096 -27.211
2251.5 0.145 -10.059 0.045 -39.552 0.924 -75.781
          0.045 -39.58 0.714 156.691 0.052 -16.559
          0.925 -75.789 0.052 -16.568 0.097 -27.783
2281.25 0.146 -13.486 0.045 -40.764 0.924 -76.769
          0.045 -40.755 0.712 154.785 0.053 -17.693
          0.924 -76.782 0.052 -17.668 0.098 -28.372
2311 0.146 -16.946 0.046 -41.963 0.924 -77.753
          0.046 -41.954 0.711 152.902 0.053 -18.898
          0.924 -77.766 0.053 -18.872 0.099 -29.103
2340.75 0.146 -20.42 0.046 -43.161 0.923 -78.736
          0.046 -43.189 0.71 151.029 0.053 -20.066
          0.924 -78.756 0.053 -20.069 0.099 -29.824
2370.5 0.146 -23.911 0.046 -44.482 0.924 -79.736
          0.046 -44.471 0.709 149.17 0.054 -21.263
          0.925 -79.733 0.054 -21.242 0.1 -30.719
2400.25 0.145 -27.387 0.046 -45.754 0.924 -80.719
          0.046 -45.789 0.709 147.35 0.054 -22.488
          0.924 -80.721 0.054 -22.47 0.1 -31.529
2430 0.143 -30.87 0.047 -47.143 0.924 -81.704
          0.047 -47.124 0.707 145.515 0.055 -23.708
          0.924 -81.714 0.055 -23.712 0.101 -32.3
2459.75 0.141 -34.346 0.047 -48.579 0.923 -82.698
          0.047 -48.555 0.706 143.676 0.055 -24.943
          0.925 -82.703 0.055 -24.904 0.101 -33.117
2489.5 0.139 -37.825 0.047 -49.999 0.924 -83.678
          0.047 -49.976 0.705 141.864 0.055 -26.18
          0.925 -83.683 0.055 -26.164 0.102 -33.947
2519.25 0.136 -41.301 0.047 -51.408 0.924 -84.668
          0.047 -51.427 0.704 140.066 0.056 -27.445
          0.924 -84.668 0.056 -27.425 0.103 -34.807
2549 0.133 -44.766 0.047 -52.875 0.924 -85.665
          0.047 -52.895 0.703 138.304 0.056 -28.698
          0.924 -85.665 0.056 -28.677 0.103 -35.625
2578.75 0.13 -48.273 0.047 -54.356 0.923 -86.642
          0.047 -54.355 0.702 136.519 0.056 -29.952
          0.924 -86.66 0.056 -29.944 0.103 -36.506
2608.5 0.126 -51.81 0.048 -55.871 0.923 -87.641
          0.048 -55.879 0.701 134.765 0.056 -31.223
          0.924 -87.651 0.056 -31.223 0.104 -37.616
2638.25 0.122 -55.35 0.048 -57.343 0.923 -88.63
          0.048 -57.341 0.7 133.035 0.056 -32.47
          0.923 -88.648 0.056 -32.452 0.104 -38.678
2668 0.117 -58.93 0.048 -58.86 0.923 -89.622
          0.048 -58.897 0.7 131.293 0.056 -33.682
          0.923 -89.64 0.056 -33.68 0.104 -39.605
2697.75 0.112 -62.506 0.048 -60.41 0.923 -90.618
          0.048 -60.405 0.699 129.567 0.056 -34.917
          0.923 -90.638 0.056 -34.893 0.105 -40.614
2727.5 0.107 -66.113 0.048 -61.947 0.922 -91.613
          0.048 -61.933 0.698 127.863 0.056 -36.111
          0.923 -91.633 0.056 -36.093 0.105 -41.557
2757.25 0.102 -69.786 0.047 -63.471 0.922 -92.616
          0.047 -63.473 0.698 126.187 0.056 -37.314
          0.923 -92.626 0.056 -37.274 0.105 -42.611
2787 0.097 -73.544 0.047 -64.977 0.922 -93.618
          0.047 -64.984 0.697 124.51 0.056 -38.485
          0.922 -93.621 0.056 -38.445 0.105 -43.687
2816.75 0.092 -77.422 0.047 -66.503 0.924 -94.621
          0.047 -66.501 0.697 122.83 0.057 -39.65
          0.924 -94.623 0.056 -39.608 0.105 -44.887
2846.5 0.086 -81.397 0.047 -67.997 0.924 -95.625
          0.047 -67.984 0.697 121.162 0.056 -40.778
          0.924 -95.635 0.056 -40.735 0.106 -46.074
2876.25 0.081 -85.501 0.047 -69.483 0.923 -96.627
          0.047 -69.488 0.697 119.535 0.056 -41.877
          0.924 -96.637 0.056 -41.845 0.105 -47.245
2906 0.075 -89.79 0.047 -70.959 0.923 -97.631
          0.047 -70.988 0.696 117.923 0.056 -42.962
          0.925 -97.641 0.056 -42.928 0.105 -48.339
2935.75 0.069 -94.42 0.046 -72.46 0.923 -98.64
          0.046 -72.463 0.696 116.305 0.056 -44.025
          0.923 -98.65 0.056 -43.987 0.105 -49.454
2965.5 0.063 -99.437 0.046 -73.973 0.924 -99.652
          0.046 -73.978 0.696 114.688 0.056 -45.063
          0.924 -99.662 0.056 -45.033 0.105 -50.546
2995.25 0.057 -104.78 0.046 -75.447 0.924 -100.656
          0.046 -75.429 0.696 113.071 0.056 -46.075
          0.924 -100.666 0.056 -46.059 0.104 -51.645
3025 0.051 -110.625 0.045 -76.915 0.923 -101.661
          0.045 -76.913 0.696 111.469 0.056 -47.069
          0.924 -101.677 0.056 -47.042 0.104 -52.878
3054.75 0.045 -116.721 0.045 -78.317 0.922 -102.665
          0.045 -78.332 0.696 109.879 0.055 -48.014
          0.923 -102.684 0.055 -47.986 0.103 -54.059
3084.5 0.04 -123.914 0.045 -79.719 0.922 -103.683
          0.045 -79.725 0.696 108.319 0.055 -48.953
          0.922 -103.693 0.055 -48.933 0.103 -55.314
3114.25 0.034 -132.817 0.044 -81.11 0.922 -104.689
          0.044 -81.129 0.695 106.775 0.055 -49.867
          0.922 -104.699 0.055 -49.829 0.103 -56.653
3144 0.03 -143.904 0.044 -82.488 0.921 -105.698
          0.044 -82.5 0.695 105.201 0.055 -50.746
          0.922 -105.701 0.055 -50.71 0.103 -57.926
3173.75 0.026 -157.629 0.043 -83.881 0.921 -106.705
          0.043 -83.847 0.695 103.643 0.055 -51.595
          0.922 -106.713 0.055 -51.554 0.102 -59.075
3203.5 0.024 -173.991 0.043 -85.194 0.921 -107.714
          0.043 -85.203 0.695 102.106 0.055 -52.414
          0.921 -107.714 0.054 -52.371 0.102 -60.25
3233.25 0.023 167.911 0.043 -86.491 0.921 -108.713
          0.043 -86.476 0.696 100.577 0.054 -53.216
          0.921 -108.723 0.054 -53.171 0.101 -61.592
3263 0.023 149.786 0.042 -87.753 0.921 -109.713
          0.042 -87.745 0.697 99.093 0.054 -53.958
          0.922 -109.729 0.054 -53.932 0.1 -62.97
3292.75 0.025 133.53 0.041 -88.969 0.921 -110.721
          0.042 -88.979 0.697 97.637 0.054 -54.698
          0.922 -110.73 0.054 -54.66 0.099 -64.41
3322.5 0.028 119.359 0.041 -90.179 0.921 -111.718
          0.041 -90.187 0.697 96.156 0.054 -55.412
          0.921 -111.724 0.054 -55.383 0.099 -65.761
3352.25 0.032 107.304 0.04 -91.335 0.921 -112.713
          0.04 -91.372 0.697 94.635 0.054 -56.115
          0.921 -112.723 0.053 -56.075 0.099 -67.014
3382 0.036 98.316 0.04 -92.517 0.921 -113.716
          0.04 -92.526 0.697 93.151 0.053 -56.793
          0.921 -113.726 0.053 -56.754 0.098 -68.402
3411.75 0.041 90.72 0.039 -93.617 0.92 -114.714
          0.039 -93.589 0.698 91.703 0.053 -57.418
          0.921 -114.724 0.053 -57.398 0.097 -69.797
3441.5 0.045 84.132 0.039 -94.643 0.92 -115.708
          0.039 -94.635 0.699 90.311 0.053 -58.019
          0.92 -115.718 0.053 -57.993 0.096 -71.187
3471.25 0.05 78.12 0.038 -95.633 0.92 -116.713
          0.038 -95.641 0.699 88.908 0.053 -58.624
          0.92 -116.723 0.053 -58.605 0.095 -72.688
3501 0.054 72.03 0.038 -96.587 0.92 -117.719
          0.038 -96.581 0.699 87.448 0.053 -59.221
          0.92 -117.723 0.053 -59.22 0.095 -74.168
3530.75 0.059 66.928 0.037 -97.498 0.92 -118.717
          0.037 -97.504 0.699 86.038 0.053 -59.783
          0.92 -118.725 0.053 -59.76 0.094 -75.807
3560.5 0.063 62.351 0.036 -98.355 0.919 -119.718
          0.036 -98.34 0.7 84.661 0.053 -60.328
          0.92 -119.724 0.053 -60.289 0.093 -77.258
3590.25 0.067 57.932 0.036 -99.157 0.919 -120.72
          0.036 -99.146 0.701 83.272 0.052 -60.821
          0.92 -120.722 0.052 -60.793 0.091 -78.622
3620 0.071 53.229 0.035 -99.904 0.919 -121.715
          0.035 -99.896 0.701 81.846 0.052 -61.33
          0.919 -121.722 0.052 -61.297 0.091 -79.785
3649.75 0.075 49.309 0.035 -100.612 0.919 -122.723
          0.035 -100.575 0.702 80.481 0.052 -61.842
          0.919 -122.724 0.052 -61.777 0.09 -81.209
3679.5 0.078 45.425 0.034 -101.196 0.919 -123.711
          0.034 -101.198 0.703 79.132 0.052 -62.274
          0.919 -123.721 0.052 -62.251 0.089 -82.875
3709.25 0.082 41.098 0.034 -101.778 0.919 -124.716
          0.034 -101.774 0.704 77.732 0.052 -62.788
          0.92 -124.735 0.052 -62.767 0.088 -84.426
3739 0.084 37.136 0.033 -102.331 0.919 -125.725
          0.033 -102.32 0.704 76.372 0.052 -63.26
          0.92 -125.729 0.052 -63.23 0.087 -85.915
3768.75 0.087 32.837 0.033 -102.792 0.919 -126.723
          0.032 -102.798 0.706 75.021 0.053 -63.699
          0.919 -126.722 0.052 -63.67 0.085 -87.439
3798.5 0.09 28.807 0.032 -103.188 0.919 -127.73
          0.032 -103.176 0.707 73.698 0.053 -64.156
          0.919 -127.726 0.053 -64.121 0.084 -89.069
3828.25 0.092 25.2 0.032 -103.477 0.92 -128.747
          0.032 -103.522 0.707 72.353 0.053 -64.619
          0.92 -128.729 0.053 -64.571 0.083 -90.75
3858 0.094 20.774 0.031 -103.789 0.919 -129.748
          0.031 -103.78 0.708 71.036 0.053 -65.066
