!Hittite Microwave Corporation								
!20 Alpha Road								
!Chelmsford, MA 01824								
!Tel: 978-250-3343								
!Fax: 978-250-3373							
!Device: HMC562, 2-35 GHz, GaAs MMIC PHEMT Wideband Driver Amplifier Die							
!Misc: Vdd=+8V, 80mA, Room							
!
# MHZ S MA R 50

50 0.963 -4.926 0.076 -53.172 661.1e-6 115.383 0.999 -5.653
301.258 0.86 -28.389 0.879 -94.606 128e-6 157.327 0.894 -32.683
552.516 0.706 -45.796 2.326 -98.013 497.9e-6 -12.851 0.631 -61.52
803.774 0.575 -57.806 3.404 -137.905 908.6e-6 -37.978 0.437 -61.033
1055.031 0.475 -66.302 3.534 -159.679 1.563e-3 -57.076 0.391 -69.241
1306.289 0.404 -72.662 3.638 -173.72 2.124e-3 -77.82 0.319 -79.187
1557.547 0.351 -78.018 3.751 174.806 2.768e-3 -93.686 0.247 -86.548
1808.805 0.311 -82.67 3.852 164.591 3.286e-3 -107.433 0.184 -90.286
2060.063 0.279 -87.061 3.932 155.138 3.783e-3 -118.684 0.135 -89.016
2311.321 0.254 -91.429 4.005 146.213 4.254e-3 -130.88 0.1 -81.029
2562.579 0.233 -96.031 4.061 137.643 4.681e-3 -142.023 0.082 -65.618
2813.836 0.215 -100.74 4.112 129.413 5.11e-3 -150.423 0.081 -48.693
3065.094 0.199 -105.771 4.154 121.373 5.494e-3 -159.544 0.091 -37.784
3316.352 0.185 -110.846 4.188 113.503 5.867e-3 -167.931 0.105 -33.579
3567.61 0.173 -116.534 4.224 105.777 6.258e-3 -176.136 0.12 -33.495
3818.868 0.161 -122.429 4.244 98.135 6.602e-3 176.454 0.132 -35.655
4070.126 0.15 -128.729 4.262 90.638 7.037e-3 169.694 0.143 -39.116
4321.384 0.14 -135.084 4.276 83.184 7.434e-3 162.385 0.153 -43.585
4572.642 0.131 -141.787 4.285 75.887 7.761e-3 155.41 0.16 -48.405
4823.899 0.122 -148.575 4.285 68.601 8.111e-3 149.344 0.165 -53.729
5075.157 0.115 -156.148 4.29 61.421 8.488e-3 142.557 0.168 -59.465
5326.415 0.108 -163.825 4.289 54.255 8.904e-3 136.714 0.17 -65.479
5577.673 0.101 -171.51 4.283 47.171 9.351e-3 131.046 0.171 -71.504
5828.931 0.095 -178.811 4.274 40.128 9.767e-3 124.621 0.171 -77.993
6080.189 0.09 172.777 4.273 33.159 0.01 119.23 0.169 -84.7
6331.447 0.085 165.352 4.263 26.223 0.011 113.416 0.166 -91.524
6582.704 0.08 156.892 4.253 19.397 0.011 107.069 0.162 -98.505
6833.962 0.074 149.704 4.234 12.577 0.012 101.646 0.159 -105.123
7085.22 0.071 142.318 4.221 5.846 0.012 94.704 0.154 -112.49
7336.478 0.068 135.138 4.206 -0.894 0.013 88.964 0.146 -120.295
7587.736 0.063 128.362 4.189 -7.511 0.013 83.692 0.14 -127.764
7838.994 0.06 122.632 4.176 -14.17 0.014 77.334 0.134 -136.699
8090.252 0.056 117.349 4.167 -20.799 0.015 71.119 0.127 -145.551
8341.509 0.053 113.317 4.155 -27.389 0.015 64.932 0.119 -155.084
8592.767 0.049 110.298 4.144 -33.913 0.016 58.685 0.111 -164.133
8844.025 0.045 109.602 4.136 -40.432 0.017 52.367 0.105 -174.639
9095.283 0.04 110.101 4.128 -46.819 0.017 46.423 0.098 175.093
9346.541 0.038 114.317 4.122 -53.346 0.018 39.904 0.092 163.122
9597.799 0.036 119.787 4.126 -59.78 0.018 33.647 0.087 151.691
9849.057 0.036 126.909 4.121 -66.295 0.019 26.814 0.081 139.595
10100.314 0.038 133.061 4.118 -72.745 0.019 20.656 0.077 125.663
10351.572 0.041 140.169 4.122 -79.152 0.02 14.307 0.072 111.211
10602.83 0.048 143.333 4.132 -85.711 0.02 8.448 0.07 96.995
10854.088 0.055 145.312 4.13 -92.264 0.021 2.031 0.069 82.396
11105.346 0.063 144.599 4.139 -98.814 0.022 -4.775 0.069 67.375
11356.604 0.073 143.633 4.143 -105.361 0.022 -11.524 0.071 51.522
11607.862 0.083 140.052 4.149 -111.977 0.023 -17.356 0.074 37.817
11859.119 0.093 137.471 4.158 -118.601 0.023 -23.763 0.077 23.304
12110.377 0.103 133.868 4.174 -125.257 0.024 -30.594 0.08 9.767
12361.635 0.113 130.267 4.178 -131.906 0.024 -37.199 0.085 -3.556
12612.893 0.123 125.541 4.181 -138.68 0.025 -42.174 0.089 -14.358
12864.151 0.131 121.315 4.184 -145.367 0.025 -48.348 0.095 -26.131
13115.409 0.14 116.873 4.187 -152.192 0.026 -55.19 0.099 -37.408
13366.667 0.148 112.043 4.182 -158.901 0.026 -61.925 0.104 -47.822
13617.925 0.157 107.082 4.177 -165.761 0.026 -68.501 0.108 -58.098
13869.182 0.164 101.562 4.161 -172.544 0.027 -74.057 0.113 -67.409
14120.44 0.168 96.696 4.156 -179.265 0.027 -80.367 0.118 -77.233
14371.698 0.173 91.943 4.143 174.01 0.028 -86.259 0.123 -86.031
14622.956 0.177 87.499 4.133 167.269 0.028 -92.511 0.126 -95.334
14874.214 0.18 83.055 4.121 160.599 0.029 -98.571 0.129 -103.842
15125.472 0.183 78.943 4.109 153.886 0.03 -105.002 0.132 -112.898
15376.73 0.184 74.211 4.092 147.242 0.03 -111.229 0.134 -121.187
15627.987 0.184 69.767 4.084 140.483 0.031 -117.355 0.135 -130.553
15879.245 0.181 65.463 4.068 133.829 0.031 -123.304 0.136 -140.069
16130.503 0.177 61.706 4.063 127.302 0.032 -129.65 0.138 -148.947
16381.761 0.174 58.085 4.051 120.663 0.033 -136.364 0.138 -157.808
16633.019 0.169 54.439 4.033 114.038 0.033 -142.864 0.137 -167.222
16884.277 0.164 51.374 4.017 107.456 0.034 -148.337 0.137 -176.847
17135.535 0.158 49.438 4.005 100.797 0.035 -154.263 0.137 172.613
17386.792 0.153 46.99 3.998 94.265 0.036 -161.015 0.133 162.666
17638.05 0.146 45.291 3.991 87.67 0.036 -167.301 0.128 153.009
17889.308 0.139 44.507 3.982 81.022 0.037 -173.696 0.125 142.874
18140.566 0.133 44.624 3.979 74.481 0.038 179.564 0.122 132.247
18391.824 0.13 46.558 3.975 67.875 0.038 173.592 0.122 120.564
18643.082 0.13 47.157 3.966 61.28 0.039 167.427 0.119 108.095
18894.34 0.127 48.739 3.985 54.735 0.04 159.971 0.115 96.493
19145.597 0.127 51.313 3.998 47.971 0.04 153.141 0.113 84.591
19396.855 0.133 53.835 3.986 41.213 0.041 147.561 0.114 71.754
19648.113 0.138 54.35 3.98 34.516 0.042 141.453 0.113 59.181
19899.371 0.142 55.746 3.988 27.829 0.042 134.957 0.114 47.557
20150.629 0.15 58.025 3.999 20.977 0.042 128.454 0.115 34.685
20401.887 0.165 58.713 3.999 13.844 0.043 121.379 0.115 20.065
20653.145 0.178 57.766 3.993 6.83 0.044 114.438 0.115 6.535
20904.403 0.189 55.384 3.988 -0.045 0.044 108.05 0.12 -5.46
21155.66 0.202 53.156 3.981 -6.952 0.044 102.219 0.127 -16.079
21406.918 0.215 50.789 3.951 -13.756 0.044 96.959 0.133 -25.991
21658.176 0.225 48.065 3.937 -20.653 0.045 90.848 0.136 -38.544
21909.434 0.233 46.653 3.949 -27.6 0.046 84.123 0.138 -50.159
22160.692 0.243 44.797 3.962 -34.376 0.046 77.747 0.143 -59.746
22411.95 0.252 41.965 3.965 -41.512 0.047 71.193 0.146 -71.869
22663.208 0.257 38.272 3.952 -48.666 0.047 64.237 0.145 -82.781
22914.465 0.26 34.098 3.933 -55.739 0.047 58.232 0.153 -92.656
23165.723 0.266 31.459 3.918 -62.722 0.047 52.659 0.16 -103.762
23416.981 0.271 29.242 3.906 -69.777 0.048 45.632 0.155 -116.102
23668.239 0.27 24.88 3.888 -76.537 0.048 38.506 0.154 -120.967
23919.497 0.27 22.214 3.894 -83.426 0.048 32.95 0.156 -129.572
24170.755 0.271 21.761 3.886 -91.005 0.049 27.014 0.155 -145.381
24422.013 0.273 20.566 3.845 -98.158 0.05 19.8 0.151 -157.084
24673.27 0.273 18.102 3.811 -104.951 0.05 13.279 0.145 -168.661
24924.528 0.273 16.192 3.804 -111.752 0.05 6.566 0.142 179.009
25175.786 0.275 15.363 3.815 -118.716 0.051 -0.231 0.137 167.898
25427.044 0.274 14.67 3.812 -126.087 0.051 -7.46 0.138 156.105
25678.302 0.269 14.885 3.785 -133.542 0.051 -15.009 0.147 143.133
25929.56 0.266 14.773 3.764 -140.718 0.052 -22.303 0.154 130.574
26180.818 0.259 15.283 3.727 -148.108 0.051 -30.519 0.161 120.283
26432.075 0.259 16.756 3.706 -155.084 0.051 -36.924 0.164 112.389
26683.333 0.259 16.947 3.693 -162.368 0.051 -43.946 0.17 104.269
26934.591 0.264 18.649 3.662 -169.501 0.051 -49.825 0.171 93.501
27185.849 0.271 18.825 3.633 -176.691 0.051 -56.985 0.171 83.117
27437.107 0.284 19.14 3.606 176.386 0.053 -66.189 0.17 73.531
27688.365 0.297 18.559 3.581 169.298 0.051 -73.398 0.17 63.761
27939.623 0.313 17.659 3.57 161.856 0.051 -80.801 0.169 53.234
28190.881 0.326 16.345 3.541 154.537 0.05 -90.081 0.171 42.958
28442.138 0.333 14.851 3.513 147.297 0.049 -95.676 0.169 33.985
28693.396 0.339 14.046 3.461 140.198 0.049 -101.707 0.173 27.539
28944.654 0.355 14.229 3.423 133.669 0.048 -109.108 0.179 19.402
29195.912 0.366 11.992 3.418 126.626 0.049 -114.841 0.179 10.774
29447.17 0.369 10.353 3.404 119.174 0.049 -122.864 0.172 2.879
29698.428 0.373 9.217 3.376 111.98 0.05 -130.617 0.164 -3.087
29949.686 0.383 9.176 3.339 104.924 0.05 -138.095 0.159 -9.241
30200.943 0.389 7.43 3.316 98.057 0.049 -144.168 0.152 -14.518
30452.201 0.401 6.097 3.313 90.917 0.049 -149.538 0.141 -21.689
30703.459 0.404 3.151 3.321 83.839 0.052 -159.579 0.137 -30.353
30954.717 0.402 2.205 3.3 76.355 0.052 -165.629 0.124 -38.02
31205.975 0.413 1.811 3.277 69.249 0.053 -169.275 0.115 -45.168
31457.233 0.417 -0.919 3.288 61.688 0.055 -179.455 0.106 -56.916
31708.491 0.411 -3.282 3.288 53.978 0.054 170.652 0.087 -73.649
31959.748 0.409 -4.227 3.273 46.456 0.056 164.096 0.067 -93.487
32211.006 0.403 -4.505 3.256 38.83 0.055 155.017 0.058 -115.764
32462.264 0.395 -4.614 3.238 30.826 0.055 147.518 0.059 -153.791
32713.522 0.385 -4.42 3.202 22.926 0.052 140.363 0.079 172.833
32964.78 0.383 -4.356 3.171 14.901 0.053 134.368 0.102 157.279
33216.038 0.387 -3.724 3.135 7.05 0.054 125.433 0.131 142.68
33467.296 0.381 -4.395 3.097 -0.814 0.055 116.976 0.164 132.648
33718.553 0.376 -3.596 3.042 -8.78 0.054 109.817 0.194 121.869
33969.811 0.384 -2.186 2.997 -16.657 0.053 100.268 0.215 112.963
34221.069 0.395 -2.836 2.946 -24.566 0.049 92.814 0.232 103.736
34472.327 0.397 -3.44 2.865 -31.943 0.049 88.309 0.256 95.987
34723.585 0.404 -3.426 2.818 -39.618 0.049 84.026 0.277 87.369
34974.843 0.413 -2.577 2.753 -47.292 0.05 75.985 0.3 78.647
35226.101 0.423 -3.477 2.705 -54.902 0.048 67.535 0.317 71.721
35477.358 0.431 -4.738 2.646 -61.97 0.049 63.178 0.333 64.858
35728.616 0.432 -5.156 2.599 -69.191 0.048 55.022 0.353 58.922
35979.874 0.436 -5.206 2.528 -76.56 0.046 49.698 0.369 52.085
36231.132 0.443 -5.565 2.487 -83.776 0.046 42.194 0.368 45.594
36482.39 0.453 -7.02 2.468 -90.803 0.047 36.689 0.37 40.44
36733.648 0.455 -8.613 2.436 -97.61 0.045 30.171 0.365 34.719
36984.906 0.452 -9.057 2.414 -104.944 0.048 23.676 0.357 29.145
37236.164 0.459 -10.614 2.386 -112.555 0.045 18.088 0.342 22.86
37487.421 0.46 -12.149 2.369 -120.328 0.046 9.754 0.315 16.715
37738.679 0.461 -13.313 2.341 -127.984 0.045 3.564 0.288 11.9
37989.937 0.459 -15.161 2.321 -135.446 0.047 -4.845 0.264 6.826
38241.195 0.458 -16.469 2.29 -143.689 0.046 -12.451 0.236 0.548
38492.453 0.445 -16.601 2.252 -151.833 0.046 -23.894 0.185 -1.217
38743.711 0.453 -16.528 2.21 -159.265 0.042 -28.324 0.148 -0.444
38994.969 0.456 -18.435 2.171 -166.69 0.043 -34.015 0.1 6.215
39246.226 0.447 -20.028 2.146 -174.641 0.041 -39.146 0.078 29.014
39497.484 0.429 -20.667 2.113 176.977 0.044 -54.381 0.076 69.7
39748.742 0.421 -20.796 2.067 168.979 0.043 -60.221 0.118 92.879
40000 0.428 -23.235 2.009 161.508 0.035 -71.274 0.169 93.558
