!Hittite Microwave Corporation								
!20 Alpha Rd								
!Chelmsford, MA 01824								
!Tel: 978-250-3343								
!Fax: 978-250-3373
!Device: HMC547LP3, DC - 20 GHz GaAs MMIC SPDT Non-Reflective Switch in leadless QFN SMT package
!Misc: Port1=RFC, Port2= RF1, Port3=RF2, RF2 ON, Data taken on a part mounted on probable matrix board,Bias: -5VDC								

# GHZ S DB R 50.0						
0.04	-8.66	89.46	-64.74	-5.71	-1.64	-1.62
	-59.94	-157.91	-14.69	87.2	-53.43	139.89
	-1.66	-1.62	-59.69	-164.36	-13.55	2.44
0.34	-16.32	8.49	-67.55	-158.5	-1.32	-5.81
	-62.94	23.97	-28.93	94.2	-74.71	71.01
	-1.32	-5.87	-68.39	75.56	-18.51	-4.53
0.64	-16.77	-3.76	-61.03	32.22	-1.33	-10.53
	-68.71	55.08	-32.69	72.63	-64.01	11.46
	-1.34	-10.6	-73.04	-97.81	-18.39	-8
0.94	-17.33	-1.43	-61.38	40.33	-1.35	-15.28
	-63.23	50.71	-34.26	59.86	-72.72	24.6
	-1.36	-15.32	-70.16	-8.12	-18.3	-11.84
1.24	-16.04	-9.56	-62	58.55	-1.37	-19.96
	-60.74	38.78	-34.78	48.46	-69.99	-28.7
	-1.37	-20.04	-69.21	0.14	-18.26	-15.78
1.54	-15.48	-14.56	-60.65	51.91	-1.38	-24.7
	-59.7	58.61	-34.7	30.78	-67.69	-10.07
	-1.38	-24.78	-68.19	0.67	-18.23	-19.94
1.84	-15.51	-27.32	-59.76	60.24	-1.39	-29.37
	-59.01	78.46	-34.38	19.5	-73.5	-2.92
	-1.39	-29.47	-69.21	25.49	-18.21	-24.33
2.14	-15.87	-38.66	-58.58	69.62	-1.41	-34.06
	-58.05	64.39	-33.89	10.04	-72.6	42.62
	-1.41	-34.17	-67.5	-24.47	-18.18	-28.28
2.44	-17.64	-46.35	-57.18	67.35	-1.42	-38.84
	-58.36	57.8	-33.25	0.77	-68.08	36.72
	-1.41	-38.95	-70	3.37	-18.21	-32.55
2.74	-19.21	-44.5	-56.49	62.4	-1.43	-43.55
	-56.7	63.14	-32.65	-5.56	-74.55	19.39
	-1.43	-43.63	-75.94	14.09	-18.18	-36.77
3.04	-19.44	-33.28	-54.53	59.99	-1.44	-48.28
	-55.6	56.59	-31.77	-14.44	-78.45	115.74
	-1.43	-48.36	-75.2	-9.95	-18.22	-41.4
3.34	-18.1	-32.12	-55.01	56.81	-1.45	-52.96
	-55.32	64.3	-31.24	-19.1	-78.07	-112.55
	-1.44	-53.07	-72.23	23.27	-18.2	-45.55
3.64	-16.54	-37.43	-54.87	61.7	-1.47	-57.71
	-53.18	59.41	-30.41	-27.32	-78.08	57.19
	-1.46	-57.79	-65.07	56.63	-18.21	-50.1
3.94	-16.04	-48.26	-54.05	50.06	-1.47	-62.39
	-53.48	59.65	-29.77	-32.31	-68.88	58.39
	-1.46	-62.52	-68.14	46.77	-18.27	-54.36
4.24	-15.99	-59.8	-51.84	55.68	-1.48	-67.16
	-52.44	57.18	-28.98	-36.37	-66.79	67.19
	-1.47	-67.21	-63.81	48.15	-18.23	-59.21
4.54	-16.91	-69.42	-51.83	58.28	-1.49	-71.9
	-52.07	57.02	-28.52	-43.47	-67.03	85.81
	-1.49	-71.99	-64.61	52.79	-18.28	-63.3
4.84	-17.92	-74.51	-50.65	59.67	-1.5	-76.59
	-51.4	51.53	-27.72	-47.83	-65.07	46.07
	-1.5	-76.63	-63.48	46.05	-18.28	-67.98
5.14	-18.96	-74.19	-50.39	50.51	-1.52	-81.33
	-50.49	52.98	-27.17	-52.63	-68.96	39.19
	-1.5	-81.36	-62.97	48.18	-18.31	-72.39
5.44	-18.9	-73.41	-49.48	49.73	-1.51	-86.02
	-50.15	49.52	-26.61	-57.43	-64.29	48.2
	-1.51	-86.11	-61.47	51.98	-18.35	-77.1
5.74	-18.56	-74.1	-49.65	44.21	-1.53	-90.72
	-49.39	50.02	-26.13	-62.49	-62.09	33.24
	-1.52	-90.8	-60.81	48.91	-18.43	-81.72
6.04	-18.39	-81.72	-49.12	45.92	-1.55	-95.54
	-48.88	48.29	-25.58	-66.21	-60.9	59.53
	-1.53	-95.52	-61.4	54.08	-18.43	-86.16
6.34	-18.8	-87.42	-48.89	45.23	-1.55	-100.2
	-48.36	42.36	-24.99	-71.36	-65.12	31.29
	-1.54	-100.41	-60.3	41.32	-18.5	-90.87
6.64	-19.67	-91.72	-48.11	41.78	-1.56	-105
	-47.24	40.73	-24.55	-75.87	-60.06	39.18
	-1.56	-105.18	-58.92	28.41	-18.46	-95.2
6.94	-20.19	-90.54	-47.36	44.92	-1.58	-109.75
	-47.59	39.99	-24.02	-80.01	-61.06	30.12
	-1.57	-109.9	-59.14	19.47	-18.48	-99.91
7.24	-19.8	-91.64	-47.37	37.35	-1.58	-114.51
	-47.18	38.18	-23.61	-84.53	-59.8	20.21
	-1.58	-114.68	-60.43	7.94	-18.48	-104.44
7.54	-19.44	-97.08	-46.36	34.7	-1.59	-119.22
	-46.35	33.4	-23.17	-88.25	-57.08	10.73
	-1.59	-119.47	-58.57	11.06	-18.51	-109.43
7.84	-19.56	-108.44	-45.88	29.04	-1.6	-123.97
	-45.82	28.74	-22.88	-92.03	-58.03	-3.69
	-1.6	-124.11	-60.13	-11.82	-18.53	-113.62
8.14	-20.86	-120.44	-45.38	25.51	-1.61	-128.74
	-45.81	25.95	-22.51	-95.97	-59.3	-16.88
	-1.61	-128.87	-58.18	-15.74	-18.56	-118.16
8.44	-24.05	-129.28	-45.81	23.1	-1.62	-133.52
	-45.81	24	-22.21	-100.76	-60.53	-28.44
	-1.62	-133.67	-59.34	-29.52	-18.5	-123.19
8.74	-29.48	-112.73	-45.64	19.58	-1.63	-138.28
	-45.04	19.15	-22	-104.76	-57.42	-48.52
	-1.64	-138.42	-58.83	-38.13	-18.54	-127.31
9.04	-27.27	-62.22	-45.02	17.72	-1.64	-143.02
	-45.1	14.01	-21.65	-109.51	-58.95	-56.76
	-1.64	-143.17	-58.52	-45.26	-18.54	-131.72
9.34	-22.09	-58.99	-45.01	12.01	-1.65	-147.85
	-45.16	13.57	-21.38	-114.08	-59	-64.43
	-1.65	-147.99	-61.22	-51.9	-18.52	-136.58
9.639999	-19.36	-71.72	-45.45	9.25	-1.66	-152.61
	-45.12	11.19	-21.07	-117.92	-63.67	-93.02
	-1.68	-152.77	-61.47	-88.93	-18.47	-140.76
9.94	-18.03	-87.4	-44.73	5.27	-1.68	-157.42
	-44.93	6.15	-20.79	-122.46	-61.61	-110.21
	-1.68	-157.57	-65.28	-105.01	-18.48	-145
10.24	-18.15	-102.82	-45.58	2.95	-1.69	-162.19
	-44.95	0.64	-20.6	-126.54	-60.83	-108.87
	-1.69	-162.32	-58.68	-117.99	-18.41	-149.33
10.54	-19.56	-114.72	-45.17	-3.9	-1.7	-166.93
	-45.3	-1.06	-20.3	-130.53	-58.06	-134.92
	-1.7	-167.13	-58.64	-133.02	-18.35	-153.39
10.840001	-21.84	-116.96	-45.62	-7.24	-1.7	-171.71
	-45.36	-6.9	-20.12	-135.01	-55.79	-140.09
	-1.71	-171.94	-57.75	-142.68	-18.29	-157.52
11.14	-23.32	-98.65	-45.36	-5.39	-1.72	-176.52
	-46.19	-7.93	-19.94	-139.14	-56.81	-166.4
	-1.72	-176.73	-56.82	-165.54	-18.25	-162.41
11.44	-21.35	-85.43	-45.42	-6.72	-1.73	178.65
	-46.22	-5.17	-19.84	-144.06	-54.26	165.93
	-1.72	178.4	-53.43	169.77	-18.19	-166.7
11.74	-18.69	-87.16	-46.29	-5.34	-1.74	173.76
	-46.12	-6.7	-19.7	-148.82	-53.71	147.74
	-1.75	173.57	-52.73	161.33	-18.17	-171.05
12.039999	-16.86	-95.85	-46.3	-10.47	-1.75	168.95
	-46.48	-11.41	-19.53	-153.93	-52.94	143.01
	-1.75	168.81	-53.32	137.36	-18.07	-175.75
12.34	-16	-107.94	-46.79	-14.18	-1.76	164.15
	-46.47	-10.93	-19.42	-159.05	-53.54	132.76
	-1.76	163.98	-53.8	143.83	-18.05	179.55
12.64	-15.63	-119.75	-46.42	-13.09	-1.76	159.29
	-46.99	-10.57	-19.25	-164.54	-54.2	126.1
	-1.76	159.24	-53.53	116.6	-17.92	175.12
12.94	-15.95	-130.34	-47	-14.32	-1.77	154.26
	-46.65	-16.87	-19.06	-170.61	-52.88	118.36
	-1.77	154.37	-53.94	113.16	-17.9	170.4
13.240001	-16.84	-138.92	-47.53	-8.47	-1.79	149.33
	-48.09	-14.43	-18.94	-174.99	-54.38	116.38
	-1.78	149.49	-56.29	120.78	-17.79	165.49
13.54	-17.66	-141.45	-48.33	1.5	-1.79	144.42
	-47.85	-0.16	-18.73	178.57	-54.36	128.91
	-1.79	144.52	-55.3	135.33	-17.75	160.79
13.84	-18.46	-137.45	-47.72	5.98	-1.8	139.57
	-46.78	3.76	-18.66	173.45	-50.1	144.48
	-1.8	139.68	-50.56	130.12	-17.69	156.44
14.14	-17.93	-131.84	-46.44	2.1	-1.81	134.72
	-46.25	1.69	-18.44	167.36	-47.34	126.87
	-1.82	134.82	-47.19	129.71	-17.69	151.65
14.439999	-16.17	-131.8	-45.64	-2.18	-1.83	129.82
	-45.87	5.8	-18.38	161.34	-45.42	116.71
	-1.82	129.88	-45.24	116.69	-17.65	146.33
14.74	-14.55	-137.18	-45.1	4.42	-1.84	124.88
	-45.06	4.66	-18.16	155.4	-44.3	95.13
	-1.83	124.96	-44.54	95.3	-17.59	141.13
15.04	-13.22	-148.87	-45.01	0.28	-1.84	119.89
	-44.52	2.82	-18.02	148.81	-43.9	83.71
	-1.84	120.03	-43.46	79.87	-17.6	136
15.34	-12.36	-162.46	-44.39	-1.73	-1.85	114.94
	-44.79	-2.08	-17.82	142.12	-44.96	65.81
	-1.84	115.1	-45.22	69.46	-17.55	130.03
15.640001	-12.18	-176.59	-43.92	-1.79	-1.87	110.01
	-44.33	0.41	-17.53	135.44	-44.01	65.21
	-1.85	110.15	-44.94	65.49	-17.49	124.65
15.94	-12.52	168.15	-44.14	0.09	-1.86	105.02
	-42.98	0.74	-17.32	128.57	-45.62	61.74
	-1.86	105.13	-45.1	69.68	-17.59	118.75
16.24	-13.47	157.04	-42.61	-2.99	-1.87	100.03
	-42.78	-3.91	-16.92	121.55	-44.09	52.84
	-1.87	100.13	-44.1	50.48	-17.49	112.64
16.54	-14.78	150.97	-41.85	-5.89	-1.89	95.02
	-42.47	-8.02	-16.64	115.43	-43.28	37.07
	-1.88	95.15	-43.68	42.02	-17.51	106.47
16.839999	-15.45	150.46	-41.91	-8.13	-1.91	89.85
	-42.04	-4.99	-16.26	108.52	-44.77	52.62
	-1.9	90.1	-44.29	52.23	-17.44	101.02
17.14	-14.66	150.58	-41.35	-10.23	-1.92	85.06
	-41.21	-12.67	-15.94	102.49	-41.47	25.46
	-1.92	85.05	-41.17	20.98	-17.48	94.86
17.44	-13.55	143.27	-41.71	-10.42	-1.93	79.96
	-41.25	-10.27	-15.51	96.17	-44.96	14.5
	-1.92	80.03	-44.58	10.99	-17.46	88.7
17.739999	-12.62	129.54	-40.36	-9.04	-1.94	75.05
	-40.26	-8.09	-15.12	89.6	-44.67	23.28
	-1.93	74.99	-44.67	26.58	-17.49	82.22
18.040001	-12.29	113.1	-39.01	-12.56	-1.95	69.81
	-39.42	-15.23	-14.77	83.09	-43.95	17.36
	-1.95	69.89	-44.53	15.5	-17.52	75.59
18.34	-12.75	95.9	-38.53	-20.68	-1.97	64.79
	-38.85	-21.04	-14.32	76.93	-43.46	7.99
	-1.97	64.79	-43.83	11.95	-17.58	68.63
18.639999	-13.87	79.95	-38.58	-25.19	-1.98	59.64
	-38.57	-26.47	-13.85	70.31	-44.32	1.15
	-1.99	59.7	-43.37	-1.16	-17.51	61.42
18.94	-15.77	70.33	-38.22	-29.9	-2	54.6
	-38	-28.79	-13.44	64.3	-44.05	-0.37
	-2	54.56	-43.65	3.78	-17.57	54.53
19.239999	-17.74	71.54	-37.87	-33.89	-2.01	49.39
	-38.26	-34.82	-12.93	57.69	-43.08	-8.05
	-2.01	49.37	-43.18	-7.17	-17.51	47.86
19.540001	-17.33	79.14	-37.95	-37	-2.03	44.18
	-37.99	-37.08	-12.51	52.65	-44.25	-20.34
	-2.02	44.14	-43.58	-19.54	-17.46	42.23
19.84	-15.42	78.62	-37.24	-38.32	-2.05	38.9
	-37.39	-39.96	-12.02	46.78	-44.06	-17.76
	-2.04	38.97	-44.01	-20.27	-17.35	35.83
20.139999	-13.73	67.87	-37.26	-44.81	-2.05	33.73
	-37.29	-44.28	-11.6	41.97	-43.34	-16.36
	-2.06	33.76	-43.44	-21.49	-17.35	30.15
20.440001	-12.57	52.18	-37.06	-48.51	-2.08	28.44
	-36.86	-47.7	-11.13	36.6	-43.32	-30.93
	-2.07	28.45	-43.09	-28.79	-17.34	24.39
20.74	-12.27	36.45	-36.52	-52.95	-2.1	23.11
	-36.57	-52.05	-10.7	31.37	-43.84	-37.1
	-2.1	23.16	-44.15	-37.48	-17.36	19.15
21.040001	-12.52	20.41	-36.37	-59.3	-2.12	17.8
	-36.34	-56.93	-10.36	26.09	-42.25	-46.75
	-2.13	17.86	-42.47	-50.9	-17.4	13.89
21.34	-13.13	8.32	-36.33	-64.03	-2.15	12.46
	-36.26	-62.87	-9.89	21.15	-42.12	-63.28
	-2.15	12.5	-42.23	-61.45	-17.27	9.87
21.639999	-14.21	-1.26	-36.22	-66.24	-2.17	7.08
	-36.21	-66.11	-9.56	16.18	-43.59	-83.62
	-2.17	7.02	-43.06	-78.47	-17.32	5.8
21.940001	-15.12	-6.5	-35.88	-71.44	-2.2	1.58
	-35.94	-71.52	-9.1	11.05	-45.41	-87.06
	-2.2	1.62	-45.74	-89.52	-17.17	1.54
22.24	-15.76	-8.6	-35.99	-72.69	-2.25	-3.91
	-35.74	-75.77	-8.71	6.72	-47.11	-91.1
	-2.25	-3.92	-46.25	-95.74	-17.18	-0.35
22.539999	-15.99	-10.5	-35.61	-78.96	-2.27	-9.38
	-35.9	-79.37	-8.35	2.12	-46.43	-93.19
	-2.28	-9.36	-46.77	-99.05	-16.98	-2.56
22.840001	-16.21	-13.65	-35.77	-82.77	-2.32	-14.99
	-35.8	-84.85	-7.96	-2.33	-47.67	-95.66
	-2.32	-14.91	-46.33	-88.25	-16.86	-3.67
23.14	-16.15	-16.02	-35.61	-87.84	-2.37	-20.59
	-35.73	-88.76	-7.65	-6.41	-45.39	-106.34
	-2.37	-20.52	-45.52	-105.51	-16.65	-4.16
23.439999	-16.16	-19.42	-35.7	-93.79	-2.41	-26.16
	-35.52	-94.21	-7.32	-10.61	-43.62	-116.51
	-2.42	-26.22	-43.38	-123.49	-16.43	-4.84
23.74	-16.29	-23.83	-35.5	-96.44	-2.48	-31.95
	-35.57	-95.78	-7.05	-15.13	-43.98	-152.3
	-2.48	-31.88	-43.86	-153.2	-16.13	-5.52
24.039999	-16.77	-27.2	-35.26	-101.63	-2.54	-37.75
	-35.35	-102.09	-6.75	-19.23	-44	-176.46
	-2.54	-37.67	-43.7	-177.35	-15.69	-5.21
24.340001	-18.04	-26.85	-35.76	-105.76	-2.61	-43.49
	-35.71	-105.31	-6.51	-23.61	-43.27	154.87
	-2.62	-43.48	-43.62	156.89	-15.16	-4.89
24.64	-19.33	-13.85	-35.76	-110.69	-2.69	-49.41
	-35.45	-111.37	-6.24	-27.7	-41.99	112.19
	-2.7	-49.38	-41.88	110.25	-14.39	-5.54
24.939999	-18.04	6.53	-35.39	-115.47	-2.81	-55.37
	-35.55	-114.11	-5.93	-31.64	-44.78	64.04
	-2.81	-55.38	-45.25	63.88	-13.66	-6.51
25.240001	-14.94	15.46	-35.59	-118.6	-2.93	-61.27
	-35.74	-118.59	-5.64	-35.57	-50.98	15.1
	-2.92	-61.28	-50.16	13.42	-12.66	-6.96
25.54	-12.06	11.54	-35.62	-125.93	-3.07	-67.26
	-35.8	-124.64	-5.39	-39.47	-58.02	-31.13
	-3.07	-67.2	-57.34	-1.52	-11.76	-8.63
25.840001	-10.22	3.93	-36.37	-129.17	-3.22	-73.08
	-36.37	-129.62	-5.18	-43.32	-46.44	-33.86
	-3.21	-73.04	-46.82	-27.88	-10.75	-10.66
26.14	-9	-5.65	-36.29	-130.11	-3.37	-79.05
	-36.4	-128.26	-4.97	-46.64	-47.38	-127.07
	-3.36	-79.01	-46.28	-123.43	-9.88	-13.79
26.439999	-8.58	-13.64	-35.89	-138.85	-3.56	-85.17
	-35.79	-138.66	-4.86	-50.14	-49.2	159.43
	-3.55	-85.26	-51.6	167.22	-9.17	-17.05
26.740001	-8.28	-18.2	-35.89	-150.32	-3.78	-91.15
	-35.86	-150.01	-4.67	-52.87	-46.67	170.58
	-3.78	-91.09	-49.03	174.02	-8.44	-20.35
27.04	-7.94	-20.95	-38.16	-154.19	-4	-97.16
	-38.07	-155.25	-4.47	-56.57	-44.99	143.21
	-3.99	-97.13	-45.53	149.67	-7.77	-24.21
27.339999	-7.17	-21.85	-39.52	-152.67	-4.24	-103.09
	-39.28	-150.63	-4.28	-60.29	-39.5	122.89
	-4.22	-103.05	-40.12	124.01	-7.04	-28.49
27.640001	-6.04	-25.21	-39.54	-156.58	-4.51	-109.07
	-39.34	-156.29	-4.14	-64.05	-37.89	80.65
	-4.51	-109.03	-38.06	79.7	-6.46	-33.29
27.94	-5.1	-30.73	-40.51	-152.62	-4.83	-114.59
	-40.75	-153.71	-4.03	-67.81	-41.07	42.27
	-4.82	-114.51	-41.27	37.12	-5.96	-37.26
28.239999	-4.34	-37.17	-39.34	-151.72	-5.12	-120.04
	-39.5	-153.03	-3.94	-70.73	-48.77	41.43
	-5.11	-119.98	-48.13	44.88	-5.45	-41.36
28.54	-3.78	-43.27	-40.12	-152.12	-5.43	-125.29
	-40.24	-153.69	-3.8	-73.68	-43.58	96.06
	-5.41	-125.36	-42.16	105.14	-4.99	-45.45
28.839999	-3.23	-49.26	-40.78	-151.79	-5.71	-130.66
	-41.51	-155.81	-3.68	-76.18	-36.33	71.48
	-5.7	-130.58	-36.83	72.29	-4.5	-49.2
29.140001	-2.94	-55.84	-40.95	-152.23	-6.04	-136.1
	-41.04	-157.09	-3.54	-79.02	-33.94	50.35
	-6	-136.1	-34.15	48.75	-4.1	-53.31
29.44	-2.9	-60.96	-40.16	-157.85	-6.38	-141.5
	-40.05	-158.18	-3.44	-81.19	-31.32	19.5
	-6.38	-141.65	-31.4	19.69	-3.72	-57.12
29.739999	-2.74	-64.82	-40.86	-159.1	-6.79	-146.62
	-41.63	-161.98	-3.24	-84.32	-32.85	-17.71
	-6.77	-146.43	-33.08	-16.32	-3.34	-61.73
30.040001	-2.49	-68.84	-43.86	-166.93	-7.2	-151.37
	-43.58	-159.24	-3.12	-87.49	-34.12	-24.24
	-7.19	-151.23	-33.75	-25.3	-3.13	-66.36
