!Hittite Microwave Corporation								
!20 Alpha Road								
!Chelmsford, MA 01824								
!Tel: 978-250-3343								
!Fax: 978-250-3373								
!Device: HMC574MS8, DC-3 GHz, GaAs T/R Switch in 8-lead plastic SMT package  															
!Misc: Vdd = 5V, Port1 = RFC, Port2 = RF1, Port3 = RF2, RF2 ON, Room
!
# MHZ S MA R 50

50 0.015 4.621 4.21e-3 68.248 0.974 -3.152
          4.25e-3 68.282 0.97 -16.81 5.075e-3 75.49
          0.974 -3.202 5.105e-3 74.784 9.699e-3 11.27
69.75 0.014 6.249 5.623e-3 88.53 0.975 -4.345
          5.59e-3 88.399 0.967 -23.433 5.556e-3 84.115
          0.974 -4.345 5.582e-3 84.195 9.564e-3 9.029
89.5 0.016 9.951 8.471e-3 76.974 0.974 -5.481
          8.461e-3 76.903 0.965 -29.781 7.93e-3 72.26
          0.974 -5.491 7.939e-3 72.129 0.011 16.014
109.25 0.016 7.685 9.66e-3 78.938 0.974 -6.675
          9.66e-3 78.968 0.959 -36.137 9.636e-3 74.775
          0.974 -6.665 9.624e-3 74.634 0.011 13.817
129 0.016 10.316 0.012 75.37 0.973 -7.81
          0.012 75.41 0.955 -42.287 0.012 69.683
          0.973 -7.82 0.012 69.603 0.011 19.264
148.75 0.018 8.873 0.014 65.551 0.974 -8.965
          0.014 65.581 0.953 -48.42 0.013 53.585
          0.974 -8.965 0.013 53.586 0.013 20.66
168.5 0.018 7.394 0.015 62.416 0.974 -10.159
          0.015 62.416 0.948 -54.357 0.014 56.958
          0.973 -10.149 0.014 56.948 0.013 20.259
188.25 0.018 6.112 0.016 61.764 0.973 -11.312
          0.016 61.824 0.943 -60.218 0.016 55.202
          0.973 -11.312 0.016 55.162 0.013 20.137
208 0.02 4.029 0.017 55.893 0.973 -12.496
          0.017 55.883 0.938 -65.894 0.017 48.585
          0.973 -12.476 0.017 48.636 0.014 17.096
227.75 0.019 2.553 0.018 55.475 0.972 -13.701
          0.018 55.505 0.933 -71.433 0.018 46.66
          0.972 -13.661 0.018 46.681 0.014 18.159
247.5 0.02 1.639 0.02 53.006 0.972 -14.844
          0.02 52.986 0.927 -76.786 0.019 43.205
          0.972 -14.834 0.019 43.225 0.014 18.938
267.25 0.02 1.018 0.021 50.082 0.971 -15.979
          0.021 50.062 0.922 -81.96 0.02 38.742
          0.971 -15.969 0.02 38.752 0.014 19.75
287 0.02 -0.885 0.022 46.67 0.971 -17.144
          0.022 46.69 0.916 -87.028 0.021 35.515
          0.971 -17.134 0.021 35.525 0.015 17.402
306.75 0.021 -2.899 0.023 44.043 0.972 -18.327
          0.023 44.033 0.914 -91.933 0.022 32.541
          0.972 -18.317 0.022 32.551 0.015 14.976
326.5 0.021 -4.772 0.024 42.152 0.971 -19.471
          0.024 42.183 0.909 -96.677 0.023 29.292
          0.971 -19.471 0.023 29.312 0.015 14.204
346.25 0.021 -6.448 0.025 39.832 0.971 -20.635
          0.025 39.832 0.904 -101.24 0.024 26.328
          0.971 -20.615 0.024 26.328 0.015 15.027
366 0.021 -8.702 0.025 37.493 0.971 -21.769
          0.025 37.524 0.9 -105.669 0.025 22.875
          0.971 -21.739 0.025 22.926 0.016 13.732
385.75 0.021 -10.563 0.026 35.638 0.969 -22.913
          0.026 35.638 0.895 -109.953 0.025 19.83
          0.969 -22.913 0.025 19.871 0.016 12.966
405.5 0.021 -12.333 0.027 33.585 0.969 -24.077
          0.027 33.605 0.89 -114.083 0.026 16.949
          0.969 -24.067 0.026 16.969 0.016 12.476
425.25 0.021 -14.22 0.028 31.502 0.97 -25.211
          0.028 31.502 0.886 -118.096 0.026 14.217
          0.969 -25.211 0.026 14.237 0.016 11.752
445 0.021 -16.401 0.028 29.177 0.969 -26.365
          0.028 29.187 0.883 -122.012 0.026 11.404
          0.969 -26.355 0.026 11.444 0.017 10.309
464.75 0.021 -19.465 0.028 27.645 0.969 -27.528
          0.028 27.625 0.879 -125.811 0.027 8.714
          0.969 -27.528 0.027 8.734 0.017 8.641
484.5 0.021 -21.882 0.029 25.967 0.969 -28.692
          0.029 25.968 0.874 -129.461 0.027 6.136
          0.969 -28.682 0.027 6.166 0.017 7.918
504.25 0.021 -24.301 0.029 24.188 0.968 -29.837
          0.029 24.199 0.871 -133.011 0.028 3.327
          0.968 -29.837 0.028 3.338 0.017 6.556
524 0.021 -26.698 0.03 22.408 0.968 -30.97
          0.03 22.408 0.868 -136.452 0.028 0.671
          0.968 -30.96 0.028 0.691 0.017 5.139
543.75 0.021 -30.133 0.03 20.828 0.968 -32.114
          0.03 20.838 0.866 -139.783 0.028 -1.635
          0.968 -32.114 0.028 -1.584 0.018 2.38
563.5 0.021 -32.577 0.03 19.195 0.969 -33.249
          0.03 19.205 0.865 -143.023 0.028 -4.181
          0.969 -33.249 0.028 -4.14 0.018 2.865
583.25 0.022 -36.796 0.03 17.629 0.969 -34.441
          0.03 17.64 0.863 -146.2 0.028 -6.496
          0.969 -34.441 0.028 -6.476 0.018 0.571
603 0.021 -40.601 0.031 16.436 0.968 -35.606
          0.03 16.437 0.861 -149.268 0.028 -8.894
          0.968 -35.596 0.028 -8.864 0.018 -0.34
622.75 0.021 -43.879 0.031 15.122 0.968 -36.76
          0.031 15.132 0.858 -152.244 0.028 -11.078
          0.968 -36.75 0.028 -11.038 0.017 -2.043
642.5 0.021 -46.966 0.031 13.76 0.968 -37.904
          0.031 13.77 0.856 -155.149 0.028 -13.383
          0.968 -37.894 0.028 -13.343 0.017 -3.936
662.25 0.021 -50.645 0.031 12.526 0.968 -39.058
          0.031 12.536 0.854 -158.001 0.028 -15.577
          0.967 -39.058 0.028 -15.537 0.017 -6.571
682 0.021 -54.419 0.031 11.303 0.967 -40.212
          0.031 11.314 0.852 -160.792 0.028 -17.791
          0.967 -40.212 0.028 -17.75 0.017 -8.806
701.75 0.021 -58.538 0.031 10.12 0.967 -41.367
          0.031 10.13 0.85 -163.52 0.028 -20.013
          0.967 -41.367 0.028 -19.973 0.017 -10.705
721.5 0.021 -62.81 0.031 8.966 0.967 -42.522
          0.031 8.986 0.848 -166.155 0.028 -22.094
          0.966 -42.512 0.028 -22.064 0.017 -12.676
741.25 0.021 -67.373 0.031 7.894 0.967 -43.666
          0.031 7.914 0.847 -168.727 0.028 -24.194
          0.966 -43.666 0.028 -24.164 0.017 -15.232
761 0.022 -71.95 0.031 6.861 0.966 -44.821
          0.031 6.871 0.845 -171.268 0.028 -26.294
          0.966 -44.821 0.028 -26.264 0.018 -17.42
780.75 0.022 -76.58 0.031 5.859 0.966 -45.975
          0.031 5.869 0.844 -173.735 0.028 -28.383
          0.966 -45.975 0.028 -28.343 0.018 -20.55
800.5 0.022 -81.299 0.032 4.906 0.966 -47.13
          0.032 4.906 0.843 -176.159 0.028 -30.421
          0.965 -47.13 0.028 -30.361 0.017 -22.42
820.25 0.022 -86.213 0.032 3.985 0.967 -48.295
          0.032 4.005 0.842 -178.52 0.028 -32.457
          0.966 -48.285 0.028 -32.397 0.017 -23.61
840 0.023 -91.321 0.032 3.093 0.966 -49.46
          0.032 3.113 0.84 179.141 0.028 -34.574
          0.966 -49.45 0.028 -34.534 0.017 -25.419
859.75 0.023 -96.4 0.032 2.291 0.966 -50.606
          0.032 2.261 0.84 176.855 0.027 -36.619
          0.966 -50.606 0.027 -36.579 0.017 -27.495
879.5 0.024 -101.193 0.032 1.431 0.967 -51.76
          0.032 1.452 0.84 174.612 0.027 -38.644
          0.966 -51.75 0.027 -38.593 0.017 -30.956
899.25 0.024 -106.183 0.032 0.711 0.966 -52.875
          0.032 0.702 0.839 172.414 0.027 -40.635
          0.966 -52.895 0.027 -40.605 0.017 -33.859
919 0.025 -111.116 0.032 -0.038 0.966 -54.06
          0.032 -0.037 0.839 170.237 0.027 -42.698
          0.966 -54.06 0.027 -42.657 0.017 -36.442
938.75 0.026 -115.992 0.032 -0.738 0.966 -55.236
          0.032 -0.748 0.839 168.112 0.027 -44.789
          0.966 -55.216 0.027 -44.719 0.017 -39.501
958.5 0.026 -120.808 0.032 -1.466 0.966 -56.391
          0.032 -1.446 0.838 166.021 0.026 -46.849
          0.966 -56.361 0.026 -46.819 0.018 -43.076
978.25 0.027 -125.522 0.031 -2.063 0.966 -57.527
          0.031 -2.053 0.837 163.962 0.026 -48.759
          0.966 -57.527 0.026 -48.728 0.017 -46.705
998 0.028 -130.558 0.031 -2.639 0.966 -58.662
          0.031 -2.639 0.836 161.945 0.026 -50.808
          0.965 -58.672 0.026 -50.768 0.017 -49.769
1017.75 0.029 -135.39 0.031 -3.216 0.965 -59.838
          0.031 -3.216 0.835 159.971 0.025 -52.825
          0.965 -59.828 0.025 -52.795 0.017 -52.177
1037.5 0.03 -139.843 0.031 -3.829 0.965 -61.002
          0.031 -3.789 0.835 158.022 0.025 -54.85
          0.965 -60.982 0.025 -54.779 0.018 -55.58
1057.25 0.031 -143.528 0.031 -4.403 0.964 -62.179
          0.031 -4.373 0.834 156.093 0.025 -56.876
          0.964 -62.149 0.025 -56.815 0.018 -59.716
1077 0.033 -147.859 0.031 -4.884 0.965 -63.314
          0.031 -4.865 0.834 154.166 0.024 -58.952
          0.964 -63.324 0.024 -58.922 0.017 -63.711
1096.75 0.034 -152.279 0.031 -5.296 0.964 -64.471
          0.031 -5.296 0.834 152.272 0.024 -60.988
          0.964 -64.491 0.024 -60.937 0.017 -66.707
1116.5 0.035 -156.384 0.031 -5.706 0.964 -65.656
          0.031 -5.686 0.834 150.4 0.024 -63.132
          0.964 -65.636 0.024 -63.072 0.018 -69.801
1136.25 0.037 -160.209 0.031 -6.075 0.964 -66.822
          0.031 -6.045 0.833 148.559 0.023 -65.166
          0.964 -66.812 0.023 -65.125 0.018 -74.934
1156 0.038 -164.037 0.031 -6.3 0.964 -67.967
          0.031 -6.291 0.833 146.743 0.023 -67.237
          0.963 -67.967 0.023 -67.207 0.018 -80.252
1175.75 0.039 -167.959 0.031 -6.527 0.963 -69.123
          0.031 -6.507 0.832 144.957 0.023 -69.441
          0.963 -69.113 0.023 -69.37 0.019 -83.031
1195.5 0.041 -171.669 0.031 -6.721 0.963 -70.258
          0.031 -6.681 0.832 143.202 0.022 -71.613
          0.963 -70.268 0.022 -71.552 0.02 -85.88
1215.25 0.043 -175.56 0.031 -6.944 0.963 -71.425
          0.031 -6.934 0.831 141.449 0.022 -73.803
          0.963 -71.425 0.022 -73.763 0.02 -88.292
1235 0.044 -179.382 0.031 -7.144 0.964 -72.599
          0.031 -7.094 0.833 139.719 0.022 -76.042
          0.964 -72.589 0.022 -75.971 0.021 -90.686
1254.75 0.046 177.094 0.031 -7.244 0.964 -73.755
          0.031 -7.234 0.833 138.019 0.021 -78.262
          0.963 -73.755 0.021 -78.221 0.021 -94.021
1274.5 0.047 173.537 0.031 -7.341 0.964 -74.91
          0.031 -7.361 0.832 136.341 0.021 -80.52
          0.964 -74.92 0.021 -80.47 0.021 -96.701
1294.25 0.049 169.942 0.031 -7.478 0.964 -76.076
          0.031 -7.468 0.832 134.673 0.02 -82.829
          0.964 -76.076 0.02 -82.779 0.022 -99.929
1314 0.05 166.351 0.031 -7.61 0.964 -77.24
          0.031 -7.57 0.832 133.009 0.02 -85.225
          0.964 -77.23 0.02 -85.155 0.022 -102.976
1333.75 0.052 162.801 0.031 -7.692 0.964 -78.405
          0.031 -7.702 0.831 131.354 0.02 -87.602
          0.964 -78.405 0.02 -87.522 0.023 -107.554
1353.5 0.053 159.411 0.031 -7.733 0.963 -79.571
          0.031 -7.743 0.831 129.729 0.019 -90.05
          0.962 -79.571 0.019 -90 0.024 -111.568
1373.25 0.055 156.053 0.032 -7.792 0.962 -80.735
          0.032 -7.782 0.831 128.116 0.019 -92.567
          0.962 -80.735 0.019 -92.507 0.025 -114.05
1393 0.056 152.65 0.032 -7.828 0.962 -81.889
          0.032 -7.808 0.831 126.525 0.018 -95.142
          0.962 -81.909 0.018 -95.102 0.026 -116.461
1412.75 0.057 149.273 0.032 -7.895 0.962 -83.074
          0.032 -7.915 0.831 124.923 0.018 -97.869
          0.962 -83.074 0.018 -97.819 0.026 -118.629
1432.5 0.058 146.03 0.032 -7.969 0.962 -84.238
          0.032 -7.919 0.83 123.351 0.018 -100.595
          0.961 -84.238 0.018 -100.544 0.027 -121.101
1452.25 0.059 142.814 0.032 -8.032 0.961 -85.402
          0.032 -8.022 0.83 121.781 0.017 -103.369
          0.961 -85.402 0.017 -103.308 0.028 -123.275
1472 0.06 139.592 0.033 -8.044 0.961 -86.545
          0.033 -8.074 0.83 120.24 0.017 -106.285
          0.961 -86.565 0.017 -106.214 0.029 -125.263
1491.75 0.061 136.44 0.033 -8.095 0.961 -87.709
          0.033 -8.095 0.83 118.729 0.016 -109.311
          0.961 -87.699 0.016 -109.271 0.03 -127.763
1511.5 0.062 133.196 0.033 -8.136 0.961 -88.882
          0.033 -8.156 0.83 117.209 0.016 -112.444
          0.961 -88.882 0.016 -112.394 0.03 -130.544
1531.25 0.063 129.978 0.033 -8.255 0.96 -90.056
          0.033 -8.196 0.83 115.668 0.015 -115.691
          0.96 -90.046 0.015 -115.59 0.03 -133.048
1551 0.063 126.783 0.034 -8.365 0.96 -91.219
          0.034 -8.305 0.829 114.127 0.015 -119.097
          0.96 -91.219 0.015 -119.026 0.031 -135.051
1570.75 0.064 123.689 0.034 -8.465 0.96 -92.402
          0.034 -8.445 0.829 112.607 0.015 -122.631
          0.96 -92.392 0.015 -122.561 0.032 -137.583
1590.5 0.064 120.58 0.034 -8.544 0.96 -93.555
          0.034 -8.534 0.829 111.114 0.014 -126.267
          0.959 -93.555 0.014 -126.227 0.033 -140.119
1610.25 0.064 117.435 0.035 -8.683 0.96 -94.746
          0.035 -8.693 0.831 109.623 0.014 -130.042
          0.96 -94.736 0.014 -130.042 0.034 -142.893
1630 0.065 114.259 0.035 -8.832 0.96 -95.899
          0.035 -8.832 0.83 108.15 0.014 -134.04
          0.96 -95.909 0.014 -134.069 0.035 -144.528
1649.75 0.065 111.106 0.035 -8.994 0.96 -97.062
          0.035 -8.994 0.83 106.676 0.013 -138.267
          0.96 -97.082 0.013 -138.287 0.036 -145.757
1669.5 0.064 107.999 0.036 -9.164 0.96 -98.254
          0.036 -9.154 0.83 105.203 0.013 -142.623
          0.96 -98.244 0.013 -142.603 0.038 -147.689
1689.25 0.064 104.879 0.036 -9.336 0.96 -99.416
          0.036 -9.326 0.83 103.747 0.013 -147.192
          0.959 -99.406 0.013 -147.151 0.039 -149.612
1709 0.063 101.753 0.036 -9.539 0.959 -100.589
          0.036 -9.519 0.83 102.292 0.012 -151.939
          0.959 -100.579 0.012 -151.888 0.04 -151.347
1728.75 0.063 98.642 0.037 -9.734 0.959 -101.771
          0.037 -9.734 0.83 100.844 0.012 -156.848
          0.959 -101.771 0.012 -156.818 0.041 -152.858
1748.5 0.062 95.536 0.037 -9.958 0.959 -102.943
          0.037 -9.938 0.829 99.406 0.012 -161.885
          0.959 -102.933 0.012 -161.875 0.041 -154.65
1768.25 0.061 92.451 0.038 -10.175 0.959 -104.105
          0.038 -10.175 0.83 97.955 0.012 -167.085
          0.957 -104.105 0.012 -167.035 0.042 -157.099
1788 0.06 89.316 0.038 -10.423 0.958 -105.277
          0.038 -10.423 0.829 96.515 0.012 -172.393
          0.958 -105.277 0.012 -172.333 0.043 -159.114
1807.75 0.059 86.162 0.038 -10.624 0.958 -106.45
          0.038 -10.664 0.829 95.092 0.012 -177.823
          0.958 -106.46 0.012 -177.802 0.044 -160.977
1827.5 0.057 82.9 0.039 -10.935 0.958 -107.642
          0.039 -10.905 0.828 93.659 0.012 176.69
          0.958 -107.642 0.012 176.72 0.046 -162.53
1847.25 0.055 79.685 0.039 -11.168 0.957 -108.814
          0.039 -11.168 0.828 92.252 0.012 171.25
          0.957 -108.824 0.012 171.24 0.047 -164.091
1867 0.053 76.469 0.04 -11.433 0.957 -109.996
          0.04 -11.433 0.828 90.825 0.012 165.783
          0.957 -109.996 0.012 165.843 0.048 -165.616
1886.75 0.051 73.354 0.04 -11.661 0.957 -111.169
          0.04 -11.691 0.828 89.415 0.013 160.384
          0.957 -111.169 0.013 160.444 0.049 -166.953
1906.5 0.049 70.228 0.041 -11.99 0.957 -112.342
          0.041 -11.96 0.828 88.005 0.013 155.137
          0.957 -112.342 0.013 155.168 0.05 -168.469
1926.25 0.047 66.966 0.041 -12.261 0.956 -113.535
          0.041 -12.242 0.828 86.591 0.013 149.978
          0.956 -113.535 0.013 149.999 0.05 -169.807
1946 0.044 63.609 0.042 -12.504 0.956 -114.707
          0.042 -12.494 0.827 85.187 0.014 144.941
          0.956 -114.717 0.014 144.991 0.051 -171.234
1965.75 0.041 60.151 0.042 -12.698 0.956 -115.899
          0.042 -12.728 0.827 83.791 0.014 140.115
          0.956 -115.909 0.014 140.125 0.052 -172.549
1985.5 0.038 56.69 0.042 -12.945 0.955 -117.093
          0.042 -12.975 0.827 82.391 0.015 135.516
          0.955 -117.083 0.015 135.556 0.053 -174.19
2005.25 0.035 53.171 0.043 -13.223 0.955 -118.275
          0.043 -13.253 0.827 81.001 0.015 131.028
          0.955 -118.275 0.015 131.058 0.054 -175.912
2025 0.032 49.528 0.043 -13.484 0.955 -119.478
          0.043 -13.484 0.826 79.596 0.016 126.708
          0.955 -119.478 0.016 126.748 0.055 -177.608
2044.75 0.028 45.773 0.044 -13.715 0.956 -120.661
          0.044 -13.745 0.827 78.212 0.016 122.579
          0.955 -120.671 0.016 122.609 0.056 -178.99
2064.5 0.025 41.704 0.045 -13.908 0.955 -121.853
          0.045 -13.948 0.827 76.815 0.017 118.63
          0.955 -121.853 0.017 118.68 0.057 179.732
2084.25 0.021 37.365 0.045 -14.163 0.955 -123.036
          0.045 -14.153 0.827 75.424 0.018 114.848
          0.955 -123.036 0.018 114.849 0.058 178.431
2104 0.017 32.683 0.046 -14.339 0.954 -124.23
          0.046 -14.359 0.827 74.033 0.019 111.157
          0.954 -124.22 0.019 111.177 0.059 176.995
2123.75 0.013 27.324 0.046 -14.545 0.954 -125.412
          0.046 -14.585 0.827 72.66 0.019 107.586
          0.954 -125.412 0.019 107.626 0.06 175.575
2143.5 8.766e-3 19.742 0.047 -14.762 0.954 -126.605
          0.047 -14.792 0.826 71.282 0.02 104.202
          0.954 -126.605 0.02 104.232 0.061 174.065
2163.25 4.63e-3 1.934 0.048 -15 0.954 -127.797
          0.048 -14.98 0.826 69.914 0.021 100.97
          0.954 -127.787 0.021 101.001 0.062 172.66
2183 2.506e-3 -75.435 0.048 -15.197 0.953 -128.989
          0.048 -15.177 0.826 68.534 0.022 97.838
          0.953 -128.999 0.022 97.868 0.064 171.385
2202.75 5.89e-3 -129.179 0.049 -15.395 0.953 -130.191
          0.049 -15.425 0.825 67.149 0.023 94.782
          0.953 -130.191 0.023 94.812 0.065 170.172
2222.5 0.01 -143.858 0.05 -15.612 0.952 -131.382
          0.05 -15.612 0.825 65.805 0.024 91.828
          0.953 -131.382 0.024 91.869 0.066 168.807
2242.25 0.015 -151.42 0.051 -15.849 0.952 -132.573
          0.051 -15.829 0.825 64.448 0.025 88.963
          0.952 -132.583 0.025 89.004 0.067 167.396
2262 0.02 -156.859 0.051 -16.096 0.952 -133.765
          0.051 -16.106 0.825 63.056 0.026 86.207
          0.952 -133.775 0.026 86.247 0.068 166.076
2281.75 0.025 -161.284 0.052 -16.392 0.952 -134.965
          0.052 -16.421 0.825 61.664 0.027 83.522
          0.951 -134.975 0.027 83.561 0.069 165.029
2301.5 0.03 -165.302 0.053 -16.675 0.951 -136.174
          0.053 -16.735 0.824 60.26 0.028 80.896
          0.951 -136.184 0.028 80.936 0.07 163.829
2321.25 0.035 -169.18 0.054 -16.989 0.951 -137.374
          0.054 -16.989 0.823 58.894 0.029 78.34
          0.951 -137.374 0.029 78.38 0.071 162.418
2341 0.041 -173.107 0.055 -17.311 0.951 -138.573
          0.055 -17.321 0.823 57.526 0.03 75.843
          0.949 -138.583 0.03 75.883 0.072 160.718
2360.75 0.046 -176.736 0.056 -17.67 0.949 -139.783
          0.056 -17.67 0.824 56.149 0.031 73.344
          0.949 -139.793 0.031 73.394 0.073 159.025
2380.5 0.052 179.74 0.057 -18.027 0.949 -141.003
          0.057 -18.037 0.822 54.779 0.032 70.881
          0.949 -141.003 0.032 70.931 0.074 158.214
2400.25 0.057 176.229 0.059 -18.442 0.95 -142.208
          0.059 -18.441 0.822 53.42 0.033 68.519
          0.95 -142.218 0.033 68.559 0.075 156.311
2420 0.063 172.908 0.06 -18.846 0.949 -143.427
          0.06 -18.845 0.822 52.066 0.034 66.255
          0.949 -143.427 0.034 66.295 0.076 154.503
2439.75 0.068 169.581 0.061 -19.288 0.948 -144.635
          0.061 -19.298 0.82 50.686 0.035 64.053
          0.949 -144.645 0.035 64.104 0.077 153.516
2459.5 0.073 166.24 0.062 -19.831 0.948 -145.85
          0.062 -19.831 0.821 49.308 0.036 61.934
          0.948 -145.85 0.036 61.974 0.079 152.023
2479.25 0.079 163 0.063 -20.342 0.949 -147.067
          0.063 -20.351 0.823 47.941 0.037 59.859
          0.948 -147.067 0.037 59.909 0.08 150.442
2499 0.085 159.802 0.065 -20.89 0.948 -148.285
          0.065 -20.89 0.823 46.586 0.038 57.725
          0.948 -148.295 0.038 57.756 0.081 148.807
2518.75 0.09 156.521 0.066 -21.477 0.948 -149.498
          0.066 -21.487 0.823 45.213 0.039 55.544
          0.948 -149.498 0.039 55.525 0.082 147.935
2538.5 0.096 153.332 0.068 -22.061 0.947 -150.716
          0.068 -22.071 0.822 43.875 0.04 53.393
          0.947 -150.716 0.04 53.454 0.083 146.03
2558.25 0.101 150.169 0.069 -22.675 0.947 -151.933
          0.069 -22.685 0.822 42.549 0.041 51.453
          0.946 -151.933 0.041 51.483 0.085 144.265
2578 0.107 147.036 0.07 -23.349 0.946 -153.14
          0.07 -23.359 0.82 41.173 0.042 49.583
