!Hittite Microwave Corporation								
!20 Alpha Rd								
!Chelmsford, MA 01824								
!Tel: 978-250-3343								
!Fax: 978-250-3373
!Device: HMC545, DC - 4 GHz  T/R Switch in  SOT26 SMT package
!Misc: Port1=RFC, Port2= RF1, Port3=RF2, RF2 ON, Data taken on a part mounted on 101659-4 Eval PCB,Bias: +5VDC								
# MHZ S MA R 50

0.03 0.253 -69.608 2.764e-3 -14.748 0.982 -0.148
          2.858e-3 -11.418 0.993 2.009e-3 2.701e-3 -13.698
          0.981 -0.138 2.757e-3 -12.628 0.014 10.658
20.03 0.015 -8.498 2.396e-3 21.413 0.979 -0.677
          2.363e-3 23.413 0.985 -4.24 2.333e-3 21.762
          0.981 -0.647 2.278e-3 23.742 0.01 -11.582
40.03 0.015 -11.639 3.291e-3 44.033 0.981 -1.226
          3.201e-3 45.063 0.986 -8.162 3.364e-3 43.793
          0.981 -1.236 3.352e-3 43.163 0.011 -20.022
60.03 0.016 -14.657 4.278e-3 56.328 0.98 -1.815
          4.264e-3 55.827 0.985 -12.233 4.147e-3 54.473
          0.981 -1.805 4.133e-3 53.543 0.012 -28.04
80.029 0.017 -18.819 5.373e-3 62.84 0.98 -2.364
          5.367e-3 63.331 0.986 -16.213 5.245e-3 60.205
          0.979 -2.414 5.251e-3 61.905 0.013 -33.549
100.029 0.018 -23.53 6.724e-3 66.194 0.979 -2.993
          6.662e-3 65.823 0.987 -20.101 6.594e-3 62.978
          0.98 -2.973 6.64e-3 63.598 0.014 -38.33
120.029 0.019 -28.849 8.063e-3 65.968 0.979 -3.492
          8.064e-3 66.018 0.986 -23.958 8.037e-3 62.712
          0.978 -3.542 8.065e-3 61.962 0.015 -42.773
140.029 0.02 -34.856 9.471e-3 66.046 0.979 -4.13
          9.428e-3 65.835 0.984 -27.881 9.441e-3 61.377
          0.978 -4.13 9.376e-3 61.737 0.016 -50.128
160.029 0.022 -40.465 0.011 65.715 0.979 -4.66
          0.011 65.604 0.985 -31.762 0.011 60.513
          0.979 -4.68 0.011 60.642 0.018 -57.333
180.029 0.025 -45.504 0.012 63.553 0.978 -5.229
          0.012 63.973 0.983 -35.74 0.012 58.732
          0.978 -5.259 0.012 58.452 0.021 -61.845
200.028 0.027 -48.971 0.013 63.196 0.978 -5.758
          0.013 63.366 0.985 -39.605 0.013 56.331
          0.978 -5.818 0.013 55.871 0.023 -62.603
220.028 0.029 -51.073 0.014 61.802 0.978 -6.315
          0.014 61.572 0.986 -43.275 0.014 54.953
          0.977 -6.375 0.014 54.383 0.026 -63.016
240.028 0.032 -53.548 0.015 60.647 0.978 -6.844
          0.015 60.817 0.986 -46.804 0.015 53.235
          0.978 -6.914 0.015 53.035 0.027 -63.885
260.028 0.034 -56.103 0.017 59.696 0.978 -7.513
          0.017 59.845 0.983 -50.28 0.016 51.009
          0.978 -7.463 0.016 51.008 0.028 -66.722
280.028 0.037 -58.229 0.018 57.415 0.978 -7.951
          0.018 57.124 0.983 -53.812 0.017 49.566
          0.978 -8.011 0.017 49.135 0.03 -69.536
300.028 0.04 -61.307 0.019 55.768 0.976 -8.57
          0.019 55.636 0.981 -57.47 0.018 47.094
          0.976 -8.62 0.018 46.763 0.033 -71.863
320.028 0.043 -63.377 0.019 54.619 0.976 -9.109
          0.019 54.569 0.981 -60.876 0.019 45.144
          0.975 -9.139 0.019 44.965 0.035 -72.671
340.027 0.046 -64.926 0.02 53.466 0.976 -9.658
          0.02 53.155 0.984 -64.1 0.02 42.844
          0.976 -9.678 0.02 42.514 0.038 -72.908
360.027 0.049 -65.618 0.021 51.684 0.976 -10.206
          0.021 51.855 0.983 -67.201 0.021 40.675
          0.976 -10.256 0.021 40.525 0.039 -73.93
380.027 0.051 -66.194 0.022 50.564 0.975 -10.774
          0.022 50.543 0.981 -70.28 0.022 38.848
          0.976 -10.774 0.022 38.509 0.04 -76.081
400.027 0.053 -67.127 0.023 49.065 0.975 -11.293
          0.023 49.115 0.978 -73.415 0.023 36.883
          0.975 -11.323 0.023 36.394 0.042 -78.507
420.027 0.054 -68.585 0.024 47.748 0.975 -11.841
          0.024 47.809 0.975 -76.468 0.023 34.649
          0.975 -11.871 0.024 34.339 0.045 -79.765
440.027 0.055 -70.824 0.024 46.344 0.974 -12.399
          0.024 46.575 0.977 -79.489 0.024 32.516
          0.975 -12.389 0.024 32.566 0.047 -80.314
460.027 0.057 -73.813 0.025 45.182 0.974 -12.907
          0.025 45.131 0.977 -82.359 0.025 30.534
          0.974 -12.967 0.025 30.434 0.049 -80.688
480.026 0.059 -76.794 0.025 43.988 0.975 -13.465
          0.025 43.868 0.975 -85.009 0.025 28.891
          0.975 -13.455 0.025 28.682 0.051 -81.941
500.026 0.062 -79.398 0.026 42.918 0.975 -14.002
          0.026 42.737 0.973 -87.647 0.026 26.851
          0.975 -14.062 0.026 26.74 0.052 -83.789
520.026 0.065 -81.372 0.026 41.599 0.974 -14.559
          0.027 41.458 0.97 -90.372 0.027 25.091
          0.975 -14.589 0.026 24.91 0.054 -85.469
540.026 0.068 -82.306 0.027 40.411 0.976 -15.097
          0.027 40.259 0.97 -93.136 0.027 23.252
          0.976 -15.137 0.027 23.031 0.057 -86.818
560.026 0.071 -83.243 0.027 39.314 0.975 -15.584
          0.027 39.192 0.97 -95.641 0.027 21.272
          0.975 -15.624 0.027 20.992 0.059 -87.275
580.026 0.073 -84.604 0.028 38.035 0.975 -16.142
          0.028 38.056 0.97 -98.106 0.028 19.193
          0.975 -16.172 0.028 19.274 0.061 -87.997
600.025 0.074 -86.112 0.028 37.051 0.973 -16.699
          0.028 37.111 0.97 -100.401 0.028 17.494
          0.975 -16.719 0.028 17.534 0.062 -89.124
620.025 0.075 -88.459 0.028 36.166 0.973 -17.235
          0.028 36.006 0.965 -102.636 0.029 15.784
          0.973 -17.255 0.029 15.835 0.063 -91.165
640.025 0.076 -91.15 0.028 34.982 0.973 -17.822
          0.029 34.932 0.963 -104.97 0.029 13.886
          0.973 -17.862 0.029 13.926 0.066 -92.733
660.025 0.078 -93.778 0.029 34.441 0.973 -18.308
          0.029 34.038 0.961 -107.334 0.029 12.399
          0.973 -18.368 0.029 12.188 0.069 -93.452
680.025 0.081 -96.067 0.029 33.42 0.972 -18.844
          0.029 33.401 0.962 -109.579 0.03 10.39
          0.972 -18.894 0.029 10.569 0.071 -93.322
700.025 0.084 -97.882 0.029 32.759 0.972 -19.381
          0.029 32.447 0.961 -111.636 0.03 8.889
          0.972 -19.431 0.03 8.75 0.072 -93.214
720.025 0.087 -99.138 0.029 32.098 0.972 -19.898
          0.029 31.695 0.96 -113.574 0.03 7.369
          0.972 -19.948 0.03 7.199 0.072 -94.279
740.024 0.089 -100.755 0.029 31.256 0.972 -20.504
          0.03 31.027 0.96 -115.482 0.03 5.379
          0.973 -20.544 0.03 5.74 0.073 -96.15
760.024 0.091 -102.017 0.03 30.426 0.973 -21.019
          0.03 30.206 0.955 -117.511 0.03 3.808
          0.973 -21.079 0.03 3.976 0.075 -98.388
780.024 0.093 -103.718 0.03 29.628 0.973 -21.585
          0.03 29.306 0.954 -119.62 0.031 2.097
          0.973 -21.595 0.031 2.128 0.078 -99.294
800.024 0.094 -105.879 0.03 28.97 0.972 -22.101
          0.03 28.769 0.955 -121.601 0.031 0.447
          0.972 -22.121 0.031 0.437 0.081 -99.089
820.024 0.096 -108.005 0.03 28.3 0.972 -22.617
          0.03 28.12 0.956 -123.364 0.031 -1.065
          0.972 -22.677 0.031 -0.975 0.081 -98.819
840.024 0.099 -110.039 0.03 27.722 0.972 -23.213
          0.03 27.411 0.955 -125.029 0.031 -2.717
          0.972 -23.193 0.031 -2.548 0.081 -99.352
860.024 0.101 -111.69 0.03 27.343 0.971 -23.708
          0.03 27.023 0.952 -126.685 0.031 -4.262
          0.971 -23.728 0.031 -4.063 0.081 -101.287
880.023 0.104 -113.027 0.03 26.855 0.971 -24.223
          0.03 26.485 0.95 -128.452 0.031 -6.027
          0.971 -24.283 0.031 -5.686 0.083 -103.314
900.023 0.106 -113.996 0.03 26.701 0.971 -24.779
          0.03 26.126 0.948 -130.321 0.031 -7.31
          0.97 -24.849 0.031 -7.46 0.086 -104.453
920.023 0.107 -114.874 0.03 26.153 0.97 -25.304
          0.03 25.751 0.949 -132.071 0.031 -9.095
          0.97 -25.344 0.031 -9.026 0.088 -104.33
940.023 0.108 -115.927 0.03 25.575 0.971 -25.871
          0.03 25.313 0.949 -133.664 0.031 -10.712
          0.97 -25.931 0.031 -10.692 0.089 -103.69
960.023 0.108 -117.171 0.03 25.265 0.968 -26.408
          0.03 25.176 0.949 -135.139 0.031 -12.411
          0.968 -26.378 0.031 -12.13 0.088 -104.119
980.023 0.108 -118.816 0.03 25.159 0.969 -26.895
          0.03 24.443 0.948 -136.604 0.031 -13.891
          0.971 -26.945 0.031 -13.849 0.087 -105.783
1000.023 0.108 -120.623 0.029 24.891 0.968 -27.459
          0.029 24.438 0.946 -138.262 0.031 -15.54
          0.97 -27.499 0.031 -15.358 0.088 -108.203
1020.022 0.109 -122.402 0.03 24.617 0.97 -27.985
          0.03 24.286 0.945 -139.952 0.031 -16.911
          0.97 -27.995 0.031 -16.518 0.091 -109.732
1040.022 0.11 -123.872 0.03 24.537 0.971 -28.51
          0.029 24.289 0.947 -141.544 0.031 -18.369
          0.969 -28.55 0.031 -17.93 0.094 -109.768
1060.022 0.11 -125.186 0.029 24.228 0.971 -29.037
          0.029 23.947 0.948 -142.958 0.031 -19.771
          0.968 -29.077 0.031 -19.619 0.095 -109.296
1080.022 0.11 -126.274 0.029 24.322 0.969 -29.633
          0.029 23.919 0.948 -144.214 0.031 -21.433
          0.969 -29.613 0.031 -21.282 0.094 -109.289
1100.022 0.109 -127.346 0.029 24.368 0.968 -30.091
          0.029 23.987 0.946 -145.641 0.031 -22.828
          0.969 -30.181 0.031 -22.829 0.092 -110.576
1120.022 0.107 -128.66 0.029 24.423 0.968 -30.589
          0.029 24.062 0.943 -147.031 0.031 -24.403
          0.968 -30.619 0.031 -24.274 0.092 -112.662
1140.021 0.105 -130.441 0.029 24.361 0.968 -31.155
          0.029 23.868 0.943 -148.674 0.031 -26.189
          0.97 -31.235 0.031 -26.29 0.095 -114.436
1160.021 0.103 -132.626 0.029 24.611 0.969 -31.691
          0.029 24.241 0.943 -150.149 0.03 -27.718
          0.967 -31.751 0.031 -27.669 0.097 -114.764
1180.021 0.102 -135.046 0.029 24.667 0.969 -32.257
          0.029 24.205 0.945 -151.435 0.03 -29.506
          0.969 -32.287 0.03 -29.396 0.099 -114.146
1200.021 0.102 -137.064 0.029 24.65 0.967 -32.765
          0.029 24.215 0.946 -152.612 0.03 -31.156
          0.969 -32.825 0.03 -31.164 0.098 -113.783
1220.021 0.102 -138.741 0.029 24.858 0.968 -33.323
          0.029 24.365 0.947 -153.86 0.03 -32.435
          0.968 -33.303 0.03 -32.536 0.098 -114.406
1240.021 0.102 -139.752 0.029 24.691 0.969 -33.801
          0.029 24.401 0.944 -155.162 0.03 -34.207
          0.969 -33.831 0.03 -34.35 0.097 -115.573
1260.021 0.101 -140.286 0.029 25.015 0.967 -34.346
          0.029 24.682 0.944 -156.585 0.03 -35.812
          0.967 -34.396 0.03 -35.901 0.099 -116.873
1280.02 0.099 -141.339 0.029 25.033 0.967 -34.954
          0.029 24.843 0.946 -158.063 0.029 -37.485
          0.967 -34.924 0.029 -37.536 0.1 -117.066
1300.02 0.097 -142.275 0.029 25.179 0.967 -35.432
          0.029 25.031 0.946 -159.321 0.029 -38.95
          0.969 -35.472 0.029 -39.453 0.101 -116.518
1320.02 0.094 -143.642 0.029 25.455 0.968 -36.002
          0.029 25.364 0.948 -160.439 0.029 -40.648
          0.968 -35.962 0.029 -40.899 0.1 -116.003
1340.02 0.092 -145.285 0.029 25.54 0.966 -36.471
          0.029 25.415 0.947 -161.62 0.029 -42.378
          0.969 -36.491 0.029 -42.444 0.098 -116.43
1360.02 0.091 -146.739 0.029 25.725 0.968 -37
          0.029 25.716 0.945 -162.843 0.029 -43.996
          0.967 -37.03 0.029 -44.217 0.096 -117.67
1380.02 0.091 -147.65 0.029 25.82 0.968 -37.578
          0.029 25.852 0.942 -164.21 0.028 -45.706
          0.969 -37.578 0.028 -46.078 0.097 -119.041
1400.019 0.09 -147.747 0.029 26.084 0.968 -38.085
          0.029 26.113 0.943 -165.569 0.028 -47.598
          0.968 -38.085 0.028 -47.647 0.099 -119.728
1420.019 0.089 -147.222 0.029 26.175 0.969 -38.652
          0.029 26.024 0.947 -166.829 0.028 -49.319
          0.968 -38.682 0.028 -49.508 0.101 -119.263
1440.019 0.087 -146.246 0.029 26.429 0.968 -39.161
          0.029 26.4 0.947 -167.898 0.027 -50.931
          0.968 -39.161 0.028 -51.282 0.1 -118.47
1460.019 0.084 -145.087 0.029 26.601 0.969 -39.722
          0.029 26.493 0.946 -168.952 0.027 -52.695
          0.968 -39.772 0.027 -52.946 0.098 -118.359
1480.019 0.081 -143.985 0.029 26.767 0.969 -40.283
          0.029 26.779 0.946 -170.23 0.027 -54.552
          0.969 -40.293 0.027 -54.883 0.097 -119.334
1500.019 0.078 -143.062 0.029 26.879 0.969 -40.762
          0.029 27.083 0.944 -171.541 0.027 -55.969
          0.967 -40.772 0.027 -56.621 0.096 -120.733
1520.019 0.076 -142.015 0.029 27.021 0.969 -41.331
          0.029 27.192 0.944 -172.903 0.027 -57.757
          0.968 -41.301 0.027 -58.267 0.098 -121.691
1540.018 0.074 -140.762 0.029 27.407 0.968 -41.83
          0.029 27.631 0.946 -174.064 0.026 -59.632
          0.969 -41.88 0.026 -60.245 0.1 -121.385
1560.018 0.073 -138.9 0.029 27.639 0.969 -42.417
          0.029 27.962 0.947 -175.143 0.026 -61.406
          0.969 -42.427 0.026 -61.929 0.1 -120.494
1580.018 0.073 -136.202 0.029 27.704 0.967 -42.987
          0.029 28.016 0.946 -176.214 0.026 -63.433
          0.967 -42.997 0.026 -63.766 0.099 -119.925
1600.018 0.072 -133.012 0.029 28.097 0.967 -43.488
          0.029 28.267 0.944 -177.417 0.025 -65.165
          0.969 -43.538 0.026 -65.694 0.097 -120.174
1620.018 0.071 -129.549 0.029 28.366 0.967 -43.988
          0.029 28.381 0.942 -178.692 0.025 -67.02
          0.969 -44.098 0.025 -67.882 0.095 -120.73
1640.018 0.07 -126.786 0.029 28.606 0.968 -44.531
          0.029 28.911 0.943 -179.976 0.025 -69.198
          0.968 -44.571 0.025 -69.782 0.096 -121.937
1660.018 0.069 -123.787 0.029 29.002 0.968 -45.11
          0.028 29.156 0.945 178.906 0.025 -71.223
          0.968 -45.12 0.025 -71.844 0.098 -122.269
1680.017 0.069 -121.187 0.029 29.201 0.968 -45.659
          0.028 29.538 0.946 177.818 0.025 -73.05
          0.968 -45.739 0.025 -73.923 0.098 -121.446
1700.017 0.069 -119.33 0.028 29.475 0.966 -46.218
          0.028 29.779 0.944 176.76 0.024 -75.164
          0.966 -46.268 0.024 -76.043 0.098 -120.698
1720.017 0.071 -117.726 0.028 29.902 0.967 -46.737
          0.028 30.177 0.94 175.63 0.024 -77.531
          0.967 -46.827 0.024 -78.086 0.096 -120.903
1740.017 0.074 -116.373 0.028 30.277 0.967 -47.286
          0.028 30.571 0.939 174.356 0.024 -79.711
          0.968 -47.416 0.024 -80.413 0.094 -121.979
1760.017 0.077 -115.136 0.028 30.83 0.968 -47.834
          0.028 31.132 0.942 173.011 0.024 -82.038
          0.969 -47.904 0.024 -82.639 0.095 -123.43
1780.017 0.081 -113.865 0.028 31.381 0.968 -48.391
          0.028 31.783 0.943 171.839 0.023 -84.29
          0.968 -48.501 0.023 -84.795 0.097 -124.157
1800.016 0.085 -112.707 0.028 31.894 0.968 -48.967
          0.028 32.465 0.944 170.83 0.023 -86.678
          0.967 -49.057 0.023 -87.253 0.098 -123.746
1820.016 0.088 -112.043 0.028 32.655 0.968 -49.495
          0.028 33.024 0.943 169.842 0.023 -89.18
          0.968 -49.595 0.023 -89.523 0.098 -123.096
1840.016 0.092 -111.713 0.028 33.233 0.967 -50.093
          0.028 33.972 0.941 168.669 0.023 -91.269
          0.967 -50.193 0.023 -91.974 0.096 -123.049
1860.016 0.096 -111.974 0.028 34.183 0.968 -50.631
          0.028 34.648 0.939 167.486 0.023 -93.993
          0.968 -50.671 0.022 -93.935 0.095 -123.767
1880.016 0.1 -112.851 0.028 34.976 0.968 -51.208
          0.028 35.437 0.939 166.263 0.022 -96.169
          0.967 -51.248 0.022 -96.76 0.095 -124.816
1900.016 0.104 -113.93 0.028 36.15 0.967 -51.705
          0.028 36.452 0.94 165.08 0.022 -98.631
          0.967 -51.805 0.022 -99.221 0.097 -125.337
1920.016 0.109 -115.228 0.028 37.376 0.967 -52.251
          0.028 37.666 0.941 164.102 0.022 -101.422
          0.967 -52.341 0.022 -101.904 0.098 -125.165
1940.015 0.115 -116.562 0.028 38.29 0.967 -52.846
          0.028 38.918 0.94 163.103 0.022 -103.604
          0.966 -52.926 0.022 -104.128 0.099 -124.881
1960.015 0.121 -117.877 0.028 39.355 0.968 -53.423
          0.028 39.84 0.938 161.983 0.022 -106.187
          0.968 -53.453 0.022 -106.203 0.098 -125.102
1980.015 0.127 -119.006 0.028 40.697 0.966 -53.941
          0.028 41.291 0.934 160.791 0.022 -108.564
          0.966 -54.081 0.021 -108.883 0.098 -125.929
2000.015 0.133 -120.233 0.028 41.88 0.966 -54.517
          0.028 42.496 0.936 159.6 0.022 -110.972
          0.966 -54.557 0.021 -111.517 0.099 -126.62
2020.015 0.138 -121.597 0.028 43.235 0.967 -55.094
          0.028 43.652 0.937 158.451 0.022 -113.795
          0.967 -55.154 0.021 -113.959 0.1 -126.911
2040.015 0.143 -123.241 0.028 44.318 0.966 -55.601
          0.029 44.875 0.938 157.455 0.022 -116.167
          0.967 -55.671 0.021 -116.531 0.101 -126.495
2060.015 0.147 -125.075 0.029 45.563 0.968 -56.218
          0.029 46.122 0.936 156.48 0.022 -118.957
          0.966 -56.258 0.021 -119.498 0.101 -126.286
2080.014 0.152 -127.107 0.029 46.888 0.965 -56.765
          0.029 47.412 0.935 155.476 0.022 -121.342
          0.967 -56.865 0.021 -121.609 0.101 -126.605
2100.014 0.158 -129.129 0.03 48.003 0.967 -57.323
          0.03 48.531 0.932 154.268 0.022 -123.894
          0.967 -57.343 0.022 -124.316 0.101 -127.926
2120.014 0.163 -131.033 0.03 49.441 0.968 -57.892
          0.03 49.647 0.932 153.072 0.022 -126.967
          0.967 -57.942 0.022 -127.05 0.102 -129.067
2140.014 0.169 -132.667 0.031 50.346 0.967 -58.438
          0.031 50.823 0.934 151.897 0.022 -129.532
          0.967 -58.498 0.022 -129.747 0.104 -129.371
2160.014 0.173 -134.319 0.031 51.494 0.969 -59.056
          0.032 51.582 0.937 150.958 0.022 -132.208
          0.968 -59.046 0.022 -132.428 0.106 -129.194
2180.014 0.176 -135.967 0.032 52.387 0.967 -59.635
          0.032 52.465 0.936 150.09 0.022 -135.145
          0.967 -59.655 0.022 -135.384 0.106 -128.763
2200.013 0.178 -137.848 0.033 53.087 0.967 -60.205
          0.033 53.115 0.931 149.092 0.023 -137.549
          0.967 -60.265 0.022 -137.808 0.105 -129.158
2220.013 0.18 -140.081 0.034 53.809 0.967 -60.767
          0.034 53.858 0.928 147.983 0.023 -140.368
          0.967 -60.817 0.023 -140.449 0.106 -130.25
2240.013 0.182 -142.634 0.034 54.276 0.966 -61.318
          0.035 54.503 0.927 146.764 0.023 -142.881
          0.967 -61.348 0.023 -143.191 0.107 -131.302
2260.013 0.184 -145.145 0.035 54.842 0.967 -61.898
          0.036 54.91 0.929 145.578 0.023 -145.604
          0.967 -61.958 0.023 -145.724 0.11 -131.808
2280.013 0.187 -147.787 0.036 55.376 0.965 -62.478
          0.036 55.511 0.93 144.637 0.024 -148.34
          0.965 -62.498 0.023 -148.322 0.112 -131.574
2300.013 0.19 -149.725 0.037 55.959 0.965 -62.998
          0.037 56.09 0.932 143.841 0.024 -150.845
          0.966 -63.078 0.024 -150.867 0.113 -131.389
2320.013 0.191 -151.971 0.038 56.433 0.965 -63.59
          0.038 56.511 0.927 143.024 0.024 -153.371
          0.965 -63.7 0.024 -153.363 0.113 -131.768
2340.012 0.192 -153.81 0.039 56.801 0.964 -64.153
          0.039 56.699 0.922 141.935 0.025 -155.702
          0.965 -64.203 0.024 -155.721 0.113 -132.924
2360.012 0.19 -155.992 0.039 57.02 0.965 -64.758
          0.04 56.597 0.92 140.647 0.025 -158.018
          0.965 -64.778 0.025 -158.082 0.114 -133.999
2380.012 0.188 -158.491 0.04 57.16 0.963 -65.311
          0.041 56.949 0.92 139.473 0.025 -160.189
          0.965 -65.451 0.025 -160.099 0.117 -134.625
2400.012 0.187 -161.425 0.041 57.356 0.965 -65.905
          0.042 57.026 0.926 138.492 0.026 -162.692
          0.967 -65.965 0.026 -162.213 0.119 -134.585
2420.012 0.187 -164.604 0.042 57.19 0.965 -66.458
          0.043 57.121 0.926 137.705 0.026 -164.773
          0.965 -66.558 0.026 -164.497 0.12 -134.399
2440.012 0.187 -167.47 0.043 57.308 0.964 -67.022
          0.044 57.048 0.923 136.902 0.027 -166.815
          0.966 -67.152 0.027 -166.655 0.119 -135.079
2460.012 0.188 -170.191 0.044 57.137 0.963 -67.567
          0.044 57.028 0.919 135.948 0.028 -169.045
          0.966 -67.767 0.027 -168.679 0.119 -136.418
2480.011 0.188 -172.213 0.045 57.047 0.965 -68.132
          0.045 57.039 0.916 134.735 0.028 -171.078
          0.965 -68.322 0.028 -170.694 0.121 -138.162
2500.011 0.187 -174.342 0.046 57.007 0.965 -68.787
          0.046 56.74 0.916 133.576 0.029 -173.373
          0.966 -68.957 0.029 -172.638 0.124 -139
