!Hittite Microwave Corporation								
!20 Alpha Rd								
!Chelmsford, MA 01824								
!Tel: 978-250-3343								
!Fax: 978-250-3373
!Device: HMC565, 6 - 20 GHz GaAs PHEMT MMIC LNA DIE; Measuremments were performed with part mounted on gold plate
!RF IN and OUT were connected to 50 Ohms substrates via two  1 mil diameter bondwires
!Misc:Bias: +3VDC; T= +25C;
# GHZ S DB R 50.0								
!Freq (GHz)	S11 (mag)	S11 (ph)	S21 (mag)	S21 (ph)	S12 (mag)	S12 (ph)	S22 (mag)	S22 (ph)
0.050000001	-0.022500895	-2.295374393	-58.20597839	150.4931793	-87.14796448	-76.17417145	-0.038360294	-1.714372873
0.199750006	-0.031206854	-8.354447365	-63.58873367	98.01729584	-80.33322906	-55.61049652	-0.023911521	-6.497801781
0.3495	-0.040276229	-14.65701103	-73.86735535	-59.47312546	-80.55211639	-96.40699768	-0.028670385	-11.36153889
0.499249995	-0.043924443	-20.98161316	-72.40738678	8.57039547	-75.93727875	-100.0878983	-0.047990996	-16.42238045
0.648999989	-0.040513903	-27.44026375	-45.25487137	-46.057827	-82.29814148	-165.7141876	-0.089024104	-21.26276016
0.798750043	-0.07146433	-34.19907761	-65.06663513	-76.1700592	-80.07332611	99.00227356	-0.063950799	-26.26649094
0.948499978	-0.093653962	-41.19656372	-76.53995514	-66.86199188	-82.76394653	54.7611084	-0.066493183	-31.74278259
1.098250031	-0.130461305	-48.58063507	-48.72075653	43.9190712	-82.60429382	-71.38467407	-0.101630412	-37.70352554
1.248000026	-0.183559373	-56.38570786	-55.08436203	-62.95362091	-83.02915192	-171.2966003	-0.242138922	-44.34650803
1.39775002	-0.264592648	-64.95794678	-37.86103821	-77.18370056	-81.2258606	156.3898926	-0.580476403	-50.98429871
1.547500014	-0.393274456	-74.48332214	-21.06256676	-123.6105881	-91.39724731	24.37702942	-0.884866953	-55.85242844
1.697250009	-0.585244954	-85.48953247	-4.947822571	171.6220398	-80.2186203	108.9070053	-0.66898495	-70.91287994
1.847000122	-0.948606372	-99.06376648	2.475251198	41.56320953	-72.71829224	5.561442375	-5.211827755	-47.98874283
1.996749997	-1.681837082	-117.0367126	2.236620426	-9.808952332	-74.49262238	-109.3572464	-2.21446681	-54.3896637
2.146499872	-3.402491808	-143.9615784	5.736432076	-45.59149551	-71.50726318	-161.2491913	-1.785297394	-62.05951691
2.296250105	-8.238459587	165.4524231	10.25201035	-88.28094482	-67.90380859	-169.6442871	-1.748608708	-68.50832367
2.446000099	-11.26810169	35.16316223	13.80721951	-139.6784973	-60.80451202	130.9446564	-1.823884487	-74.02555847
2.595749855	-7.402449608	-27.56900787	15.29256058	152.8465729	-61.0371666	47.43612289	-1.718327403	-79.9389267
2.745499849	-3.837563276	-45.15962601	9.911125183	113.0072784	-67.78530121	19.51477242	-1.98269105	-86.88767242
2.895249844	-2.090310574	-67.17378235	8.004277229	114.2967606	-73.94521332	38.24940872	-2.292591095	-92.52108765
3.044999838	-1.425758243	-85.50567627	9.742035866	109.2383118	-68.49638367	53.50249481	-2.60828495	-97.72241211
3.194750071	-1.187510729	-101.2564545	11.89079285	95.42893982	-67.28607941	40.04078293	-2.928038836	-102.8295517
3.344500065	-1.191174626	-115.9515457	13.89838123	78.53499603	-67.15293121	15.36874676	-3.249142885	-107.898819
3.494250059	-1.340234756	-130.3118286	15.71640778	60.24545288	-64.99073029	1.052599669	-3.578027487	-113.1417313
3.644000053	-1.643799067	-144.7580261	17.42135811	41.03576279	-62.57522964	-7.497654438	-3.909472227	-118.2639618
3.793750048	-2.143898726	-159.4895172	18.95002365	21.25148392	-61.21453857	-40.06706619	-4.248248577	-123.5824966
3.943500042	-2.845757961	-174.5030518	20.27163887	1.19586134	-60.24953079	-72.03740692	-4.627755642	-128.9496307
4.093250275	-3.776394367	170.2188568	21.40222549	-19.08613586	-58.34282303	-82.8504715	-5.058023453	-134.3005371
4.243000031	-4.93873024	154.9884949	22.26215172	-39.18108368	-57.5449791	-98.7868576	-5.535386086	-139.7078857
4.392750263	-6.313949108	139.9040222	22.97964859	-58.66717148	-58.02086639	-117.2387619	-6.053557396	-145.1707306
4.542500019	-7.894677162	124.8851852	23.46351433	-77.70865631	-56.88557816	-129.1792603	-6.655484676	-150.677887
4.692250252	-9.674805641	110.1118698	23.82570648	-95.8163147	-55.44954681	-144.009491	-7.268597126	-155.7792358
4.842000008	-11.57124233	95.29819489	24.0573864	-113.2160797	-55.13604736	-156.2521973	-7.932452679	-160.4748535
4.99175024	-13.6027832	80.73619843	24.21242714	-129.7160187	-54.45737076	-175.5935211	-8.619842529	-164.786438
5.141499996	-15.66963291	65.48132324	24.31642532	-145.4025726	-54.04186249	172.8924561	-9.416760445	-168.7392273
5.291250229	-17.66422462	49.92881012	24.37846184	-160.2011108	-53.46363831	163.3707123	-10.169034	-172.4997864
5.440999985	-19.51748276	32.36875153	24.41599655	-174.3573608	-52.76026154	157.2164307	-10.95399094	-175.8090668
5.590750217	-21.20360184	15.74503803	24.4134407	171.8360748	-52.43550491	148.464035	-11.67020607	-179.3934631
5.740499973	-22.54916763	-1.014238	24.41694832	158.8884277	-51.87302399	139.5200348	-12.41998577	178.1859894
5.890250206	-23.29630852	-17.4449234	24.38698196	146.2106476	-51.57912064	125.9926987	-13.21765614	176.0727081
6.039999962	-23.7821331	-32.04548645	24.37536049	134.0484161	-51.51407623	123.4347534	-13.90805244	174.0452118
6.189749718	-24.11710548	-44.85103226	24.35430908	122.1548233	-51.00762558	117.218071	-14.62460613	172.330658
6.33949995	-24.22149277	-54.86838531	24.30368042	110.5624161	-50.38860703	110.0965652	-15.46758938	171.5514374
6.489249706	-24.52852058	-62.98465729	24.2733078	99.25646973	-50.4589653	102.7846756	-16.06713676	171.2016296
6.638999939	-24.49225807	-70.51755524	24.22562218	88.54132843	-50.38411713	96.74306488	-16.69691086	169.8699493
6.788749695	-24.62938881	-75.3589859	24.18842316	77.83840179	-49.69984818	92.33546448	-17.16101837	167.9666595
6.938499928	-24.27957916	-80.46533203	24.11033058	67.39460754	-49.27600861	85.89497375	-17.67237473	168.5962677
7.088249683	-24.10263062	-85.23969269	24.08743668	57.3433075	-49.20851517	80.43588257	-17.86468887	169.8935852
7.237999916	-23.87022972	-89.76792908	24.03033829	47.20211411	-48.70354843	72.82531738	-18.11613655	171.4291992
7.387749672	-23.67392921	-94.74645233	23.95910263	37.52965927	-48.89254761	66.6576004	-18.52147102	170.9492493
7.537500381	-23.46974373	-98.07617188	23.91117096	28.08213425	-49.02413177	60.96863937	-18.82393456	170.6082611
7.687250137	-23.09674263	-103.1715088	23.86775398	18.54603386	-48.37710953	58.41549683	-18.63002205	171.3767242
7.83700037	-22.82110786	-107.8658752	23.81903458	9.272092819	-47.84711838	52.90892792	-18.33909416	169.9767303
7.986750126	-22.48233223	-111.352005	23.73300362	0.092835233	-47.60982132	47.01394272	-18.16714859	169.9883118
8.136500359	-22.26951218	-117.3012695	23.69433022	-8.946200371	-47.6351738	39.28824615	-18.05361366	168.6016541
8.286250114	-22.06925964	-121.9450989	23.62589836	-17.90811539	-47.42087173	35.03987885	-17.93143082	166.5853882
8.43599987	-21.84390068	-127.5374374	23.56372452	-26.69205093	-47.39180374	31.22876358	-17.61934853	163.8756409
8.585749626	-21.55565453	-130.944397	23.49147797	-35.33010864	-47.03329468	26.47031784	-17.30113602	161.0077972
8.735500336	-21.44011879	-136.8646545	23.432724	-43.81138992	-47.05457306	18.50793457	-17.10379791	156.632782
8.885250092	-21.21861839	-140.2639618	23.36134911	-52.1466713	-46.72808456	13.33318233	-16.99729729	153.1941986
9.034999847	-20.72786713	-144.812088	23.27176285	-60.53296661	-47.00452805	9.929635048	-16.76012039	149.4332428
9.184749603	-20.25685883	-151.3101044	23.20740891	-68.4826355	-46.65128326	8.860521317	-16.45830727	146.1308899
9.334500313	-20.15253258	-157.690506	23.1532402	-76.67501068	-46.30326843	5.367679596	-16.26863098	141.734024
9.484250069	-19.76197243	-161.4036407	23.08966446	-84.3709259	-46.40740204	-2.365846634	-16.26121712	137.2163696
9.633999825	-19.21042061	-168.6540375	23.05049133	-92.39511871	-45.88436508	-7.495646477	-16.20671272	132.5945892
9.78374958	-18.94638634	-174.8569031	22.97285461	-100.2305527	-45.88244629	-13.75124264	-16.25779343	129.5048981
9.93350029	-18.53525734	178.0127716	22.94378662	-107.9961853	-45.66885757	-16.09711647	-15.55376625	125.9156342
10.08325005	-18.29810333	172.7414703	22.87233734	-115.7218781	-45.08849716	-20.02294159	-15.60966206	120.5092468
10.2329998	-17.96671295	165.9029236	22.83154297	-123.4705048	-45.27921677	-25.92894173	-15.62505436	117.6720352
10.38274956	-17.71994209	161.4677582	22.7856102	-130.9025116	-45.1518898	-31.88589096	-15.71208858	113.8099518
10.53250027	-17.09187126	157.8199005	22.78890228	-138.2734222	-45.85692215	-37.73859406	-15.3341732	108.9891205
10.68225002	-16.33971977	149.299881	22.77758217	-146.0337677	-45.37742615	-37.39812088	-15.00015831	103.3607178
10.83199978	-16.05758095	142.5509033	22.69270706	-153.5762482	-44.78120041	-42.52193832	-14.79415512	97.9474411
10.98174953	-15.77478313	136.1326752	22.65404129	-160.9706116	-44.92747879	-49.04386139	-14.91264725	94.47746277
11.13149929	-15.24444866	128.3577271	22.64419746	-168.6641541	-44.3258934	-52.83967972	-14.79852772	90.24977875
11.28125	-15.21498775	122.1768417	22.56815529	-175.9229584	-44.24303436	-58.98965454	-14.80955029	84.27169037
11.43099976	-14.84209728	116.5326538	22.53285217	176.7901306	-43.70743942	-61.93317032	-14.83890629	77.78473663
11.58074951	-14.25344276	111.6522751	22.52672386	169.5005798	-44.34349823	-69.23674011	-14.6470108	74.21864319
11.73049927	-13.94084454	104.6669083	22.48560143	162.2063141	-43.94355011	-74.63696289	-14.44852066	69.83654022
11.88024998	-13.79524612	99.72931671	22.45911026	155.0574493	-43.47431564	-80.63918304	-14.52890587	66.10369873
12.02999973	-13.07334614	92.99052429	22.46176147	147.4361877	-44.23815155	-81.25213623	-14.34700489	61.32365799
12.17974949	-12.93751526	87.88061523	22.41696167	140.4102783	-43.06054688	-90.17486572	-14.69495392	55.69511032
12.32949924	-12.63417244	82.61862183	22.36645699	133.255249	-43.32651138	-96.84618378	-14.88064861	50.15034103
12.47925091	-12.18293762	76.35687256	22.34734917	125.8389816	-43.8153038	-104.3806458	-14.72750854	46.72182083
12.62900066	-12.05757999	70.93349457	22.29521561	118.8211288	-42.93306732	-103.9702835	-15.03539371	40.00213242
12.77875042	-11.71148872	64.9407959	22.26928329	111.400528	-43.46213913	-112.3274307	-15.07517338	36.81583786
12.92850018	-11.54827404	58.61804199	22.20420456	104.0541306	-42.93956375	-113.979599	-15.19340897	31.3163681
13.07825089	-11.10370159	54.46377563	22.18617249	96.59648132	-43.10866165	-122.9833908	-15.54716206	27.29213905
13.22800064	-10.95383644	48.29854965	22.14853287	89.39048004	-43.08875275	-125.8413239	-16.02996063	23.7964077
13.3777504	-10.70215416	40.1809082	22.04531097	82.21879578	-43.35543442	-127.9691162	-16.36310387	18.51315689
13.52750015	-10.80916023	35.41738129	22.00035667	75.08360291	-43.23397446	-132.9278564	-16.57180023	11.31455326
13.67724991	-10.76978207	29.68193054	21.92648697	67.85732269	-43.22101212	-139.1968842	-16.91763306	4.141964436
13.82700062	-10.60409451	23.74070168	21.80885887	61.58969116	-42.37661362	-143.429657	-17.43914032	3.6971488
13.97675037	-10.66590881	18.82573509	21.80668259	54.71906662	-41.78090286	-149.2766571	-18.01294708	3.305403709
14.12650013	-10.76408386	12.84708405	21.73301506	48.06728745	-42.20759583	-155.8128815	-18.72419167	-0.656721234
14.27624989	-10.66208267	9.534915924	21.75447845	40.86808395	-41.618927	-161.2839661	-20.09196854	-2.859536886
14.4260006	-10.75885201	2.163752794	21.61383247	34.13854218	-42.79250336	-167.53125	-20.7232666	-15.55971241
14.57575035	-10.81276798	-2.891361237	21.54092026	27.42005157	-41.99147034	-172.3699188	-21.97523499	-19.18114662
14.72550011	-10.97574902	-6.849529743	21.54967117	20.47221947	-41.12833405	-176.4791412	-23.33687401	-15.3806591
14.87524986	-11.05862808	-11.59350777	21.51455688	13.36538982	-41.58274841	176.697052	-25.29583549	-21.35596657
15.02500057	-11.2404108	-16.6839695	21.50385284	6.474784374	-41.5855751	169.5402679	-28.55164337	-27.32640076
15.17475033	-11.14734936	-21.45046043	21.45416069	-0.617637336	-41.43519974	166.7188568	-32.75424194	-3.984527588
15.32450008	-11.52253723	-26.60556412	21.38012695	-7.380782604	-41.41698837	162.7123413	-34.49317551	40.28060913
15.47424984	-11.82516956	-31.49319267	21.3473835	-14.36336422	-41.01758957	154.2797852	-30.2440052	87.68373871
15.6239996	-12.01706791	-35.70713043	21.34417152	-21.2909565	-41.16852951	149.4221649	-26.64801979	102.030098
15.77375031	-12.4369936	-38.28539658	21.29602242	-28.66815567	-40.50349045	146.6736603	-24.67059135	102.6170731
15.92350006	-12.2468996	-43.15760803	21.16007423	-35.55673981	-40.28298187	138.4498901	-23.22413445	92.05331421
16.07324982	-12.55980301	-48.47096252	21.06303024	-41.80744553	-40.69451904	132.0783844	-21.2539444	84.52733612
16.22299957	-13.3541832	-51.5955658	20.99028397	-48.9162178	-40.54881287	129.1754456	-19.91775131	75.89548492
16.37275124	-13.61371803	-54.20433807	20.96189499	-55.81676483	-40.56829071	123.2523956	-18.13765335	82.35033417
16.52250099	-13.65629196	-58.22073364	20.91943932	-62.13490677	-40.31606293	116.1772995	-17.16827011	84.64730835
16.67225075	-14.0961132	-60.57961273	20.7858963	-69.19807434	-39.71427155	111.0910263	-16.86460686	77.45069122
16.8220005	-14.67072678	-65.96012878	20.72123528	-76.06241608	-39.9936409	102.6555328	-15.87817574	74.3105011
16.97175026	-15.13014317	-67.21620941	20.67431068	-82.36412048	-39.64704514	101.7317886	-15.15075493	70.03120422
17.12150002	-15.49384212	-72.77138519	20.64336395	-88.50082397	-39.02125549	91.28646851	-14.76653194	70.14527893
17.27125168	-16.16501045	-73.5174942	20.56897736	-95.81382751	-39.92564392	85.44442749	-13.59531021	64.8004303
17.42100143	-16.84123421	-75.91436768	20.50221634	-102.2498398	-39.96985626	82.2056427	-12.8877039	61.56059647
17.57075119	-17.52177811	-78.5669632	20.46035767	-109.3411179	-39.39126205	80.35425568	-12.56562328	56.13890076
17.72050095	-18.60464096	-79.30441284	20.4038887	-116.1303101	-38.78078079	72.47657013	-12.20058918	54.65402222
17.8702507	-19.72835541	-79.82720947	20.33671379	-122.5419769	-39.35011673	59.84885025	-11.61374187	50.93100357
18.02000046	-19.84328461	-75.78153229	20.25608444	-129.1429901	-40.14186859	63.36911774	-11.3569994	43.69944382
18.16975021	-21.27569771	-80.20889282	20.30056	-135.4318695	-39.27111435	53.98074722	-11.13901329	40.7233429
18.31949997	-21.66521645	-75.04418945	20.21352577	-142.5437317	-38.93670654	52.6253624	-10.76495171	36.60118484
18.46924973	-22.8680172	-66.47160339	20.22039032	-149.4160614	-39.21240234	44.19892883	-10.17265701	36.79995346
18.61900139	-22.0176487	-67.66815186	20.13627434	-155.7757568	-39.06321335	36.63148499	-9.729201317	31.48952293
18.76875114	-22.56018448	-66.68386078	20.16602898	-162.5267639	-39.52660751	36.51907349	-9.646356583	25.68895721
18.9185009	-24.17078209	-60.06143188	20.15665436	-169.8130951	-39.19889069	29.15526581	-9.678030014	20.89903069
19.06825066	-21.52818489	-52.6370163	20.03275681	-176.0279541	-39.61574936	24.74118233	-9.109672546	18.0119915
19.21800041	-22.52604675	-54.12672806	20.02377129	177.3401489	-38.93152237	21.00958443	-8.52008152	13.65905952
19.36775017	-22.98444939	-45.87060547	20.07756996	169.7978058	-39.06150436	12.17371273	-8.525923729	9.897287369
19.51749992	-21.60815811	-44.73496628	19.98108101	162.9376526	-39.83029175	12.29254627	-8.563750267	6.387029648
19.66724968	-22.16440773	-46.04302597	19.97984123	156.47995	-38.69898224	11.39526653	-8.376067162	4.494736671
19.81700134	-20.95954132	-36.58478928	19.97657967	148.6773376	-38.14595795	0.399459451	-8.062449455	-0.333998531
19.9667511	-19.65480042	-41.67853928	19.85665512	141.6648865	-38.95872879	-3.516168833	-7.999709606	-5.593253613
20.11650085	-19.88464546	-46.58630753	19.90788078	135.0989532	-39.1823349	-4.912116528	-8.069088936	-9.522366524
20.26625061	-19.48838615	-48.24375916	19.93658447	127.5702133	-39.27269745	-9.908857346	-8.142729759	-10.63830471
20.41600037	-19.40033913	-48.82807922	19.85712242	120.1579514	-39.10858536	-15.67377472	-8.004919052	-15.89167023
20.56575012	-18.69462776	-58.03826904	19.82740211	112.8830643	-39.24757004	-21.63578415	-8.336388588	-20.00377846
20.71549988	-19.07999229	-54.03173828	19.74189758	105.4497375	-38.94610977	-23.88017464	-8.339227676	-23.59707832
20.86524963	-18.72208595	-59.94481659	19.71343231	98.68745422	-39.2866478	-31.1597023	-8.568473816	-27.0358448
21.01499939	-18.32559967	-64.15398407	19.69581413	91.64881134	-39.74188614	-31.08382797	-8.925145149	-28.41822433
21.16475105	-19.33611488	-72.96425629	19.68787575	84.93579102	-39.52192688	-38.79872131	-8.975831032	-29.51903915
21.31450081	-19.76979256	-72.09679413	19.74456406	76.46268463	-39.90365982	-38.28044891	-9.300597191	-34.3989563
21.46425056	-19.58508873	-68.98447418	19.80678368	68.9752121	-39.39512634	-43.44745636	-10.15951157	-35.60150528
21.61400032	-19.23422813	-68.47655487	19.68171501	60.54991913	-39.37941742	-40.72241211	-9.668160439	-34.23400497
21.76375008	-19.32639313	-81.09729004	19.57564926	52.72174835	-38.994133	-50.78420639	-9.691018105	-39.22858047
21.91349983	-20.60263824	-79.99037933	19.56712151	45.09772491	-38.94430542	-58.57857132	-10.73902225	-43.14785385
22.06324959	-19.96016884	-80.09056854	19.45949554	36.94194412	-39.73801804	-58.89439392	-11.25946808	-38.69100189
22.21299934	-20.59982109	-84.78668976	19.43696022	28.64666748	-39.15038681	-66.04177856	-11.2854166	-39.67914963
22.36275101	-21.31581688	-77.602211	19.32411957	19.76143074	-39.22619629	-72.80593872	-11.70051098	-42.79415131
22.51250076	-20.70260811	-78.71562195	19.12892914	11.78910351	-40.03966522	-78.13564301	-12.42837429	-39.65575409
22.66225052	-20.08490753	-83.47041321	18.97190285	2.996235371	-39.69538116	-77.49750519	-12.68884659	-40.69589615
22.81200027	-20.92965126	-84.83595276	18.87780952	-5.759057999	-39.319664	-82.73271942	-13.74596596	-37.4677887
22.96175003	-21.26108742	-80.579216	18.54792976	-14.26320744	-39.79615402	-90.68052673	-12.90406513	-33.73291397
23.11149979	-21.3079319	-80.08444214	18.3751297	-23.2791996	-40.69505692	-86.93228912	-12.75011349	-32.39130402
23.26124954	-20.88868523	-84.06246185	18.10602379	-31.60282516	-40.0549202	-86.4344635	-12.55469799	-26.21081161
23.4109993	-21.82479286	-84.9913559	17.77521706	-39.78034592	-39.34912491	-99.14643097	-12.27369881	-23.2943325
23.56074905	-23.19622231	-76.68370819	17.52520943	-48.83926392	-40.68533707	-102.7705765	-12.03278065	-24.18011284
23.71050072	-23.10275459	-76.11225891	17.14808655	-57.08036041	-39.81525421	-105.730835	-11.07076645	-21.55865669
23.86025047	-24.03758621	-73.03999329	16.76940536	-65.70498657	-39.9396019	-112.3460312	-9.628227234	-24.19163132
24.01000023	-26.24416924	-64.0838623	16.4579277	-74.72772217	-40.86462402	-116.868721	-9.490557671	-22.69226265
24.15974998	-26.3757782	-41.44766235	15.89068413	-83.44583893	-40.4475174	-123.1052551	-8.522565842	-19.58259773
24.30949974	-27.64857674	-42.01797104	15.4446888	-91.51271057	-41.54295349	-125.4633102	-7.9021101	-26.23001671
24.4592495	-27.45426369	-42.83302307	15.02643394	-100.1236115	-42.64742279	-133.3358765	-7.654236317	-30.01474953
24.60899925	-26.20822716	-14.04761696	14.4423933	-108.0860062	-42.55379486	-131.9553223	-7.049871922	-30.88104248
24.75874901	-23.84593201	3.486963272	13.94893074	-116.9994583	-43.25203705	-133.1259308	-6.624123573	-33.25338745
24.90850067	-22.57581711	6.150897503	13.39623165	-124.548111	-42.58206558	-135.6397552	-6.311938286	-33.23520279
25.05825043	-19.82601357	11.41244602	12.7105751	-132.7260284	-42.59032059	-132.5913849	-5.594195843	-37.13658905
25.20800018	-17.88498688	10.66680431	12.08290482	-140.6471558	-42.72908783	-150.338623	-5.49443531	-43.73958206
25.35774994	-16.28931236	7.302567959	11.41398144	-148.3245087	-43.05918503	-140.6083374	-5.41643858	-44.63323593
25.50749969	-15.05537224	3.733274937	10.63895416	-154.6499023	-43.82590103	-143.6852264	-4.785750389	-47.17349243
25.65724945	-13.35822964	0.427314311	9.878416061	-160.6074677	-44.37509155	-147.6078491	-4.693367004	-52.79302216
