!Hittite Microwave Corporation								
!20 Alpha Road								
!Chelmsford, MA 01824								
!Tel: 978-250-3343								
!Fax: 978-250-3373								
!Device: HMC574MS8, DC-3 GHz, GaAs T/R Switch in 8-lead plastic SMT package  															
!Misc: Vdd = 5V, Port1 = RFC, Port2 = RF1, Port3 = RF2, RF1 ON, Room
!
# MHZ S MA R 50

50 0.01 7.666 0.973 -3.152 3.803e-3 69.99
          0.974 -3.202 9.843e-3 11.229 4.419e-3 65.448
          3.821e-3 69.838 4.413e-3 65.549 0.969 -16.82
69.75 0.01 6.819 0.974 -4.355 5.651e-3 88.429
          0.974 -4.365 9.713e-3 8.558 5.371e-3 83.57
          5.645e-3 88.672 5.359e-3 83.486 0.966 -23.365
89.5 0.011 11.319 0.974 -5.521 8.175e-3 79.258
          0.974 -5.541 0.011 13.614 7.696e-3 72.853
          8.184e-3 79.298 7.705e-3 72.943 0.964 -29.712
109.25 0.011 10.351 0.974 -6.695 9.753e-3 78.978
          0.974 -6.715 0.011 12.615 9.391e-3 74.14
          9.765e-3 78.929 9.38e-3 73.979 0.959 -36.009
129 0.011 12.362 0.973 -7.839 0.012 74.996
          0.973 -7.859 0.011 16.972 0.012 69.801
          0.012 75.037 0.012 69.831 0.955 -42.159
148.75 0.012 9.974 0.974 -9.024 0.014 67.301
          0.974 -9.034 0.012 16.728 0.013 59.941
          0.014 67.381 0.013 59.98 0.952 -48.222
168.5 0.012 10.907 0.973 -10.199 0.015 61.417
          0.973 -10.199 0.013 19.022 0.015 53.474
          0.015 61.366 0.015 53.495 0.948 -54.238
188.25 0.012 10.234 0.972 -11.362 0.016 61.824
          0.972 -11.372 0.013 18.504 0.016 54.678
          0.016 61.855 0.016 54.658 0.942 -60.02
208 0.014 9.244 0.973 -12.557 0.017 56.503
          0.973 -12.537 0.014 15.292 0.017 49.004
          0.017 56.553 0.017 49.074 0.938 -65.685
227.75 0.013 9.497 0.972 -13.752 0.019 55.683
          0.972 -13.732 0.013 17.016 0.018 46.8
          0.019 55.693 0.018 46.81 0.932 -71.194
247.5 0.013 8.948 0.971 -14.905 0.02 53.16
          0.971 -14.905 0.013 17.956 0.019 43.286
          0.02 53.2 0.019 43.306 0.926 -76.526
267.25 0.013 10.822 0.971 -16.03 0.022 50.102
          0.971 -16.03 0.014 19.726 0.021 39.913
          0.022 50.072 0.021 39.943 0.921 -81.65
287 0.014 6.803 0.971 -17.215 0.022 45.794
          0.971 -17.225 0.015 17.007 0.021 36.117
          0.022 45.854 0.021 36.117 0.916 -86.727
306.75 0.014 4.734 0.971 -18.408 0.023 43.83
          0.971 -18.408 0.015 14.778 0.022 31.632
          0.023 43.861 0.022 31.652 0.912 -91.601
326.5 0.014 4.313 0.971 -19.553 0.024 41.758
          0.971 -19.553 0.015 13.917 0.023 29.378
          0.024 41.748 0.023 29.378 0.907 -96.295
346.25 0.014 4.215 0.969 -20.698 0.025 39.589
          0.969 -20.718 0.015 14.421 0.024 26.462
          0.025 39.528 0.024 26.473 0.903 -100.827
366 0.014 2.812 0.969 -21.881 0.025 37.126
          0.969 -21.861 0.015 12.668 0.024 23.305
          0.025 37.125 0.024 23.355 0.898 -105.215
385.75 0.014 1.72 0.969 -23.016 0.026 35.159
          0.969 -23.016 0.015 12.28 0.025 20.534
          0.026 35.119 0.025 20.544 0.893 -109.479
405.5 0.014 0.48 0.969 -24.17 0.027 33.091
          0.968 -24.17 0.016 11.538 0.026 17.711
          0.027 33.12 0.026 17.762 0.889 -113.587
425.25 0.014 -0.813 0.969 -25.324 0.027 30.819
          0.969 -25.324 0.016 10.893 0.026 14.839
          0.027 30.849 0.026 14.869 0.885 -117.59
445 0.015 -2.882 0.969 -26.478 0.028 29.08
          0.969 -26.478 0.016 9.798 0.027 11.889
          0.028 29.09 0.027 11.909 0.881 -121.475
464.75 0.014 -5.622 0.969 -27.642 0.028 27.404
          0.968 -27.652 0.016 8.2 0.027 8.951
          0.028 27.393 0.027 8.961 0.877 -125.223
484.5 0.014 -8.478 0.968 -28.816 0.029 25.644
          0.968 -28.816 0.016 7.414 0.027 6.637
          0.029 25.664 0.027 6.668 0.873 -128.832
504.25 0.014 -10.45 0.968 -29.981 0.029 23.886
          0.968 -29.981 0.016 5.88 0.027 4.121
          0.029 23.906 0.027 4.141 0.87 -132.351
524 0.014 -12.64 0.968 -31.124 0.03 22.117
          0.968 -31.124 0.016 3.948 0.028 1.616
          0.03 22.117 0.028 1.626 0.867 -135.772
543.75 0.014 -14.674 0.967 -32.269 0.03 20.466
          0.967 -32.269 0.016 1.683 0.028 -0.74
          0.03 20.477 0.028 -0.71 0.864 -139.072
563.5 0.014 -16.069 0.968 -33.423 0.03 18.808
          0.968 -33.423 0.015 0.945 0.028 -3.399
          0.03 18.818 0.028 -3.379 0.863 -142.311
583.25 0.013 -18.613 0.968 -34.596 0.03 17.518
          0.968 -34.596 0.015 -0.073 0.028 -5.634
          0.03 17.528 0.028 -5.593 0.861 -145.468
603 0.013 -21.291 0.968 -35.751 0.03 16.146
          0.968 -35.761 0.015 -1.403 0.028 -7.869
          0.03 16.146 0.028 -7.839 0.858 -148.536
622.75 0.013 -24.194 0.967 -36.915 0.031 14.752
          0.967 -36.915 0.015 -4.164 0.028 -10.134
          0.031 14.752 0.028 -10.104 0.856 -151.512
642.5 0.013 -26.384 0.967 -38.059 0.031 13.4
          0.967 -38.069 0.015 -6.27 0.028 -12.338
          0.031 13.4 0.028 -12.308 0.853 -154.407
662.25 0.013 -28.821 0.967 -39.224 0.031 12.088
          0.967 -39.224 0.015 -9.182 0.028 -14.552
          0.031 12.108 0.028 -14.512 0.851 -157.249
682 0.013 -31 0.967 -40.377 0.031 10.786
          0.966 -40.377 0.015 -10.718 0.028 -16.694
          0.031 10.825 0.028 -16.654 0.849 -160.009
701.75 0.013 -34.885 0.966 -41.542 0.031 9.503
          0.966 -41.542 0.015 -13.051 0.028 -18.786
          0.031 9.523 0.028 -18.746 0.848 -162.707
721.5 0.012 -37.677 0.966 -42.687 0.031 8.342
          0.966 -42.687 0.015 -13.998 0.028 -20.979
          0.031 8.372 0.028 -20.939 0.846 -165.302
741.25 0.013 -40.913 0.966 -43.841 0.031 7.36
          0.966 -43.841 0.015 -18.135 0.028 -23.11
          0.031 7.38 0.028 -23.08 0.844 -167.844
761 0.013 -46.285 0.966 -45.016 0.031 6.298
          0.966 -45.016 0.015 -21.283 0.028 -25.169
          0.031 6.337 0.028 -25.109 0.843 -170.354
780.75 0.012 -49.487 0.966 -46.17 0.031 5.276
          0.965 -46.18 0.015 -25.01 0.028 -27.208
          0.031 5.296 0.028 -27.177 0.841 -172.821
800.5 0.012 -53.322 0.965 -47.335 0.031 4.264
          0.965 -47.335 0.014 -28.129 0.028 -29.246
          0.031 4.284 0.028 -29.206 0.84 -175.226
820.25 0.012 -58.991 0.966 -48.499 0.031 3.293
          0.966 -48.509 0.014 -30.739 0.028 -31.282
          0.031 3.343 0.028 -31.222 0.838 -177.608
840 0.012 -63.699 0.966 -49.664 0.031 2.383
          0.966 -49.664 0.014 -33.718 0.028 -33.218
          0.031 2.432 0.028 -33.238 0.837 -179.937
859.75 0.012 -67.852 0.966 -50.829 0.031 1.492
          0.966 -50.829 0.014 -37.436 0.028 -35.354
          0.031 1.522 0.028 -35.314 0.837 177.777
879.5 0.012 -71.337 0.967 -51.974 0.031 0.663
          0.966 -51.994 0.014 -42.724 0.027 -37.409
          0.031 0.692 0.027 -37.359 0.837 175.543
899.25 0.012 -76.868 0.966 -53.128 0.031 -0.127
          0.966 -53.148 0.013 -46.553 0.027 -39.361
          0.031 -0.097 0.027 -39.321 0.837 173.355
919 0.012 -81.437 0.966 -54.312 0.031 -0.865
          0.966 -54.312 0.014 -49.032 0.027 -41.374
          0.031 -0.855 0.027 -41.323 0.836 171.197
938.75 0.012 -86.091 0.966 -55.488 0.031 -1.564
          0.965 -55.478 0.014 -51.983 0.027 -43.365
          0.031 -1.554 0.027 -43.285 0.835 169.092
958.5 0.013 -90.556 0.965 -56.622 0.031 -2.27
          0.965 -56.622 0.014 -56.515 0.027 -45.256
          0.031 -2.22 0.027 -45.196 0.834 167.02
978.25 0.013 -95.023 0.965 -57.767 0.031 -2.887
          0.965 -57.777 0.014 -62.014 0.026 -47.187
          0.031 -2.857 0.026 -47.116 0.833 164.96
998 0.013 -100.439 0.965 -58.932 0.031 -3.462
          0.965 -58.932 0.014 -67.458 0.026 -49.258
          0.031 -3.452 0.026 -49.217 0.832 162.943
1017.75 0.014 -105.946 0.965 -60.098 0.031 -4.059
          0.965 -60.108 0.014 -71.101 0.026 -51.477
          0.031 -4.049 0.026 -51.427 0.831 160.949
1037.5 0.014 -111.715 0.965 -61.271 0.031 -4.623
          0.964 -61.261 0.015 -75.54 0.026 -53.582
          0.031 -4.583 0.025 -53.501 0.831 158.979
1057.25 0.015 -117.594 0.964 -62.437 0.031 -5.147
          0.964 -62.447 0.016 -80.31 0.025 -55.548
          0.031 -5.067 0.025 -55.468 0.831 157.029
1077 0.015 -122.001 0.964 -63.592 0.031 -5.618
          0.964 -63.612 0.016 -85.028 0.025 -57.504
          0.031 -5.558 0.025 -57.464 0.83 155.102
1096.75 0.016 -124.683 0.964 -64.787 0.031 -6.09
          0.963 -64.777 0.016 -88.105 0.025 -59.579
          0.031 -6.06 0.025 -59.529 0.83 153.187
1116.5 0.017 -127.552 0.964 -65.952 0.031 -6.519
          0.963 -65.942 0.017 -90.767 0.024 -61.733
          0.031 -6.479 0.024 -61.643 0.829 151.334
1136.25 0.018 -131.227 0.963 -67.108 0.031 -6.898
          0.963 -67.118 0.017 -95.779 0.024 -63.716
          0.031 -6.848 0.024 -63.616 0.829 149.513
1156 0.018 -135.597 0.963 -68.272 0.031 -7.223
          0.963 -68.282 0.018 -101.219 0.023 -65.597
          0.031 -7.193 0.023 -65.526 0.829 147.717
1175.75 0.019 -139.303 0.963 -69.437 0.031 -7.549
          0.963 -69.437 0.019 -104.727 0.023 -67.649
          0.031 -7.509 0.023 -67.579 0.828 145.95
1195.5 0.02 -141.751 0.963 -70.602 0.031 -7.782
          0.962 -70.612 0.02 -107.592 0.023 -69.711
          0.031 -7.723 0.023 -69.671 0.827 144.185
1215.25 0.022 -144.325 0.962 -71.768 0.031 -7.996
          0.962 -71.768 0.021 -110.645 0.022 -71.873
          0.031 -7.956 0.022 -71.793 0.826 142.421
1235 0.023 -148.044 0.963 -72.932 0.031 -8.196
          0.963 -72.932 0.021 -113.822 0.022 -74.042
          0.031 -8.136 0.022 -73.971 0.828 140.671
1254.75 0.024 -151.68 0.963 -74.088 0.031 -8.296
          0.963 -74.098 0.022 -117.082 0.021 -76.12
          0.031 -8.266 0.021 -76.05 0.828 138.941
1274.5 0.025 -154.766 0.964 -75.242 0.031 -8.423
          0.964 -75.272 0.023 -119.658 0.021 -78.238
          0.031 -8.413 0.021 -78.178 0.827 137.222
1294.25 0.026 -157.015 0.964 -76.428 0.031 -8.55
          0.962 -76.428 0.024 -122.392 0.021 -80.397
          0.031 -8.52 0.021 -80.306 0.827 135.524
1314 0.027 -159.785 0.962 -77.602 0.031 -8.673
          0.962 -77.602 0.025 -124.886 0.02 -82.633
          0.031 -8.643 0.02 -82.532 0.827 133.84
1333.75 0.028 -162.27 0.962 -78.767 0.031 -8.815
          0.962 -78.777 0.027 -127.978 0.02 -84.941
          0.031 -8.795 0.02 -84.84 0.827 132.174
1353.5 0.03 -164.709 0.962 -79.942 0.031 -8.887
          0.962 -79.942 0.028 -130.837 0.019 -87.257
          0.031 -8.817 0.019 -87.167 0.827 130.55
1373.25 0.031 -166.814 0.962 -81.097 0.031 -8.977
          0.961 -81.107 0.029 -132.839 0.019 -89.675
          0.031 -8.946 0.019 -89.564 0.827 128.936
1393 0.032 -169.337 0.961 -82.281 0.031 -9.044
          0.961 -82.291 0.03 -134.86 0.019 -92.109
          0.031 -9.024 0.019 -92.038 0.827 127.345
1412.75 0.034 -171.594 0.961 -83.456 0.032 -9.101
          0.961 -83.466 0.031 -137.133 0.018 -94.675
          0.032 -9.071 0.018 -94.594 0.826 125.732
1432.5 0.035 -173.795 0.961 -84.621 0.032 -9.157
          0.961 -84.631 0.032 -139.471 0.018 -97.179
          0.032 -9.097 0.018 -97.079 0.826 124.14
1452.25 0.036 -175.441 0.96 -85.805 0.032 -9.241
          0.961 -85.805 0.034 -141.416 0.017 -99.853
          0.032 -9.171 0.017 -99.743 0.826 122.541
1472 0.038 -177.527 0.96 -86.98 0.032 -9.264
          0.96 -86.97 0.035 -143.141 0.017 -102.639
          0.032 -9.254 0.017 -102.548 0.826 120.96
1491.75 0.039 -179.959 0.96 -88.114 0.032 -9.337
          0.96 -88.124 0.037 -144.99 0.016 -105.584
          0.032 -9.327 0.016 -105.454 0.826 119.408
1511.5 0.041 177.616 0.96 -89.298 0.033 -9.409
          0.96 -89.308 0.038 -147.12 0.016 -108.547
          0.033 -9.419 0.016 -108.415 0.826 117.849
1531.25 0.042 176.142 0.96 -90.483 0.033 -9.53
          0.959 -90.473 0.039 -148.967 0.015 -111.631
          0.033 -9.51 0.015 -111.51 0.825 116.278
1551 0.043 174.793 0.959 -91.657 0.033 -9.641
          0.959 -91.657 0.04 -150.41 0.015 -114.836
          0.033 -9.621 0.015 -114.715 0.825 114.727
1570.75 0.045 173.363 0.959 -92.851 0.033 -9.712
          0.959 -92.831 0.041 -151.906 0.015 -118.178
          0.033 -9.712 0.015 -118.057 0.825 113.207
1590.5 0.046 171.359 0.959 -94.004 0.034 -9.773
          0.959 -94.004 0.043 -153.694 0.014 -121.643
          0.034 -9.733 0.014 -121.532 0.825 111.715
1610.25 0.048 169.1 0.96 -95.177 0.034 -9.932
          0.959 -95.197 0.044 -155.892 0.014 -125.326
          0.034 -9.922 0.014 -125.195 0.826 110.224
1630 0.049 167.35 0.96 -96.361 0.034 -10.044
          0.959 -96.371 0.045 -157.236 0.013 -129.131
          0.034 -10.034 0.013 -129.04 0.825 108.741
1649.75 0.051 165.713 0.959 -97.526 0.035 -10.156
          0.959 -97.566 0.047 -158.355 0.013 -133.146
          0.035 -10.166 0.013 -133.075 0.825 107.267
1669.5 0.052 163.939 0.959 -98.728 0.035 -10.327
          0.959 -98.728 0.048 -159.84 0.013 -137.459
          0.035 -10.307 0.013 -137.328 0.825 105.764
1689.25 0.053 162.138 0.959 -99.921 0.035 -10.47
          0.959 -99.901 0.05 -161.332 0.012 -141.784
          0.035 -10.45 0.012 -141.652 0.825 104.278
1709 0.055 160.477 0.958 -101.084 0.036 -10.674
          0.958 -101.074 0.051 -162.704 0.012 -146.288
          0.036 -10.644 0.012 -146.187 0.825 102.793
1728.75 0.056 159.24 0.958 -102.267 0.036 -10.869
          0.958 -102.267 0.053 -163.754 0.012 -151.084
          0.036 -10.869 0.012 -150.973 0.825 101.305
1748.5 0.058 157.578 0.958 -103.439 0.036 -11.064
          0.958 -103.449 0.054 -165.044 0.011 -156.12
          0.036 -11.044 0.011 -155.988 0.825 99.848
1768.25 0.06 155.75 0.958 -104.612 0.037 -11.281
          0.958 -104.622 0.055 -166.771 0.011 -161.437
          0.037 -11.261 0.011 -161.356 0.825 98.387
1788 0.061 154.037 0.957 -105.794 0.037 -11.489
          0.957 -105.794 0.057 -168.132 0.011 -167.053
          0.037 -11.469 0.011 -166.951 0.825 96.947
1807.75 0.062 152.519 0.957 -106.967 0.038 -11.66
          0.957 -106.987 0.058 -169.435 0.011 -172.439
          0.038 -11.68 0.011 -172.327 0.825 95.524
1827.5 0.064 151.199 0.957 -108.169 0.038 -11.941
          0.956 -108.169 0.059 -170.699 0.011 -178.106
          0.038 -11.911 0.011 -177.993 0.825 94.101
1847.25 0.065 149.749 0.957 -109.351 0.038 -12.184
          0.956 -109.361 0.061 -172.024 0.011 176.056
          0.038 -12.164 0.011 176.128 0.825 92.684
1867 0.067 148.234 0.956 -110.532 0.039 -12.447
          0.956 -110.542 0.062 -173.354 0.011 170.199
          0.039 -12.407 0.011 170.292 0.824 91.258
1886.75 0.068 146.751 0.956 -111.714 0.039 -12.644
          0.956 -111.724 0.064 -174.551 0.011 164.432
          0.039 -12.654 0.011 164.483 0.823 89.828
1906.5 0.07 145.173 0.956 -112.896 0.04 -12.952
          0.956 -112.906 0.065 -175.847 0.012 158.715
          0.04 -12.922 0.011 158.746 0.824 88.388
1926.25 0.071 143.606 0.955 -114.078 0.04 -13.222
          0.955 -114.098 0.066 -177.017 0.012 153.005
          0.04 -13.172 0.012 153.006 0.824 86.954
1946 0.072 142.082 0.955 -115.268 0.041 -13.493
          0.955 -115.278 0.067 -178.162 0.012 147.368
          0.041 -13.483 0.012 147.309 0.824 85.53
1965.75 0.074 140.57 0.955 -116.459 0.041 -13.765
          0.954 -116.479 0.068 -179.134 0.012 142.162
          0.041 -13.755 0.012 142.094 0.823 84.094
1985.5 0.075 139.001 0.954 -117.65 0.042 -13.999
          0.954 -117.66 0.07 179.668 0.013 137.173
          0.042 -14.029 0.013 137.154 0.823 82.674
2005.25 0.076 137.515 0.954 -118.85 0.042 -14.305
          0.954 -118.86 0.072 178.385 0.013 132.375
          0.042 -14.295 0.013 132.326 0.823 81.264
2025 0.078 136.102 0.954 -120.041 0.043 -14.523
          0.954 -120.061 0.073 177.102 0.014 127.663
          0.042 -14.553 0.014 127.624 0.823 79.849
2044.75 0.079 134.584 0.954 -121.241 0.043 -14.791
          0.954 -121.251 0.074 175.989 0.015 123.143
          0.043 -14.821 0.015 123.114 0.824 78.455
2064.5 0.08 133.185 0.954 -122.43 0.044 -15.061
          0.954 -122.44 0.076 174.932 0.015 118.803
          0.044 -15.081 0.015 118.764 0.824 77.048
2084.25 0.082 131.668 0.954 -123.621 0.044 -15.333
          0.953 -123.631 0.077 173.893 0.016 114.761
          0.044 -15.322 0.016 114.713 0.824 75.657
2104 0.083 130.227 0.953 -124.812 0.045 -15.546
          0.953 -124.812 0.078 172.754 0.017 110.909
          0.045 -15.566 0.017 110.85 0.824 74.256
2123.75 0.085 128.727 0.953 -126.001 0.045 -15.799
          0.953 -126.011 0.08 171.557 0.017 107.167
          0.045 -15.779 0.017 107.128 0.824 72.883
2143.5 0.086 127.15 0.953 -127.201 0.046 -15.964
          0.952 -127.211 0.081 170.268 0.018 103.581
          0.046 -15.973 0.018 103.522 0.823 71.505
2163.25 0.088 125.696 0.952 -128.4 0.046 -16.138
          0.952 -128.41 0.083 169.118 0.019 100.068
          0.046 -16.158 0.019 99.989 0.823 70.138
2183 0.089 124.292 0.952 -129.599 0.047 -16.392
          0.952 -129.619 0.084 168.098 0.02 96.685
          0.047 -16.372 0.02 96.615 0.823 68.768
2202.75 0.09 122.849 0.951 -130.799 0.048 -16.598
          0.951 -130.819 0.086 167.114 0.021 93.499
          0.048 -16.617 0.021 93.43 0.823 67.393
2222.5 0.092 121.199 0.951 -131.998 0.049 -16.812
          0.951 -132.008 0.087 165.964 0.022 90.476
          0.049 -16.842 0.022 90.416 0.823 66.049
2242.25 0.093 119.718 0.95 -133.187 0.049 -17.036
          0.95 -133.207 0.088 164.745 0.023 87.541
          0.049 -17.066 0.023 87.481 0.823 64.692
2262 0.094 118.308 0.95 -134.387 0.05 -17.272
          0.95 -134.407 0.089 163.576 0.023 84.703
          0.05 -17.261 0.023 84.644 0.823 63.3
2281.75 0.095 116.984 0.95 -135.596 0.051 -17.556
          0.95 -135.616 0.091 162.579 0.024 81.978
          0.051 -17.586 0.024 81.919 0.822 61.908
2301.5 0.096 115.538 0.949 -136.804 0.052 -17.849
          0.949 -136.824 0.092 161.494 0.025 79.281
          0.052 -17.838 0.025 79.191 0.822 60.494
2321.25 0.098 114.041 0.949 -138.013 0.053 -18.172
          0.949 -138.023 0.093 160.282 0.026 76.554
          0.053 -18.141 0.026 76.496 0.822 59.108
2341 0.099 112.643 0.948 -139.222 0.054 -18.503
          0.948 -139.232 0.095 158.894 0.027 74.049
          0.054 -18.483 0.027 73.999 0.822 57.73
2360.75 0.1 111.218 0.948 -140.432 0.055 -18.852
          0.948 -140.442 0.096 157.619 0.028 71.631
          0.055 -18.842 0.028 71.592 0.823 56.363
2380.5 0.102 109.87 0.948 -141.652 0.056 -19.231
          0.947 -141.652 0.097 157.003 0.029 69.186
          0.056 -19.241 0.029 69.107 0.822 54.994
2400.25 0.103 108.017 0.948 -142.857 0.057 -19.666
          0.948 -142.877 0.099 155.604 0.03 66.725
          0.057 -19.665 0.03 66.675 0.822 53.635
2420 0.105 106.716 0.948 -144.078 0.058 -20.102
          0.948 -144.088 0.1 154.266 0.031 64.411
          0.058 -20.082 0.031 64.362 0.822 52.301
2439.75 0.106 105.596 0.947 -145.299 0.059 -20.546
          0.947 -145.309 0.101 153.536 0.032 62.18
          0.059 -20.556 0.032 62.11 0.82 50.942
2459.5 0.107 103.91 0.946 -146.514 0.06 -21.09
          0.946 -146.524 0.102 152.338 0.033 59.991
          0.06 -21.08 0.033 59.942 0.821 49.585
2479.25 0.108 102.69 0.947 -147.734 0.061 -21.604
          0.947 -147.744 0.104 151.098 0.034 57.919
          0.061 -21.603 0.034 57.859 0.823 48.248
2499 0.11 101.285 0.947 -148.955 0.063 -22.157
          0.946 -148.965 0.105 149.809 0.035 55.855
          0.063 -22.166 0.035 55.787 0.823 46.913
2518.75 0.111 99.504 0.946 -150.17 0.064 -22.757
          0.946 -150.18 0.107 149.078 0.036 53.705
          0.064 -22.766 0.036 53.636 0.823 45.551
2538.5 0.113 98.078 0.946 -151.392 0.065 -23.376
          0.945 -151.402 0.108 147.542 0.037 51.613
          0.065 -23.376 0.037 51.565 0.823 44.234
2558.25 0.114 96.825 0.945 -152.624 0.067 -24.015
          0.945 -152.624 0.109 146.138 0.038 49.613
          0.067 -24.025 0.038 49.563 0.823 42.918
2578 0.116 95.768 0.944 -153.845 0.068 -24.694
