!Hittite Microwave Corporation								
!20 Alpha Rd								
!Chelmsford, MA 01824								
!Tel: 978-250-3343								
!Fax: 978-250-3373
!Device: HMC544, DC - 3 GHz  SPDT Switch in  SOT26 SMT package
!Misc: Port1=RFC, Port2= RF1, Port3=RF2, RF1 ON, Data taken on a part mounted on 101659-4 Eval PCB,Bias: +5VDC
# MHZ S MA R 50

0.05 6.796e-3 -27.377 0.975 -0.191 929.8e-6 -60.179
          0.975 -0.231 4.801e-3 -10.814 4.13e-3 -37.268
          1.018e-3 123.594 2.276e-3 -18.284 0.998 -0.398
30.05 8.623e-3 -10.059 0.974 -1.304 1.394e-3 113.823
          0.974 -1.326 7.52e-3 -2.051 144.8e-6 -55.202
          2.45e-3 115.982 914.8e-6 136.302 0.996 -1.649
60.049 0.01 8.088 0.974 -2.418 3.722e-3 107.801
          0.974 -2.422 0.01 8.085 3.848e-3 106.704
          3.886e-3 108.355 4.114e-3 110.91 0.995 -2.9
90.049 0.012 17.351 0.975 -3.578 5.951e-3 102.366
          0.975 -3.563 0.012 15.928 6.663e-3 96.07
          5.539e-3 101.356 6.465e-3 95.506 0.993 -4.154
120.049 0.012 13.787 0.974 -4.78 8.077e-3 98.108
          0.974 -4.766 0.012 17.796 7.863e-3 97.347
          7.828e-3 96.863 7.806e-3 97.112 0.993 -5.412
150.049 0.013 16.427 0.973 -5.914 0.01 94.967
          0.973 -5.919 0.013 21.269 0.01 94.604
          0.01 94.312 0.01 94.193 0.993 -6.671
180.049 0.014 15.328 0.972 -7.053 0.013 93.017
          0.972 -7.051 0.013 24.686 0.013 91.884
          0.013 91.817 0.012 91.048 0.992 -7.947
210.048 0.014 18.664 0.971 -8.165 0.015 90.218
          0.971 -8.167 0.014 24.706 0.015 89.428
          0.015 89.831 0.015 88.893 0.992 -9.23
240.048 0.015 17.726 0.972 -9.3 0.017 87.955
          0.971 -9.276 0.015 25.095 0.017 87.081
          0.017 87.23 0.017 86.292 0.992 -10.528
270.048 0.015 17.679 0.973 -10.439 0.019 85.92
          0.973 -10.415 0.016 18.126 0.019 84.402
          0.019 85.762 0.019 84.421 0.993 -11.836
300.048 0.014 18.034 0.972 -11.559 0.022 83.969
          0.971 -11.571 0.016 16.927 0.021 82.402
          0.022 83.885 0.021 82.447 0.993 -13.14
330.047 0.015 18.78 0.971 -12.697 0.024 82.414
          0.971 -12.715 0.017 16.53 0.023 80.803
          0.024 82.39 0.024 80.64 0.992 -14.48
360.047 0.016 20.439 0.97 -13.826 0.026 80.757
          0.97 -13.839 0.017 17.713 0.026 79.243
          0.026 80.744 0.026 79.086 0.992 -15.795
390.047 0.015 19.202 0.971 -14.949 0.028 79.115
          0.971 -14.943 0.017 17.416 0.028 77.474
          0.028 79.048 0.028 77.502 0.991 -17.118
420.047 0.015 20.535 0.97 -16.08 0.031 77.552
          0.97 -16.066 0.018 18.151 0.03 75.901
          0.031 77.593 0.03 75.931 0.991 -18.444
450.046 0.015 24.068 0.97 -17.184 0.033 76.244
          0.97 -17.188 0.019 17.047 0.032 74.412
          0.033 76.117 0.032 74.591 0.99 -19.749
480.046 0.015 24.538 0.969 -18.299 0.035 74.745
          0.969 -18.311 0.019 15.916 0.034 72.848
          0.035 74.581 0.034 73.064 0.989 -21.07
510.046 0.015 22.912 0.97 -19.428 0.038 72.957
          0.97 -19.432 0.019 14.036 0.037 71.157
          0.038 72.727 0.037 71.397 0.991 -22.394
540.046 0.014 21.757 0.97 -20.55 0.04 71.418
          0.969 -20.545 0.019 13.31 0.039 69.519
          0.039 71.126 0.039 69.808 0.991 -23.728
570.045 0.015 18.543 0.969 -21.687 0.042 70.186
          0.969 -21.675 0.019 15.089 0.041 68.083
          0.042 70.172 0.041 68.104 0.99 -25.041
600.045 0.015 18.73 0.969 -22.806 0.044 68.887
          0.969 -22.805 0.019 14.302 0.043 66.712
          0.044 68.862 0.043 66.699 0.99 -26.325
630.045 0.014 19.8 0.969 -23.913 0.046 67.598
          0.968 -23.919 0.02 12.566 0.045 65.243
          0.046 67.535 0.045 65.214 0.989 -27.624
660.044 0.014 20.867 0.968 -25.032 0.048 66.306
          0.968 -25.032 0.02 10.63 0.047 63.796
          0.048 66.251 0.047 63.769 0.988 -28.938
690.044 0.014 21.412 0.968 -26.151 0.05 65.02
          0.967 -26.15 0.021 9.589 0.049 62.409
          0.05 64.968 0.049 62.368 0.987 -30.241
720.044 0.014 21.94 0.967 -27.272 0.053 63.737
          0.967 -27.278 0.021 9.251 0.052 61.03
          0.052 63.699 0.051 61.002 0.986 -31.529
750.044 0.014 23.323 0.968 -28.393 0.055 62.45
          0.968 -28.399 0.021 8.879 0.054 59.622
          0.055 62.423 0.054 59.585 0.986 -32.82
780.043 0.014 24.649 0.968 -29.508 0.057 61.198
          0.967 -29.515 0.021 7.51 0.056 58.236
          0.057 61.17 0.056 58.194 0.985 -34.121
810.043 0.014 25.771 0.968 -30.633 0.059 59.927
          0.968 -30.631 0.021 5.672 0.058 56.848
          0.059 59.911 0.058 56.811 0.987 -35.422
840.043 0.013 26.167 0.968 -31.758 0.061 58.651
          0.968 -31.755 0.021 4.241 0.06 55.441
          0.061 58.598 0.06 55.389 0.986 -36.742
870.043 0.014 23.823 0.968 -32.879 0.063 57.381
          0.968 -32.891 0.021 5.14 0.062 54.048
          0.063 57.54 0.062 53.864 0.985 -38.062
900.042 0.014 25.772 0.967 -34.009 0.066 56.095
          0.967 -34.017 0.022 4.934 0.064 52.684
          0.065 56.224 0.064 52.539 0.984 -39.37
930.042 0.014 29.135 0.967 -35.129 0.068 54.86
          0.967 -35.134 0.022 4.125 0.067 51.289
          0.068 54.8 0.066 51.248 0.984 -40.674
960.042 0.014 30.119 0.967 -36.214 0.07 53.627
          0.966 -36.248 0.022 3.734 0.069 49.883
          0.07 53.58 0.069 49.838 0.983 -41.995
990.042 0.014 30.838 0.966 -37.341 0.072 52.413
          0.966 -37.365 0.023 3.002 0.071 48.513
          0.072 52.378 0.071 48.45 0.982 -43.322
1020.041 0.014 31.176 0.966 -38.478 0.074 51.163
          0.966 -38.483 0.023 2.578 0.073 47.143
          0.074 51.112 0.073 47.09 0.982 -44.617
1050.041 0.014 31.575 0.966 -39.59 0.076 49.914
          0.965 -39.612 0.023 2.353 0.075 45.813
          0.076 49.852 0.075 45.761 0.981 -45.909
1080.041 0.014 32.161 0.965 -40.723 0.078 48.674
          0.965 -40.727 0.023 3.082 0.077 44.464
          0.078 48.624 0.077 44.414 0.98 -47.21
1110.041 0.014 31.584 0.965 -41.844 0.08 47.397
          0.965 -41.849 0.024 2.614 0.079 43.172
          0.08 47.355 0.079 43.123 0.979 -48.506
1140.04 0.014 30.485 0.966 -42.975 0.082 46.169
          0.965 -42.984 0.024 2.41 0.082 41.64
          0.082 46.126 0.081 41.609 0.98 -49.825
1170.04 0.014 30.762 0.966 -44.084 0.084 44.916
          0.966 -44.091 0.024 2.164 0.084 40.203
          0.084 44.909 0.083 40.186 0.98 -51.147
1200.04 0.013 30.867 0.966 -45.201 0.086 43.671
          0.966 -45.2 0.024 1.243 0.086 38.844
          0.086 43.677 0.085 38.851 0.979 -52.455
1230.04 0.013 31.338 0.966 -46.333 0.088 42.562
          0.965 -46.336 0.024 0.613 0.087 37.491
          0.088 42.552 0.087 37.473 0.978 -53.77
1260.039 0.013 32.985 0.965 -47.461 0.09 41.35
          0.965 -47.487 0.024 -0.039 0.089 36.163
          0.09 41.333 0.089 36.135 0.978 -55.093
1290.039 0.012 34.638 0.965 -48.608 0.092 40.146
          0.965 -48.632 0.023 -1.39 0.091 34.781
          0.092 40.147 0.091 34.767 0.976 -56.427
1320.039 0.012 36.594 0.964 -49.713 0.094 39.06
          0.964 -49.734 0.023 -2.777 0.093 33.407
          0.094 39.087 0.093 33.422 0.975 -57.75
1350.039 0.012 38.64 0.964 -50.844 0.096 37.813
          0.964 -50.864 0.023 -4.378 0.095 32.078
          0.096 37.861 0.095 32.139 0.974 -59.063
1380.038 0.012 39.907 0.964 -51.965 0.098 36.776
          0.963 -51.981 0.023 -5.615 0.097 30.797
          0.097 36.798 0.097 30.832 0.974 -60.374
1410.038 0.011 40.801 0.963 -53.109 0.1 35.708
          0.963 -53.099 0.023 -5.532 0.099 29.51
          0.1 35.837 0.099 29.522 0.973 -61.689
1440.038 0.011 43.651 0.962 -54.233 0.102 34.639
          0.963 -54.231 0.023 -7.153 0.101 28.156
          0.101 34.75 0.101 28.228 0.972 -62.995
1470.038 0.011 46.184 0.963 -55.331 0.104 33.586
          0.963 -55.362 0.023 -9.216 0.103 26.837
          0.103 33.68 0.103 26.936 0.973 -64.341
1500.037 0.011 49.365 0.963 -56.446 0.106 32.5
          0.963 -56.484 0.023 -10.727 0.105 25.607
          0.105 32.621 0.104 25.714 0.973 -65.659
1530.037 0.011 52.529 0.963 -57.565 0.107 31.526
          0.962 -57.587 0.023 -12.55 0.107 24.435
          0.107 31.644 0.106 24.538 0.972 -66.959
1560.037 0.011 55.648 0.962 -58.718 0.109 30.487
          0.962 -58.716 0.023 -14.055 0.108 23.183
          0.109 30.662 0.108 23.338 0.971 -68.3
1590.037 0.011 59.387 0.962 -59.84 0.111 29.443
          0.962 -59.869 0.023 -15.775 0.11 21.963
          0.111 29.602 0.11 22.12 0.971 -69.655
1620.036 0.011 62.648 0.961 -60.983 0.113 28.454
          0.961 -61.001 0.023 -17.767 0.112 20.772
          0.113 28.638 0.112 20.945 0.97 -70.999
1650.036 0.011 65.976 0.962 -62.114 0.116 27.477
          0.962 -62.147 0.023 -19.841 0.114 19.615
          0.115 27.647 0.113 19.794 0.97 -72.334
1680.036 0.011 69.286 0.961 -63.267 0.118 26.44
          0.961 -63.266 0.023 -21.017 0.116 18.472
          0.117 26.675 0.115 18.688 0.969 -73.657
1710.036 0.011 70.919 0.961 -64.373 0.12 25.5
          0.961 -64.404 0.023 -22.468 0.117 17.351
          0.119 25.731 0.117 17.589 0.968 -74.963
1740.035 0.011 73.982 0.96 -65.517 0.122 24.569
          0.96 -65.538 0.023 -23.328 0.119 16.3
          0.122 24.765 0.119 16.487 0.967 -76.285
1770.035 0.011 76.745 0.96 -66.638 0.124 23.534
          0.959 -66.662 0.023 -24.01 0.121 15.149
          0.124 23.777 0.121 15.384 0.966 -77.62
1800.035 0.011 79.301 0.959 -67.765 0.126 22.604
          0.959 -67.786 0.022 -26.275 0.123 14.07
          0.126 22.824 0.123 14.283 0.965 -78.938
1830.035 0.012 82.604 0.959 -68.899 0.128 21.646
          0.958 -68.91 0.022 -27.303 0.125 12.992
          0.128 21.904 0.125 13.278 0.965 -80.258
1860.034 0.011 82.909 0.959 -70.017 0.131 20.607
          0.959 -70.029 0.022 -27.488 0.128 11.92
          0.131 20.919 0.127 12.22 0.966 -81.566
1890.034 0.011 84.946 0.959 -71.164 0.134 19.652
          0.958 -71.177 0.022 -28.346 0.13 10.836
          0.133 19.949 0.13 11.133 0.965 -82.885
1920.034 0.012 86.983 0.958 -72.28 0.136 18.645
          0.958 -72.294 0.022 -28.664 0.132 9.796
          0.136 18.925 0.132 10.064 0.964 -84.211
1950.034 0.012 88.081 0.958 -73.416 0.139 17.568
          0.958 -73.426 0.022 -30.26 0.134 8.726
          0.139 17.881 0.134 8.986 0.963 -85.543
1980.033 0.012 90.978 0.958 -74.561 0.141 16.6
          0.957 -74.57 0.021 -31.788 0.136 7.644
          0.141 16.892 0.136 7.924 0.963 -86.874
2010.033 0.012 92.619 0.957 -75.699 0.144 15.527
          0.956 -75.708 0.021 -31.997 0.139 6.56
          0.144 15.813 0.139 6.853 0.962 -88.213
2040.033 0.012 95.196 0.957 -76.855 0.147 14.449
          0.956 -76.848 0.02 -32.761 0.141 5.435
          0.147 14.755 0.141 5.735 0.961 -89.534
2070.033 0.013 96.565 0.955 -77.978 0.15 13.337
          0.955 -77.989 0.02 -32.589 0.144 4.326
          0.15 13.63 0.144 4.606 0.961 -90.905
2100.032 0.013 97.686 0.955 -79.135 0.153 12.174
          0.955 -79.117 0.02 -33.357 0.147 3.165
          0.153 12.439 0.147 3.429 0.96 -92.284
2130.032 0.013 102.7 0.954 -80.245 0.156 11.007
          0.954 -80.287 0.018 -33.071 0.149 2.037
          0.156 11.352 0.149 2.271 0.959 -93.621
2160.032 0.014 102.339 0.954 -81.415 0.159 9.753
          0.954 -81.408 0.018 -35.076 0.152 0.858
          0.159 10.036 0.152 1.132 0.958 -94.975
2190.032 0.014 103.241 0.954 -82.53 0.162 8.45
          0.953 -82.561 0.017 -33.672 0.155 -0.369
          0.162 8.703 0.155 -0.099 0.957 -96.315
2220.031 0.014 103.073 0.953 -83.671 0.165 7.168
          0.953 -83.673 0.017 -32.453 0.157 -1.537
          0.165 7.391 0.158 -1.319 0.956 -97.654
2250.031 0.015 102.084 0.952 -84.794 0.168 5.835
          0.952 -84.807 0.016 -30.972 0.16 -2.922
          0.168 6.114 0.161 -2.624 0.954 -99.005
2280.031 0.015 101.831 0.951 -85.927 0.171 4.536
          0.951 -85.936 0.016 -30.203 0.163 -4.068
          0.171 4.721 0.164 -3.968 0.954 -100.348
2310.031 0.016 101.846 0.951 -87.042 0.174 3.107
          0.951 -87.088 0.016 -28.919 0.167 -5.456
          0.174 3.355 0.167 -5.246 0.954 -101.642
2340.03 0.016 101.825 0.95 -88.182 0.177 1.709
          0.951 -88.219 0.015 -28.786 0.17 -6.834
          0.177 1.977 0.17 -6.597 0.953 -103.066
2370.03 0.017 102.01 0.95 -89.335 0.18 0.237
          0.95 -89.336 0.014 -27.112 0.172 -8.204
          0.18 0.514 0.173 -7.965 0.953 -104.374
2400.03 0.017 101.383 0.949 -90.429 0.183 -1.14
          0.949 -90.493 0.014 -26.611 0.176 -9.542
          0.183 -0.932 0.176 -9.395 0.952 -105.696
2430.03 0.018 99.891 0.948 -91.56 0.185 -2.553
          0.949 -91.631 0.013 -25.793 0.178 -10.96
          0.186 -2.419 0.179 -10.821 0.951 -107.057
2460.029 0.019 99.451 0.948 -92.693 0.188 -4.06
          0.948 -92.762 0.013 -25.424 0.181 -12.337
          0.188 -3.875 0.182 -12.238 0.95 -108.369
2490.029 0.019 98.714 0.947 -93.835 0.19 -5.487
          0.947 -93.872 0.013 -22.292 0.184 -13.826
          0.191 -5.355 0.185 -13.726 0.948 -109.681
2520.029 0.019 97.533 0.946 -94.941 0.193 -7.026
          0.946 -95.003 0.013 -20.173 0.187 -15.346
          0.193 -6.864 0.188 -15.15 0.947 -111.029
2550.029 0.019 95.929 0.946 -96.074 0.195 -8.492
          0.946 -96.109 0.013 -18.165 0.19 -16.762
          0.196 -8.367 0.191 -16.667 0.946 -112.375
2580.028 0.019 93.889 0.945 -97.219 0.198 -9.964
          0.945 -97.269 0.013 -17.502 0.193 -18.306
          0.198 -9.876 0.194 -18.233 0.945 -113.695
2610.028 0.019 93.392 0.944 -98.233 0.2 -11.438
          0.943 -98.407 0.012 -14.781 0.196 -19.795
          0.2 -11.34 0.197 -19.717 0.944 -115.056
2640.028 0.019 93.554 0.944 -99.455 0.202 -12.864
          0.943 -99.492 0.012 -13.342 0.199 -21.342
          0.202 -12.812 0.199 -21.307 0.943 -116.36
2670.028 0.019 94.165 0.943 -100.555 0.204 -14.345
          0.942 -100.621 0.012 -9.175 0.201 -22.896
          0.205 -14.288 0.202 -22.869 0.942 -117.748
2700.027 0.019 93.776 0.942 -101.692 0.206 -15.838
          0.942 -101.771 0.012 -5.878 0.204 -24.441
          0.207 -15.832 0.205 -24.441 0.942 -119.085
2730.027 0.02 92.869 0.942 -102.795 0.208 -17.263
          0.941 -102.888 0.011 -4.151 0.207 -25.991
          0.208 -17.288 0.207 -26.04 0.941 -120.434
2760.027 0.02 91.289 0.943 -103.924 0.21 -18.761
          0.942 -104.019 0.011 -5.174 0.21 -27.504
          0.211 -18.763 0.21 -27.568 0.942 -121.801
2790.027 0.02 90.712 0.943 -105.032 0.212 -20.247
          0.941 -105.13 0.011 -6.252 0.213 -29.066
          0.213 -20.267 0.213 -29.115 0.941 -123.115
2820.026 0.019 90.728 0.943 -106.193 0.214 -21.647
          0.941 -106.245 0.011 -6.014 0.215 -30.706
          0.214 -21.675 0.216 -30.761 0.94 -124.479
2850.026 0.019 90.399 0.942 -107.31 0.216 -23.152
          0.941 -107.377 0.011 -4.303 0.218 -32.263
          0.216 -23.148 0.218 -32.305 0.939 -125.804
2880.026 0.019 89.745 0.942 -108.437 0.217 -24.527
          0.94 -108.527 0.011 -3.003 0.22 -33.863
          0.218 -24.583 0.22 -33.938 0.938 -127.165
2910.026 0.018 89.128 0.942 -109.591 0.219 -26.007
          0.94 -109.665 0.011 -1.583 0.222 -35.508
          0.219 -26.016 0.223 -35.533 0.937 -128.534
2940.025 0.018 89.41 0.941 -110.724 0.22 -27.437
          0.939 -110.789 0.011 -0.965 0.225 -37.094
          0.22 -27.457 0.225 -37.148 0.936 -129.876
2970.025 0.018 90.706 0.941 -111.893 0.221 -28.862
          0.939 -111.923 0.011 2.464 0.227 -38.734
          0.221 -28.853 0.227 -38.777 0.935 -131.248
3000.025 0.018 92.474 0.94 -113.032 0.223 -30.225
          0.938 -113.066 0.011 6.91 0.229 -40.347
          0.223 -30.217 0.229 -40.379 0.934 -132.6
3030.025 0.018 93.675 0.94 -114.194 0.224 -31.588
          0.938 -114.214 0.011 10.98 0.231 -41.947
          0.224 -31.624 0.231 -42.001 0.933 -133.962
3060.024 0.018 95.501 0.94 -115.346 0.225 -32.899
          0.937 -115.355 0.011 15.262 0.233 -43.573
          0.225 -32.906 0.233 -43.568 0.932 -135.335
3090.024 0.018 97.018 0.939 -116.482 0.226 -34.193
          0.937 -116.513 0.011 17.352 0.234 -45.155
          0.226 -34.213 0.235 -45.186 0.932 -136.711
3120.024 0.018 98.13 0.939 -117.671 0.227 -35.578
          0.936 -117.641 0.01 18.428 0.236 -46.751
          0.227 -35.544 0.236 -46.778 0.931 -138.096
3150.024 0.018 99.65 0.938 -118.817 0.228 -36.829
          0.936 -118.801 0.01 18.954 0.238 -48.308
          0.228 -36.809 0.238 -48.349 0.931 -139.455
3180.023 0.018 101.834 0.937 -119.965 0.229 -38.158
          0.936 -119.966 0.011 19.177 0.239 -49.922
          0.229 -38.077 0.239 -49.913 0.929 -140.852
3210.023 0.018 103.862 0.936 -121.116 0.229 -39.386
          0.935 -121.118 0.011 20.4 0.241 -51.483
          0.229 -39.351 0.241 -51.468 0.928 -142.23
3240.023 0.018 105.267 0.936 -122.294 0.23 -40.65
          0.934 -122.264 0.011 23.039 0.242 -53.088
          0.23 -40.563 0.242 -53.055 0.928 -143.624
3270.023 0.019 106.104 0.937 -123.461 0.231 -41.874
          0.935 -123.405 0.011 26.718 0.244 -54.658
          0.231 -41.785 0.244 -54.607 0.929 -145.062
3300.022 0.02 107.141 0.936 -124.644 0.232 -43.072
          0.935 -124.542 0.011 31.907 0.245 -56.238
          0.232 -42.919 0.245 -56.105 0.928 -146.47
3330.022 0.021 108.63 0.935 -125.771 0.232 -44.195
          0.934 -125.709 0.011 36.13 0.246 -57.745
          0.232 -44.031 0.246 -57.606 0.927 -147.864
3360.022 0.022 109.838 0.936 -126.928 0.233 -45.286
          0.934 -126.878 0.011 40.962 0.247 -59.205
          0.233 -45.174 0.247 -59.151 0.926 -149.296
3390.022 0.023 110.608 0.935 -128.146 0.234 -46.45
          0.933 -128.056 0.012 43.468 0.248 -60.712
          0.234 -46.267 0.248 -60.6 0.925 -150.693
3420.021 0.024 110.715 0.935 -129.328 0.235 -47.506
          0.934 -129.235 0.013 43.693 0.249 -62.178
          0.235 -47.319 0.249 -62.034 0.923 -152.102
3450.021 0.025 110.844 0.935 -130.511 0.235 -48.514
          0.934 -130.416 0.013 44.535 0.249 -63.631
          0.235 -48.337 0.249 -63.484 0.923 -153.507
3480.021 0.026 110.312 0.934 -131.699 0.236 -49.504
          0.933 -131.592 0.014 44.659 0.25 -65.004
          0.236 -49.316 0.25 -64.883 0.921 -154.917
3510.021 0.027 110.643 0.933 -132.86 0.237 -50.528
          0.933 -132.777 0.015 44.963 0.25 -66.442
          0.237 -50.323 0.251 -66.263 0.92 -156.336
3540.02 0.028 111.661 0.933 -134.041 0.238 -51.465
          0.932 -133.968 0.016 43.87 0.251 -67.76
          0.238 -51.264 0.251 -67.626 0.919 -157.752
3570.02 0.029 111.73 0.932 -135.258 0.239 -52.407
          0.932 -135.154 0.018 42.455 0.251 -69.129
          0.24 -52.152 0.252 -68.963 0.917 -159.198
3600.02 0.032 109.488 0.931 -136.445 0.24 -53.407
          0.931 -136.355 0.018 45.42 0.252 -70.514
          0.241 -53.184 0.252 -70.296 0.915 -160.637
3630.02 0.035 107.524 0.93 -137.603 0.241 -54.311
          0.93 -137.578 0.018 47.641 0.252 -71.74
          0.242 -54.109 0.253 -71.558 0.914 -162.04
3660.019 0.036 106.063 0.93 -138.798 0.243 -55.195
          0.93 -138.767 0.019 45.749 0.252 -72.93
          0.244 -55.041 0.253 -72.782 0.912 -163.476
3690.019 0.038 105.146 0.929 -140.004 0.244 -56.111
          0.929 -139.958 0.02 45.245 0.253 -74.141
          0.245 -55.968 0.254 -73.981 0.91 -164.919
3720.019 0.039 103.576 0.928 -141.202 0.246 -57.053
          0.928 -141.169 0.022 44.941 0.253 -75.285
          0.247 -56.871 0.254 -75.131 0.908 -166.353
3750.019 0.041 102.026 0.927 -142.407 0.248 -57.961
          0.927 -142.383 0.022 45.267 0.254 -76.41
          0.249 -57.801 0.255 -76.295 0.907 -167.774
3780.018 0.043 100.217 0.927 -143.629 0.25 -58.925
          0.927 -143.6 0.023 45.42 0.255 -77.574
          0.251 -58.742 0.256 -77.415 0.907 -169.155
3810.018 0.045 98.352 0.926 -144.852 0.252 -59.843
          0.926 -144.808 0.024 44.671 0.255 -78.626
          0.253 -59.664 0.256 -78.465 0.904 -170.537
3840.018 0.047 96.801 0.925 -146.051 0.254 -60.711
          0.925 -146.008 0.025 43.871 0.256 -79.574
