!Hittite Microwave Corporation								
!20 Alpha Road								
!Chelmsford, MA 01824								
!Tel: 978-250-3343								
!Fax: 978-250-3373								
!Device: HMC517, 17-26 GHz, GaAs PHEMT MMIC Low Noise Amplifier Die																
!Misc: Vdd1 = Vdd2 = Vdd3 = +2.5V, data includes two K connectors, Room							
!
# MHZ S MA R 50

12035 0.98 -54.722 2.282 -64.088 2.972e-3 63.231 0.919 -114.741
12236.65 0.959 -72.237 2.502 -81.662 2.744e-3 47.881 0.911 -123.662
12438.3 0.929 -88.315 2.765 -93.939 3.091e-3 41.764 0.908 -133.067
12639.95 0.897 -104.883 3.119 -110.53 2.835e-3 21.625 0.901 -142.214
12841.6 0.862 -120.606 3.288 -126.953 2.983e-3 22.096 0.895 -151.827
13043.25 0.818 -136.508 3.959 -141.199 2.57e-3 7.787 0.89 -161.273
13244.9 0.777 -152.013 3.726 -161.256 2.838e-3 7.619 0.882 -170.937
13446.55 0.728 -167.437 4.243 -172.1 3.247e-3 -8.941 0.876 179.29
13648.2 0.681 177.336 4.15 173.923 3.019e-3 -11.109 0.866 169.366
13849.85 0.634 162.129 5.035 162.865 3.214e-3 -27.349 0.856 159.415
14051.5 0.582 147.008 5.228 145.167 3.004e-3 -36.205 0.843 149.347
14253.15 0.535 132.641 6.006 132.002 3.251e-3 -44.546 0.829 139.116
14454.8 0.49 117.468 6.394 111.544 2.907e-3 -55.314 0.813 128.852
14656.45 0.442 103.797 6.502 94.964 2.837e-3 -62.276 0.795 118.495
14858.1 0.401 89.425 6.184 77.784 2.525e-3 -71.303 0.774 108.084
15059.75 0.359 75.37 6.243 68.798 2.646e-3 -82.207 0.753 97.73
15261.4 0.32 61.975 6.27 54.8 2.717e-3 -87.636 0.725 87.318
15463.05 0.292 48.103 6.737 44.738 2.14e-3 -91.832 0.7 76.785
15664.7 0.253 34.632 6.992 33.745 2.126e-3 -100.421 0.67 66.265
15866.35 0.227 20.944 7.616 18.505 1.982e-3 -114.146 0.639 55.622
16068 0.201 6.268 7.741 4.202 2.168e-3 -123.498 0.607 45.127
16269.65 0.176 -8.607 7.876 -8.05 1.969e-3 -133.306 0.572 34.722
16471.3 0.162 -22.388 8.292 -21.152 1.861e-3 -141.098 0.538 24.172
16672.95 0.141 -39.504 8.618 -34.068 1.899e-3 -156.419 0.504 13.733
16874.6 0.131 -54.049 8.91 -48.442 1.847e-3 -165.012 0.471 3.468
17076.25 0.123 -71.273 9.081 -61.424 1.782e-3 -172.676 0.438 -6.819
17277.9 0.118 -87.128 9.31 -75.63 1.679e-3 168.276 0.406 -17.022
17479.55 0.114 -99.236 9.345 -88.876 1.79e-3 150.488 0.378 -27.141
17681.2 0.114 -115.557 9.382 -101.992 1.9e-3 136.187 0.351 -37.189
17882.85 0.112 -126.218 9.367 -114.65 1.945e-3 121.564 0.326 -47.192
18084.5 0.117 -138.213 9.408 -126.649 1.942e-3 110.54 0.305 -57.186
18286.15 0.119 -148.221 9.429 -138.75 2.225e-3 96.215 0.286 -67.19
18487.8 0.119 -157.702 9.529 -150.507 2.558e-3 81.76 0.268 -77.29
18689.45 0.128 -167.265 9.613 -162.603 2.678e-3 70.712 0.253 -87.488
18891.1 0.128 -175.94 9.656 -174.535 2.834e-3 57.988 0.24 -97.774
19092.75 0.137 176.052 9.68 173.544 3.19e-3 49.409 0.228 -107.801
19294.4 0.138 168.58 9.662 161.986 3.451e-3 38.044 0.217 -118.064
19496.05 0.142 160.977 9.698 150.692 3.815e-3 28.609 0.209 -128.006
19697.7 0.148 154.529 9.767 139.251 4.063e-3 19.542 0.202 -137.728
19899.35 0.149 146.995 9.824 127.389 4.353e-3 8.774 0.195 -147.149
20101 0.154 141.15 9.823 115.841 4.63e-3 -0.477 0.189 -156.362
20302.65 0.155 134.293 9.8 104.378 4.966e-3 -7.711 0.185 -165.198
20504.3 0.158 127.754 9.792 92.921 5.276e-3 -14.777 0.181 -173.437
20705.95 0.16 122.121 9.771 81.664 5.587e-3 -24.769 0.177 178.817
20907.6 0.164 115.471 9.729 70.591 6.021e-3 -34.347 0.173 171.736
21109.25 0.165 110.227 9.799 59.354 6.292e-3 -41.689 0.17 165.149
21310.9 0.168 103.717 9.746 47.52 6.519e-3 -48.563 0.168 159.298
21512.55 0.168 97.653 9.596 35.801 6.902e-3 -57.455 0.166 154.076
21714.2 0.168 90.997 9.381 25.215 7.094e-3 -66.358 0.163 148.971
21915.85 0.168 83.185 9.344 14.997 7.418e-3 -75.074 0.16 144.546
22117.5 0.165 75.474 9.317 4.273 7.956e-3 -81.593 0.159 140.848
22319.15 0.164 67.888 9.243 -6.691 8.2e-3 -89.594 0.158 137.834
22520.8 0.155 59.329 9.165 -17.168 8.316e-3 -99.056 0.157 135.529
22722.45 0.146 51.121 9.117 -27.742 8.606e-3 -107.257 0.158 133.738
22924.1 0.134 40.971 9.05 -38.401 9.014e-3 -114.464 0.16 132.753
23125.75 0.119 29.833 8.987 -49.137 9.312e-3 -122.557 0.164 131.743
23327.4 0.103 19.223 8.954 -59.349 9.564e-3 -130.917 0.171 131.018
23529.05 0.085 1.782 8.897 -70.17 9.837e-3 -139.017 0.18 130.343
23730.7 0.063 -14.281 8.802 -80.938 0.01 -146.726 0.192 129.128
23932.35 0.055 -45.242 8.679 -91.806 0.01 -154.282 0.207 127.445
24134 0.05 -86.448 8.58 -102.444 0.01 -162.766 0.224 124.827
24335.65 0.059 -118.939 8.429 -113.309 0.011 -172.036 0.243 121.684
24537.3 0.079 -139.403 8.302 -123.967 0.011 179.015 0.262 117.857
24738.95 0.107 -161.088 8.156 -133.903 0.012 171.221 0.281 113.5
24940.6 0.128 -169.517 8.032 -145.59 0.012 161.716 0.298 108.351
25142.25 0.152 177.908 7.774 -155.904 0.012 151.9 0.315 103.104
25343.9 0.179 168.448 7.462 -165.837 0.012 142.964 0.33 97.166
25545.55 0.187 160.934 7.328 -174.645 0.012 132.756 0.341 92.135
25747.2 0.233 150.256 7.23 176.684 0.012 124.784 0.356 86.216
25948.85 0.236 148.278 7.219 168.211 0.012 116.839 0.363 80.938
26150.5 0.266 138.412 7.408 157.756 0.013 109.354 0.362 74.982
26352.15 0.289 135.908 7.478 147.148 0.013 102.517 0.359 69.321
26553.8 0.279 130.703 7.54 135.521 0.013 92.813 0.356 64.147
26755.45 0.338 123.902 7.568 124.389 0.013 81.852 0.348 60.405
26957.1 0.325 123.218 7.605 111.365 0.013 70.255 0.337 56.962
27158.75 0.386 114.313 7.42 98.097 0.014 60.8 0.331 54.194
27360.4 0.428 112.265 7.178 85.66 0.015 50.271 0.328 52.88
27562.05 0.437 106.861 6.861 73.642 0.015 38.154 0.329 52.414
27763.7 0.539 99.32 6.61 61.117 0.015 26.16 0.341 52.344
27965.35 0.531 94.723 6.259 48.516 0.014 15.818 0.367 51.105
28167 0.635 85.164 5.884 36.145 0.014 6.227 0.404 48.304
28368.65 0.66 77.252 5.466 23.845 0.013 -5.259 0.442 43.979
28570.3 0.681 69.078 4.959 12.5 0.012 -16.371 0.482 38.568
28771.95 0.778 59.163 4.518 1.034 0.012 -25.024 0.521 32.142
28973.6 0.733 50.327 4.064 -9.566 0.011 -35.072 0.554 25.005
29175.25 0.828 41.774 3.601 -18.361 0.011 -43.048 0.584 17.878
29376.9 0.802 31.499 3.281 -25.444 0.01 -51.191 0.609 10.063
29578.55 0.822 24.822 3.175 -33.431 9.24e-3 -57.091 0.632 2.04
29780.2 0.872 15.985 2.854 -43.764 9.059e-3 -64.971 0.652 -5.863
29981.85 0.812 5.737 2.631 -52.592 8.206e-3 -71.294 0.667 -13.441
30183.5 0.884 1.147 2.422 -58.384 8.039e-3 -80.465 0.682 -21.331
30385.15 0.84 -11.037 2.156 -69.127 7.651e-3 -84.847 0.694 -29.042
30586.8 0.86 -15.777 1.994 -71.903 7.363e-3 -90.117 0.704 -36.904
30788.45 0.895 -24.02 1.883 -76.651 6.999e-3 -93.7 0.713 -44.888
30990.1 0.841 -34.756 1.983 -88.085 6.902e-3 -94.233 0.722 -52.944
31191.75 0.899 -37.499 1.682 -97.509 6.505e-3 -106.222 0.731 -60.652
31393.4 0.869 -50.385 1.566 -102.365 6.909e-3 -104.616 0.733 -68.7
31595.05 0.86 -54.36 1.608 -109.794 6.842e-3 -117.101 0.739 -76.923
31796.7 0.903 -63.443 1.41 -124.373 5.61e-3 -127.652 0.747 -85.017
31998.35 0.837 -74.478 1.147 -132.24 5.527e-3 -129.286 0.751 -92.558
32200 0.9 -76.952 0.993 -126.494 4.684e-3 -120.927 0.745 -100.995
