!Hittite Microwave Corporation								
!20 Alpha Road								
!Chelmsford, MA 01824								
!Tel: 978-250-3343								
!Fax: 978-250-3373								
!Device: HMC536MS8G, DC-6 GHz, GaAs MMIC Positive Control T/R Switch in 8 lead MSOP8G SMT package with exposed ground paddle  															
!Misc: Vctl = 5V, Port1 = RFC, Port2 = RF1, Port3 = RF2, RF1 ON, Room
!
# MHZ S MA R 50

50 0.05 -1.238 0.94 -1.914 2.654e-3 93.405
          0.94 -1.924 0.052 -1.99 2.384e-3 93.951
          2.608e-3 93.414 2.401e-3 94.511 0.988 -6.484
79.75 0.052 -0.576 0.939 -2.886 4.374e-3 89.533
          0.94 -2.881 0.052 -0.41 4.088e-3 88.787
          4.364e-3 89.695 4.075e-3 89.037 0.988 -10.113
109.5 0.053 -0.959 0.939 -3.918 5.635e-3 81.896
          0.939 -3.908 0.053 -0.62 5.163e-3 84.045
          5.641e-3 82.144 5.157e-3 84.126 0.987 -13.89
139.25 0.053 -1.709 0.938 -4.949 7.234e-3 80.699
          0.939 -4.954 0.053 -1.103 6.654e-3 82.394
          7.218e-3 80.667 6.647e-3 82.479 0.985 -17.615
169 0.053 -1.764 0.937 -5.962 9.019e-3 77.902
          0.938 -5.962 0.053 -1.424 8.254e-3 79.612
          8.998e-3 77.922 8.244e-3 79.702 0.981 -21.317
198.75 0.053 -2.702 0.937 -6.977 0.01 74.568
          0.938 -6.987 0.054 -2.463 9.463e-3 77.263
          0.01 74.612 9.457e-3 77.324 0.979 -25.009
228.5 0.053 -3.379 0.938 -7.984 0.012 71.636
          0.938 -7.994 0.054 -3.179 0.011 74.693
          0.012 71.676 0.011 74.694 0.977 -28.677
258.25 0.053 -4.015 0.937 -9.006 0.013 69.138
          0.938 -9.007 0.055 -3.565 0.012 72.26
          0.013 69.138 0.012 72.265 0.974 -32.318
288 0.053 -4.528 0.936 -10.019 0.015 66.824
          0.937 -10.038 0.055 -4.652 0.014 70.479
          0.015 66.863 0.013 70.469 0.97 -35.953
317.75 0.053 -5.408 0.937 -11.025 0.016 64.417
          0.937 -11.035 0.056 -5.116 0.015 68.355
          0.016 64.441 0.015 68.35 0.966 -39.539
347.5 0.053 -6.119 0.937 -12.013 0.017 61.843
          0.937 -12.042 0.056 -5.696 0.016 66.177
          0.017 61.824 0.016 66.196 0.961 -43.08
377.25 0.053 -7.133 0.936 -13.034 0.019 59.516
          0.937 -13.039 0.056 -6.663 0.017 64.12
          0.019 59.535 0.017 64.1 0.956 -46.606
407 0.053 -7.742 0.936 -14.037 0.02 57.213
          0.936 -14.047 0.057 -7.295 0.019 62.048
          0.02 57.205 0.019 62.038 0.952 -50.076
436.75 0.053 -8.226 0.935 -15.038 0.021 54.624
          0.936 -15.048 0.057 -8.007 0.02 59.92
          0.021 54.629 0.02 59.935 0.947 -53.511
466.5 0.053 -9.125 0.935 -16.049 0.023 52.237
          0.936 -16.059 0.057 -8.851 0.021 57.847
          0.023 52.246 0.021 57.838 0.943 -56.93
496.25 0.053 -10.04 0.936 -17.041 0.024 49.937
          0.936 -17.051 0.058 -9.379 0.022 55.788
          0.024 49.941 0.022 55.781 0.938 -60.3
526 0.053 -10.553 0.935 -18.043 0.025 47.582
          0.936 -18.053 0.058 -10.186 0.023 53.78
          0.025 47.592 0.023 53.781 0.932 -63.632
555.75 0.053 -10.938 0.934 -19.044 0.026 45.039
          0.936 -19.049 0.058 -10.843 0.024 51.702
          0.026 45.065 0.024 51.702 0.926 -66.913
585.5 0.052 -11.429 0.934 -20.045 0.027 42.857
          0.935 -20.055 0.059 -11.515 0.025 49.719
          0.027 42.877 0.025 49.729 0.921 -70.159
615.25 0.052 -11.841 0.934 -21.037 0.028 40.662
          0.935 -21.047 0.059 -11.954 0.027 47.783
          0.028 40.668 0.026 47.793 0.915 -73.352
645 0.052 -12.145 0.934 -22.038 0.029 38.123
          0.935 -22.048 0.06 -12.66 0.028 45.726
          0.029 38.122 0.028 45.736 0.909 -76.509
674.75 0.051 -12.367 0.934 -23.04 0.03 36.021
          0.934 -23.05 0.06 -13.145 0.028 43.739
          0.03 36.017 0.028 43.743 0.903 -79.634
704.5 0.051 -12.567 0.934 -24.032 0.031 33.75
          0.935 -24.042 0.061 -13.524 0.029 41.866
          0.031 33.768 0.029 41.867 0.898 -82.715
734.25 0.051 -12.692 0.934 -25.023 0.032 31.616
          0.935 -25.033 0.061 -13.934 0.03 39.921
          0.032 31.626 0.03 39.945 0.893 -85.763
764 0.051 -13.188 0.934 -26.024 0.033 29.467
          0.934 -26.034 0.062 -14.372 0.031 38.127
          0.033 29.487 0.031 38.147 0.887 -88.779
793.75 0.05 -13.379 0.934 -27.021 0.033 27.356
          0.934 -27.037 0.062 -14.877 0.032 36.406
          0.033 27.352 0.032 36.411 0.881 -91.737
823.5 0.05 -13.389 0.933 -28.026 0.034 25.233
          0.934 -28.026 0.063 -15.345 0.032 34.633
          0.034 25.232 0.032 34.662 0.875 -94.65
853.25 0.05 -13.247 0.933 -29.024 0.035 23.187
          0.933 -29.028 0.064 -15.774 0.033 32.966
          0.035 23.168 0.033 32.989 0.87 -97.538
883 0.049 -13.209 0.932 -30.018 0.035 21.163
          0.933 -30.019 0.064 -16.186 0.034 31.333
          0.035 21.169 0.034 31.331 0.864 -100.395
912.75 0.049 -12.868 0.932 -31.004 0.036 19.155
          0.933 -31.02 0.065 -16.59 0.034 29.665
          0.036 19.157 0.034 29.67 0.859 -103.189
942.5 0.049 -12.724 0.932 -32.02 0.037 17.216
          0.932 -32.021 0.066 -16.927 0.035 28.081
          0.037 17.182 0.035 28.064 0.853 -105.979
972.25 0.049 -12.815 0.932 -33.011 0.037 15.253
          0.932 -33.021 0.066 -17.409 0.036 26.51
          0.037 15.239 0.035 26.486 0.848 -108.71
1002 0.048 -12.539 0.932 -34.002 0.038 13.355
          0.933 -34.012 0.067 -17.549 0.036 24.957
          0.038 13.319 0.036 24.976 0.844 -111.419
1031.75 0.048 -12.212 0.932 -35.009 0.038 11.394
          0.933 -35.013 0.068 -17.814 0.037 23.31
          0.038 11.423 0.037 23.339 0.839 -114.094
1061.5 0.048 -11.899 0.932 -36.004 0.038 9.544
          0.932 -36.014 0.068 -18.027 0.037 21.474
          0.038 9.555 0.037 21.507 0.834 -116.735
1091.25 0.048 -11.076 0.931 -37.001 0.039 7.66
          0.932 -37.001 0.069 -18.275 0.037 19.822
          0.039 7.682 0.037 19.844 0.829 -119.355
1121 0.048 -10.659 0.931 -37.986 0.039 5.914
          0.932 -37.995 0.07 -18.492 0.038 18.566
          0.039 5.918 0.038 18.567 0.824 -121.935
1150.75 0.048 -10.298 0.931 -38.975 0.039 4.192
          0.931 -38.991 0.07 -18.645 0.038 17.288
          0.039 4.173 0.038 17.277 0.82 -124.498
1180.5 0.048 -9.4 0.93 -39.977 0.04 2.473
          0.931 -39.96 0.071 -18.902 0.038 16.001
          0.04 2.49 0.038 16.048 0.814 -126.996
1210.25 0.049 -8.984 0.93 -40.94 0.04 0.806
          0.931 -40.969 0.073 -19.386 0.038 14.762
          0.04 0.79 0.038 14.792 0.81 -129.444
1240 0.049 -8.958 0.93 -41.958 0.04 -0.907
          0.93 -41.977 0.073 -19.682 0.039 13.524
          0.04 -0.871 0.039 13.554 0.806 -131.947
1269.75 0.049 -8.44 0.93 -42.951 0.04 -2.495
          0.93 -42.961 0.074 -19.582 0.039 12.357
          0.04 -2.494 0.039 12.384 0.801 -134.41
1299.5 0.05 -8.034 0.93 -43.947 0.04 -4.027
          0.93 -43.948 0.074 -19.73 0.039 11.237
          0.04 -4.034 0.039 11.26 0.798 -136.855
1329.25 0.05 -7.687 0.93 -44.949 0.04 -5.544
          0.931 -44.952 0.075 -20.261 0.04 10.162
          0.04 -5.545 0.04 10.174 0.794 -139.248
1359 0.05 -7.001 0.931 -45.95 0.041 -6.979
          0.931 -45.951 0.076 -20.647 0.04 9.126
          0.041 -6.99 0.04 9.144 0.791 -141.55
1388.75 0.05 -6.412 0.93 -46.933 0.041 -8.461
          0.931 -46.937 0.077 -20.748 0.04 8.077
          0.041 -8.435 0.04 8.11 0.787 -143.913
1418.5 0.05 -6.074 0.929 -47.937 0.041 -9.859
          0.931 -47.939 0.078 -20.956 0.04 7.116
          0.041 -9.877 0.04 7.099 0.783 -146.268
1448.25 0.051 -5.829 0.929 -48.923 0.041 -11.286
          0.929 -48.936 0.079 -21.207 0.04 6.113
          0.041 -11.272 0.04 6.137 0.779 -148.604
1478 0.052 -5.484 0.929 -49.909 0.041 -12.636
          0.929 -49.921 0.079 -21.478 0.041 5.206
          0.041 -12.624 0.041 5.228 0.775 -150.93
1507.75 0.052 -4.855 0.929 -50.908 0.041 -13.877
          0.929 -50.909 0.08 -21.625 0.041 4.37
          0.041 -13.871 0.041 4.39 0.772 -153.197
1537.5 0.052 -4.468 0.928 -51.907 0.041 -15.104
          0.929 -51.918 0.081 -21.752 0.041 3.532
          0.041 -15.113 0.041 3.544 0.769 -155.413
1567.25 0.053 -4.059 0.928 -52.894 0.041 -16.318
          0.928 -52.907 0.083 -22.391 0.041 2.732
          0.041 -16.341 0.041 2.732 0.765 -157.602
1597 0.054 -3.599 0.927 -53.888 0.041 -17.524
          0.928 -53.9 0.083 -22.629 0.042 1.893
          0.041 -17.501 0.041 1.933 0.763 -159.831
1626.75 0.054 -3.249 0.928 -54.882 0.041 -18.657
          0.929 -54.886 0.084 -22.952 0.042 1.122
          0.041 -18.631 0.042 1.165 0.76 -162.048
1656.5 0.055 -2.939 0.928 -55.869 0.041 -19.782
          0.928 -55.89 0.085 -23.275 0.042 0.365
          0.041 -19.782 0.042 0.375 0.758 -164.255
1686.25 0.056 -2.687 0.928 -56.865 0.041 -20.867
          0.928 -56.878 0.086 -23.541 0.042 -0.395
          0.041 -20.874 0.042 -0.378 0.755 -166.428
1716 0.056 -2.572 0.927 -57.849 0.041 -21.934
          0.928 -57.869 0.087 -23.894 0.043 -1.148
          0.041 -21.901 0.043 -1.126 0.752 -168.587
1745.75 0.057 -2.477 0.927 -58.843 0.041 -22.925
          0.928 -58.853 0.088 -24.417 0.043 -1.912
          0.041 -22.942 0.043 -1.906 0.749 -170.722
1775.5 0.058 -2.22 0.927 -59.827 0.041 -23.925
          0.927 -59.837 0.089 -24.75 0.043 -2.655
          0.041 -23.956 0.043 -2.63 0.747 -172.831
1805.25 0.059 -2.092 0.927 -60.824 0.041 -24.952
          0.928 -60.831 0.09 -25.078 0.044 -3.421
          0.041 -24.936 0.044 -3.434 0.744 -174.942
1835 0.059 -2.166 0.927 -61.815 0.041 -25.889
          0.928 -61.823 0.091 -25.491 0.044 -4.17
          0.041 -25.896 0.044 -4.199 0.741 -177.027
1864.75 0.06 -1.524 0.927 -62.803 0.041 -26.858
          0.927 -62.813 0.092 -26.017 0.045 -4.94
          0.041 -26.851 0.045 -4.94 0.739 -179.06
1894.5 0.061 -1.294 0.926 -63.802 0.041 -27.827
          0.926 -63.804 0.094 -26.54 0.045 -5.741
          0.041 -27.811 0.045 -5.754 0.737 178.901
1924.25 0.062 -1.451 0.925 -64.781 0.041 -28.789
          0.926 -64.798 0.095 -26.855 0.045 -6.561
          0.041 -28.796 0.045 -6.559 0.734 176.849
1954 0.063 -1.623 0.925 -65.771 0.041 -29.72
          0.926 -65.789 0.096 -27.235 0.046 -7.387
          0.041 -29.72 0.046 -7.39 0.732 174.829
1983.75 0.063 -1.788 0.926 -66.765 0.041 -30.59
          0.926 -66.778 0.097 -27.74 0.046 -8.244
          0.041 -30.589 0.046 -8.244 0.731 172.823
2013.5 0.065 -1.837 0.925 -67.756 0.042 -31.478
          0.926 -67.768 0.098 -28.131 0.047 -9.138
          0.042 -31.438 0.047 -9.12 0.73 170.829
2043.25 0.066 -2.243 0.925 -68.745 0.042 -32.404
          0.926 -68.755 0.098 -28.497 0.047 -10.026
          0.042 -32.426 0.047 -10.025 0.728 168.823
2073 0.067 -2.707 0.925 -69.735 0.042 -33.399
          0.926 -69.745 0.1 -28.969 0.048 -10.949
          0.042 -33.351 0.048 -10.959 0.726 166.842
2102.75 0.068 -3.013 0.925 -70.721 0.042 -34.423
          0.925 -70.736 0.101 -29.485 0.048 -11.923
          0.042 -34.402 0.048 -11.938 0.725 164.869
2132.5 0.069 -3.243 0.924 -71.712 0.043 -35.439
          0.925 -71.72 0.102 -29.996 0.049 -12.93
          0.042 -35.427 0.049 -12.915 0.723 162.935
2162.25 0.07 -3.41 0.924 -72.695 0.043 -36.444
          0.925 -72.705 0.103 -30.538 0.049 -13.934
          0.043 -36.435 0.049 -13.925 0.721 161.024
2192 0.07 -3.768 0.924 -73.687 0.043 -37.485
          0.925 -73.697 0.104 -31.158 0.05 -14.988
          0.043 -37.467 0.05 -14.969 0.72 159.117
2221.75 0.071 -4.395 0.924 -74.676 0.043 -38.584
          0.925 -74.686 0.105 -31.819 0.05 -16.035
          0.043 -38.561 0.05 -16.042 0.718 157.208
2251.5 0.072 -4.837 0.923 -75.666 0.044 -39.69
          0.924 -75.683 0.105 -32.312 0.051 -17.139
          0.044 -39.675 0.051 -17.117 0.716 155.309
2281.25 0.072 -5.324 0.924 -76.657 0.044 -40.813
          0.925 -76.677 0.106 -32.834 0.051 -18.232
          0.044 -40.827 0.051 -18.228 0.715 153.429
2311 0.072 -5.904 0.924 -77.647 0.044 -41.994
          0.925 -77.667 0.107 -33.513 0.052 -19.36
          0.044 -41.994 0.051 -19.348 0.714 151.568
2340.75 0.073 -6.583 0.924 -78.645 0.044 -43.245
          0.924 -78.662 0.108 -34.059 0.052 -20.52
          0.044 -43.252 0.052 -20.527 0.713 149.729
2370.5 0.073 -7.134 0.923 -79.635 0.045 -44.479
          0.924 -79.645 0.109 -34.817 0.052 -21.686
          0.045 -44.502 0.052 -21.68 0.712 147.908
2400.25 0.073 -7.522 0.924 -80.62 0.045 -45.761
          0.925 -80.637 0.109 -35.556 0.053 -22.854
          0.045 -45.754 0.053 -22.802 0.712 146.129
2430 0.074 -8.281 0.924 -81.617 0.045 -47.063
          0.925 -81.635 0.11 -36.165 0.053 -24.05
          0.045 -47.086 0.053 -24.021 0.711 144.325
2459.75 0.074 -8.972 0.923 -82.604 0.045 -48.404
          0.924 -82.62 0.111 -36.909 0.053 -25.249
          0.045 -48.429 0.053 -25.249 0.709 142.516
2489.5 0.075 -9.624 0.923 -83.594 0.045 -49.775
          0.924 -83.602 0.112 -37.689 0.054 -26.463
          0.045 -49.8 0.054 -26.441 0.709 140.736
2519.25 0.075 -10.058 0.923 -84.589 0.046 -51.223
          0.924 -84.592 0.112 -38.413 0.054 -27.703
          0.046 -51.197 0.054 -27.676 0.708 138.982
2549 0.075 -10.556 0.923 -85.579 0.046 -52.624
          0.923 -85.589 0.113 -39.163 0.054 -28.888
          0.046 -52.644 0.054 -28.876 0.707 137.258
2578.75 0.075 -11.375 0.922 -86.572 0.046 -54.107
          0.923 -86.594 0.113 -39.957 0.054 -30.114
          0.046 -54.087 0.054 -30.099 0.706 135.524
2608.5 0.075 -12.107 0.922 -87.562 0.046 -55.563
          0.923 -87.584 0.114 -40.929 0.054 -31.333
          0.046 -55.572 0.054 -31.311 0.705 133.809
2638.25 0.075 -12.717 0.922 -88.555 0.046 -57.071
          0.923 -88.57 0.114 -41.827 0.054 -32.529
          0.046 -57.023 0.054 -32.532 0.704 132.115
2668 0.076 -13.517 0.922 -89.537 0.046 -58.531
          0.922 -89.567 0.114 -42.607 0.055 -33.726
          0.046 -58.523 0.055 -33.706 0.704 130.427
2697.75 0.075 -14.067 0.922 -90.534 0.046 -59.985
          0.922 -90.554 0.114 -43.441 0.055 -34.906
          0.046 -59.998 0.055 -34.894 0.704 128.73
2727.5 0.075 -14.715 0.921 -91.533 0.046 -61.492
          0.922 -91.553 0.115 -44.242 0.055 -36.076
          0.046 -61.481 0.055 -36.057 0.703 127.073
2757.25 0.075 -15.559 0.921 -92.531 0.046 -62.955
          0.922 -92.543 0.115 -45.137 0.055 -37.23
          0.046 -62.943 0.055 -37.202 0.702 125.43
2787 0.075 -16.288 0.921 -93.521 0.046 -64.439
          0.922 -93.534 0.115 -46.019 0.055 -38.377
          0.046 -64.44 0.055 -38.35 0.702 123.791
2816.75 0.074 -17.061 0.922 -94.516 0.045 -65.926
          0.922 -94.526 0.115 -46.932 0.055 -39.507
          0.045 -65.92 0.055 -39.477 0.702 122.148
2846.5 0.075 -17.997 0.922 -95.507 0.045 -67.433
          0.923 -95.524 0.116 -47.884 0.055 -40.619
          0.045 -67.422 0.055 -40.589 0.702 120.533
2876.25 0.074 -18.723 0.922 -96.492 0.045 -68.882
          0.923 -96.512 0.116 -48.905 0.054 -41.68
          0.045 -68.837 0.054 -41.66 0.702 118.941
2906 0.073 -19.095 0.922 -97.491 0.045 -70.298
          0.922 -97.511 0.116 -49.846 0.054 -42.725
          0.045 -70.278 0.054 -42.691 0.702 117.359
2935.75 0.073 -19.64 0.921 -98.489 0.045 -71.768
          0.922 -98.509 0.116 -50.859 0.054 -43.749
          0.045 -71.732 0.054 -43.723 0.701 115.798
2965.5 0.072 -20.656 0.921 -99.487 0.044 -73.173
          0.922 -99.507 0.116 -51.895 0.054 -44.748
          0.044 -73.169 0.054 -44.731 0.701 114.22
2995.25 0.072 -21.817 0.921 -100.473 0.044 -74.584
          0.922 -100.503 0.116 -52.885 0.054 -45.727
          0.044 -74.602 0.054 -45.719 0.701 112.649
3025 0.071 -22.582 0.921 -101.464 0.044 -75.967
          0.922 -101.494 0.116 -53.895 0.054 -46.662
          0.044 -75.969 0.054 -46.662 0.701 111.108
3054.75 0.071 -22.879 0.921 -102.472 0.043 -77.315
          0.921 -102.484 0.115 -54.876 0.054 -47.587
          0.043 -77.32 0.054 -47.585 0.701 109.569
3084.5 0.07 -23.581 0.92 -103.477 0.043 -78.643
          0.921 -103.491 0.115 -55.924 0.053 -48.495
          0.043 -78.639 0.053 -48.478 0.701 108.071
3114.25 0.069 -24.673 0.92 -104.48 0.042 -79.974
          0.921 -104.49 0.115 -57.056 0.053 -49.379
          0.042 -79.973 0.053 -49.373 0.701 106.576
3144 0.068 -25.383 0.92 -105.472 0.042 -81.298
          0.921 -105.482 0.115 -58.152 0.053 -50.227
          0.042 -81.268 0.053 -50.184 0.7 105.063
3173.75 0.067 -26.336 0.92 -106.47 0.042 -82.543
          0.921 -106.487 0.115 -59.157 0.053 -51.047
          0.042 -82.571 0.053 -51.009 0.7 103.57
3203.5 0.066 -27.497 0.92 -107.471 0.041 -83.809
          0.92 -107.477 0.114 -60.176 0.053 -51.829
          0.041 -83.796 0.053 -51.813 0.7 102.088
3233.25 0.065 -28.292 0.92 -108.477 0.041 -85.086
          0.92 -108.487 0.113 -61.292 0.052 -52.597
          0.041 -85.056 0.052 -52.572 0.701 100.615
3263 0.064 -29.092 0.92 -109.477 0.04 -86.28
          0.921 -109.493 0.112 -62.426 0.052 -53.304
          0.04 -86.249 0.052 -53.291 0.702 99.185
3292.75 0.062 -30.033 0.92 -110.476 0.04 -87.425
          0.921 -110.496 0.111 -63.609 0.052 -53.975
          0.04 -87.398 0.052 -53.955 0.702 97.78
3322.5 0.061 -31.009 0.92 -111.482 0.039 -88.55
          0.92 -111.496 0.111 -64.729 0.052 -54.658
          0.039 -88.526 0.052 -54.631 0.702 96.353
3352.25 0.061 -31.796 0.92 -112.475 0.039 -89.658
          0.92 -112.505 0.11 -65.763 0.052 -55.322
          0.039 -89.639 0.052 -55.304 0.702 94.879
3382 0.059 -33.269 0.92 -113.497 0.038 -90.729
          0.92 -113.507 0.109 -66.947 0.052 -55.975
          0.038 -90.712 0.052 -55.958 0.702 93.434
3411.75 0.058 -33.982 0.92 -114.493 0.038 -91.74
          0.921 -114.513 0.108 -68.148 0.051 -56.556
          0.038 -91.739 0.051 -56.545 0.702 92.017
3441.5 0.056 -34.553 0.92 -115.492 0.037 -92.702
          0.921 -115.512 0.107 -69.299 0.051 -57.119
          0.037 -92.694 0.051 -57.096 0.703 90.648
3471.25 0.055 -35.838 0.92 -116.503 0.037 -93.65
          0.921 -116.523 0.106 -70.54 0.051 -57.675
          0.037 -93.635 0.051 -57.653 0.703 89.282
3501 0.054 -36.666 0.92 -117.516 0.036 -94.534
          0.921 -117.53 0.106 -71.792 0.051 -58.235
          0.036 -94.531 0.051 -58.23 0.703 87.837
3530.75 0.052 -37.81 0.92 -118.519 0.035 -95.403
          0.92 -118.538 0.104 -73.177 0.051 -58.771
          0.035 -95.398 0.051 -58.766 0.703 86.453
3560.5 0.051 -38.61 0.919 -119.519 0.035 -96.202
          0.92 -119.536 0.103 -74.408 0.051 -59.291
          0.035 -96.181 0.051 -59.239 0.703 85.091
3590.25 0.049 -39.125 0.919 -120.519 0.034 -96.92
          0.92 -120.53 0.101 -75.618 0.051 -59.744
          0.034 -96.921 0.051 -59.722 0.704 83.727
3620 0.048 -40.4 0.919 -121.53 0.034 -97.609
          0.92 -121.538 0.1 -76.748 0.051 -60.266
          0.034 -97.61 0.051 -60.217 0.704 82.311
3649.75 0.046 -41.468 0.919 -122.538 0.033 -98.22
          0.92 -122.548 0.099 -78.092 0.051 -60.681
          0.033 -98.219 0.051 -60.674 0.704 80.957
3679.5 0.044 -41.855 0.919 -123.551 0.033 -98.769
          0.919 -123.561 0.097 -79.575 0.051 -61.137
          0.033 -98.75 0.051 -61.132 0.705 79.63
3709.25 0.043 -43.238 0.92 -124.554 0.032 -99.259
          0.92 -124.574 0.096 -80.919 0.051 -61.608
          0.032 -99.256 0.051 -61.6 0.706 78.26
3739 0.042 -45.458 0.919 -125.569 0.032 -99.725
          0.92 -125.589 0.095 -82.127 0.051 -62.04
          0.032 -99.7 0.051 -62.028 0.706 76.915
3768.75 0.041 -46.693 0.919 -126.582 0.031 -100.096
          0.92 -126.591 0.093 -83.289 0.051 -62.512
          0.031 -100.064 0.051 -62.458 0.708 75.598
3798.5 0.039 -47.482 0.919 -127.59 0.031 -100.378
          0.92 -127.596 0.091 -84.522 0.051 -62.919
          0.031 -100.355 0.051 -62.889 0.708 74.281
3828.25 0.037 -48.602 0.919 -128.609 0.03 -100.631
          0.919 -128.61 0.089 -85.903 0.051 -63.365
          0.03 -100.594 0.051 -63.308 0.708 72.959
3858 0.036 -50.547 0.919 -129.612 0.03 -100.778
          0.919 -129.628 0.088 -87.279 0.051 -63.768
