!Hittite Microwave Corporation								
!20 Alpha Road								
!Chelmsford, MA 01824								
!Tel: 978-250-3343								
!Fax: 978-250-3373								
!Device: HMC595, DC-3 GHz, GaAs T/R Switch in SOT26 SMT package  															
!Misc: Vctl = 5V, Port1 = RFC, Port2 = RF1, Port3 = RF2, RF2 ON, Room
!
# MHZ S MA R 50

50 0.012 -1.994 4.739e-3 78.544 0.979 -3.216
          4.745e-3 78.724 0.97 -16.999 4.783e-3 74.55
          0.977 -3.216 4.784e-3 74.411 6.403e-3 5.841
69.75 0.012 -5.905 5.613e-3 80.286 0.977 -4.497
          5.62e-3 80.306 0.967 -23.784 5.398e-3 72.106
          0.977 -4.457 5.436e-3 72.167 6.89e-3 -10.911
89.5 0.011 -3.008 9.047e-3 81.301 0.976 -5.678
          9.047e-3 81.251 0.964 -30.172 8.69e-3 74.821
          0.977 -5.638 8.69e-3 74.9 7.372e-3 -4.507
109.25 0.013 -8.392 9.72e-3 68.679 0.977 -6.889
          9.709e-3 68.769 0.965 -36.718 9.568e-3 62.848
          0.977 -6.859 9.568e-3 62.829 7.774e-3 -13.283
129 0.013 -10.033 0.011 69.63 0.976 -8.111
          0.011 69.7 0.96 -43.038 0.011 62.998
          0.976 -8.081 0.011 62.938 7.445e-3 -16.184
148.75 0.015 -9.164 0.014 61.638 0.977 -9.264
          0.014 61.688 0.958 -49.195 0.014 54.224
          0.977 -9.224 0.014 54.193 8.897e-3 -8.511
168.5 0.015 -17.954 0.014 63.232 0.976 -10.563
          0.014 63.313 0.954 -55.296 0.014 53.149
          0.976 -10.523 0.014 53.14 8.08e-3 -20.108
188.25 0.015 -18.595 0.016 60.079 0.975 -11.715
          0.016 60.088 0.95 -61.141 0.015 50.258
          0.975 -11.675 0.015 50.207 7.82e-3 -19.628
208 0.015 -23.245 0.017 57.401 0.975 -12.946
          0.017 57.481 0.947 -66.903 0.017 44.833
          0.975 -12.876 0.017 44.853 8.59e-3 -23.385
227.75 0.016 -25.362 0.019 53.747 0.975 -14.156
          0.019 53.766 0.944 -72.496 0.018 40.832
          0.975 -14.096 0.018 40.842 8.449e-3 -26.786
247.5 0.017 -28.675 0.02 51.24 0.974 -15.348
          0.02 51.269 0.938 -77.935 0.019 37.453
          0.974 -15.308 0.019 37.422 8.349e-3 -29.626
267.25 0.017 -31.718 0.021 49.607 0.973 -16.559
          0.021 49.698 0.935 -83.125 0.02 33.862
          0.974 -16.469 0.02 33.953 8.389e-3 -33.555
287 0.018 -35.627 0.022 47.014 0.973 -17.75
          0.022 47.075 0.93 -88.288 0.021 30.474
          0.973 -17.71 0.021 30.514 8.825e-3 -35.045
306.75 0.018 -39.074 0.023 44.708 0.973 -18.941
          0.023 44.748 0.926 -93.219 0.022 26.879
          0.973 -18.901 0.022 26.909 9.283e-3 -39.873
326.5 0.019 -42.562 0.024 42.695 0.972 -20.132
          0.024 42.736 0.923 -97.991 0.023 23.638
          0.973 -20.092 0.023 23.699 9.612e-3 -45.104
346.25 0.019 -45.828 0.025 40.66 0.972 -21.333
          0.025 40.72 0.919 -102.579 0.024 20.346
          0.972 -21.293 0.024 20.356 9.607e-3 -48.166
366 0.02 -48.85 0.025 38.31 0.972 -22.524
          0.025 38.339 0.916 -107.046 0.024 16.608
          0.972 -22.454 0.024 16.648 0.01 -52.508
385.75 0.02 -51.541 0.026 36.134 0.972 -23.695
          0.026 36.164 0.914 -111.356 0.025 12.809
          0.973 -23.665 0.025 12.859 0.01 -55.725
405.5 0.021 -54.208 0.027 33.961 0.972 -24.907
          0.027 33.991 0.911 -115.544 0.025 10.114
          0.972 -24.857 0.025 10.174 0.011 -58.93
425.25 0.022 -57.742 0.027 32.362 0.971 -26.088
          0.027 32.402 0.908 -119.613 0.026 7.191
          0.972 -26.038 0.026 7.252 0.011 -61.485
445 0.023 -61.167 0.028 30.646 0.971 -27.27
          0.028 30.678 0.905 -123.558 0.026 4.196
          0.972 -27.22 0.026 4.257 0.012 -63.358
464.75 0.023 -64.27 0.028 28.749 0.971 -28.471
          0.028 28.769 0.902 -127.403 0.027 1.175
          0.971 -28.441 0.027 1.236 0.012 -68.45
484.5 0.024 -67.511 0.029 27.084 0.971 -29.682
          0.029 27.123 0.899 -131.109 0.027 -1.76
          0.971 -29.642 0.027 -1.72 0.012 -71.553
504.25 0.025 -70.866 0.029 25.632 0.971 -30.874
          0.029 25.653 0.897 -134.709 0.027 -4.758
          0.972 -30.834 0.027 -4.708 0.013 -73.67
524 0.026 -74.105 0.029 24.179 0.971 -32.045
          0.029 24.219 0.894 -138.206 0.028 -7.492
          0.971 -32.005 0.028 -7.442 0.013 -76.631
543.75 0.027 -76.977 0.03 22.726 0.971 -33.237
          0.03 22.755 0.892 -141.575 0.028 -10.248
          0.971 -33.207 0.028 -10.198 0.014 -81.335
563.5 0.028 -80.036 0.03 21.372 0.971 -34.438
          0.03 21.401 0.891 -144.872 0.028 -12.963
          0.971 -34.408 0.028 -12.912 0.014 -85.866
583.25 0.029 -82.951 0.03 20.024 0.97 -35.621
          0.03 20.044 0.889 -148.08 0.028 -15.699
          0.971 -35.581 0.028 -15.649 0.014 -87.41
603 0.03 -85.315 0.03 18.66 0.97 -36.832
          0.03 18.7 0.886 -151.205 0.028 -18.342
          0.971 -36.792 0.028 -18.281 0.015 -90.221
622.75 0.031 -87.832 0.03 17.42 0.97 -38.035
          0.03 17.449 0.884 -154.25 0.028 -21.188
          0.97 -38.005 0.028 -21.138 0.016 -93.55
642.5 0.032 -90.301 0.031 16.293 0.97 -39.216
          0.031 16.323 0.882 -157.211 0.028 -23.65
          0.97 -39.176 0.028 -23.599 0.017 -95.964
662.25 0.033 -93.002 0.031 15.205 0.969 -40.419
          0.031 15.245 0.88 -160.132 0.029 -26.689
          0.97 -40.379 0.029 -26.638 0.017 -98.089
682 0.034 -95.141 0.031 13.972 0.969 -41.621
          0.031 14.002 0.879 -163 0.028 -29.297
          0.969 -41.581 0.028 -29.247 0.018 -100.684
701.75 0.036 -98.186 0.031 13.092 0.969 -42.814
          0.031 13.131 0.877 -165.796 0.028 -31.689
          0.969 -42.774 0.028 -31.639 0.018 -103.45
721.5 0.037 -101.182 0.031 12.171 0.968 -44.007
          0.031 12.221 0.876 -168.498 0.028 -34.209
          0.969 -43.967 0.028 -34.158 0.019 -105.931
741.25 0.038 -104.033 0.031 11.219 0.969 -45.199
          0.031 11.259 0.877 -171.158 0.028 -36.827
          0.969 -45.149 0.028 -36.757 0.019 -108.082
761 0.039 -106.683 0.031 10.1 0.969 -46.392
          0.031 10.149 0.875 -173.767 0.028 -39.345
          0.969 -46.352 0.028 -39.264 0.02 -110.212
780.75 0.041 -109.191 0.031 9.399 0.969 -47.585
          0.031 9.438 0.874 -176.32 0.028 -41.882
          0.969 -47.545 0.028 -41.832 0.021 -112.601
800.5 0.042 -111.763 0.031 8.637 0.968 -48.778
          0.031 8.667 0.873 -178.813 0.028 -44.37
          0.969 -48.748 0.028 -44.319 0.022 -115.565
820.25 0.044 -114.276 0.031 7.847 0.968 -49.981
          0.031 7.876 0.872 178.729 0.028 -46.884
          0.968 -49.951 0.028 -46.824 0.023 -117.946
840 0.045 -116.853 0.031 7.177 0.968 -51.184
          0.031 7.206 0.87 176.304 0.027 -49.408
          0.968 -51.154 0.028 -49.348 0.023 -119.312
859.75 0.047 -119.485 0.031 6.606 0.967 -52.378
          0.031 6.596 0.869 173.929 0.027 -51.903
          0.968 -52.348 0.027 -51.863 0.024 -121.143
879.5 0.048 -122.074 0.031 6.026 0.967 -53.571
          0.031 6.065 0.869 171.59 0.027 -54.386
          0.967 -53.531 0.027 -54.325 0.025 -123.941
899.25 0.05 -124.803 0.031 5.426 0.967 -54.745
          0.031 5.456 0.869 169.282 0.027 -56.928
          0.967 -54.705 0.027 -56.888 0.025 -125.98
919 0.051 -127.269 0.031 4.908 0.967 -55.928
          0.031 4.947 0.868 166.988 0.027 -59.479
          0.967 -55.928 0.027 -59.428 0.026 -127.633
938.75 0.053 -129.957 0.031 4.529 0.966 -57.162
          0.031 4.559 0.867 164.758 0.027 -62.088
          0.967 -57.112 0.027 -62.028 0.027 -128.588
958.5 0.054 -132.607 0.031 4.082 0.967 -58.346
          0.031 4.142 0.866 162.559 0.026 -64.658
          0.967 -58.286 0.026 -64.587 0.027 -130.052
978.25 0.056 -135.087 0.031 3.726 0.967 -59.53
          0.031 3.756 0.865 160.374 0.026 -67.195
          0.967 -59.49 0.026 -67.144 0.029 -132.135
998 0.058 -137.811 0.031 3.423 0.967 -60.723
          0.031 3.463 0.864 158.232 0.026 -69.761
          0.967 -60.673 0.026 -69.701 0.029 -135.632
1017.75 0.06 -140.526 0.031 3.179 0.966 -61.868
          0.031 3.189 0.863 156.132 0.026 -72.379
          0.967 -61.828 0.026 -72.329 0.03 -135.126
1037.5 0.061 -143.191 0.031 2.869 0.966 -63.111
          0.031 2.938 0.863 154.066 0.025 -75.034
          0.967 -63.051 0.025 -74.912 0.032 -136.636
1057.25 0.063 -145.714 0.031 2.549 0.966 -64.337
          0.031 2.638 0.862 152 0.025 -77.759
          0.966 -64.277 0.025 -77.698 0.033 -138.794
1077 0.064 -148.341 0.031 2.372 0.966 -65.52
          0.031 2.432 0.861 149.949 0.025 -80.482
          0.966 -65.48 0.025 -80.432 0.034 -140.554
1096.75 0.066 -150.884 0.031 2.307 0.966 -66.704
          0.031 2.346 0.86 147.911 0.024 -83.206
          0.966 -66.684 0.024 -83.165 0.035 -141.964
1116.5 0.067 -153.438 0.031 2.344 0.964 -67.938
          0.031 2.393 0.861 145.905 0.024 -86.029
          0.966 -67.888 0.024 -85.969 0.035 -143.605
1136.25 0.069 -156.1 0.031 2.242 0.965 -69.143
          0.031 2.292 0.862 143.929 0.024 -88.792
          0.965 -69.093 0.024 -88.752 0.037 -145.664
1156 0.07 -158.707 0.031 2.154 0.965 -70.347
          0.031 2.204 0.861 141.958 0.024 -91.612
          0.965 -70.287 0.024 -91.562 0.038 -147.488
1175.75 0.072 -161.337 0.031 2.12 0.965 -71.531
          0.031 2.159 0.861 140.029 0.024 -94.704
          0.965 -71.491 0.024 -94.613 0.039 -149.326
1195.5 0.073 -163.901 0.031 2.217 0.965 -72.706
          0.031 2.286 0.86 138.11 0.023 -97.737
          0.965 -72.686 0.023 -97.676 0.04 -150.537
1215.25 0.074 -166.602 0.031 2.289 0.964 -73.919
          0.031 2.349 0.859 136.205 0.023 -100.726
          0.964 -73.879 0.023 -100.665 0.041 -151.966
1235 0.076 -169.286 0.031 2.433 0.964 -75.152
          0.031 2.483 0.859 134.322 0.023 -103.876
          0.964 -75.082 0.023 -103.775 0.042 -153.963
1254.75 0.077 -171.856 0.032 2.51 0.964 -76.327
          0.032 2.57 0.858 132.449 0.022 -106.925
          0.964 -76.277 0.022 -106.845 0.043 -155.754
1274.5 0.078 -174.427 0.032 2.582 0.963 -77.51
          0.032 2.631 0.858 130.6 0.022 -110.043
          0.964 -77.48 0.022 -109.993 0.044 -157.314
1294.25 0.08 -176.947 0.032 2.665 0.963 -78.714
          0.032 2.705 0.857 128.762 0.022 -113.371
          0.963 -78.674 0.022 -113.261 0.045 -158.441
1314 0.081 -179.523 0.032 2.772 0.963 -79.906
          0.032 2.822 0.857 126.916 0.021 -116.719
          0.963 -79.866 0.021 -116.629 0.046 -159.714
1333.75 0.082 177.831 0.033 2.87 0.963 -81.141
          0.033 2.9 0.856 125.069 0.021 -120.057
          0.963 -81.081 0.021 -119.987 0.048 -160.905
1353.5 0.083 175.177 0.033 2.953 0.963 -82.323
          0.033 3.023 0.856 123.266 0.021 -123.535
          0.963 -82.273 0.021 -123.454 0.049 -162.452
1373.25 0.083 172.477 0.033 3.008 0.962 -83.516
          0.033 3.058 0.855 121.454 0.021 -126.849
          0.963 -83.486 0.021 -126.779 0.05 -163.848
1393 0.084 169.795 0.034 3.104 0.962 -84.708
          0.034 3.185 0.855 119.673 0.021 -130.296
          0.962 -84.688 0.021 -130.225 0.051 -165.191
1412.75 0.084 167.143 0.034 3.123 0.962 -85.94
          0.034 3.163 0.854 117.862 0.02 -134.001
          0.962 -85.89 0.02 -133.911 0.051 -166.758
1432.5 0.085 164.48 0.034 3.093 0.961 -87.143
          0.034 3.193 0.854 116.081 0.02 -137.719
          0.962 -87.093 0.02 -137.668 0.053 -168.263
1452.25 0.085 161.883 0.035 3.155 0.961 -88.334
          0.035 3.215 0.854 114.323 0.02 -141.485
          0.961 -88.294 0.02 -141.404 0.054 -169.386
1472 0.086 159.3 0.035 3.167 0.96 -89.516
          0.035 3.207 0.854 112.565 0.02 -145.24
          0.96 -89.496 0.02 -145.179 0.055 -170.514
1491.75 0.086 156.778 0.036 3.141 0.961 -90.717
          0.036 3.151 0.853 110.837 0.02 -149.235
          0.961 -90.667 0.02 -149.135 0.056 -171.752
1511.5 0.086 154.142 0.036 3.155 0.961 -91.908
          0.036 3.135 0.852 109.1 0.02 -153.16
          0.961 -91.878 0.02 -153.14 0.057 -173.295
1531.25 0.086 151.539 0.037 3.11 0.96 -93.118
          0.037 3.151 0.852 107.343 0.02 -157.104
          0.96 -93.078 0.02 -157.024 0.058 -174.83
1551 0.086 148.918 0.037 2.985 0.96 -94.349
          0.037 3.025 0.851 105.584 0.02 -161.24
          0.96 -94.289 0.02 -161.22 0.058 -176.236
1570.75 0.085 146.387 0.038 2.789 0.96 -95.54
          0.038 2.819 0.851 103.838 0.02 -165.131
          0.96 -95.5 0.02 -165.101 0.059 -177.205
1590.5 0.084 143.753 0.038 2.574 0.96 -96.73
          0.038 2.664 0.85 102.111 0.02 -169.142
          0.96 -96.7 0.02 -169.071 0.061 -178.617
1610.25 0.084 141.099 0.039 2.398 0.961 -97.959
          0.039 2.448 0.851 100.394 0.02 -173.243
          0.961 -97.919 0.02 -173.213 0.062 179.689
1630 0.083 138.45 0.04 2.18 0.96 -99.15
          0.04 2.22 0.85 98.686 0.02 -177.232
          0.96 -99.12 0.02 -177.172 0.063 178.504
1649.75 0.082 135.824 0.04 1.883 0.96 -100.359
          0.04 1.953 0.85 96.998 0.02 178.759
          0.96 -100.339 0.02 178.83 0.064 177.374
1669.5 0.081 133.32 0.041 1.664 0.96 -101.578
          0.041 1.674 0.85 95.29 0.021 174.722
          0.96 -101.538 0.021 174.752 0.065 176.171
1689.25 0.079 130.77 0.041 1.323 0.96 -102.778
          0.041 1.423 0.849 93.6 0.021 170.593
          0.96 -102.728 0.021 170.674 0.066 174.946
1709 0.078 128.295 0.042 1.082 0.959 -103.987
          0.042 1.112 0.849 91.9 0.021 166.547
          0.96 -103.937 0.021 166.617 0.067 173.653
1728.75 0.076 125.778 0.042 0.788 0.959 -105.207
          0.042 0.829 0.848 90.207 0.022 162.499
          0.959 -105.167 0.022 162.569 0.068 172.625
1748.5 0.075 123.279 0.043 0.554 0.959 -106.405
          0.043 0.564 0.847 88.525 0.022 158.523
          0.959 -106.365 0.022 158.573 0.068 171.23
1768.25 0.073 120.806 0.044 0.317 0.959 -107.605
          0.044 0.347 0.847 86.832 0.022 154.618
          0.959 -107.565 0.022 154.688 0.069 169.721
1788 0.07 118.342 0.044 -1.356e-3 0.958 -108.823
          0.044 0.059 0.847 85.147 0.023 150.774
          0.958 -108.773 0.023 150.814 0.07 168.466
1807.75 0.068 115.914 0.045 -0.272 0.958 -110.022
          0.045 -0.242 0.846 83.462 0.024 146.939
          0.958 -109.992 0.024 147.01 0.071 167.188
1827.5 0.065 113.512 0.046 -0.644 0.958 -111.251
          0.046 -0.594 0.846 81.784 0.024 143.156
          0.958 -111.211 0.024 143.237 0.072 165.932
1847.25 0.062 111.155 0.046 -0.999 0.958 -112.461
          0.046 -0.949 0.846 80.115 0.025 139.453
          0.958 -112.431 0.025 139.503 0.073 164.715
1867 0.059 108.969 0.047 -1.416 0.956 -113.67
          0.047 -1.376 0.845 78.435 0.025 135.82
          0.958 -113.64 0.025 135.871 0.074 163.505
1886.75 0.057 106.957 0.048 -1.815 0.956 -114.869
          0.048 -1.775 0.845 76.762 0.026 132.287
          0.956 -114.839 0.026 132.338 0.075 162.369
1906.5 0.054 105.04 0.048 -2.186 0.956 -116.088
          0.048 -2.136 0.844 75.088 0.027 128.784
          0.956 -116.048 0.027 128.874 0.075 161.106
1926.25 0.05 103.226 0.049 -2.551 0.956 -117.298
          0.049 -2.491 0.844 73.432 0.028 125.35
          0.956 -117.258 0.028 125.41 0.076 159.744
1946 0.047 101.714 0.05 -2.897 0.955 -118.517
          0.05 -2.887 0.844 71.754 0.029 121.966
          0.955 -118.477 0.029 122.026 0.076 158.503
1965.75 0.044 100.447 0.051 -3.265 0.955 -119.737
          0.051 -3.245 0.842 70.074 0.029 118.661
          0.955 -119.707 0.029 118.721 0.077 157.481
1985.5 0.04 99.638 0.051 -3.594 0.955 -120.955
          0.051 -3.584 0.842 68.414 0.03 115.448
          0.955 -120.915 0.03 115.508 0.078 156.322
2005.25 0.036 99.293 0.052 -3.966 0.954 -122.175
          0.052 -3.906 0.842 66.739 0.031 112.262
          0.955 -122.135 0.031 112.333 0.079 154.98
2025 0.032 99.659 0.053 -4.351 0.954 -123.405
          0.053 -4.321 0.841 65.063 0.032 109.146
          0.954 -123.365 0.032 109.206 0.08 153.492
2044.75 0.028 101.089 0.054 -4.747 0.954 -124.625
          0.054 -4.717 0.841 63.384 0.033 106.058
          0.954 -124.595 0.033 106.129 0.08 152.229
2064.5 0.025 103.721 0.054 -5.116 0.954 -125.856
          0.054 -5.106 0.84 61.713 0.034 103.04
          0.954 -125.816 0.034 103.11 0.081 151.17
2084.25 0.021 108.335 0.055 -5.455 0.953 -127.066
          0.055 -5.405 0.84 60.049 0.035 100.091
          0.954 -127.036 0.035 100.161 0.082 150.087
2104 0.018 115.836 0.056 -5.816 0.953 -128.286
          0.056 -5.776 0.84 58.383 0.036 97.151
          0.953 -128.246 0.036 97.231 0.082 148.799
2123.75 0.016 127.086 0.057 -6.188 0.954 -129.516
          0.057 -6.148 0.84 56.725 0.038 94.29
          0.954 -129.466 0.038 94.351 0.083 147.507
2143.5 0.016 141.243 0.058 -6.551 0.955 -130.747
          0.058 -6.511 0.84 55.074 0.039 91.489
          0.955 -130.697 0.039 91.519 0.083 146.187
2163.25 0.017 156.081 0.059 -6.924 0.954 -131.966
          0.059 -6.874 0.84 53.423 0.04 88.648
          0.954 -131.926 0.04 88.719 0.084 145.034
2183 0.019 168.382 0.06 -7.308 0.954 -133.186
          0.06 -7.258 0.839 51.777 0.041 85.885
          0.954 -133.156 0.041 85.936 0.085 143.976
2202.75 0.022 176.889 0.061 -7.703 0.954 -134.426
          0.061 -7.653 0.839 50.119 0.042 83.171
          0.954 -134.386 0.042 83.222 0.086 142.842
2222.5 0.026 -177.864 0.062 -8.087 0.953 -135.646
          0.062 -8.047 0.839 48.489 0.044 80.537
          0.954 -135.616 0.044 80.557 0.086 141.507
2242.25 0.031 -174.729 0.064 -8.522 0.953 -136.876
          0.064 -8.482 0.838 46.836 0.045 77.861
          0.953 -136.856 0.045 77.881 0.086 140.077
2262 0.035 -173.052 0.065 -8.966 0.953 -138.116
          0.065 -8.936 0.838 45.17 0.046 75.255
          0.953 -138.086 0.046 75.265 0.087 138.755
2281.75 0.04 -172.37 0.066 -9.448 0.952 -139.354
          0.066 -9.408 0.837 43.484 0.047 72.67
          0.953 -139.324 0.047 72.7 0.087 137.652
2301.5 0.045 -172.541 0.067 -9.941 0.952 -140.584
          0.067 -9.91 0.836 41.794 0.049 70.133
          0.952 -140.564 0.049 70.163 0.088 136.481
2321.25 0.05 -173.51 0.069 -10.472 0.952 -141.823
          0.069 -10.432 0.836 40.141 0.05 67.615
          0.952 -141.793 0.05 67.665 0.088 135.218
2341 0.055 -175.042 0.07 -11.013 0.951 -143.051
          0.07 -10.963 0.835 38.486 0.051 65.106
          0.952 -143.021 0.051 65.127 0.089 133.799
2360.75 0.06 -176.816 0.072 -11.581 0.951 -144.288
          0.072 -11.541 0.835 36.841 0.052 62.629
          0.951 -144.268 0.052 62.67 0.089 132.622
2380.5 0.065 -178.791 0.073 -12.179 0.951 -145.536
          0.073 -12.129 0.835 35.192 0.054 60.15
          0.951 -145.506 0.054 60.211 0.09 131.527
2400.25 0.071 179.122 0.075 -12.785 0.949 -146.774
          0.075 -12.755 0.834 33.541 0.055 57.71
          0.951 -146.744 0.055 57.761 0.09 130.235
2420 0.076 176.982 0.076 -13.449 0.949 -148.02
          0.076 -13.389 0.834 31.9 0.056 55.303
          0.949 -147.99 0.056 55.363 0.091 128.944
2439.75 0.081 174.748 0.078 -14.113 0.949 -149.257
          0.078 -14.083 0.833 30.245 0.058 52.943
          0.949 -149.227 0.058 53.003 0.091 127.636
2459.5 0.086 172.465 0.079 -14.855 0.948 -150.514
          0.079 -14.825 0.833 28.588 0.059 50.593
          0.949 -150.474 0.059 50.623 0.092 126.47
2479.25 0.091 170.082 0.081 -15.615 0.948 -151.749
          0.081 -15.575 0.832 26.931 0.06 48.325
          0.948 -151.719 0.06 48.375 0.092 125.207
2499 0.096 167.611 0.083 -16.414 0.947 -153.005
          0.083 -16.374 0.832 25.281 0.062 46.085
          0.948 -152.975 0.062 46.136 0.093 123.954
2518.75 0.101 165.028 0.085 -17.233 0.947 -154.24
          0.085 -17.202 0.832 23.659 0.063 43.835
          0.947 -154.21 0.063 43.895 0.093 122.704
2538.5 0.106 162.351 0.086 -18.068 0.947 -155.494
          0.086 -18.037 0.832 22.038 0.064 41.626
          0.947 -155.454 0.064 41.687 0.093 121.177
2558.25 0.11 159.611 0.088 -18.933 0.946 -156.729
          0.088 -18.903 0.832 20.435 0.066 39.456
          0.946 -156.699 0.066 39.506 0.094 119.805
2578 0.115 156.875 0.09 -19.858 0.946 -157.973
          0.09 -19.827 0.831 18.829 0.067 37.266
          0.946 -157.953 0.067 37.316 0.094 118.522
