!Hittite Microwave Corporation								
!20 Alpha Road								
!Chelmsford, MA 01824								
!Tel: 978-250-3343								
!Fax: 978-250-3373								
!Device: HMC516, 7-17 GHz, GaAs PHEMT MMIC Low Noise Amplifier Die																
!Misc: Vdd1 = Vdd2 = Vdd3 = +3.5V, data includes two K connectors, Room							
!
# MHZ S MA R 50

3000 0.975 -141.508 0.045 61.724 197.6e-6 126.811 0.337 134.984
3300 0.975 -156.937 0.065 78.597 263e-6 131.684 0.312 115.513
3600 0.964 -173.267 0.125 76.336 219.2e-6 132.816 0.296 97.145
3900 0.951 169.657 0.258 66.366 314.4e-6 93.187 0.281 78.602
4200 0.934 151.582 0.542 50.165 370.9e-6 106.504 0.268 61.594
4500 0.911 131.742 1.14 26.555 387.4e-6 91.867 0.264 45.048
4800 0.869 109.034 2.071 0.909 471.2e-6 56.89 0.26 28.256
5100 0.791 81.934 3.238 -26.521 668.4e-6 64.532 0.255 11.67
5400 0.634 47.266 4.951 -59.236 600.8e-6 20.718 0.252 -4.937
5700 0.375 -0.796 6.621 -98.437 638e-6 13.242 0.248 -21.331
6000 0.141 -112.582 8.338 -142.725 395.6e-6 10.887 0.245 -38.31
6300 0.256 145.295 9.537 174.363 343.6e-6 -12.365 0.244 -55.474
6600 0.368 107.043 10.216 139.664 358.4e-6 -15.033 0.238 -72.695
6900 0.412 81.462 10.695 109.845 319.6e-6 -4.535 0.231 -90.259
7200 0.431 60.42 10.647 83.545 225.7e-6 -12.879 0.223 -107.517
7500 0.426 43.304 10.55 59.609 210.2e-6 -36.047 0.214 -124.992
7800 0.412 25.177 10.438 36.823 169.7e-6 -15.326 0.205 -141.787
8100 0.392 8.257 10.48 15.078 42.31e-6 -33.775 0.197 -158.68
8400 0.363 -7.983 10.667 -6.077 123.2e-6 -17.02 0.189 -174.981
8700 0.329 -26.177 10.859 -26.907 236.6e-6 66.908 0.182 168.866
9000 0.294 -41.837 11.023 -47.696 250.5e-6 89.943 0.175 152.792
9300 0.244 -58.478 11.143 -67.974 366.1e-6 71.474 0.17 137.206
9600 0.204 -73.858 11.233 -87.865 552e-6 65.957 0.166 120.836
9900 0.158 -84.905 11.378 -107.451 729.4e-6 55.807 0.165 106.165
10200 0.114 -94.74 11.464 -127.112 833e-6 48.387 0.163 90.97
10500 0.087 -95.21 11.469 -146.044 1.012e-3 31.26 0.162 75.359
10800 0.068 -81.393 11.494 -164.789 1.114e-3 28.747 0.16 59.478
11100 0.074 -70.36 11.58 177.169 1.209e-3 23.296 0.16 42.037
11400 0.104 -70.507 11.815 158.801 1.765e-3 12.935 0.155 25.005
11700 0.121 -79.606 11.805 140.288 2.11e-3 -5.392 0.151 9.597
12000 0.146 -91.042 11.826 122.155 2.19e-3 -19.773 0.151 -6.465
12300 0.168 -103.753 11.856 104.382 2.219e-3 -33.679 0.151 -22.788
12600 0.185 -120.545 11.736 86.896 2.327e-3 -42.898 0.149 -39.319
12900 0.211 -134.518 11.777 69.763 2.539e-3 -55.725 0.145 -55.962
13200 0.222 -151.603 11.848 52.375 2.643e-3 -63.476 0.143 -73.489
13500 0.244 -166.292 11.807 35.016 2.825e-3 -76.982 0.14 -90.741
13800 0.253 178.912 11.623 18.081 2.976e-3 -89.623 0.137 -108.116
14100 0.266 162.722 11.634 1.496 3.047e-3 -104.343 0.137 -125.265
14400 0.278 149.773 11.677 -14.611 3.352e-3 -113.854 0.136 -141.808
14700 0.283 134.535 11.784 -31.717 3.469e-3 -126.19 0.133 -157.693
15000 0.299 122.15 11.751 -49.697 3.793e-3 -141.516 0.13 -171.987
15300 0.307 108.932 11.735 -67.153 3.951e-3 -155.064 0.128 174.245
15600 0.323 96.784 11.535 -84.451 3.815e-3 -173.511 0.126 161.621
15900 0.335 84.875 11.486 -100.926 4.068e-3 175.988 0.124 150.502
16200 0.364 70.92 11.595 -118.904 4.701e-3 161.117 0.128 142.124
16500 0.39 59.382 11.513 -136.808 4.739e-3 144.055 0.131 135.535
16800 0.419 43.95 11.443 -154.715 5.295e-3 129.456 0.141 128.352
17100 0.465 29.159 11.345 -173.581 5.38e-3 110.794 0.162 121.059
17400 0.498 13.174 11.201 167.62 5.587e-3 92.778 0.185 110.724
17700 0.552 -5.121 11.06 148.158 6.263e-3 76.272 0.218 96.984
18000 0.588 -23.195 10.734 127.751 6.662e-3 57.223 0.254 81.689
18300 0.63 -42.86 10.228 106.92 6.573e-3 36.581 0.293 63.912
18600 0.666 -61.932 9.49 86.581 6.495e-3 19.362 0.333 45.549
18900 0.684 -81.72 8.698 66.941 6.512e-3 1.976 0.364 26.639
19200 0.704 -100.185 7.91 47.597 6.512e-3 -14.057 0.392 6.517
19500 0.701 -119.561 7.062 28.567 6.332e-3 -28.208 0.418 -14
19800 0.715 -137.856 6.198 11.232 6.423e-3 -42.193 0.443 -35.2
20100 0.711 -154.942 5.494 -5.367 6.336e-3 -60.065 0.469 -55.177
20400 0.718 -171.478 4.88 -21.651 5.907e-3 -74.612 0.489 -74.667
20700 0.719 172.808 4.285 -36.421 5.612e-3 -86.906 0.507 -93.387
21000 0.715 158.085 3.756 -49.386 5.833e-3 -99.6 0.524 -111.557
21300 0.717 143.537 3.5 -62.961 5.452e-3 -113.538 0.544 -128.849
21600 0.725 129.201 3.256 -80.828 4.956e-3 -121.749 0.564 -145.156
21900 0.716 117.073 2.831 -93.961 4.785e-3 -133.699 0.586 -161.042
22200 0.725 104.024 2.633 -106.291 4.985e-3 -141.757 0.613 -175.793
22500 0.719 92.88 2.294 -120.224 4.506e-3 -160.421 0.632 170.566
22800 0.694 80.713 2.076 -131.852 4.164e-3 -165.618 0.652 157.331
23100 0.734 69.443 1.961 -144.217 4.114e-3 -174.15 0.67 144.629
23400 0.715 59.278 1.821 -153.606 3.998e-3 176.552 0.688 131.977
23700 0.714 47.431 1.731 -168.742 4.102e-3 168.818 0.708 120.313
24000 0.744 38.273 1.622 176.594 3.67e-3 163.726 0.727 109.106
24300 0.689 27.222 1.531 164.081 4.293e-3 148.54 0.745 98.14
24600 0.694 17.808 1.44 150.696 3.737e-3 137.024 0.755 87.656
24900 0.668 8.179 1.346 136.197 4.066e-3 133.516 0.762 77.162
25200 0.623 -4.61 1.189 122.988 3.947e-3 126.573 0.768 66.912
25500 0.625 -10.547 1.081 112.036 4.288e-3 118.552 0.768 56.784
25800 0.607 -24.647 1.047 102.99 5.428e-3 103.672 0.781 46.974
26100 0.606 -33.332 1.123 91.627 5.497e-3 84.091 0.786 37.947
26400 0.601 -38.981 1.147 74.39 5.575e-3 68.33 0.796 28.934
26700 0.554 -55.482 1.164 55.322 5.309e-3 51.713 0.815 20.039
27000 0.508 -60.913 1.162 33.318 5.175e-3 34.002 0.828 10.221
27300 0.506 -76.57 0.976 11.911 4.827e-3 15.215 0.852 0.193
27600 0.457 -91.526 0.847 -5.26 4.631e-3 0.775 0.858 -10.294
27900 0.406 -94.19 0.725 -21.464 4.475e-3 -9.714 0.881 -21.388
28200 0.405 -111.489 0.614 -38.439 3.877e-3 -20.81 0.895 -32.004
28500 0.293 -115.666 0.52 -53.959 3.489e-3 -35.338 0.893 -43.113
28800 0.275 -119.587 0.436 -67.855 3.036e-3 -53.368 0.902 -53.464
29100 0.213 -132.707 0.361 -79.929 2.978e-3 -59.837 0.902 -64.618
29400 0.117 -119.78 0.322 -89.954 2.873e-3 -70.348 0.91 -75.66
29700 0.164 -126.075 0.285 -107.169 2.647e-3 -74.421 0.908 -86.362
30000 0.11 -117.455 0.23 -120.575 2.58e-3 -77.247 0.913 -97.772
30300 0.167 -102.245 0.194 -132.524 2.223e-3 -96.371 0.916 -108.936
30600 0.226 -112.953 0.163 -140.305 2.251e-3 -111.388 0.918 -120.483
30900 0.228 -108.47 0.145 -155.18 2.381e-3 -106.87 0.923 -131.764
31200 0.32 -120.544 0.107 -169.03 1.986e-3 -124.101 0.909 -143.265
31500 0.342 -133.741 0.092 -178.175 1.789e-3 -124.184 0.912 -155.833
31800 0.375 -146.664 0.064 166.544 1.358e-3 -139.354 0.904 -167.429
32100 0.468 -159.702 0.043 175.282 1.369e-3 -126.4 0.893 -179.829
32400 0.488 178.635 0.039 178.449 2.211e-3 -132.854 0.899 168.291
32700 0.572 166.416 0.034 -173.306 1.465e-3 -119.825 0.893 156.546
33000 0.622 150.993 0.037 -166.136 1.084e-3 -115.33 0.888 145.049
